! TOUCHSTONE file generated by CST MICROWAVE STUDIO
! Date and time: Wed Oct  8 07:06:33 2025
! Project name: Teste_Macro_Metasurface_Nanopilar.cst
! Parameters = {H=600; L_x=200; L_y=175; Lambda=1064; Max_L=200; Min_L=70; PathPara=1; Phi=0; Step_L=10; Theta=0; p=520; phaseX=180; phaseY=0}
! Header version: 2018
! Port assignment regex: !\s*Touchstone port\s*([0-9]+)\s*=\s*(CST MWS port|CST DS port)\s*([0-9]+|Zmin|Zmax)\s*\(\"(.*)\"\)(\s*mode\s*([0-9]+))?.*
! Touchstone port assignment:
! Touchstone port 1 = CST MWS port Zmax ("") mode 1
! Touchstone port 2 = CST MWS port Zmax ("") mode 2
! Touchstone port 3 = CST MWS port Zmin ("") mode 1
! Touchstone port 4 = CST MWS port Zmin ("") mode 2
! S-Parameters are not renormalized. Each port impedance will be approximated by the real part at minimum frequency. The values are described via the [Reference] keyword.
! Default impedance is overridden by [Reference]
[Version] 2.0
# GHz S RI R 376.73
[Number of Ports] 4
[Reference]
376.73 376.73 376.73 376.73 
[Number of Frequencies] 1001
[Network Data]
281700                 -0.115729       -0.173852      0.000429142    -0.000503603        -0.968361         0.11035      0.000573281    -0.000282306
                     0.000560069    -0.000463606       -0.0179274       -0.262136       -0.0003891     0.000233598         -0.69479        0.647362
                       -0.968417        0.110246     -0.000220395     0.000339357        0.0706698       -0.195239     -0.000811282     0.000282728
                      0.00044026    -0.000124881        -0.694623        0.647553     -0.000780143     9.52937e-05        -0.235897      -0.0246646
281700.1               -0.115734       -0.173855      0.000429325    -0.000503828        -0.968357        0.110379      0.000573315    -0.000282259
                      0.00056006     -0.00046368       -0.0179267       -0.262142     -0.000389466     0.000233621        -0.694755         0.64739
                       -0.968413        0.110275     -0.000220654     0.000339582        0.0706616       -0.195248     -0.000811405     0.000282677
                     0.000440288     -0.00012491        -0.694591        0.647582     -0.000779649     9.48442e-05        -0.235902      -0.0246426
281700.2               -0.115738       -0.173859      0.000429508    -0.000504053        -0.968353        0.110408      0.000573349    -0.000282211
                     0.000560051    -0.000463754       -0.0179259       -0.262148     -0.000389831     0.000233643        -0.694721        0.647419
                       -0.968409        0.110303     -0.000220913     0.000339808        0.0706534       -0.195256     -0.000811529     0.000282627
                     0.000440317    -0.000124939         -0.69456        0.647612     -0.000779157     9.43961e-05        -0.235908      -0.0246207
281700.3               -0.115742       -0.173862      0.000429691    -0.000504279        -0.968348        0.110436      0.000573383    -0.000282164
                     0.000560041    -0.000463828       -0.0179252       -0.262154     -0.000390196     0.000233666        -0.694687        0.647448
                       -0.968404        0.110331     -0.000221173     0.000340035        0.0706452       -0.195265     -0.000811653     0.000282577
                     0.000440345    -0.000124968        -0.694528        0.647641     -0.000778665     9.39492e-05        -0.235913      -0.0245987
281700.4               -0.115746       -0.173866      0.000429873    -0.000504506        -0.968344        0.110465      0.000573417    -0.000282117
                     0.000560032    -0.000463902       -0.0179244       -0.262159     -0.000390562     0.000233688        -0.694652        0.647476
                         -0.9684         0.11036     -0.000221432     0.000340262        0.0706369       -0.195273     -0.000811776     0.000282526
                     0.000440373    -0.000124997        -0.694497        0.647671     -0.000778174     9.35038e-05        -0.235918      -0.0245767
281700.5               -0.115751       -0.173869      0.000430056    -0.000504733        -0.968339        0.110493      0.000573451    -0.000282069
                     0.000560022    -0.000463977       -0.0179237       -0.262165     -0.000390927     0.000233711        -0.694618        0.647505
                       -0.968395        0.110388     -0.000221693     0.000340491        0.0706287       -0.195282       -0.0008119     0.000282476
                     0.000440402    -0.000125026        -0.694466          0.6477     -0.000777684     9.30596e-05        -0.235923      -0.0245547
281700.6               -0.115755       -0.173873      0.000430239    -0.000504962        -0.968335        0.110522      0.000573484    -0.000282022
                     0.000560013    -0.000464051       -0.0179229       -0.262171     -0.000391292     0.000233734        -0.694584        0.647533
                       -0.968391        0.110417     -0.000221953      0.00034072        0.0706205       -0.195291     -0.000812024     0.000282426
                      0.00044043    -0.000125055        -0.694434        0.647729     -0.000777196     9.26168e-05        -0.235928      -0.0245327
281700.7               -0.115759       -0.173876      0.000430422    -0.000505191        -0.968331         0.11055      0.000573518    -0.000281974
                     0.000560003    -0.000464125       -0.0179222       -0.262177     -0.000391657     0.000233757         -0.69455        0.647562
                       -0.968387        0.110445     -0.000222213     0.000340949        0.0706123       -0.195299     -0.000812147     0.000282375
                     0.000440458    -0.000125084        -0.694403        0.647759     -0.000776708     9.21753e-05        -0.235933      -0.0245108
281700.8               -0.115763        -0.17388      0.000430604     -0.00050542        -0.968326        0.110579      0.000573552    -0.000281927
                     0.000559994      -0.0004642       -0.0179214       -0.262182     -0.000392022     0.000233781        -0.694515         0.64759
                       -0.968382        0.110474     -0.000222474      0.00034118         0.070604       -0.195308     -0.000812271     0.000282325
                     0.000440486    -0.000125113        -0.694371        0.647788     -0.000776221     9.17352e-05        -0.235938      -0.0244888
281700.9               -0.115768       -0.173883      0.000430787    -0.000505651        -0.968322        0.110607      0.000573586    -0.000281879
                     0.000559984    -0.000464274       -0.0179207       -0.262188     -0.000392387     0.000233804        -0.694481        0.647619
                       -0.968378        0.110502     -0.000222735     0.000341411        0.0705958       -0.195316     -0.000812395     0.000282275
                     0.000440515    -0.000125142         -0.69434        0.647817     -0.000775735     9.12963e-05        -0.235944      -0.0244668
281701                 -0.115772       -0.173887      0.000430969    -0.000505882        -0.968317        0.110636       0.00057362    -0.000281832
                     0.000559974    -0.000464349         -0.01792       -0.262194     -0.000392751     0.000233827        -0.694447        0.647647
                       -0.968373        0.110531     -0.000222997     0.000341644        0.0705876       -0.195325     -0.000812519     0.000282224
                     0.000440543    -0.000125171        -0.694308        0.647847      -0.00077525     9.08588e-05        -0.235949      -0.0244448
281701.1               -0.115776        -0.17389      0.000431152    -0.000506114        -0.968313        0.110664      0.000573653    -0.000281784
                     0.000559964    -0.000464423       -0.0179192       -0.262199     -0.000393116     0.000233851        -0.694413        0.647675
                       -0.968369        0.110559     -0.000223258     0.000341877        0.0705794       -0.195334     -0.000812643     0.000282174
                     0.000440571      -0.0001252        -0.694277        0.647876     -0.000774766     9.04226e-05        -0.235954      -0.0244228
281701.2                -0.11578       -0.173894      0.000431334    -0.000506347        -0.968309        0.110693      0.000573687    -0.000281736
                     0.000559954    -0.000464498       -0.0179185       -0.262205     -0.000393481     0.000233875        -0.694379        0.647703
                       -0.968365        0.110587      -0.00022352     0.000342111        0.0705712       -0.195342     -0.000812767     0.000282124
                     0.000440599    -0.000125229        -0.694246        0.647906     -0.000774282     8.99877e-05        -0.235959      -0.0244008
281701.3               -0.115785       -0.173897      0.000431517    -0.000506581        -0.968304        0.110721      0.000573721    -0.000281689
                     0.000559944    -0.000464573       -0.0179177       -0.262211     -0.000393845     0.000233899        -0.694345        0.647731
                        -0.96836        0.110616     -0.000223783     0.000342345        0.0705629       -0.195351     -0.000812891     0.000282073
                     0.000440627    -0.000125258        -0.694214        0.647935       -0.0007738      8.9554e-05        -0.235964      -0.0243787
281701.4               -0.115789       -0.173901      0.000431699    -0.000506815          -0.9683         0.11075      0.000573755    -0.000281641
                     0.000559934    -0.000464648        -0.017917       -0.262217      -0.00039421     0.000233922        -0.694311        0.647759
                       -0.968356        0.110644     -0.000224045     0.000342581        0.0705547       -0.195359     -0.000813015     0.000282023
                     0.000440655    -0.000125287        -0.694183        0.647964     -0.000773319     8.91217e-05        -0.235969      -0.0243567
281701.5               -0.115793       -0.173904      0.000431881     -0.00050705        -0.968295        0.110779      0.000573788    -0.000281594
                     0.000559924    -0.000464722       -0.0179162       -0.262222     -0.000394574     0.000233947        -0.694276        0.647787
                       -0.968351        0.110673     -0.000224308     0.000342817        0.0705465       -0.195368     -0.000813139     0.000281973
                     0.000440683    -0.000125315        -0.694151        0.647994     -0.000772839     8.86907e-05        -0.235974      -0.0243347
281701.6               -0.115797       -0.173908      0.000432064    -0.000507286        -0.968291        0.110807      0.000573822    -0.000281546
                     0.000559914    -0.000464797       -0.0179155       -0.262228     -0.000394938     0.000233971        -0.694242        0.647815
                       -0.968347        0.110701     -0.000224571     0.000343054        0.0705383       -0.195377     -0.000813263     0.000281923
                     0.000440711    -0.000125344         -0.69412        0.648023     -0.000772359     8.82609e-05         -0.23598      -0.0243127
281701.7               -0.115802       -0.173912      0.000432246    -0.000507523        -0.968287        0.110836      0.000573856    -0.000281499
                     0.000559904    -0.000464872       -0.0179147       -0.262234     -0.000395303     0.000233995        -0.694208        0.647843
                       -0.968343         0.11073     -0.000224834     0.000343292          0.07053       -0.195385     -0.000813387     0.000281873
                     0.000440739    -0.000125373        -0.694088        0.648052     -0.000771881     8.78324e-05        -0.235985      -0.0242907
281701.8               -0.115806       -0.173915      0.000432428    -0.000507761        -0.968282        0.110864      0.000573889    -0.000281451
                     0.000559894    -0.000464947        -0.017914        -0.26224     -0.000395667      0.00023402        -0.694174        0.647871
                       -0.968338        0.110758     -0.000225097     0.000343531        0.0705218       -0.195394     -0.000813512     0.000281822
                     0.000440767    -0.000125402        -0.694057        0.648082     -0.000771403     8.74052e-05         -0.23599      -0.0242687
281701.9                -0.11581       -0.173919       0.00043261    -0.000507999        -0.968278        0.110893      0.000573923    -0.000281403
                     0.000559883    -0.000465022       -0.0179132       -0.262245     -0.000396031     0.000234044         -0.69414        0.647899
                       -0.968334        0.110786     -0.000225361     0.000343771        0.0705136       -0.195402     -0.000813636     0.000281772
                     0.000440795     -0.00012543        -0.694026        0.648111     -0.000770927     8.69793e-05        -0.235995      -0.0242466
281702                 -0.115815       -0.173922      0.000432792    -0.000508238        -0.968273        0.110921      0.000573956    -0.000281356
                     0.000559873    -0.000465097       -0.0179125       -0.262251     -0.000396395     0.000234069        -0.694107        0.647926
                       -0.968329        0.110815     -0.000225625     0.000344012        0.0705053       -0.195411      -0.00081376     0.000281722
                     0.000440823    -0.000125459        -0.693994         0.64814     -0.000770451     8.65546e-05           -0.236      -0.0242246
281702.1               -0.115819       -0.173926      0.000432974    -0.000508478        -0.968269         0.11095       0.00057399    -0.000281308
                     0.000559863    -0.000465173       -0.0179117       -0.262257     -0.000396759     0.000234094        -0.694073        0.647954
                       -0.968325        0.110843     -0.000225889     0.000344253        0.0704971        -0.19542     -0.000813885     0.000281672
                     0.000440851    -0.000125488        -0.693963         0.64817     -0.000769976     8.61312e-05        -0.236005      -0.0242026
281702.2               -0.115823       -0.173929      0.000433155    -0.000508719        -0.968265        0.110978      0.000574024     -0.00028126
                     0.000559852    -0.000465248        -0.017911       -0.262263     -0.000397123     0.000234119        -0.694039        0.647982
                       -0.968321        0.110872     -0.000226154     0.000344495        0.0704889       -0.195428     -0.000814009     0.000281622
                     0.000440879    -0.000125516        -0.693931        0.648199     -0.000769503     8.57091e-05        -0.236011      -0.0241805
281702.3               -0.115827       -0.173933      0.000433337     -0.00050896         -0.96826        0.111007      0.000574057    -0.000281213
                     0.000559841    -0.000465323       -0.0179103       -0.262268     -0.000397486     0.000234144        -0.694005        0.648009
                       -0.968316          0.1109     -0.000226418     0.000344738        0.0704807       -0.195437     -0.000814133     0.000281572
                     0.000440907    -0.000125545          -0.6939        0.648228      -0.00076903     8.52882e-05        -0.236016      -0.0241585
281702.4               -0.115832       -0.173936      0.000433519    -0.000509203        -0.968256        0.111035      0.000574091    -0.000281165
                     0.000559831    -0.000465398       -0.0179095       -0.262274      -0.00039785     0.000234169        -0.693971        0.648037
                       -0.968312        0.110929     -0.000226683     0.000344983        0.0704724       -0.195445     -0.000814258     0.000281521
                     0.000440935    -0.000125573        -0.693868        0.648258     -0.000768558     8.48686e-05        -0.236021      -0.0241364
281702.5               -0.115836        -0.17394        0.0004337    -0.000509446        -0.968251        0.111064      0.000574124    -0.000281117
                      0.00055982    -0.000465474       -0.0179088        -0.26228     -0.000398214     0.000234194        -0.693937        0.648064
                       -0.968307        0.110957     -0.000226948     0.000345227        0.0704642       -0.195454     -0.000814382     0.000281471
                     0.000440963    -0.000125602        -0.693837        0.648287     -0.000768087     8.44502e-05        -0.236026      -0.0241144
281702.6                -0.11584       -0.173943      0.000433882     -0.00050969        -0.968247        0.111092      0.000574158     -0.00028107
                     0.000559809    -0.000465549        -0.017908       -0.262285     -0.000398577      0.00023422        -0.693904        0.648092
                       -0.968303        0.110985     -0.000227214     0.000345473         0.070456       -0.195462     -0.000814507     0.000281421
                     0.000440991    -0.000125631        -0.693806        0.648316     -0.000767617      8.4033e-05        -0.236031      -0.0240923
281702.7               -0.115844       -0.173947      0.000434063    -0.000509935        -0.968243        0.111121      0.000574191    -0.000281022
                     0.000559799    -0.000465625       -0.0179073       -0.262291      -0.00039894     0.000234245         -0.69387        0.648119
                       -0.968299        0.111014     -0.000227479      0.00034572        0.0704477       -0.195471     -0.000814632     0.000281371
                     0.000441019    -0.000125659        -0.693774        0.648345     -0.000767148     8.36171e-05        -0.236036      -0.0240703
281702.8               -0.115849        -0.17395      0.000434244     -0.00051018        -0.968238         0.11115      0.000574224    -0.000280974
                     0.000559788      -0.0004657       -0.0179065       -0.262297     -0.000399304     0.000234271        -0.693836        0.648147
                       -0.968294        0.111042     -0.000227745     0.000345968        0.0704395        -0.19548     -0.000814756     0.000281321
                     0.000441047    -0.000125687        -0.693743        0.648375      -0.00076668     8.32024e-05        -0.236042      -0.0240482
281702.9               -0.115853       -0.173954      0.000434425    -0.000510427        -0.968234        0.111178      0.000574258    -0.000280926
                     0.000559777    -0.000465776       -0.0179058       -0.262303     -0.000399667     0.000234297        -0.693803        0.648174
                        -0.96829        0.111071     -0.000228011     0.000346216        0.0704313       -0.195488     -0.000814881     0.000281271
                     0.000441074    -0.000125716        -0.693711        0.648404     -0.000766213     8.27889e-05        -0.236047      -0.0240262
281703                 -0.115857       -0.173957      0.000434606    -0.000510674        -0.968229        0.111207      0.000574291    -0.000280879
                     0.000559766    -0.000465852        -0.017905       -0.262308      -0.00040003     0.000234323        -0.693769        0.648201
                       -0.968285        0.111099     -0.000228278     0.000346465        0.0704231       -0.195497     -0.000815006     0.000281221
                     0.000441102    -0.000125744         -0.69368        0.648433     -0.000765746     8.23767e-05        -0.236052      -0.0240041
281703.1               -0.115861       -0.173961      0.000434787    -0.000510922        -0.968225        0.111235      0.000574325    -0.000280831
                     0.000559755    -0.000465927       -0.0179043       -0.262314     -0.000400393     0.000234349        -0.693735        0.648228
                       -0.968281        0.111128     -0.000228544     0.000346716        0.0704148       -0.195505      -0.00081513     0.000281171
