! TOUCHSTONE file generated by CST MICROWAVE STUDIO
! Date and time: Wed Oct  8 06:51:49 2025
! Project name: Teste_Macro_Metasurface_Nanopilar.cst
! Parameters = {H=600; L_x=80; L_y=85; Lambda=1064; Max_L=200; Min_L=70; PathPara=1; Phi=0; Step_L=10; Theta=0; p=520; phaseX=180; phaseY=0}
! Header version: 2018
! Port assignment regex: !\s*Touchstone port\s*([0-9]+)\s*=\s*(CST MWS port|CST DS port)\s*([0-9]+|Zmin|Zmax)\s*\(\"(.*)\"\)(\s*mode\s*([0-9]+))?.*
! Touchstone port assignment:
! Touchstone port 1 = CST MWS port Zmax ("") mode 1
! Touchstone port 2 = CST MWS port Zmax ("") mode 2
! Touchstone port 3 = CST MWS port Zmin ("") mode 1
! Touchstone port 4 = CST MWS port Zmin ("") mode 2
! S-Parameters are not renormalized. Each port impedance will be approximated by the real part at minimum frequency. The values are described via the [Reference] keyword.
! Default impedance is overridden by [Reference]
[Version] 2.0
# GHz S RI R 376.73
[Number of Ports] 4
[Reference]
376.73 376.73 376.73 376.73 
[Number of Frequencies] 1001
[Network Data]
281700                  0.120444      0.00943034     -7.13303e-05    -0.000197911        -0.953237        0.275728     -0.000102787    -1.84911e-05
                    -6.54102e-05    -0.000190995         0.122481       0.0316951      8.18786e-05     -5.8549e-05        -0.965675        0.227671
                       -0.953118         0.27543      3.57158e-05    -0.000118451        -0.097031       0.0723465      9.90576e-05    -0.000115608
                    -9.74335e-05    -5.02388e-05        -0.965023          0.2275     -0.000103881    -0.000282682       -0.0955816       0.0831347
281700.1                0.120442      0.00942455     -7.13409e-05    -0.000197897         -0.95323        0.275754     -0.000102782    -1.84828e-05
                    -6.54181e-05    -0.000190991          0.12248       0.0316891      8.18731e-05    -5.85504e-05        -0.965669        0.227697
                       -0.953111        0.275455      3.57115e-05    -0.000118462       -0.0970286       0.0723457       9.9044e-05     -0.00011562
                    -9.74308e-05    -5.02357e-05        -0.965017        0.227526     -0.000103885    -0.000282678       -0.0955787       0.0831338
281700.2                 0.12044      0.00941876     -7.13516e-05    -0.000197883        -0.953223        0.275779     -0.000102777    -1.84746e-05
                    -6.54259e-05    -0.000190987         0.122478       0.0316831      8.18675e-05    -5.85519e-05        -0.965664        0.227722
                       -0.953104        0.275481      3.57072e-05    -0.000118474       -0.0970261       0.0723449      9.90303e-05    -0.000115633
                    -9.74281e-05    -5.02327e-05        -0.965012        0.227551      -0.00010389    -0.000282673       -0.0955758        0.083133
281700.3                0.120438      0.00941297     -7.13622e-05    -0.000197868        -0.953216        0.275805     -0.000102773    -1.84663e-05
                    -6.54338e-05    -0.000190983         0.122477       0.0316771       8.1862e-05    -5.85533e-05        -0.965658        0.227748
                       -0.953097        0.275506       3.5703e-05    -0.000118485       -0.0970237       0.0723441      9.90167e-05    -0.000115646
                    -9.74255e-05    -5.02296e-05        -0.965006        0.227577     -0.000103894    -0.000282669        -0.095573       0.0831321
281700.4                0.120436      0.00940718     -7.13729e-05    -0.000197854        -0.953209         0.27583     -0.000102768     -1.8458e-05
                    -6.54417e-05    -0.000190979         0.122476       0.0316711      8.18564e-05    -5.85547e-05        -0.965652        0.227774
                        -0.95309        0.275532      3.56987e-05    -0.000118497       -0.0970212       0.0723433       9.9003e-05    -0.000115659
                    -9.74228e-05    -5.02266e-05           -0.965        0.227603     -0.000103899    -0.000282664       -0.0955701       0.0831312
281700.5                0.120434      0.00940139     -7.13835e-05     -0.00019784        -0.953202        0.275855     -0.000102763    -1.84498e-05
                    -6.54495e-05    -0.000190974         0.122475       0.0316651      8.18508e-05    -5.85561e-05        -0.965647        0.227799
                       -0.953083        0.275557      3.56945e-05    -0.000118508       -0.0970188       0.0723425      9.89893e-05    -0.000115672
                    -9.74202e-05    -5.02236e-05        -0.964995        0.227628     -0.000103903     -0.00028266       -0.0955672       0.0831304
281700.6                0.120432       0.0093956     -7.13942e-05    -0.000197825        -0.953195        0.275881     -0.000102758    -1.84415e-05
                    -6.54574e-05     -0.00019097         0.122473       0.0316591      8.18453e-05    -5.85575e-05        -0.965641        0.227825
                       -0.953076        0.275583      3.56902e-05    -0.000118519       -0.0970163       0.0723417      9.89756e-05    -0.000115685
                    -9.74175e-05    -5.02205e-05        -0.964989        0.227654     -0.000103907    -0.000282655       -0.0955644       0.0831295
281700.7                 0.12043      0.00938981     -7.14048e-05    -0.000197811        -0.953188        0.275906     -0.000102754    -1.84332e-05
                    -6.54652e-05    -0.000190966         0.122472       0.0316531      8.18397e-05    -5.85589e-05        -0.965635        0.227851
                       -0.953069        0.275608      3.56859e-05    -0.000118531       -0.0970139       0.0723409       9.8962e-05    -0.000115698
                    -9.74149e-05    -5.02175e-05        -0.964983         0.22768     -0.000103912    -0.000282651       -0.0955615       0.0831286
281700.8                0.120428      0.00938402     -7.14155e-05    -0.000197797         -0.95318        0.275932     -0.000102749    -1.84249e-05
                    -6.54731e-05    -0.000190962         0.122471       0.0316471      8.18342e-05    -5.85603e-05        -0.965629        0.227876
                       -0.953062        0.275633      3.56817e-05    -0.000118542       -0.0970114       0.0723401      9.89483e-05    -0.000115711
                    -9.74122e-05    -5.02144e-05        -0.964978        0.227706     -0.000103916    -0.000282647       -0.0955586       0.0831278
281700.9                0.120426      0.00937823     -7.14261e-05    -0.000197782        -0.953173        0.275957     -0.000102744    -1.84166e-05
                     -6.5481e-05    -0.000190958          0.12247       0.0316411      8.18286e-05    -5.85617e-05        -0.965624        0.227902
                       -0.953055        0.275659      3.56774e-05    -0.000118553        -0.097009       0.0723393      9.89346e-05    -0.000115724
                    -9.74096e-05    -5.02114e-05        -0.964972        0.227731     -0.000103921    -0.000282642       -0.0955558       0.0831269
281701                  0.120424      0.00937244     -7.14368e-05    -0.000197768        -0.953166        0.275983      -0.00010274    -1.84082e-05
                    -6.54888e-05    -0.000190954         0.122468       0.0316352       8.1823e-05    -5.85632e-05        -0.965618        0.227928
                       -0.953048        0.275684      3.56732e-05    -0.000118565       -0.0970065       0.0723384      9.89209e-05    -0.000115737
                    -9.74069e-05    -5.02083e-05        -0.964966        0.227757     -0.000103925    -0.000282638       -0.0955529        0.083126
281701.1                0.120422      0.00936666     -7.14474e-05    -0.000197754        -0.953159        0.276008     -0.000102735    -1.83999e-05
                    -6.54967e-05     -0.00019095         0.122467       0.0316292      8.18175e-05    -5.85646e-05        -0.965612        0.227953
                       -0.953041         0.27571      3.56689e-05    -0.000118576       -0.0970041       0.0723376      9.89072e-05     -0.00011575
                    -9.74043e-05    -5.02053e-05         -0.96496        0.227783      -0.00010393    -0.000282633         -0.09555       0.0831252
281701.2                 0.12042      0.00936087     -7.14581e-05    -0.000197739        -0.953152        0.276034     -0.000102731    -1.83916e-05
                    -6.55045e-05    -0.000190946         0.122466       0.0316232      8.18119e-05     -5.8566e-05        -0.965607        0.227979
                       -0.953034        0.275735      3.56647e-05    -0.000118588       -0.0970016       0.0723368      9.88935e-05    -0.000115763
                    -9.74016e-05    -5.02023e-05        -0.964955        0.227808     -0.000103934    -0.000282629       -0.0955472       0.0831243
281701.3                0.120418      0.00935508     -7.14687e-05    -0.000197725        -0.953145        0.276059     -0.000102726    -1.83832e-05
                    -6.55124e-05    -0.000190942         0.122464       0.0316172      8.18064e-05    -5.85674e-05        -0.965601        0.228005
                       -0.953027        0.275761      3.56604e-05    -0.000118599       -0.0969992        0.072336      9.88798e-05    -0.000115776
                     -9.7399e-05    -5.01992e-05        -0.964949        0.227834     -0.000103938    -0.000282624       -0.0955443       0.0831234
281701.4                0.120416      0.00934929     -7.14794e-05    -0.000197711        -0.953138        0.276084     -0.000102721    -1.83749e-05
                    -6.55203e-05    -0.000190938         0.122463       0.0316112      8.18008e-05    -5.85688e-05        -0.965595         0.22803
                       -0.953019        0.275786      3.56562e-05     -0.00011861       -0.0969968       0.0723352      9.88661e-05    -0.000115789
                    -9.73963e-05    -5.01962e-05        -0.964943         0.22786     -0.000103943     -0.00028262       -0.0955414       0.0831226
281701.5                0.120414       0.0093435       -7.149e-05    -0.000197696        -0.953131         0.27611     -0.000102717    -1.83665e-05
                    -6.55281e-05    -0.000190934         0.122462       0.0316052      8.17953e-05    -5.85702e-05        -0.965589        0.228056
                       -0.953012        0.275811      3.56519e-05    -0.000118622       -0.0969943       0.0723344      9.88524e-05    -0.000115802
                    -9.73937e-05    -5.01932e-05        -0.964938        0.227885     -0.000103947    -0.000282615       -0.0955386       0.0831217
281701.6                0.120412      0.00933771     -7.15007e-05    -0.000197682        -0.953124        0.276135     -0.000102712    -1.83582e-05
                     -6.5536e-05     -0.00019093         0.122461       0.0315992      8.17897e-05    -5.85716e-05        -0.965584        0.228082
                       -0.953005        0.275837      3.56477e-05    -0.000118633       -0.0969919       0.0723336      9.88387e-05    -0.000115815
                     -9.7391e-05    -5.01901e-05        -0.964932        0.227911     -0.000103952    -0.000282611       -0.0955357       0.0831208
281701.7                 0.12041      0.00933192     -7.15113e-05    -0.000197667        -0.953117        0.276161     -0.000102707    -1.83498e-05
                    -6.55438e-05    -0.000190926         0.122459       0.0315932      8.17841e-05     -5.8573e-05        -0.965578        0.228107
                       -0.952998        0.275862      3.56435e-05    -0.000118644       -0.0969894       0.0723328      9.88249e-05    -0.000115828
                    -9.73884e-05    -5.01871e-05        -0.964926        0.227937     -0.000103956    -0.000282607       -0.0955328         0.08312
281701.8                0.120408      0.00932614      -7.1522e-05    -0.000197653         -0.95311        0.276186     -0.000102703    -1.83414e-05
                    -6.55517e-05    -0.000190922         0.122458       0.0315872      8.17786e-05    -5.85745e-05        -0.965572        0.228133
                       -0.952991        0.275888      3.56392e-05    -0.000118656        -0.096987        0.072332      9.88112e-05    -0.000115841
                    -9.73857e-05     -5.0184e-05         -0.96492        0.227962     -0.000103961    -0.000282602         -0.09553       0.0831191
281701.9                0.120406      0.00932035     -7.15326e-05    -0.000197639        -0.953103        0.276212     -0.000102698     -1.8333e-05
                    -6.55595e-05    -0.000190918         0.122457       0.0315812       8.1773e-05    -5.85759e-05        -0.965567        0.228159
                       -0.952984        0.275913       3.5635e-05    -0.000118667       -0.0969845       0.0723312      9.87975e-05    -0.000115854
                    -9.73831e-05     -5.0181e-05        -0.964915        0.227988     -0.000103965    -0.000282598       -0.0955271       0.0831182
281702                  0.120404      0.00931456     -7.15433e-05    -0.000197624        -0.953096        0.276237     -0.000102694    -1.83246e-05
                    -6.55674e-05    -0.000190914         0.122456       0.0315752      8.17675e-05    -5.85773e-05        -0.965561        0.228184
                       -0.952977        0.275939      3.56307e-05    -0.000118679       -0.0969821       0.0723304      9.87838e-05    -0.000115867
                    -9.73804e-05     -5.0178e-05        -0.964909        0.228014     -0.000103969    -0.000282593       -0.0955242       0.0831174
281702.1                0.120402      0.00930877     -7.15539e-05     -0.00019761        -0.953089        0.276262     -0.000102689    -1.83162e-05
                    -6.55752e-05     -0.00019091         0.122454       0.0315693      8.17619e-05    -5.85787e-05        -0.965555         0.22821
                        -0.95297        0.275964      3.56265e-05     -0.00011869       -0.0969796       0.0723295        9.877e-05     -0.00011588
                    -9.73778e-05    -5.01749e-05        -0.964903        0.228039     -0.000103974    -0.000282589       -0.0955214       0.0831165
281702.2                  0.1204      0.00930298     -7.15645e-05    -0.000197596        -0.953082        0.276288     -0.000102685    -1.83078e-05
                    -6.55831e-05    -0.000190906         0.122453       0.0315633      8.17564e-05    -5.85801e-05        -0.965549        0.228236
                       -0.952963        0.275989      3.56223e-05    -0.000118701       -0.0969772       0.0723287      9.87563e-05    -0.000115894
                    -9.73751e-05    -5.01719e-05        -0.964898        0.228065     -0.000103978    -0.000282584       -0.0955185       0.0831156
281702.3                0.120398       0.0092972     -7.15752e-05    -0.000197581        -0.953075        0.276313      -0.00010268    -1.82994e-05
                     -6.5591e-05    -0.000190902         0.122452       0.0315573      8.17508e-05    -5.85815e-05        -0.965544        0.228262
                       -0.952956        0.276015       3.5618e-05    -0.000118713       -0.0969747       0.0723279      9.87425e-05    -0.000115907
                    -9.73725e-05    -5.01689e-05        -0.964892        0.228091     -0.000103983     -0.00028258       -0.0955156       0.0831148
281702.4                0.120396      0.00929141     -7.15858e-05    -0.000197567        -0.953068        0.276339     -0.000102676     -1.8291e-05
                    -6.55988e-05    -0.000190898          0.12245       0.0315513      8.17452e-05    -5.85829e-05        -0.965538        0.228287
                       -0.952949         0.27604      3.56138e-05    -0.000118724       -0.0969723       0.0723271      9.87288e-05     -0.00011592
                    -9.73699e-05    -5.01658e-05        -0.964886        0.228116     -0.000103987    -0.000282575       -0.0955128       0.0831139
281702.5                0.120394      0.00928562     -7.15965e-05    -0.000197553        -0.953061        0.276364     -0.000102671    -1.82826e-05
                    -6.56067e-05    -0.000190894         0.122449       0.0315453      8.17397e-05    -5.85843e-05        -0.965532        0.228313
                       -0.952942        0.276066      3.56096e-05    -0.000118735       -0.0969698       0.0723263       9.8715e-05    -0.000115933
                    -9.73672e-05    -5.01628e-05         -0.96488        0.228142     -0.000103992    -0.000282571       -0.0955099        0.083113
281702.6                0.120392      0.00927983     -7.16071e-05    -0.000197538        -0.953054         0.27639     -0.000102667    -1.82741e-05
                    -6.56145e-05    -0.000190889         0.122448       0.0315393      8.17341e-05    -5.85857e-05        -0.965527        0.228339
                       -0.952935        0.276091      3.56053e-05    -0.000118747       -0.0969674       0.0723255      9.87013e-05    -0.000115946
                    -9.73646e-05    -5.01598e-05        -0.964875        0.228168     -0.000103996    -0.000282567       -0.0955071       0.0831122
281702.7                 0.12039      0.00927405     -7.16178e-05    -0.000197524        -0.953046        0.276415     -0.000102662    -1.82657e-05
                    -6.56224e-05    -0.000190885         0.122447       0.0315333      8.17286e-05    -5.85871e-05        -0.965521        0.228364
                       -0.952928        0.276117      3.56011e-05    -0.000118758        -0.096965       0.0723247      9.86875e-05    -0.000115959
                    -9.73619e-05    -5.01567e-05        -0.964869        0.228193        -0.000104    -0.000282562       -0.0955042       0.0831113
281702.8                0.120388      0.00926826     -7.16284e-05     -0.00019751        -0.953039        0.276441     -0.000102658    -1.82572e-05
                    -6.56302e-05    -0.000190881         0.122445       0.0315273       8.1723e-05    -5.85886e-05        -0.965515         0.22839
                       -0.952921        0.276142      3.55969e-05    -0.000118769       -0.0969625       0.0723239      9.86738e-05    -0.000115973
                    -9.73593e-05    -5.01537e-05        -0.964863        0.228219     -0.000104005    -0.000282558       -0.0955013       0.0831104
281702.9                0.120386      0.00926247     -7.16391e-05    -0.000197495        -0.953032        0.276466     -0.000102653    -1.82488e-05
                    -6.56381e-05    -0.000190877         0.122444       0.0315213      8.17175e-05      -5.859e-05        -0.965509        0.228416
                       -0.952914        0.276167      3.55927e-05    -0.000118781       -0.0969601       0.0723231        9.866e-05    -0.000115986
                    -9.73566e-05    -5.01507e-05        -0.964857        0.228245     -0.000104009    -0.000282553       -0.0954985       0.0831096
281703                  0.120384      0.00925669     -7.16497e-05    -0.000197481        -0.953025        0.276491     -0.000102649    -1.82403e-05
                    -6.56459e-05    -0.000190873         0.122443       0.0315153      8.17119e-05    -5.85914e-05        -0.965504        0.228441
                       -0.952907        0.276193      3.55884e-05    -0.000118792       -0.0969576       0.0723223      9.86462e-05    -0.000115999
                     -9.7354e-05    -5.01476e-05        -0.964852         0.22827     -0.000104014    -0.000282549       -0.0954956       0.0831087
281703.1                0.120382       0.0092509     -7.16604e-05    -0.000197466        -0.953018        0.276517     -0.000102644    -1.82318e-05
                    -6.56538e-05    -0.000190869         0.122442       0.0315094      8.17064e-05    -5.85928e-05        -0.965498        0.228467
                       -0.952899        0.276218      3.55842e-05    -0.000118803       -0.0969552       0.0723214      9.86325e-05    -0.000116012
