! TOUCHSTONE file generated by CST MICROWAVE STUDIO
! Date and time: Wed Oct  8 06:58:24 2025
! Project name: Teste_Macro_Metasurface_Nanopilar.cst
! Parameters = {H=600; L_x=135; L_y=90; Lambda=1064; Max_L=200; Min_L=70; PathPara=1; Phi=0; Step_L=10; Theta=0; p=520; phaseX=180; phaseY=0}
! Header version: 2018
! Port assignment regex: !\s*Touchstone port\s*([0-9]+)\s*=\s*(CST MWS port|CST DS port)\s*([0-9]+|Zmin|Zmax)\s*\(\"(.*)\"\)(\s*mode\s*([0-9]+))?.*
! Touchstone port assignment:
! Touchstone port 1 = CST MWS port Zmax ("") mode 1
! Touchstone port 2 = CST MWS port Zmax ("") mode 2
! Touchstone port 3 = CST MWS port Zmin ("") mode 1
! Touchstone port 4 = CST MWS port Zmin ("") mode 2
! S-Parameters are not renormalized. Each port impedance will be approximated by the real part at minimum frequency. The values are described via the [Reference] keyword.
! Default impedance is overridden by [Reference]
[Version] 2.0
# GHz S RI R 376.73
[Number of Ports] 4
[Reference]
376.73 376.73 376.73 376.73 
[Number of Frequencies] 1001
[Network Data]
281700                -0.0232664       -0.166999     -0.000108018    -1.60242e-05        -0.600613        0.779292     -3.20832e-05    -0.000279604
                      1.8607e-06     1.16398e-05         0.122129       0.0186789      0.000111173     8.34364e-05         0.952141       -0.240751
                       -0.600561        0.779361      0.000232916    -5.98337e-06        -0.167711       0.0205529     -1.82711e-05     0.000124807
                     3.02339e-05    -7.23154e-05         0.951948       -0.240597     -7.71422e-05     0.000218137        -0.103928       0.0764596
281700.1              -0.0232734       -0.166998     -0.000108009    -1.60472e-05        -0.600592        0.779308     -3.21101e-05    -0.000279608
                     1.84705e-06     1.16374e-05         0.122127       0.0186695      0.000111175     8.34359e-05         0.952133       -0.240785
                        -0.60054        0.779378      0.000232915    -5.96829e-06        -0.167711       0.0205551     -1.82613e-05     0.000124805
                     3.02376e-05    -7.23145e-05          0.95194       -0.240631     -7.71345e-05     0.000218146        -0.103925       0.0764575
281700.2              -0.0232804       -0.166997        -0.000108    -1.60702e-05         -0.60057        0.779325     -3.21371e-05    -0.000279612
                     1.83339e-06     1.16351e-05         0.122125         0.01866      0.000111177     8.34354e-05         0.952125       -0.240818
                       -0.600518        0.779395      0.000232914     -5.9532e-06         -0.16771       0.0205574     -1.82514e-05     0.000124804
                     3.02412e-05    -7.23135e-05         0.951932       -0.240665     -7.71268e-05     0.000218155        -0.103923       0.0764554
281700.3              -0.0232874       -0.166996     -0.000107992    -1.60933e-05        -0.600548        0.779342      -3.2164e-05    -0.000279616
                     1.81974e-06     1.16327e-05         0.122123       0.0186506      0.000111179     8.34349e-05         0.952117       -0.240852
                       -0.600497        0.779411      0.000232913    -5.93813e-06         -0.16771       0.0205596     -1.82415e-05     0.000124802
                     3.02449e-05    -7.23126e-05         0.951924       -0.240698     -7.71191e-05     0.000218163         -0.10392       0.0764534
281700.4              -0.0232944       -0.166995     -0.000107983    -1.61163e-05        -0.600527        0.779358      -3.2191e-05     -0.00027962
                     1.80608e-06     1.16304e-05         0.122121       0.0186412      0.000111181     8.34345e-05         0.952109       -0.240886
                       -0.600475        0.779428      0.000232912    -5.92306e-06         -0.16771       0.0205619     -1.82317e-05       0.0001248
                     3.02485e-05    -7.23116e-05         0.951916       -0.240732     -7.71114e-05     0.000218172        -0.103918       0.0764513
281700.5              -0.0233014       -0.166994     -0.000107974    -1.61392e-05        -0.600505        0.779375     -3.22179e-05    -0.000279624
                     1.79242e-06     1.16281e-05         0.122119       0.0186317      0.000111184      8.3434e-05         0.952101       -0.240919
                       -0.600453        0.779445      0.000232911      -5.908e-06        -0.167709       0.0205641     -1.82218e-05     0.000124799
                     3.02521e-05    -7.23106e-05         0.951908       -0.240766     -7.71037e-05      0.00021818        -0.103916       0.0764492
281700.6              -0.0233084       -0.166992     -0.000107965    -1.61622e-05        -0.600484        0.779392     -3.22449e-05    -0.000279628
                     1.77875e-06     1.16257e-05         0.122118       0.0186223      0.000111186     8.34335e-05         0.952093       -0.240953
                       -0.600432        0.779461       0.00023291    -5.89295e-06        -0.167709       0.0205664     -1.82119e-05     0.000124797
                     3.02558e-05    -7.23097e-05         0.951899       -0.240799      -7.7096e-05     0.000218189        -0.103913       0.0764472
281700.7              -0.0233154       -0.166991     -0.000107956    -1.61852e-05        -0.600462        0.779409     -3.22718e-05    -0.000279632
                     1.76508e-06     1.16234e-05         0.122116       0.0186128      0.000111188      8.3433e-05         0.952084       -0.240987
                        -0.60041        0.779478      0.000232909     -5.8779e-06        -0.167708       0.0205687     -1.82021e-05     0.000124796
                     3.02594e-05    -7.23087e-05         0.951891       -0.240833     -7.70883e-05     0.000218197        -0.103911       0.0764451
281700.8              -0.0233224        -0.16699     -0.000107947    -1.62082e-05         -0.60044        0.779425     -3.22988e-05    -0.000279635
                     1.75141e-06     1.16211e-05         0.122114       0.0186034       0.00011119     8.34325e-05         0.952076        -0.24102
                       -0.600389        0.779495      0.000232909    -5.86286e-06        -0.167708       0.0205709     -1.81922e-05     0.000124794
                     3.02631e-05    -7.23077e-05         0.951883       -0.240867     -7.70806e-05     0.000218206        -0.103908        0.076443
281700.9              -0.0233294       -0.166989     -0.000107938    -1.62311e-05        -0.600419        0.779442     -3.23257e-05    -0.000279639
                     1.73773e-06     1.16188e-05         0.122112       0.0185939      0.000111192     8.34321e-05         0.952068       -0.241054
                       -0.600367        0.779511      0.000232908    -5.84783e-06        -0.167708       0.0205732     -1.81823e-05     0.000124793
                     3.02667e-05    -7.23068e-05         0.951875       -0.240901     -7.70729e-05     0.000218215        -0.103906       0.0764409
281701                -0.0233363       -0.166988     -0.000107929     -1.6254e-05        -0.600397        0.779459     -3.23527e-05    -0.000279643
                     1.72406e-06     1.16164e-05          0.12211       0.0185845      0.000111194     8.34316e-05          0.95206       -0.241088
                       -0.600345        0.779528      0.000232907    -5.83281e-06        -0.167707       0.0205754     -1.81725e-05     0.000124791
                     3.02704e-05    -7.23058e-05         0.951867       -0.240934     -7.70652e-05     0.000218223        -0.103903       0.0764389
281701.1              -0.0233433       -0.166987      -0.00010792     -1.6277e-05        -0.600376        0.779475     -3.23797e-05    -0.000279647
                     1.71037e-06     1.16141e-05         0.122108       0.0185751      0.000111196     8.34311e-05         0.952052       -0.241121
                       -0.600324        0.779545      0.000232906    -5.81779e-06        -0.167707       0.0205777     -1.81626e-05      0.00012479
                      3.0274e-05    -7.23048e-05         0.951859       -0.240968     -7.70574e-05     0.000218232        -0.103901       0.0764368
281701.2              -0.0233503       -0.166986     -0.000107911    -1.62999e-05        -0.600354        0.779492     -3.24066e-05    -0.000279651
                     1.69669e-06     1.16118e-05         0.122107       0.0185656      0.000111198     8.34306e-05         0.952044       -0.241155
                       -0.600302        0.779561      0.000232905    -5.80278e-06        -0.167707       0.0205799     -1.81527e-05     0.000124788
                     3.02776e-05    -7.23039e-05         0.951851       -0.241002     -7.70497e-05      0.00021824        -0.103898       0.0764347
281701.3              -0.0233573       -0.166985     -0.000107902    -1.63228e-05        -0.600332        0.779509     -3.24336e-05    -0.000279655
                       1.683e-06     1.16095e-05         0.122105       0.0185562        0.0001112     8.34302e-05         0.952036       -0.241189
                       -0.600281        0.779578      0.000232904    -5.78778e-06        -0.167706       0.0205822     -1.81428e-05     0.000124786
                     3.02813e-05    -7.23029e-05         0.951843       -0.241036      -7.7042e-05     0.000218249        -0.103896       0.0764327
281701.4              -0.0233643       -0.166984     -0.000107893    -1.63457e-05        -0.600311        0.779525     -3.24606e-05    -0.000279659
                     1.66931e-06     1.16072e-05         0.122103       0.0185467      0.000111202     8.34297e-05         0.952028       -0.241222
                       -0.600259        0.779595      0.000232903    -5.77278e-06        -0.167706       0.0205844      -1.8133e-05     0.000124785
                     3.02849e-05    -7.23019e-05         0.951835       -0.241069     -7.70343e-05     0.000218257        -0.103893       0.0764306
281701.5              -0.0233713       -0.166983     -0.000107885    -1.63686e-05        -0.600289        0.779542     -3.24875e-05    -0.000279663
                     1.65562e-06     1.16049e-05         0.122101       0.0185373      0.000111204     8.34292e-05          0.95202       -0.241256
                       -0.600237        0.779611      0.000232902    -5.75779e-06        -0.167705       0.0205867     -1.81231e-05     0.000124783
                     3.02885e-05     -7.2301e-05         0.951827       -0.241103     -7.70266e-05     0.000218266        -0.103891       0.0764285
281701.6              -0.0233783       -0.166982     -0.000107876    -1.63915e-05        -0.600267        0.779559     -3.25145e-05    -0.000279667
                     1.64192e-06     1.16026e-05         0.122099       0.0185278      0.000111206     8.34287e-05         0.952012       -0.241289
                       -0.600216        0.779628      0.000232901    -5.74281e-06        -0.167705        0.020589     -1.81132e-05     0.000124782
                     3.02922e-05       -7.23e-05         0.951819       -0.241137     -7.70188e-05     0.000218274        -0.103888       0.0764264
281701.7              -0.0233853       -0.166981     -0.000107867    -1.64144e-05        -0.600246        0.779576     -3.25415e-05     -0.00027967
                     1.62822e-06     1.16003e-05         0.122097       0.0185184      0.000111208     8.34283e-05         0.952004       -0.241323
                       -0.600194        0.779644        0.0002329    -5.72784e-06        -0.167705       0.0205912     -1.81033e-05      0.00012478
                     3.02958e-05     -7.2299e-05          0.95181       -0.241171     -7.70111e-05     0.000218283        -0.103886       0.0764244
281701.8              -0.0233923        -0.16698     -0.000107858    -1.64373e-05        -0.600224        0.779592     -3.25685e-05    -0.000279674
                     1.61451e-06      1.1598e-05         0.122096        0.018509       0.00011121     8.34278e-05         0.951995       -0.241357
                       -0.600173        0.779661      0.000232899    -5.71287e-06        -0.167704       0.0205935     -1.80934e-05     0.000124779
                     3.02994e-05     -7.2298e-05         0.951802       -0.241204     -7.70034e-05     0.000218292        -0.103883       0.0764223
281701.9              -0.0233993       -0.166978     -0.000107849    -1.64601e-05        -0.600203        0.779609     -3.25954e-05    -0.000279678
                     1.60081e-06     1.15958e-05         0.122094       0.0184995      0.000111212     8.34273e-05         0.951987        -0.24139
                       -0.600151        0.779678      0.000232898    -5.69791e-06        -0.167704       0.0205957     -1.80835e-05     0.000124777
                      3.0303e-05    -7.22971e-05         0.951794       -0.241238     -7.69956e-05       0.0002183        -0.103881       0.0764202
281702                -0.0234063       -0.166977      -0.00010784     -1.6483e-05        -0.600181        0.779626     -3.26224e-05    -0.000279682
                      1.5871e-06     1.15935e-05         0.122092       0.0184901      0.000111214     8.34268e-05         0.951979       -0.241424
                       -0.600129        0.779694      0.000232897    -5.68296e-06        -0.167703        0.020598     -1.80737e-05     0.000124776
                     3.03067e-05    -7.22961e-05         0.951786       -0.241272     -7.69879e-05     0.000218309        -0.103878       0.0764181
281702.1              -0.0234133       -0.166976     -0.000107831    -1.65058e-05        -0.600159        0.779642     -3.26494e-05    -0.000279686
                     1.57339e-06     1.15912e-05          0.12209       0.0184806      0.000111216     8.34264e-05         0.951971       -0.241458
                       -0.600108        0.779711      0.000232896    -5.66801e-06        -0.167703       0.0206002     -1.80638e-05     0.000124774
                     3.03103e-05    -7.22951e-05         0.951778       -0.241306     -7.69802e-05     0.000218317        -0.103876       0.0764161
281702.2              -0.0234203       -0.166975     -0.000107822    -1.65287e-05        -0.600138        0.779659     -3.26764e-05     -0.00027969
                     1.55967e-06     1.15889e-05         0.122088       0.0184712      0.000111218     8.34259e-05         0.951963       -0.241491
                       -0.600086        0.779728      0.000232896    -5.65307e-06        -0.167703       0.0206025     -1.80539e-05     0.000124772
                     3.03139e-05    -7.22941e-05          0.95177       -0.241339     -7.69724e-05     0.000218326        -0.103873        0.076414
281702.3              -0.0234272       -0.166974     -0.000107814    -1.65515e-05        -0.600116        0.779676     -3.27034e-05    -0.000279694
                     1.54595e-06     1.15867e-05         0.122086       0.0184618       0.00011122     8.34254e-05         0.951955       -0.241525
                       -0.600064        0.779744      0.000232895    -5.63814e-06        -0.167702       0.0206047      -1.8044e-05     0.000124771
                     3.03175e-05    -7.22932e-05         0.951762       -0.241373     -7.69647e-05     0.000218334        -0.103871       0.0764119
281702.4              -0.0234342       -0.166973     -0.000107805    -1.65743e-05        -0.600095        0.779692     -3.27303e-05    -0.000279698
                     1.53223e-06     1.15844e-05         0.122084       0.0184523      0.000111222     8.34249e-05         0.951947       -0.241559
                       -0.600043        0.779761      0.000232894    -5.62321e-06        -0.167702        0.020607     -1.80341e-05     0.000124769
                     3.03212e-05    -7.22922e-05         0.951754       -0.241407     -7.69569e-05     0.000218343        -0.103869       0.0764099
281702.5              -0.0234412       -0.166972     -0.000107796    -1.65971e-05        -0.600073        0.779709     -3.27573e-05    -0.000279701
                      1.5185e-06     1.15822e-05         0.122083       0.0184429      0.000111224     8.34245e-05         0.951939       -0.241592
                       -0.600021        0.779778      0.000232893     -5.6083e-06        -0.167702       0.0206093     -1.80242e-05     0.000124768
                     3.03248e-05    -7.22912e-05         0.951746        -0.24144     -7.69492e-05     0.000218351        -0.103866       0.0764078
281702.6              -0.0234482       -0.166971     -0.000107787    -1.66199e-05        -0.600051        0.779726     -3.27843e-05    -0.000279705
                     1.50477e-06     1.15799e-05         0.122081       0.0184334      0.000111226      8.3424e-05         0.951931       -0.241626
                            -0.6        0.779794      0.000232892    -5.59339e-06        -0.167701       0.0206115     -1.80143e-05     0.000124766
                     3.03284e-05    -7.22902e-05         0.951738       -0.241474     -7.69414e-05      0.00021836        -0.103864       0.0764057
281702.7              -0.0234552        -0.16697     -0.000107778    -1.66427e-05         -0.60003        0.779742     -3.28113e-05    -0.000279709
                     1.49104e-06     1.15777e-05         0.122079        0.018424      0.000111228     8.34235e-05         0.951922        -0.24166
                       -0.599978        0.779811      0.000232891    -5.57848e-06        -0.167701       0.0206138     -1.80044e-05     0.000124765
                      3.0332e-05    -7.22893e-05         0.951729       -0.241508     -7.69337e-05     0.000218368        -0.103861       0.0764036
281702.8              -0.0234622       -0.166969     -0.000107769    -1.66655e-05        -0.600008        0.779759     -3.28383e-05    -0.000279713
                      1.4773e-06     1.15754e-05         0.122077       0.0184146       0.00011123     8.34231e-05         0.951914       -0.241693
                       -0.599956        0.779828       0.00023289    -5.56359e-06          -0.1677        0.020616     -1.79945e-05     0.000124763
                     3.03356e-05    -7.22883e-05         0.951721       -0.241542     -7.69259e-05     0.000218377        -0.103859       0.0764016
281702.9              -0.0234692       -0.166968      -0.00010776    -1.66883e-05        -0.599986        0.779776     -3.28653e-05    -0.000279717
                     1.46357e-06     1.15732e-05         0.122075       0.0184051      0.000111232     8.34226e-05         0.951906       -0.241727
                       -0.599935        0.779844      0.000232889     -5.5487e-06          -0.1677       0.0206183     -1.79846e-05     0.000124761
                     3.03393e-05    -7.22873e-05         0.951713       -0.241575     -7.69182e-05     0.000218385        -0.103856       0.0763995
281703                -0.0234762       -0.166967     -0.000107752     -1.6711e-05        -0.599965        0.779792     -3.28923e-05    -0.000279721
                     1.44982e-06     1.15709e-05         0.122073       0.0183957      0.000111234     8.34221e-05         0.951898       -0.241761
                       -0.599913        0.779861      0.000232888    -5.53382e-06          -0.1677       0.0206205     -1.79747e-05      0.00012476
                     3.03429e-05    -7.22863e-05         0.951705       -0.241609     -7.69104e-05     0.000218394        -0.103854       0.0763974
281703.1              -0.0234832       -0.166966     -0.000107743    -1.67338e-05        -0.599943        0.779809     -3.29193e-05    -0.000279725
                     1.43608e-06     1.15687e-05         0.122072       0.0183862      0.000111236     8.34216e-05          0.95189       -0.241794
                       -0.599892        0.779877      0.000232887    -5.51894e-06        -0.167699       0.0206228     -1.79648e-05     0.000124758
