! TOUCHSTONE file generated by CST MICROWAVE STUDIO
! Date and time: Wed Oct  8 06:57:32 2025
! Project name: Teste_Macro_Metasurface_Nanopilar.cst
! Parameters = {H=600; L_x=125; L_y=165; Lambda=1064; Max_L=200; Min_L=70; PathPara=1; Phi=0; Step_L=10; Theta=0; p=520; phaseX=180; phaseY=0}
! Header version: 2018
! Port assignment regex: !\s*Touchstone port\s*([0-9]+)\s*=\s*(CST MWS port|CST DS port)\s*([0-9]+|Zmin|Zmax)\s*\(\"(.*)\"\)(\s*mode\s*([0-9]+))?.*
! Touchstone port assignment:
! Touchstone port 1 = CST MWS port Zmax ("") mode 1
! Touchstone port 2 = CST MWS port Zmax ("") mode 2
! Touchstone port 3 = CST MWS port Zmin ("") mode 1
! Touchstone port 4 = CST MWS port Zmin ("") mode 2
! S-Parameters are not renormalized. Each port impedance will be approximated by the real part at minimum frequency. The values are described via the [Reference] keyword.
! Default impedance is overridden by [Reference]
[Version] 2.0
# GHz S RI R 376.73
[Number of Ports] 4
[Reference]
376.73 376.73 376.73 376.73 
[Number of Frequencies] 1001
[Network Data]
281700                 -0.537206        0.399248     -0.000319391       0.0010387        -0.255243       -0.670013      0.000402374     0.000751962
                    -0.000371851     0.000831367        -0.228119     -0.00357369      0.000164735    -0.000257362        -0.297948       -0.921672
                       -0.255619       -0.669745      0.000619147    -0.000287141        -0.665498       0.0103063     -0.000707328     -0.00127555
                     0.000495295     0.000679863        -0.297566       -0.921738     -0.000728967     -0.00132358        -0.183679        0.135472
281700.1                -0.53718        0.399259     -0.000319317       0.0010387        -0.255277       -0.670015      0.000402364     0.000751897
                     -0.00037178     0.000831409        -0.228116     -0.00356645       0.00016475    -0.000257351        -0.297976       -0.921664
                       -0.255653       -0.669747      0.000619084    -0.000287185        -0.665484       0.0103413     -0.000707336     -0.00127547
                     0.000495295     0.000679838        -0.297594       -0.921729     -0.000729003      -0.0013235        -0.183673        0.135475
281700.2               -0.537154         0.39927     -0.000319244      0.00103871        -0.255311       -0.670016      0.000402355     0.000751832
                    -0.000371709     0.000831451        -0.228113     -0.00355921      0.000164765    -0.000257339        -0.298004       -0.921655
                       -0.255686       -0.669749      0.000619021    -0.000287228         -0.66547       0.0103763     -0.000707343     -0.00127538
                     0.000495295     0.000679812        -0.297622       -0.921721     -0.000729038     -0.00132343        -0.183667        0.135478
281700.3               -0.537129        0.399282     -0.000319171      0.00103871        -0.255345       -0.670018      0.000402346     0.000751767
                    -0.000371638     0.000831492         -0.22811     -0.00355198       0.00016478    -0.000257328        -0.298032       -0.921647
                        -0.25572        -0.66975      0.000618959    -0.000287272        -0.665456       0.0104113     -0.000707351     -0.00127529
                     0.000495296     0.000679787         -0.29765       -0.921713     -0.000729074     -0.00132335         -0.18366        0.135482
281700.4               -0.537103        0.399293     -0.000319097      0.00103871        -0.255379        -0.67002      0.000402337     0.000751702
                    -0.000371567     0.000831534        -0.228107     -0.00354474      0.000164795    -0.000257317         -0.29806       -0.921639
                       -0.255754       -0.669752      0.000618896    -0.000287315        -0.665442       0.0104463     -0.000707358      -0.0012752
                     0.000495296     0.000679762        -0.297678       -0.921705      -0.00072911     -0.00132328        -0.183654        0.135485
281700.5               -0.537077        0.399304     -0.000319024      0.00103872        -0.255413       -0.670022      0.000402327     0.000751636
                    -0.000371496     0.000831576        -0.228104      -0.0035375       0.00016481    -0.000257306        -0.298088       -0.921631
                       -0.255788       -0.669754      0.000618833    -0.000287359        -0.665428       0.0104813     -0.000707366     -0.00127511
                     0.000495296     0.000679737        -0.297706       -0.921696     -0.000729145      -0.0013232        -0.183647        0.135488
281700.6               -0.537052        0.399316     -0.000318951      0.00103872        -0.255446       -0.670023      0.000402318     0.000751571
                    -0.000371425     0.000831618        -0.228101     -0.00353027      0.000164825    -0.000257294        -0.298116       -0.921623
                       -0.255822       -0.669755       0.00061877    -0.000287402        -0.665414       0.0105163     -0.000707373     -0.00127502
                     0.000495296     0.000679712        -0.297734       -0.921688     -0.000729181     -0.00132313        -0.183641        0.135492
281700.7               -0.537026        0.399327     -0.000318878      0.00103872         -0.25548       -0.670025      0.000402309     0.000751506
                    -0.000371353     0.000831659        -0.228098     -0.00352303      0.000164841    -0.000257283        -0.298144       -0.921614
                       -0.255855       -0.669757      0.000618707    -0.000287445          -0.6654       0.0105513     -0.000707381     -0.00127493
                     0.000495297     0.000679687        -0.297762        -0.92168     -0.000729216     -0.00132305        -0.183634        0.135495
281700.8               -0.537001        0.399339     -0.000318804      0.00103873        -0.255514       -0.670027        0.0004023     0.000751441
                    -0.000371282     0.000831701        -0.228095      -0.0035158      0.000164856    -0.000257272        -0.298172       -0.921606
                       -0.255889       -0.669759      0.000618644    -0.000287489        -0.665386       0.0105862     -0.000707389     -0.00127485
                     0.000495297     0.000679662         -0.29779       -0.921672     -0.000729252     -0.00132298        -0.183628        0.135498
281700.9               -0.536975         0.39935     -0.000318731      0.00103873        -0.255548       -0.670028      0.000402291     0.000751376
                    -0.000371211     0.000831743        -0.228091     -0.00350856      0.000164871    -0.000257261          -0.2982       -0.921598
                       -0.255923       -0.669761      0.000618581    -0.000287532        -0.665372       0.0106212     -0.000707396     -0.00127476
                     0.000495297     0.000679637        -0.297818       -0.921663     -0.000729287      -0.0013229        -0.183621        0.135502
281701                 -0.536949        0.399361     -0.000318658      0.00103874        -0.255582        -0.67003      0.000402282     0.000751311
                     -0.00037114     0.000831785        -0.228088     -0.00350133      0.000164886     -0.00025725        -0.298228        -0.92159
                       -0.255957       -0.669762      0.000618519    -0.000287575        -0.665358       0.0106562     -0.000707404     -0.00127467
                     0.000495297     0.000679611        -0.297846       -0.921655     -0.000729323     -0.00132283        -0.183615        0.135505
281701.1               -0.536924        0.399373     -0.000318585      0.00103874        -0.255616       -0.670032      0.000402273     0.000751246
                    -0.000371068     0.000831826        -0.228085     -0.00349409      0.000164901    -0.000257238        -0.298256       -0.921581
                       -0.255991       -0.669764      0.000618456    -0.000287619        -0.665344       0.0106912     -0.000707411     -0.00127458
                     0.000495297     0.000679586        -0.297874       -0.921647     -0.000729358     -0.00132275        -0.183608        0.135508
281701.2               -0.536898        0.399384     -0.000318511      0.00103874         -0.25565       -0.670033      0.000402263     0.000751181
                    -0.000370997     0.000831868        -0.228082     -0.00348686      0.000164916    -0.000257227        -0.298284       -0.921573
                       -0.256024       -0.669766      0.000618393    -0.000287662         -0.66533       0.0107262     -0.000707419     -0.00127449
                     0.000495298     0.000679561        -0.297902       -0.921639     -0.000729394     -0.00132268        -0.183602        0.135512
281701.3               -0.536872        0.399395     -0.000318438      0.00103875        -0.255684       -0.670035      0.000402254     0.000751116
                    -0.000370926      0.00083191        -0.228079     -0.00347962      0.000164931    -0.000257216        -0.298312       -0.921565
                       -0.256058       -0.669767       0.00061833    -0.000287705        -0.665316       0.0107611     -0.000707427      -0.0012744
                     0.000495298     0.000679536         -0.29793        -0.92163     -0.000729429      -0.0013226        -0.183596        0.135515
281701.4               -0.536847        0.399407     -0.000318365      0.00103875        -0.255718       -0.670037      0.000402245     0.000751051
                    -0.000370855     0.000831951        -0.228076     -0.00347239      0.000164946    -0.000257205         -0.29834       -0.921557
                       -0.256092       -0.669769      0.000618267    -0.000287749        -0.665302       0.0107961     -0.000707434     -0.00127431
                     0.000495298     0.000679511        -0.297958       -0.921622     -0.000729465     -0.00132253        -0.183589        0.135518
281701.5               -0.536821        0.399418     -0.000318292      0.00103875        -0.255752       -0.670038      0.000402236     0.000750986
                    -0.000370783     0.000831993        -0.228073     -0.00346515      0.000164961    -0.000257194        -0.298368       -0.921548
                       -0.256126       -0.669771      0.000618204    -0.000287792        -0.665288       0.0108311     -0.000707442     -0.00127423
                     0.000495298     0.000679486        -0.297986       -0.921614       -0.0007295     -0.00132245        -0.183583        0.135522
281701.6               -0.536795        0.399429     -0.000318218      0.00103876        -0.255786        -0.67004      0.000402227     0.000750921
                    -0.000370712     0.000832035         -0.22807     -0.00345792      0.000164976    -0.000257183        -0.298396        -0.92154
                        -0.25616       -0.669773      0.000618141    -0.000287835        -0.665274       0.0108661     -0.000707449     -0.00127414
                     0.000495298     0.000679461        -0.298014       -0.921606     -0.000729536     -0.00132238        -0.183576        0.135525
281701.7                -0.53677        0.399441     -0.000318145      0.00103876         -0.25582       -0.670042      0.000402218     0.000750856
                    -0.000370641     0.000832077        -0.228067     -0.00345068      0.000164991    -0.000257172        -0.298424       -0.921532
                       -0.256194       -0.669774      0.000618079    -0.000287878         -0.66526        0.010901     -0.000707457     -0.00127405
                     0.000495299     0.000679436        -0.298042       -0.921597     -0.000729571      -0.0013223         -0.18357        0.135528
281701.8               -0.536744        0.399452     -0.000318072      0.00103876        -0.255854       -0.670043      0.000402209     0.000750791
                    -0.000370569     0.000832118        -0.228064     -0.00344345      0.000165006     -0.00025716        -0.298452       -0.921524
                       -0.256227       -0.669776      0.000618016    -0.000287922        -0.665246        0.010936     -0.000707465     -0.00127396
                     0.000495299     0.000679411         -0.29807       -0.921589     -0.000729606     -0.00132223        -0.183563        0.135532
281701.9               -0.536719        0.399464     -0.000317998      0.00103877        -0.255888       -0.670045        0.0004022     0.000750727
                    -0.000370498      0.00083216         -0.22806     -0.00343622      0.000165021    -0.000257149         -0.29848       -0.921515
                       -0.256261       -0.669778      0.000617953    -0.000287965        -0.665232       0.0109709     -0.000707472     -0.00127387
                     0.000495299     0.000679386        -0.298098       -0.921581     -0.000729642     -0.00132215        -0.183557        0.135535
281702                 -0.536693        0.399475     -0.000317925      0.00103877        -0.255922       -0.670047      0.000402191     0.000750662
                    -0.000370426     0.000832202        -0.228057     -0.00342898      0.000165036    -0.000257138        -0.298508       -0.921507
                       -0.256295       -0.669779       0.00061789    -0.000288008        -0.665218       0.0110059      -0.00070748     -0.00127378
                     0.000495299     0.000679361        -0.298126       -0.921572     -0.000729677     -0.00132208         -0.18355        0.135538
281702.1               -0.536667        0.399486     -0.000317852      0.00103877        -0.255955       -0.670048      0.000402182     0.000750597
                    -0.000370355     0.000832243        -0.228054     -0.00342175      0.000165051    -0.000257127        -0.298536       -0.921499
                       -0.256329       -0.669781      0.000617827    -0.000288051        -0.665203       0.0110409     -0.000707488      -0.0012737
                     0.000495299     0.000679336        -0.298154       -0.921564     -0.000729713       -0.001322        -0.183544        0.135542
281702.2               -0.536642        0.399498     -0.000317779      0.00103878        -0.255989        -0.67005      0.000402173     0.000750532
                    -0.000370283     0.000832285        -0.228051     -0.00341452      0.000165066    -0.000257116        -0.298564       -0.921491
                       -0.256363       -0.669783      0.000617764    -0.000288094        -0.665189       0.0110758     -0.000707495     -0.00127361
                     0.000495299     0.000679311        -0.298182       -0.921556     -0.000729748     -0.00132193        -0.183537        0.135545
281702.3               -0.536616        0.399509     -0.000317706      0.00103878        -0.256023       -0.670052      0.000402165     0.000750467
                    -0.000370212     0.000832327        -0.228048     -0.00340728      0.000165081    -0.000257105        -0.298592       -0.921483
                       -0.256396       -0.669784      0.000617701    -0.000288137        -0.665175       0.0111108     -0.000707503     -0.00127352
                       0.0004953     0.000679287         -0.29821       -0.921548     -0.000729783     -0.00132185        -0.183531        0.135548
281702.4                -0.53659         0.39952     -0.000317632      0.00103878        -0.256057       -0.670053      0.000402156     0.000750402
                    -0.000370141     0.000832368        -0.228045     -0.00340005      0.000165096    -0.000257094         -0.29862       -0.921474
                        -0.25643       -0.669786      0.000617639     -0.00028818        -0.665161       0.0111457      -0.00070751     -0.00127343
                       0.0004953     0.000679262        -0.298238       -0.921539     -0.000729819     -0.00132178        -0.183524        0.135552
281702.5               -0.536565        0.399532     -0.000317559      0.00103879        -0.256091       -0.670055      0.000402147     0.000750337
                    -0.000370069      0.00083241        -0.228042     -0.00339282       0.00016511    -0.000257083        -0.298648       -0.921466
                       -0.256464       -0.669788      0.000617576    -0.000288223        -0.665147       0.0111807     -0.000707518     -0.00127334
                       0.0004953     0.000679237        -0.298266       -0.921531     -0.000729854      -0.0013217        -0.183518        0.135555
281702.6               -0.536539        0.399543     -0.000317486      0.00103879        -0.256125       -0.670057      0.000402138     0.000750273
                    -0.000369998     0.000832452        -0.228039     -0.00338559      0.000165125    -0.000257072        -0.298676       -0.921458
                       -0.256498       -0.669789      0.000617513    -0.000288267        -0.665133       0.0112156     -0.000707526     -0.00127326
                       0.0004953     0.000679212        -0.298294       -0.921523      -0.00072989     -0.00132163        -0.183512        0.135558
281702.7               -0.536514        0.399554     -0.000317413      0.00103879        -0.256159       -0.670058      0.000402129     0.000750208
                    -0.000369926     0.000832493        -0.228036     -0.00337836       0.00016514    -0.000257061        -0.298704        -0.92145
                       -0.256532       -0.669791       0.00061745     -0.00028831        -0.665119       0.0112506     -0.000707533     -0.00127317
                       0.0004953     0.000679187        -0.298322       -0.921515     -0.000729925     -0.00132155        -0.183505        0.135561
281702.8               -0.536488        0.399566     -0.000317339       0.0010388        -0.256193        -0.67006       0.00040212     0.000750143
                    -0.000369855     0.000832535        -0.228033     -0.00337112      0.000165155     -0.00025705        -0.298732       -0.921441
                       -0.256566       -0.669793      0.000617387    -0.000288353        -0.665105       0.0112855     -0.000707541     -0.00127308
                       0.0004953     0.000679162         -0.29835       -0.921506      -0.00072996     -0.00132148        -0.183499        0.135565
281702.9               -0.536462        0.399577     -0.000317266       0.0010388        -0.256227       -0.670062      0.000402111     0.000750078
                    -0.000369783     0.000832577        -0.228029     -0.00336389       0.00016517    -0.000257039         -0.29876       -0.921433
                       -0.256599       -0.669795      0.000617324    -0.000288396        -0.665091       0.0113204     -0.000707549     -0.00127299
                       0.0004953     0.000679137        -0.298378       -0.921498     -0.000729996      -0.0013214        -0.183492        0.135568
281703                 -0.536437        0.399588     -0.000317193       0.0010388        -0.256261       -0.670063      0.000402103     0.000750014
                    -0.000369711     0.000832618        -0.228026     -0.00335666      0.000165185    -0.000257028        -0.298788       -0.921425
                       -0.256633       -0.669796      0.000617262    -0.000288439        -0.665077       0.0113554     -0.000707557      -0.0012729
                       0.0004953     0.000679112        -0.298406        -0.92149     -0.000730031     -0.00132133        -0.183486        0.135571
281703.1               -0.536411          0.3996      -0.00031712       0.0010388        -0.256295       -0.670065      0.000402094     0.000749949
                     -0.00036964      0.00083266        -0.228023     -0.00334943        0.0001652    -0.000257017        -0.298816       -0.921417
                       -0.256667       -0.669798      0.000617199    -0.000288482        -0.665063       0.0113903     -0.000707564     -0.00127282
