! TOUCHSTONE file generated by CST MICROWAVE STUDIO
! Date and time: Wed Oct  8 06:54:43 2025
! Project name: Teste_Macro_Metasurface_Nanopilar.cst
! Parameters = {H=600; L_x=105; L_y=70; Lambda=1064; Max_L=200; Min_L=70; PathPara=1; Phi=0; Step_L=10; Theta=0; p=520; phaseX=180; phaseY=0}
! Header version: 2018
! Port assignment regex: !\s*Touchstone port\s*([0-9]+)\s*=\s*(CST MWS port|CST DS port)\s*([0-9]+|Zmin|Zmax)\s*\(\"(.*)\"\)(\s*mode\s*([0-9]+))?.*
! Touchstone port assignment:
! Touchstone port 1 = CST MWS port Zmax ("") mode 1
! Touchstone port 2 = CST MWS port Zmax ("") mode 2
! Touchstone port 3 = CST MWS port Zmin ("") mode 1
! Touchstone port 4 = CST MWS port Zmin ("") mode 2
! S-Parameters are not renormalized. Each port impedance will be approximated by the real part at minimum frequency. The values are described via the [Reference] keyword.
! Default impedance is overridden by [Reference]
[Version] 2.0
# GHz S RI R 376.73
[Number of Ports] 4
[Reference]
376.73 376.73 376.73 376.73 
[Number of Frequencies] 1001
[Network Data]
281700                  0.123468       0.0600717      0.000255694    -0.000352269        -0.976299        0.167793     -0.000218542    -0.000304266
                     8.10715e-05     -0.00017615        0.0584395       -0.114058     -0.000317722    -0.000570206        -0.819716         0.55568
                       -0.975857        0.167617      -9.9585e-05    -0.000290715       -0.0964718       0.0978466     -0.000170495    -0.000147341
                    -4.23465e-05    -0.000280452         -0.82042        0.555321     -0.000191503     2.25963e-05        -0.128021       0.0123328
281700.1                0.123468       0.0600656      0.000255658    -0.000352253        -0.976295        0.167819     -0.000218556    -0.000304261
                     8.10478e-05    -0.000176143        0.0584336       -0.114061     -0.000317741    -0.000570175        -0.819701        0.555702
                       -0.975853        0.167643     -9.95806e-05    -0.000290724       -0.0964683       0.0978458     -0.000170487    -0.000147336
                    -4.23427e-05    -0.000280456        -0.820405        0.555343     -0.000191491     2.25771e-05        -0.128021       0.0123332
281700.2                0.123467       0.0600595      0.000255622    -0.000352236        -0.976291        0.167845     -0.000218569    -0.000304257
                     8.10241e-05    -0.000176135        0.0584277       -0.114064      -0.00031776    -0.000570145        -0.819686        0.555724
                       -0.975849        0.167669     -9.95763e-05    -0.000290732       -0.0964648        0.097845      -0.00017048     -0.00014733
                    -4.23389e-05     -0.00028046         -0.82039        0.555365     -0.000191478     2.25579e-05        -0.128021       0.0123335
281700.3                0.123467       0.0600534      0.000255587    -0.000352219        -0.976287        0.167871     -0.000218582    -0.000304252
                     8.10004e-05    -0.000176128        0.0584218       -0.114067     -0.000317779    -0.000570115        -0.819671        0.555747
                       -0.975845        0.167694      -9.9572e-05     -0.00029074       -0.0964614       0.0978442     -0.000170472    -0.000147325
                     -4.2335e-05    -0.000280464        -0.820375        0.555387     -0.000191466     2.25387e-05        -0.128021       0.0123339
281700.4                0.123467       0.0600473      0.000255551    -0.000352203        -0.976282        0.167897     -0.000218596    -0.000304247
                     8.09768e-05     -0.00017612         0.058416       -0.114069     -0.000317798    -0.000570085        -0.819656        0.555769
                       -0.975841         0.16772     -9.95677e-05    -0.000290749       -0.0964579       0.0978434     -0.000170464     -0.00014732
                    -4.23312e-05    -0.000280468         -0.82036         0.55541     -0.000191454     2.25195e-05        -0.128021       0.0123343
281700.5                0.123466       0.0600412      0.000255515    -0.000352186        -0.976278        0.167922     -0.000218609    -0.000304242
                     8.09531e-05    -0.000176113        0.0584101       -0.114072     -0.000317817    -0.000570054        -0.819641        0.555791
                       -0.975837        0.167746     -9.95634e-05    -0.000290757       -0.0964545       0.0978427     -0.000170457    -0.000147315
                    -4.23273e-05    -0.000280472        -0.820345        0.555432     -0.000191442     2.25004e-05        -0.128021       0.0123347
281700.6                0.123466       0.0600351      0.000255479     -0.00035217        -0.976274        0.167948     -0.000218622    -0.000304238
                     8.09294e-05    -0.000176105        0.0584042       -0.114075     -0.000317836    -0.000570024        -0.819626        0.555813
                       -0.975833        0.167772     -9.95591e-05    -0.000290765        -0.096451       0.0978419     -0.000170449    -0.000147309
                    -4.23235e-05    -0.000280475         -0.82033        0.555454     -0.000191429     2.24812e-05        -0.128021        0.012335
281700.7                0.123465        0.060029      0.000255444    -0.000352153         -0.97627        0.167974     -0.000218636    -0.000304233
                     8.09057e-05    -0.000176097        0.0583983       -0.114078     -0.000317855    -0.000569994        -0.819611        0.555836
                       -0.975829        0.167798     -9.95548e-05    -0.000290773       -0.0964475       0.0978411     -0.000170441    -0.000147304
                    -4.23197e-05    -0.000280479        -0.820315        0.555476     -0.000191417      2.2462e-05        -0.128021       0.0123354
281700.8                0.123465       0.0600229      0.000255408    -0.000352136        -0.976266           0.168     -0.000218649    -0.000304228
                      8.0882e-05     -0.00017609        0.0583925       -0.114081     -0.000317874    -0.000569963        -0.819595        0.555858
                       -0.975825        0.167824     -9.95504e-05    -0.000290782       -0.0964441       0.0978403     -0.000170434    -0.000147299
                    -4.23158e-05    -0.000280483          -0.8203        0.555499     -0.000191405     2.24428e-05         -0.12802       0.0123358
281700.9                0.123465       0.0600168      0.000255372     -0.00035212        -0.976262        0.168026     -0.000218662    -0.000304223
                     8.08583e-05    -0.000176082        0.0583866       -0.114084     -0.000317893    -0.000569933         -0.81958         0.55588
                       -0.975821         0.16785     -9.95461e-05     -0.00029079       -0.0964406       0.0978396     -0.000170426    -0.000147293
                     -4.2312e-05    -0.000280487        -0.820284        0.555521     -0.000191393     2.24236e-05         -0.12802       0.0123362
281701                  0.123464       0.0600107      0.000255336    -0.000352103        -0.976258        0.168052     -0.000218676    -0.000304219
                     8.08346e-05    -0.000176075        0.0583807       -0.114087     -0.000317912    -0.000569903        -0.819565        0.555902
                       -0.975817        0.167875     -9.95418e-05    -0.000290798       -0.0964372       0.0978388     -0.000170418    -0.000147288
                    -4.23081e-05    -0.000280491        -0.820269        0.555543      -0.00019138     2.24044e-05         -0.12802       0.0123365
281701.1                0.123464       0.0600046        0.0002553    -0.000352086        -0.976254        0.168078     -0.000218689    -0.000304214
                     8.08109e-05    -0.000176067        0.0583748        -0.11409     -0.000317931    -0.000569873         -0.81955        0.555924
                       -0.975813        0.167901     -9.95375e-05    -0.000290806       -0.0964337        0.097838     -0.000170411    -0.000147283
                    -4.23043e-05    -0.000280495        -0.820254        0.555565     -0.000191368     2.23852e-05         -0.12802       0.0123369
281701.2                0.123464       0.0599985      0.000255265     -0.00035207         -0.97625        0.168104     -0.000218702    -0.000304209
                     8.07872e-05     -0.00017606         0.058369       -0.114093      -0.00031795    -0.000569842        -0.819535        0.555947
                       -0.975808        0.167927     -9.95332e-05    -0.000290815       -0.0964302       0.0978372     -0.000170403    -0.000147277
                    -4.23004e-05    -0.000280498        -0.820239        0.555588     -0.000191356      2.2366e-05         -0.12802       0.0123373
281701.3                0.123463       0.0599924      0.000255229    -0.000352053        -0.976246        0.168129     -0.000218716    -0.000304204
                     8.07634e-05    -0.000176052        0.0583631       -0.114096     -0.000317969    -0.000569812         -0.81952        0.555969
                       -0.975804        0.167953     -9.95289e-05    -0.000290823       -0.0964268       0.0978365     -0.000170396    -0.000147272
                    -4.22965e-05    -0.000280502        -0.820224         0.55561     -0.000191344     2.23468e-05         -0.12802       0.0123376
281701.4                0.123463       0.0599863      0.000255193    -0.000352037        -0.976242        0.168155     -0.000218729      -0.0003042
                     8.07397e-05    -0.000176045        0.0583572       -0.114099     -0.000317988    -0.000569782        -0.819505        0.555991
                         -0.9758        0.167979     -9.95246e-05    -0.000290831       -0.0964233       0.0978357     -0.000170388    -0.000147267
                    -4.22927e-05    -0.000280506        -0.820209        0.555632     -0.000191332     2.23277e-05         -0.12802        0.012338
281701.5                0.123463       0.0599802      0.000255157     -0.00035202        -0.976238        0.168181     -0.000218742    -0.000304195
                      8.0716e-05    -0.000176037        0.0583513       -0.114102     -0.000318007    -0.000569751         -0.81949        0.556013
                       -0.975796        0.168005     -9.95202e-05    -0.000290839       -0.0964198       0.0978349      -0.00017038    -0.000147262
                    -4.22888e-05     -0.00028051        -0.820194        0.555654     -0.000191319     2.23085e-05         -0.12802       0.0123384
281701.6                0.123462       0.0599741      0.000255122    -0.000352003        -0.976234        0.168207     -0.000218756     -0.00030419
                     8.06923e-05     -0.00017603        0.0583455       -0.114105     -0.000318026    -0.000569721        -0.819475        0.556035
                       -0.975792         0.16803     -9.95159e-05    -0.000290847       -0.0964164       0.0978341     -0.000170373    -0.000147256
                     -4.2285e-05    -0.000280514        -0.820179        0.555676     -0.000191307     2.22893e-05         -0.12802       0.0123388
281701.7                0.123462        0.059968      0.000255086    -0.000351987         -0.97623        0.168233     -0.000218769    -0.000304185
                     8.06685e-05    -0.000176022        0.0583396       -0.114108     -0.000318045    -0.000569691         -0.81946        0.556058
                       -0.975788        0.168056     -9.95116e-05    -0.000290856       -0.0964129       0.0978333     -0.000170365    -0.000147251
                    -4.22811e-05    -0.000280518        -0.820163        0.555699     -0.000191295     2.22701e-05         -0.12802       0.0123391
281701.8                0.123462       0.0599619       0.00025505     -0.00035197        -0.976226        0.168259     -0.000218782    -0.000304181
                     8.06448e-05    -0.000176015        0.0583337       -0.114111     -0.000318064    -0.000569661        -0.819445         0.55608
                       -0.975784        0.168082     -9.95073e-05    -0.000290864       -0.0964095       0.0978326     -0.000170357    -0.000147246
                    -4.22772e-05    -0.000280521        -0.820148        0.555721     -0.000191283     2.22509e-05        -0.128019       0.0123395
281701.9                0.123461       0.0599558      0.000255014    -0.000351954        -0.976222        0.168285     -0.000218796    -0.000304176
                      8.0621e-05    -0.000176007        0.0583278       -0.114114     -0.000318083     -0.00056963         -0.81943        0.556102
                        -0.97578        0.168108      -9.9503e-05    -0.000290872        -0.096406       0.0978318      -0.00017035     -0.00014724
                    -4.22734e-05    -0.000280525        -0.820133        0.555743     -0.000191271     2.22317e-05        -0.128019       0.0123399
281702                  0.123461       0.0599497      0.000254978    -0.000351937        -0.976218        0.168311     -0.000218809    -0.000304171
                     8.05973e-05       -0.000176         0.058322       -0.114117     -0.000318102      -0.0005696        -0.819415        0.556124
                       -0.975776        0.168134     -9.94987e-05     -0.00029088       -0.0964025        0.097831     -0.000170342    -0.000147235
                    -4.22695e-05    -0.000280529        -0.820118        0.555765     -0.000191258     2.22126e-05        -0.128019       0.0123403
281702.1                0.123461       0.0599436      0.000254943     -0.00035192        -0.976214        0.168336     -0.000218822    -0.000304166
                     8.05735e-05    -0.000175992        0.0583161        -0.11412     -0.000318121     -0.00056957          -0.8194        0.556147
                       -0.975772         0.16816     -9.94944e-05    -0.000290889       -0.0963991       0.0978302     -0.000170334     -0.00014723
                    -4.22656e-05    -0.000280533        -0.820103        0.555788     -0.000191246     2.21934e-05        -0.128019       0.0123406
281702.2                 0.12346       0.0599375      0.000254907    -0.000351904         -0.97621        0.168362     -0.000218835    -0.000304162
                     8.05498e-05    -0.000175985        0.0583102       -0.114123     -0.000318139    -0.000569539        -0.819385        0.556169
                       -0.975768        0.168185       -9.949e-05    -0.000290897       -0.0963956       0.0978295     -0.000170327    -0.000147225
                    -4.22617e-05    -0.000280537        -0.820088         0.55581     -0.000191234     2.21742e-05        -0.128019        0.012341
281702.3                 0.12346       0.0599314      0.000254871    -0.000351887        -0.976206        0.168388     -0.000218849    -0.000304157
                      8.0526e-05    -0.000175977        0.0583043       -0.114126     -0.000318158    -0.000569509         -0.81937        0.556191
                       -0.975764        0.168211     -9.94857e-05    -0.000290905       -0.0963922       0.0978287     -0.000170319    -0.000147219
                    -4.22579e-05     -0.00028054        -0.820073        0.555832     -0.000191222      2.2155e-05        -0.128019       0.0123414
281702.4                 0.12346       0.0599253      0.000254835     -0.00035187        -0.976202        0.168414     -0.000218862    -0.000304152
                     8.05023e-05    -0.000175969        0.0582984       -0.114128     -0.000318177    -0.000569479        -0.819354        0.556213
                        -0.97576        0.168237     -9.94814e-05    -0.000290913       -0.0963887       0.0978279     -0.000170312    -0.000147214
                     -4.2254e-05    -0.000280544        -0.820058        0.555854      -0.00019121     2.21358e-05        -0.128019       0.0123418
281702.5                0.123459       0.0599192      0.000254799    -0.000351854        -0.976198         0.16844     -0.000218875    -0.000304147
                     8.04785e-05    -0.000175962        0.0582926       -0.114131     -0.000318196    -0.000569448        -0.819339        0.556235
                       -0.975756        0.168263     -9.94771e-05    -0.000290921       -0.0963852       0.0978271     -0.000170304    -0.000147209
                    -4.22501e-05    -0.000280548        -0.820043        0.555876     -0.000191197     2.21167e-05        -0.128019       0.0123421
281702.6                0.123459       0.0599131      0.000254764    -0.000351837        -0.976194        0.168466     -0.000218889    -0.000304143
                     8.04547e-05    -0.000175954        0.0582867       -0.114134     -0.000318215    -0.000569418        -0.819324        0.556258
                       -0.975752        0.168289     -9.94728e-05     -0.00029093       -0.0963818       0.0978263     -0.000170296    -0.000147203
                    -4.22462e-05    -0.000280552        -0.820027        0.555899     -0.000191185     2.20975e-05        -0.128019       0.0123425
281702.7                0.123458        0.059907      0.000254728    -0.000351821        -0.976189        0.168492     -0.000218902    -0.000304138
                      8.0431e-05    -0.000175947        0.0582808       -0.114137     -0.000318234    -0.000569388        -0.819309         0.55628
                       -0.975748        0.168315     -9.94685e-05    -0.000290938       -0.0963783       0.0978256     -0.000170289    -0.000147198
                    -4.22423e-05    -0.000280556        -0.820012        0.555921     -0.000191173     2.20783e-05        -0.128019       0.0123429
281702.8                0.123458       0.0599009      0.000254692    -0.000351804        -0.976185        0.168518     -0.000218915    -0.000304133
                     8.04072e-05    -0.000175939        0.0582749        -0.11414     -0.000318253    -0.000569357        -0.819294        0.556302
                       -0.975744        0.168341     -9.94641e-05    -0.000290946       -0.0963749       0.0978248     -0.000170281    -0.000147193
                    -4.22384e-05     -0.00028056        -0.819997        0.555943     -0.000191161     2.20591e-05        -0.128018       0.0123433
281702.9                0.123458       0.0598948      0.000254656    -0.000351787        -0.976181        0.168543     -0.000218929    -0.000304128
                     8.03834e-05    -0.000175932        0.0582691       -0.114143     -0.000318272    -0.000569327        -0.819279        0.556324
                        -0.97574        0.168366     -9.94598e-05    -0.000290954       -0.0963714        0.097824     -0.000170273    -0.000147187
                    -4.22346e-05    -0.000280563        -0.819982        0.555965     -0.000191149     2.20399e-05        -0.128018       0.0123436
281703                  0.123457       0.0598887       0.00025462    -0.000351771        -0.976177        0.168569     -0.000218942    -0.000304124
                     8.03596e-05    -0.000175924        0.0582632       -0.114146     -0.000318291    -0.000569297        -0.819264        0.556346
                       -0.975736        0.168392     -9.94555e-05    -0.000290962       -0.0963679       0.0978232     -0.000170266    -0.000147182
                    -4.22307e-05    -0.000280567        -0.819967        0.555988     -0.000191137     2.20208e-05        -0.128018        0.012344
281703.1                0.123457       0.0598826      0.000254585    -0.000351754        -0.976173        0.168595     -0.000218955    -0.000304119
                     8.03358e-05    -0.000175917        0.0582573       -0.114149     -0.000318309    -0.000569267        -0.819249        0.556369
                       -0.975732        0.168418     -9.94512e-05    -0.000290971       -0.0963645       0.0978224     -0.000170258    -0.000147177
