! TOUCHSTONE file generated by CST MICROWAVE STUDIO
! Date and time: Wed Oct  8 07:02:35 2025
! Project name: Teste_Macro_Metasurface_Nanopilar.cst
! Parameters = {H=600; L_x=170; L_y=90; Lambda=1064; Max_L=200; Min_L=70; PathPara=1; Phi=0; Step_L=10; Theta=0; p=520; phaseX=180; phaseY=0}
! Header version: 2018
! Port assignment regex: !\s*Touchstone port\s*([0-9]+)\s*=\s*(CST MWS port|CST DS port)\s*([0-9]+|Zmin|Zmax)\s*\(\"(.*)\"\)(\s*mode\s*([0-9]+))?.*
! Touchstone port assignment:
! Touchstone port 1 = CST MWS port Zmax ("") mode 1
! Touchstone port 2 = CST MWS port Zmax ("") mode 2
! Touchstone port 3 = CST MWS port Zmin ("") mode 1
! Touchstone port 4 = CST MWS port Zmin ("") mode 2
! S-Parameters are not renormalized. Each port impedance will be approximated by the real part at minimum frequency. The values are described via the [Reference] keyword.
! Default impedance is overridden by [Reference]
[Version] 2.0
# GHz S RI R 376.73
[Number of Ports] 4
[Reference]
376.73 376.73 376.73 376.73 
[Number of Frequencies] 1001
[Network Data]
281700                  -0.14372       -0.155648     -7.44379e-05    -0.000967813        -0.247444        0.942306      0.000841003     0.000372374
                    -7.15946e-05     -0.00090919        -0.141419      -0.0549653     -0.000580156     0.000458356        -0.568029       -0.802138
                        -0.24726        0.942368     -0.000610386     0.000491059        -0.201692       0.0653534     -0.000110875    -0.000717195
                     0.000869419      0.00036016        -0.568132       -0.802292     -0.000157241    -0.000798881       0.00327019        0.149314
281700.1               -0.143725       -0.155642     -7.44623e-05    -0.000967824        -0.247417        0.942314      0.000841013     0.000372355
                    -7.16293e-05    -0.000909194        -0.141415      -0.0549632     -0.000580142     0.000458378        -0.568055       -0.802121
                       -0.247233        0.942375     -0.000610389     0.000491083         -0.20169       0.0653574     -0.000110891    -0.000717203
                     0.000869446     0.000360131        -0.568159       -0.802274      -0.00015727     -0.00079889       0.00327927        0.149309
281700.2                -0.14373       -0.155636     -7.44868e-05    -0.000967834         -0.24739        0.942321      0.000841024     0.000372335
                     -7.1664e-05    -0.000909197        -0.141411       -0.054961     -0.000580128     0.000458399        -0.568081       -0.802103
                       -0.247206        0.942383     -0.000610392     0.000491106        -0.201687       0.0653614     -0.000110906    -0.000717211
                     0.000869474     0.000360103        -0.568185       -0.802257     -0.000157299    -0.000798899       0.00328835        0.149304
281700.3               -0.143735        -0.15563     -7.45113e-05    -0.000967844        -0.247363        0.942329      0.000841034     0.000372316
                    -7.16986e-05    -0.000909201        -0.141406      -0.0549589     -0.000580113      0.00045842        -0.568107       -0.802085
                       -0.247179         0.94239     -0.000610396      0.00049113        -0.201685       0.0653655     -0.000110922    -0.000717219
                     0.000869502     0.000360075        -0.568211       -0.802239     -0.000157328    -0.000798909       0.00329744        0.149299
281700.4               -0.143739       -0.155624     -7.45357e-05    -0.000967855        -0.247336        0.942336      0.000841044     0.000372296
                    -7.17333e-05    -0.000909204        -0.141402      -0.0549567     -0.000580099     0.000458442        -0.568134       -0.802068
                       -0.247152        0.942397     -0.000610399     0.000491153        -0.201682       0.0653695     -0.000110938    -0.000717228
                     0.000869529     0.000360046        -0.568237       -0.802221     -0.000157357    -0.000798918       0.00330652        0.149294
281700.5               -0.143744       -0.155618     -7.45602e-05    -0.000967865        -0.247309        0.942343      0.000841054     0.000372276
                    -7.17679e-05    -0.000909208        -0.141397      -0.0549546     -0.000580085     0.000458463         -0.56816        -0.80205
                       -0.247125        0.942405     -0.000610402     0.000491177         -0.20168       0.0653735     -0.000110953    -0.000717236
                     0.000869557     0.000360018        -0.568264       -0.802204     -0.000157386    -0.000798928        0.0033156        0.149288
281700.6               -0.143749       -0.155612     -7.45847e-05    -0.000967876        -0.247282        0.942351      0.000841064     0.000372257
                    -7.18026e-05    -0.000909211        -0.141393      -0.0549524     -0.000580071     0.000458484        -0.568186       -0.802032
                       -0.247098        0.942412     -0.000610405       0.0004912        -0.201677       0.0653775     -0.000110969    -0.000717244
                     0.000869585      0.00035999         -0.56829       -0.802186     -0.000157415    -0.000798937       0.00332469        0.149283
281700.7               -0.143754       -0.155606     -7.46091e-05    -0.000967886        -0.247255        0.942358      0.000841074     0.000372237
                    -7.18373e-05    -0.000909215        -0.141389      -0.0549503     -0.000580057     0.000458506        -0.568212       -0.802014
                       -0.247071         0.94242     -0.000610409     0.000491224        -0.201674       0.0653815     -0.000110985    -0.000717252
                     0.000869613     0.000359961        -0.568316       -0.802168     -0.000157444    -0.000798946       0.00333377        0.149278
281700.8               -0.143758         -0.1556     -7.46336e-05    -0.000967896        -0.247228        0.942365      0.000841085     0.000372218
                    -7.18719e-05    -0.000909218        -0.141384      -0.0549482     -0.000580042     0.000458527        -0.568239       -0.801997
                       -0.247044        0.942427     -0.000610412     0.000491247        -0.201672       0.0653855        -0.000111    -0.000717261
                      0.00086964     0.000359933        -0.568342        -0.80215     -0.000157473    -0.000798956       0.00334285        0.149273
281700.9               -0.143763       -0.155594     -7.46581e-05    -0.000967907        -0.247201        0.942373      0.000841095     0.000372198
                    -7.19066e-05    -0.000909222         -0.14138       -0.054946     -0.000580028     0.000458548        -0.568265       -0.801979
                       -0.247017        0.942434     -0.000610415     0.000491271        -0.201669       0.0653895     -0.000111016    -0.000717269
                     0.000869668     0.000359905        -0.568369       -0.802133     -0.000157502    -0.000798965       0.00335193        0.149268
281701                 -0.143768       -0.155588     -7.46826e-05    -0.000967917        -0.247173         0.94238      0.000841105     0.000372179
                    -7.19412e-05    -0.000909226        -0.141376      -0.0549439     -0.000580014      0.00045857        -0.568291       -0.801961
                        -0.24699        0.942442     -0.000610418     0.000491294        -0.201667       0.0653936     -0.000111032    -0.000717277
                     0.000869696     0.000359876        -0.568395       -0.802115     -0.000157531    -0.000798974       0.00336101        0.149263
281701.1               -0.143773       -0.155582      -7.4707e-05    -0.000967927        -0.247146        0.942387      0.000841115     0.000372159
                    -7.19759e-05    -0.000909229        -0.141371      -0.0549417         -0.00058     0.000458591        -0.568317       -0.801944
                       -0.246963        0.942449     -0.000610422     0.000491318        -0.201664       0.0653976     -0.000111048    -0.000717285
                     0.000869723     0.000359848        -0.568421       -0.802097      -0.00015756    -0.000798984       0.00337009        0.149257
281701.2               -0.143777       -0.155576     -7.47315e-05    -0.000967938        -0.247119        0.942395      0.000841125     0.000372139
                    -7.20106e-05    -0.000909233        -0.141367      -0.0549396     -0.000579986     0.000458613        -0.568344       -0.801926
                       -0.246936        0.942456     -0.000610425     0.000491341        -0.201662       0.0654016     -0.000111063    -0.000717293
                     0.000869751      0.00035982        -0.568447       -0.802079     -0.000157589    -0.000798993       0.00337918        0.149252
281701.3               -0.143782        -0.15557      -7.4756e-05    -0.000967948        -0.247092        0.942402      0.000841136      0.00037212
                    -7.20452e-05    -0.000909236        -0.141362      -0.0549375     -0.000579971     0.000458634         -0.56837       -0.801908
                       -0.246909        0.942464     -0.000610428     0.000491364        -0.201659       0.0654056     -0.000111079    -0.000717302
                     0.000869779     0.000359792        -0.568474       -0.802062     -0.000157618    -0.000799003       0.00338826        0.149247
281701.4               -0.143787       -0.155564     -7.47804e-05    -0.000967958        -0.247065        0.942409      0.000841146       0.0003721
                    -7.20799e-05     -0.00090924        -0.141358      -0.0549353     -0.000579957     0.000458655        -0.568396       -0.801891
                       -0.246882        0.942471     -0.000610431     0.000491388        -0.201657       0.0654096     -0.000111095     -0.00071731
                     0.000869806     0.000359763          -0.5685       -0.802044     -0.000157647    -0.000799012       0.00339734        0.149242
281701.5               -0.143792       -0.155558     -7.48049e-05    -0.000967969        -0.247038        0.942417      0.000841156     0.000372081
                    -7.21146e-05    -0.000909243        -0.141354      -0.0549332     -0.000579943     0.000458677        -0.568422       -0.801873
                       -0.246854        0.942478     -0.000610435     0.000491411        -0.201654       0.0654136      -0.00011111    -0.000717318
                     0.000869834     0.000359735        -0.568526       -0.802026     -0.000157676    -0.000799021       0.00340642        0.149237
281701.6               -0.143797       -0.155552     -7.48294e-05    -0.000967979        -0.247011        0.942424      0.000841166     0.000372061
                    -7.21492e-05    -0.000909247        -0.141349       -0.054931     -0.000579929     0.000458698        -0.568449       -0.801855
                       -0.246827        0.942486     -0.000610438     0.000491435        -0.201652       0.0654176     -0.000111126    -0.000717326
                     0.000869862     0.000359707        -0.568552       -0.802009     -0.000157705    -0.000799031        0.0034155        0.149232
281701.7               -0.143801       -0.155546     -7.48538e-05    -0.000967989        -0.246984        0.942432      0.000841176     0.000372042
                    -7.21839e-05     -0.00090925        -0.141345      -0.0549289     -0.000579915     0.000458719        -0.568475       -0.801838
                         -0.2468        0.942493     -0.000610441     0.000491458        -0.201649       0.0654217     -0.000111142    -0.000717335
                     0.000869889     0.000359678        -0.568578       -0.801991     -0.000157733     -0.00079904       0.00342458        0.149226
281701.8               -0.143806        -0.15554     -7.48783e-05       -0.000968        -0.246957        0.942439      0.000841186     0.000372022
                    -7.22185e-05    -0.000909254        -0.141341      -0.0549268       -0.0005799     0.000458741        -0.568501        -0.80182
                       -0.246773          0.9425     -0.000610444     0.000491481        -0.201646       0.0654257     -0.000111157    -0.000717343
                     0.000869917      0.00035965        -0.568605       -0.801973     -0.000157762    -0.000799049       0.00343366        0.149221
281701.9               -0.143811       -0.155534     -7.49028e-05     -0.00096801         -0.24693        0.942446      0.000841197     0.000372003
                    -7.22532e-05    -0.000909258        -0.141336      -0.0549246     -0.000579886     0.000458762        -0.568527       -0.801802
                       -0.246746        0.942508     -0.000610448     0.000491505        -0.201644       0.0654297     -0.000111173    -0.000717351
                     0.000869945     0.000359622        -0.568631       -0.801955     -0.000157791    -0.000799059       0.00344274        0.149216
281702                 -0.143816       -0.155528     -7.49273e-05     -0.00096802        -0.246903        0.942454      0.000841207     0.000371983
                    -7.22879e-05    -0.000909261        -0.141332      -0.0549225     -0.000579872     0.000458783        -0.568554       -0.801785
                       -0.246719        0.942515     -0.000610451     0.000491528        -0.201641       0.0654337     -0.000111189    -0.000717359
                     0.000869972     0.000359593        -0.568657       -0.801938      -0.00015782    -0.000799068       0.00345182        0.149211
281702.1                -0.14382       -0.155522     -7.49517e-05    -0.000968031        -0.246876        0.942461      0.000841217     0.000371963
                    -7.23225e-05    -0.000909265        -0.141327      -0.0549203     -0.000579858     0.000458805         -0.56858       -0.801767
                       -0.246692        0.942522     -0.000610454     0.000491552        -0.201639       0.0654377     -0.000111204    -0.000717368
                         0.00087     0.000359565        -0.568683        -0.80192     -0.000157849    -0.000799077        0.0034609        0.149206
281702.2               -0.143825       -0.155516     -7.49762e-05    -0.000968041        -0.246849        0.942468      0.000841227     0.000371944
                    -7.23572e-05    -0.000909268        -0.141323      -0.0549182     -0.000579843     0.000458826        -0.568606       -0.801749
                       -0.246665         0.94253     -0.000610457     0.000491575        -0.201636       0.0654417      -0.00011122    -0.000717376
                     0.000870028     0.000359537         -0.56871       -0.801902     -0.000157878    -0.000799087       0.00346997          0.1492
281702.3                -0.14383        -0.15551     -7.50007e-05    -0.000968051        -0.246822        0.942476      0.000841237     0.000371924
                    -7.23919e-05    -0.000909272        -0.141319      -0.0549161     -0.000579829     0.000458847        -0.568632       -0.801731
                       -0.246638        0.942537     -0.000610461     0.000491598        -0.201634       0.0654457     -0.000111236    -0.000717384
                     0.000870055     0.000359508        -0.568736       -0.801884     -0.000157907    -0.000799096       0.00347905        0.149195
281702.4               -0.143835       -0.155504     -7.50251e-05    -0.000968062        -0.246795        0.942483      0.000841248     0.000371905
                    -7.24265e-05    -0.000909275        -0.141314      -0.0549139     -0.000579815     0.000458869        -0.568659       -0.801714
                       -0.246611        0.942544     -0.000610464     0.000491622        -0.201631       0.0654498     -0.000111251    -0.000717392
                     0.000870083      0.00035948        -0.568762       -0.801867     -0.000157936    -0.000799105       0.00348813         0.14919
281702.5               -0.143839       -0.155498     -7.50496e-05    -0.000968072        -0.246767         0.94249      0.000841258     0.000371885
                    -7.24612e-05    -0.000909279         -0.14131      -0.0549118     -0.000579801      0.00045889        -0.568685       -0.801696
                       -0.246584        0.942552     -0.000610467     0.000491645        -0.201629       0.0654538     -0.000111267      -0.0007174
                     0.000870111     0.000359452        -0.568788       -0.801849     -0.000157965    -0.000799115       0.00349721        0.149185
281702.6               -0.143844       -0.155492     -7.50741e-05    -0.000968082         -0.24674        0.942498      0.000841268     0.000371866
                    -7.24959e-05    -0.000909282        -0.141306      -0.0549096     -0.000579787     0.000458911        -0.568711       -0.801678
                       -0.246557        0.942559      -0.00061047     0.000491668        -0.201626       0.0654578     -0.000111283    -0.000717409
                     0.000870138     0.000359424        -0.568815       -0.801831     -0.000157994    -0.000799124       0.00350629         0.14918
281702.7               -0.143849       -0.155486     -7.50986e-05    -0.000968092        -0.246713        0.942505      0.000841278     0.000371846
                    -7.25305e-05    -0.000909286        -0.141301      -0.0549075     -0.000579772     0.000458933        -0.568737       -0.801661
                        -0.24653        0.942566     -0.000610474     0.000491692        -0.201624       0.0654618     -0.000111299    -0.000717417
                     0.000870166     0.000359395        -0.568841       -0.801813     -0.000158023    -0.000799133       0.00351536        0.149175
281702.8               -0.143854        -0.15548      -7.5123e-05    -0.000968103        -0.246686        0.942512      0.000841288     0.000371827
                    -7.25652e-05    -0.000909289        -0.141297      -0.0549054     -0.000579758     0.000458954        -0.568764       -0.801643
                       -0.246503        0.942574     -0.000610477     0.000491715        -0.201621       0.0654658     -0.000111314    -0.000717425
                     0.000870194     0.000359367        -0.568867       -0.801796     -0.000158052    -0.000799143       0.00352444        0.149169
281702.9               -0.143858       -0.155474     -7.51475e-05    -0.000968113        -0.246659         0.94252      0.000841298     0.000371807
                    -7.25999e-05    -0.000909293        -0.141292      -0.0549032     -0.000579744     0.000458975         -0.56879       -0.801625
                       -0.246475        0.942581      -0.00061048     0.000491738        -0.201618       0.0654698      -0.00011133    -0.000717433
                     0.000870221     0.000359339        -0.568893       -0.801778     -0.000158081    -0.000799152       0.00353352        0.149164
281703                 -0.143863       -0.155468      -7.5172e-05    -0.000968123        -0.246632        0.942527      0.000841309     0.000371788
                    -7.26345e-05    -0.000909297        -0.141288      -0.0549011      -0.00057973     0.000458997        -0.568816       -0.801608
                       -0.246448        0.942588     -0.000610483     0.000491762        -0.201616       0.0654738     -0.000111346    -0.000717442
                     0.000870249      0.00035931        -0.568919        -0.80176      -0.00015811    -0.000799161        0.0035426        0.149159
281703.1               -0.143868       -0.155462     -7.51964e-05    -0.000968134        -0.246605        0.942534      0.000841319     0.000371768
                    -7.26692e-05      -0.0009093        -0.141284       -0.054899     -0.000579715     0.000459018        -0.568842        -0.80159
                       -0.246421        0.942596     -0.000610487     0.000491785        -0.201613       0.0654778     -0.000111361     -0.00071745
