! TOUCHSTONE file generated by CST MICROWAVE STUDIO
! Date and time: Wed Oct  8 06:56:48 2025
! Project name: Teste_Macro_Metasurface_Nanopilar.cst
! Parameters = {H=600; L_x=120; L_y=135; Lambda=1064; Max_L=200; Min_L=70; PathPara=1; Phi=0; Step_L=10; Theta=0; p=520; phaseX=180; phaseY=0}
! Header version: 2018
! Port assignment regex: !\s*Touchstone port\s*([0-9]+)\s*=\s*(CST MWS port|CST DS port)\s*([0-9]+|Zmin|Zmax)\s*\(\"(.*)\"\)(\s*mode\s*([0-9]+))?.*
! Touchstone port assignment:
! Touchstone port 1 = CST MWS port Zmax ("") mode 1
! Touchstone port 2 = CST MWS port Zmax ("") mode 2
! Touchstone port 3 = CST MWS port Zmin ("") mode 1
! Touchstone port 4 = CST MWS port Zmin ("") mode 2
! S-Parameters are not renormalized. Each port impedance will be approximated by the real part at minimum frequency. The values are described via the [Reference] keyword.
! Default impedance is overridden by [Reference]
[Version] 2.0
# GHz S RI R 376.73
[Number of Ports] 4
[Reference]
376.73 376.73 376.73 376.73 
[Number of Frequencies] 1001
[Network Data]
281700                 -0.223863       -0.076457      0.000249347     0.000401489       -0.0630962       -0.963341      0.000239212     0.000457608
                     0.000134585     0.000338894       -0.0859371       -0.169331      0.000441561    -0.000523625         0.592115       -0.771948
                       -0.062853       -0.963363       0.00040745    -0.000420837        -0.212663         0.10512      0.000497304    -0.000166125
                     9.90066e-05     0.000464895         0.592179        -0.77217        0.0004828    -0.000304239        -0.187804      -0.0363604
281700.1               -0.223863      -0.0764486       0.00024935     0.000401478        -0.063126       -0.963339      0.000239219     0.000457611
                     0.000134589     0.000338894       -0.0859459       -0.169329      0.000441538     -0.00052364         0.592089       -0.771967
                      -0.0628828       -0.963362      0.000407435    -0.000420856        -0.212658        0.105125      0.000497289    -0.000166152
                     9.90116e-05     0.000464895         0.592153       -0.772189      0.000482771    -0.000304261        -0.187807       -0.036357
281700.2               -0.223864      -0.0764401      0.000249354     0.000401467       -0.0631559       -0.963338      0.000239226     0.000457614
                     0.000134593     0.000338894       -0.0859547       -0.169328      0.000441515    -0.000523655         0.592063       -0.771987
                      -0.0629126        -0.96336       0.00040742    -0.000420875        -0.212654        0.105129      0.000497275    -0.000166178
                     9.90166e-05     0.000464896         0.592127       -0.772209      0.000482742    -0.000304283         -0.18781      -0.0363536
281700.3               -0.223865      -0.0764317      0.000249357     0.000401456       -0.0631857       -0.963337      0.000239232     0.000457618
                     0.000134597     0.000338894       -0.0859635       -0.169326      0.000441492     -0.00052367         0.592037       -0.772006
                      -0.0629424       -0.963359      0.000407404    -0.000420894        -0.212649        0.105134       0.00049726    -0.000166204
                     9.90215e-05     0.000464896         0.592101       -0.772228      0.000482713    -0.000304304        -0.187813      -0.0363503
281700.4               -0.223866      -0.0764232      0.000249361     0.000401445       -0.0632156       -0.963335      0.000239239     0.000457621
                     0.000134601     0.000338894       -0.0859723       -0.169324      0.000441469    -0.000523686         0.592011       -0.772025
                      -0.0629722       -0.963358      0.000407389    -0.000420913        -0.212645        0.105139      0.000497245    -0.000166231
                     9.90265e-05     0.000464897         0.592075       -0.772248      0.000482684    -0.000304326        -0.187816      -0.0363469
281700.5               -0.223867      -0.0764147      0.000249364     0.000401434       -0.0632454       -0.963334      0.000239246     0.000457625
                     0.000134605     0.000338893       -0.0859812       -0.169322      0.000441446    -0.000523701         0.591985       -0.772045
                      -0.0630019       -0.963356      0.000407373    -0.000420932         -0.21264        0.105144      0.000497231    -0.000166257
                     9.90314e-05     0.000464897         0.592049       -0.772267      0.000482655    -0.000304348        -0.187818      -0.0363435
281700.6               -0.223867      -0.0764063      0.000249367     0.000401423       -0.0632752       -0.963332      0.000239253     0.000457628
                     0.000134609     0.000338893         -0.08599        -0.16932      0.000441423    -0.000523716         0.591959       -0.772064
                      -0.0630317       -0.963355      0.000407358    -0.000420951        -0.212635        0.105149      0.000497216    -0.000166283
                     9.90363e-05     0.000464897         0.592023       -0.772286      0.000482627     -0.00030437        -0.187821      -0.0363402
281700.7               -0.223868      -0.0763978      0.000249371     0.000401412       -0.0633051       -0.963331       0.00023926     0.000457631
                     0.000134612     0.000338893       -0.0859988       -0.169318        0.0004414    -0.000523731         0.591933       -0.772084
                      -0.0630615       -0.963353      0.000407342     -0.00042097        -0.212631        0.105153      0.000497201    -0.000166309
                     9.90412e-05     0.000464898         0.591997       -0.772306      0.000482598    -0.000304391        -0.187824      -0.0363368
281700.8               -0.223869      -0.0763894      0.000249374     0.000401401       -0.0633349        -0.96333      0.000239267     0.000457635
                     0.000134616     0.000338893       -0.0860076       -0.169316      0.000441378    -0.000523747         0.591907       -0.772103
                      -0.0630913       -0.963352      0.000407327    -0.000420989        -0.212626        0.105158      0.000497187    -0.000166336
                      9.9046e-05     0.000464898         0.591971       -0.772325      0.000482569    -0.000304413        -0.187827      -0.0363334
281700.9                -0.22387      -0.0763809      0.000249378     0.000401389       -0.0633648       -0.963328      0.000239273     0.000457638
                      0.00013462     0.000338893       -0.0860164       -0.169315      0.000441355    -0.000523762         0.591881       -0.772122
                      -0.0631211       -0.963351      0.000407312    -0.000421008        -0.212622        0.105163      0.000497172    -0.000166362
                     9.90509e-05     0.000464899         0.591945       -0.772344       0.00048254    -0.000304434         -0.18783      -0.0363301
281701                 -0.223871      -0.0763725      0.000249381     0.000401378       -0.0633946       -0.963327       0.00023928     0.000457641
                     0.000134624     0.000338893       -0.0860253       -0.169313      0.000441332    -0.000523777         0.591855       -0.772142
                      -0.0631509       -0.963349      0.000407296    -0.000421027        -0.212617        0.105168      0.000497158    -0.000166388
                     9.90557e-05     0.000464899         0.591919       -0.772364      0.000482511    -0.000304456        -0.187833      -0.0363267
281701.1               -0.223871       -0.076364      0.000249384     0.000401367       -0.0634244       -0.963325      0.000239287     0.000457645
                     0.000134628     0.000338893       -0.0860341       -0.169311      0.000441309    -0.000523792         0.591829       -0.772161
                      -0.0631807       -0.963348      0.000407281    -0.000421046        -0.212612        0.105172      0.000497143    -0.000166415
                     9.90605e-05     0.000464899         0.591893       -0.772383      0.000482482    -0.000304478        -0.187836      -0.0363233
281701.2               -0.223872      -0.0763555      0.000249388     0.000401356       -0.0634543       -0.963324      0.000239294     0.000457648
                     0.000134631     0.000338893       -0.0860429       -0.169309      0.000441286    -0.000523807         0.591803       -0.772181
                      -0.0632104       -0.963346      0.000407265    -0.000421065        -0.212608        0.105177      0.000497128    -0.000166441
                     9.90653e-05       0.0004649         0.591867       -0.772403      0.000482453    -0.000304499        -0.187839        -0.03632
281701.3               -0.223873      -0.0763471      0.000249391     0.000401345       -0.0634841       -0.963322      0.000239301     0.000457651
                     0.000134635     0.000338893       -0.0860517       -0.169307      0.000441263    -0.000523823         0.591777         -0.7722
                      -0.0632402       -0.963345       0.00040725    -0.000421084        -0.212603        0.105182      0.000497114    -0.000166467
                     9.90701e-05       0.0004649         0.591841       -0.772422      0.000482424    -0.000304521        -0.187842      -0.0363166
281701.4               -0.223874      -0.0763386      0.000249395     0.000401334        -0.063514       -0.963321      0.000239308     0.000457654
                     0.000134639     0.000338893       -0.0860605       -0.169305      0.000441241    -0.000523838         0.591751        -0.77222
                        -0.06327       -0.963343      0.000407235    -0.000421103        -0.212599        0.105187      0.000497099    -0.000166493
                     9.90749e-05       0.0004649         0.591815       -0.772441      0.000482395    -0.000304543        -0.187845      -0.0363132
281701.5               -0.223875      -0.0763302      0.000249398     0.000401323       -0.0635438        -0.96332      0.000239314     0.000457658
                     0.000134642     0.000338893       -0.0860694       -0.169303      0.000441218    -0.000523853         0.591725       -0.772239
                      -0.0632998       -0.963342      0.000407219    -0.000421122        -0.212594        0.105192      0.000497084     -0.00016652
                     9.90796e-05     0.000464901         0.591789       -0.772461      0.000482366    -0.000304564        -0.187848      -0.0363099
281701.6               -0.223875      -0.0763217      0.000249401     0.000401312       -0.0635736       -0.963318      0.000239321     0.000457661
                     0.000134646     0.000338893       -0.0860782       -0.169302      0.000441195    -0.000523868         0.591699       -0.772258
                      -0.0633296       -0.963341      0.000407204    -0.000421141        -0.212589        0.105196       0.00049707    -0.000166546
                     9.90843e-05     0.000464901         0.591763        -0.77248      0.000482337    -0.000304586        -0.187851      -0.0363065
281701.7               -0.223876      -0.0763133      0.000249405     0.000401301       -0.0636035       -0.963317      0.000239328     0.000457664
                      0.00013465     0.000338893        -0.086087         -0.1693      0.000441172    -0.000523883         0.591673       -0.772278
                      -0.0633594       -0.963339      0.000407188     -0.00042116        -0.212585        0.105201      0.000497055    -0.000166572
                      9.9089e-05     0.000464901         0.591737       -0.772499      0.000482308    -0.000304607        -0.187854      -0.0363031
281701.8               -0.223877      -0.0763048      0.000249408      0.00040129       -0.0636333       -0.963315      0.000239335     0.000457668
                     0.000134653     0.000338893       -0.0860958       -0.169298      0.000441149    -0.000523898         0.591647       -0.772297
                      -0.0633892       -0.963338      0.000407173    -0.000421179         -0.21258        0.105206       0.00049704    -0.000166598
                     9.90937e-05     0.000464901         0.591711       -0.772519      0.000482279    -0.000304629        -0.187857      -0.0362998
281701.9               -0.223878      -0.0762964      0.000249411     0.000401278       -0.0636631       -0.963314      0.000239342     0.000457671
                     0.000134657     0.000338893       -0.0861046       -0.169296      0.000441127    -0.000523914         0.591621       -0.772317
                       -0.063419       -0.963336      0.000407158    -0.000421199        -0.212576        0.105211      0.000497026    -0.000166625
                     9.90984e-05     0.000464902         0.591685       -0.772538       0.00048225     -0.00030465         -0.18786      -0.0362964
281702                 -0.223879      -0.0762879      0.000249415     0.000401267        -0.063693       -0.963313      0.000239349     0.000457674
                     0.000134661     0.000338893       -0.0861135       -0.169294      0.000441104    -0.000523929         0.591595       -0.772336
                      -0.0634487       -0.963335      0.000407142    -0.000421218        -0.212571        0.105215      0.000497011    -0.000166651
                      9.9103e-05     0.000464902         0.591659       -0.772558      0.000482221    -0.000304672        -0.187863       -0.036293
281702.1               -0.223879      -0.0762794      0.000249418     0.000401256       -0.0637228       -0.963311      0.000239355     0.000457678
                     0.000134664     0.000338893       -0.0861223       -0.169292      0.000441081    -0.000523944         0.591569       -0.772355
                      -0.0634785       -0.963333      0.000407127    -0.000421237        -0.212566         0.10522      0.000496996    -0.000166677
                     9.91076e-05     0.000464902         0.591633       -0.772577      0.000482192    -0.000304693        -0.187866      -0.0362896
281702.2                -0.22388       -0.076271      0.000249422     0.000401245       -0.0637527        -0.96331      0.000239362     0.000457681
                     0.000134668     0.000338893       -0.0861311        -0.16929      0.000441058    -0.000523959         0.591543       -0.772375
                      -0.0635083       -0.963332      0.000407111    -0.000421256        -0.212562        0.105225      0.000496982    -0.000166703
                     9.91122e-05     0.000464902         0.591607       -0.772596      0.000482163    -0.000304715        -0.187869      -0.0362863
281702.3               -0.223881      -0.0762625      0.000249425     0.000401234       -0.0637825       -0.963308      0.000239369     0.000457684
                     0.000134671     0.000338893       -0.0861399       -0.169288      0.000441036    -0.000523974         0.591517       -0.772394
                      -0.0635381       -0.963331      0.000407096    -0.000421275        -0.212557         0.10523      0.000496967    -0.000166729
                     9.91168e-05     0.000464902         0.591581       -0.772616      0.000482134    -0.000304737        -0.187872      -0.0362829
281702.4               -0.223882      -0.0762541      0.000249428     0.000401223       -0.0638123       -0.963307      0.000239376     0.000457687
                     0.000134675     0.000338893       -0.0861487       -0.169287      0.000441013     -0.00052399         0.591491       -0.772414
                      -0.0635679       -0.963329      0.000407081    -0.000421294        -0.212553        0.105235      0.000496952    -0.000166756
                     9.91214e-05     0.000464902         0.591555       -0.772635      0.000482105    -0.000304758        -0.187875      -0.0362795
281702.5               -0.223883      -0.0762456      0.000249432     0.000401212       -0.0638422       -0.963305      0.000239383     0.000457691
                     0.000134678     0.000338893       -0.0861575       -0.169285       0.00044099    -0.000524005         0.591465       -0.772433
                      -0.0635977       -0.963328      0.000407065    -0.000421314        -0.212548        0.105239      0.000496938    -0.000166782
                     9.91259e-05     0.000464903         0.591529       -0.772654      0.000482077     -0.00030478        -0.187878      -0.0362762
281702.6               -0.223883      -0.0762372      0.000249435     0.000401201        -0.063872       -0.963304       0.00023939     0.000457694
                     0.000134682     0.000338893       -0.0861664       -0.169283      0.000440968     -0.00052402         0.591439       -0.772452
                      -0.0636275       -0.963326       0.00040705    -0.000421333        -0.212543        0.105244      0.000496923    -0.000166808
                     9.91305e-05     0.000464903         0.591503       -0.772674      0.000482048    -0.000304801         -0.18788      -0.0362728
281702.7               -0.223884      -0.0762287      0.000249438      0.00040119       -0.0639018       -0.963303      0.000239397     0.000457697
                     0.000134685     0.000338893       -0.0861752       -0.169281      0.000440945    -0.000524035         0.591413       -0.772472
                      -0.0636573       -0.963325      0.000407034    -0.000421352        -0.212539        0.105249      0.000496909    -0.000166834
                      9.9135e-05     0.000464903         0.591477       -0.772693      0.000482019    -0.000304822        -0.187883      -0.0362694
281702.8               -0.223885      -0.0762203      0.000249442     0.000401179       -0.0639317       -0.963301      0.000239403       0.0004577
                     0.000134689     0.000338893        -0.086184       -0.169279      0.000440922     -0.00052405         0.591387       -0.772491
                       -0.063687       -0.963323      0.000407019    -0.000421371        -0.212534        0.105254      0.000496894     -0.00016686
                     9.91395e-05     0.000464903         0.591451       -0.772713       0.00048199    -0.000304844        -0.187886       -0.036266
281702.9               -0.223886      -0.0762118      0.000249445     0.000401167       -0.0639615         -0.9633       0.00023941     0.000457704
                     0.000134692     0.000338893       -0.0861928       -0.169277      0.000440899    -0.000524065         0.591361       -0.772511
                      -0.0637168       -0.963322      0.000407004     -0.00042139         -0.21253        0.105258      0.000496879    -0.000166886
                     9.91439e-05     0.000464903         0.591425       -0.772732      0.000481961    -0.000304865        -0.187889      -0.0362627
281703                 -0.223887      -0.0762033      0.000249448     0.000401156       -0.0639913       -0.963298      0.000239417     0.000457707
                     0.000134695     0.000338894       -0.0862016       -0.169275      0.000440877     -0.00052408         0.591335        -0.77253
                      -0.0637466       -0.963321      0.000406988     -0.00042141        -0.212525        0.105263      0.000496865    -0.000166913
                     9.91484e-05     0.000464903         0.591399       -0.772751      0.000481932    -0.000304887        -0.187892      -0.0362593
281703.1               -0.223887      -0.0761949      0.000249452     0.000401145       -0.0640212       -0.963297      0.000239424      0.00045771
                     0.000134699     0.000338894       -0.0862104       -0.169273      0.000440854    -0.000524096         0.591309       -0.772549
                      -0.0637764       -0.963319      0.000406973    -0.000421429         -0.21252        0.105268       0.00049685    -0.000166939
