! TOUCHSTONE file generated by CST MICROWAVE STUDIO
! Date and time: Wed Oct  8 06:59:55 2025
! Project name: Teste_Macro_Metasurface_Nanopilar.cst
! Parameters = {H=600; L_x=145; L_y=160; Lambda=1064; Max_L=200; Min_L=70; PathPara=1; Phi=0; Step_L=10; Theta=0; p=520; phaseX=180; phaseY=0}
! Header version: 2018
! Port assignment regex: !\s*Touchstone port\s*([0-9]+)\s*=\s*(CST MWS port|CST DS port)\s*([0-9]+|Zmin|Zmax)\s*\(\"(.*)\"\)(\s*mode\s*([0-9]+))?.*
! Touchstone port assignment:
! Touchstone port 1 = CST MWS port Zmax ("") mode 1
! Touchstone port 2 = CST MWS port Zmax ("") mode 2
! Touchstone port 3 = CST MWS port Zmin ("") mode 1
! Touchstone port 4 = CST MWS port Zmin ("") mode 2
! S-Parameters are not renormalized. Each port impedance will be approximated by the real part at minimum frequency. The values are described via the [Reference] keyword.
! Default impedance is overridden by [Reference]
[Version] 2.0
# GHz S RI R 376.73
[Number of Ports] 4
[Reference]
376.73 376.73 376.73 376.73 
[Number of Frequencies] 1001
[Network Data]
281700                 -0.149259        0.258976     -0.000417907    -0.000326287        -0.724526       -0.610011      0.000123409     0.000234487
                    -0.000513183    -0.000185668        -0.664353        0.305649      0.000264719     0.000117352        -0.134015        -0.61364
                       -0.724742       -0.610185      0.000126426    -0.000212571        -0.235299        0.182475     -6.03235e-05     0.000412338
                     4.15737e-06      0.00027391        -0.133729       -0.613845       3.3374e-05     0.000394754        -0.714288       -0.113928
281700.1               -0.149248        0.258974     -0.000417924    -0.000326247        -0.724547       -0.609989      0.000123434     0.000234474
                      -0.0005132    -0.000185622        -0.664314        0.305676      0.000264721     0.000117327        -0.134058       -0.613663
                       -0.724763       -0.610163      0.000126408    -0.000212584        -0.235288        0.182479     -6.03028e-05     0.000412332
                     4.19302e-06     0.000273904        -0.133773       -0.613868      3.33764e-05     0.000394747        -0.714273       -0.113868
281700.2               -0.149237        0.258973     -0.000417942    -0.000326208        -0.724568       -0.609968       0.00012346      0.00023446
                    -0.000513217    -0.000185576        -0.664275        0.305703      0.000264724     0.000117302        -0.134102       -0.613687
                       -0.724784       -0.610142      0.000126391    -0.000212597        -0.235276        0.182482     -6.02821e-05     0.000412327
                     4.22867e-06     0.000273898        -0.133816       -0.613891      3.33788e-05     0.000394739        -0.714259       -0.113808
281700.3               -0.149226        0.258971     -0.000417959    -0.000326168        -0.724588       -0.609947      0.000123485     0.000234446
                    -0.000513234    -0.000185531        -0.664236        0.305729      0.000264726     0.000117278        -0.134145        -0.61371
                       -0.724805        -0.61012      0.000126374    -0.000212609        -0.235265        0.182486     -6.02614e-05     0.000412321
                     4.26431e-06     0.000273891         -0.13386       -0.613915      3.33813e-05     0.000394731        -0.714245       -0.113748
281700.4               -0.149215         0.25897     -0.000417976    -0.000326129        -0.724609       -0.609925      0.000123511     0.000234433
                     -0.00051325    -0.000185485        -0.664197        0.305756      0.000264729     0.000117253        -0.134189       -0.613733
                       -0.724826       -0.610099      0.000126356    -0.000212622        -0.235253         0.18249     -6.02408e-05     0.000412315
                     4.29995e-06     0.000273885        -0.133903       -0.613938      3.33837e-05     0.000394724        -0.714231       -0.113688
281700.5               -0.149204        0.258968     -0.000417994     -0.00032609         -0.72463       -0.609904      0.000123536     0.000234419
                    -0.000513267    -0.000185439        -0.664158        0.305782      0.000264731     0.000117228        -0.134232       -0.613757
                       -0.724847       -0.610078      0.000126339    -0.000212635        -0.235242        0.182494     -6.02201e-05     0.000412309
                     4.33559e-06     0.000273879        -0.133947       -0.613961      3.33861e-05     0.000394716        -0.714216       -0.113628
281700.6               -0.149193        0.258966     -0.000418011     -0.00032605        -0.724651       -0.609883      0.000123562     0.000234405
                    -0.000513284    -0.000185393        -0.664119        0.305809      0.000264734     0.000117203        -0.134276        -0.61378
                       -0.724868       -0.610056      0.000126322    -0.000212647         -0.23523        0.182497     -6.01995e-05     0.000412303
                     4.37123e-06     0.000273873         -0.13399       -0.613985      3.33885e-05     0.000394708        -0.714202       -0.113568
281700.7               -0.149182        0.258965     -0.000418029    -0.000326011        -0.724672       -0.609861      0.000123587     0.000234392
                      -0.0005133    -0.000185348         -0.66408        0.305835      0.000264736     0.000117178        -0.134319       -0.613803
                       -0.724888       -0.610035      0.000126304     -0.00021266        -0.235219        0.182501     -6.01788e-05     0.000412297
                     4.40687e-06     0.000273867        -0.134034       -0.614008      3.33909e-05     0.000394701        -0.714188       -0.113508
281700.8               -0.149172        0.258963     -0.000418046    -0.000325971        -0.724693        -0.60984      0.000123613     0.000234378
                    -0.000513317    -0.000185302        -0.664041        0.305862      0.000264739     0.000117153        -0.134363       -0.613827
                       -0.724909       -0.610013      0.000126287    -0.000212673        -0.235207        0.182505     -6.01582e-05     0.000412291
                      4.4425e-06      0.00027386        -0.134077       -0.614031      3.33933e-05     0.000394693        -0.714174       -0.113448
281700.9               -0.149161        0.258962     -0.000418063    -0.000325932        -0.724714       -0.609819      0.000123638     0.000234364
                    -0.000513334    -0.000185256        -0.664002        0.305889      0.000264741     0.000117128        -0.134406        -0.61385
                        -0.72493       -0.609992       0.00012627    -0.000212685        -0.235196        0.182509     -6.01375e-05     0.000412285
                     4.47813e-06     0.000273854        -0.134121       -0.614055      3.33957e-05     0.000394686        -0.714159       -0.113388
281701                  -0.14915         0.25896     -0.000418081    -0.000325893        -0.724734       -0.609797      0.000123664     0.000234351
                    -0.000513351     -0.00018521        -0.663963        0.305915      0.000264744     0.000117103        -0.134449       -0.613873
                       -0.724951       -0.609971      0.000126252    -0.000212698        -0.235184        0.182512     -6.01169e-05      0.00041228
                     4.51376e-06     0.000273848        -0.134164       -0.614078      3.33982e-05     0.000394678        -0.714145       -0.113328
281701.1               -0.149139        0.258958     -0.000418098    -0.000325853        -0.724755       -0.609776      0.000123689     0.000234337
                    -0.000513367    -0.000185165        -0.663924        0.305942      0.000264746     0.000117078        -0.134493       -0.613897
                       -0.724972       -0.609949      0.000126235    -0.000212711        -0.235173        0.182516     -6.00963e-05     0.000412274
                     4.54939e-06     0.000273842        -0.134208       -0.614101      3.34006e-05      0.00039467        -0.714131       -0.113267
281701.2               -0.149128        0.258957     -0.000418115    -0.000325814        -0.724776       -0.609755      0.000123715     0.000234324
                    -0.000513384    -0.000185119        -0.663885        0.305968      0.000264749     0.000117053        -0.134536        -0.61392
                       -0.724993       -0.609928      0.000126218    -0.000212723        -0.235161         0.18252     -6.00757e-05     0.000412268
                     4.58502e-06     0.000273836        -0.134251       -0.614125       3.3403e-05     0.000394663        -0.714116       -0.113207
281701.3               -0.149117        0.258955     -0.000418133    -0.000325774        -0.724797       -0.609733       0.00012374      0.00023431
                    -0.000513401    -0.000185073        -0.663846        0.305995      0.000264751     0.000117029         -0.13458       -0.613943
                       -0.725014       -0.609907        0.0001262    -0.000212736         -0.23515        0.182524     -6.00551e-05     0.000412262
                     4.62065e-06     0.000273829        -0.134295       -0.614148      3.34054e-05     0.000394655        -0.714102       -0.113147
281701.4               -0.149106        0.258954      -0.00041815    -0.000325735        -0.724818       -0.609712      0.000123766     0.000234296
                    -0.000513417    -0.000185028        -0.663807        0.306021      0.000264754     0.000117004        -0.134623       -0.613966
                       -0.725035       -0.609885      0.000126183    -0.000212749        -0.235139        0.182527     -6.00344e-05     0.000412256
                     4.65627e-06     0.000273823        -0.134338       -0.614171      3.34078e-05     0.000394647        -0.714088       -0.113087
281701.5               -0.149095        0.258952     -0.000418167    -0.000325696        -0.724839       -0.609691      0.000123791     0.000234283
                    -0.000513434    -0.000184982        -0.663768        0.306048      0.000264756     0.000116979        -0.134667        -0.61399
                       -0.725055       -0.609864      0.000126166    -0.000212761        -0.235127        0.182531     -6.00138e-05      0.00041225
                     4.69189e-06     0.000273817        -0.134382       -0.614194      3.34102e-05      0.00039464        -0.714074       -0.113027
281701.6               -0.149084         0.25895     -0.000418185    -0.000325656         -0.72486       -0.609669      0.000123817     0.000234269
                    -0.000513451    -0.000184936         -0.66373        0.306074      0.000264759     0.000116954         -0.13471       -0.614013
                       -0.725076       -0.609842      0.000126148    -0.000212774        -0.235116        0.182535     -5.99933e-05     0.000412244
                     4.72751e-06     0.000273811        -0.134425       -0.614218      3.34127e-05     0.000394632        -0.714059       -0.112967
281701.7               -0.149073        0.258949     -0.000418202    -0.000325617         -0.72488       -0.609648      0.000123842     0.000234255
                    -0.000513467     -0.00018489        -0.663691        0.306101      0.000264761     0.000116929        -0.134754       -0.614036
                       -0.725097       -0.609821      0.000126131    -0.000212787        -0.235104        0.182539     -5.99727e-05     0.000412238
                     4.76313e-06     0.000273804        -0.134469       -0.614241      3.34151e-05     0.000394625        -0.714045       -0.112907
281701.8               -0.149062        0.258947     -0.000418219    -0.000325577        -0.724901       -0.609627      0.000123868     0.000234242
                    -0.000513484    -0.000184845        -0.663652        0.306127      0.000264764     0.000116904        -0.134797       -0.614059
                       -0.725118         -0.6098      0.000126114    -0.000212799        -0.235093        0.182542     -5.99521e-05     0.000412232
                     4.79874e-06     0.000273798        -0.134512       -0.614264      3.34175e-05     0.000394617        -0.714031       -0.112847
281701.9               -0.149051        0.258945     -0.000418237    -0.000325538        -0.724922       -0.609605      0.000123893     0.000234228
                    -0.000513501    -0.000184799        -0.663613        0.306154      0.000264766     0.000116879        -0.134841       -0.614083
                       -0.725139       -0.609778      0.000126097    -0.000212812        -0.235081        0.182546     -5.99315e-05     0.000412227
                     4.83436e-06     0.000273792        -0.134556       -0.614288      3.34199e-05     0.000394609        -0.714016       -0.112787
281702                  -0.14904        0.258944     -0.000418254    -0.000325498        -0.724943       -0.609584      0.000123919     0.000234214
                    -0.000513518    -0.000184753        -0.663574         0.30618      0.000264769     0.000116854        -0.134884       -0.614106
                        -0.72516       -0.609757      0.000126079    -0.000212825         -0.23507         0.18255     -5.99109e-05     0.000412221
                     4.86997e-06     0.000273786        -0.134599       -0.614311      3.34223e-05     0.000394602        -0.714002       -0.112727
281702.1               -0.149029        0.258942     -0.000418271    -0.000325459        -0.724964       -0.609562      0.000123944     0.000234201
                    -0.000513534    -0.000184707        -0.663535        0.306207      0.000264771     0.000116829        -0.134928       -0.614129
                       -0.725181       -0.609735      0.000126062    -0.000212838        -0.235058        0.182554     -5.98904e-05     0.000412215
                     4.90558e-06      0.00027378        -0.134643       -0.614334      3.34247e-05     0.000394594        -0.713988       -0.112667
281702.2               -0.149018        0.258941     -0.000418288     -0.00032542        -0.724985       -0.609541      0.000123969     0.000234187
                    -0.000513551    -0.000184662        -0.663496        0.306233      0.000264774     0.000116804        -0.134971       -0.614152
                       -0.725202       -0.609714      0.000126045     -0.00021285        -0.235047        0.182557     -5.98698e-05     0.000412209
                     4.94119e-06     0.000273773        -0.134686       -0.614357      3.34271e-05     0.000394586        -0.713973       -0.112607
281702.3               -0.149007        0.258939     -0.000418306     -0.00032538        -0.725006        -0.60952      0.000123995     0.000234173
                    -0.000513568    -0.000184616        -0.663457         0.30626      0.000264776      0.00011678        -0.135015       -0.614176
                       -0.725222       -0.609693      0.000126027    -0.000212863        -0.235035        0.182561     -5.98493e-05     0.000412203
                     4.97679e-06     0.000273767         -0.13473        -0.61438      3.34296e-05     0.000394579        -0.713959       -0.112547
281702.4               -0.148996        0.258937     -0.000418323    -0.000325341        -0.725026       -0.609498       0.00012402      0.00023416
                    -0.000513584     -0.00018457        -0.663418        0.306286      0.000264779     0.000116755        -0.135058       -0.614199
                       -0.725243       -0.609671       0.00012601    -0.000212876        -0.235024        0.182565     -5.98287e-05     0.000412197
                      5.0124e-06     0.000273761        -0.134773       -0.614404       3.3432e-05     0.000394571        -0.713945       -0.112488
281702.5               -0.148986        0.258936      -0.00041834    -0.000325301        -0.725047       -0.609477      0.000124046     0.000234146
                    -0.000513601    -0.000184525        -0.663379        0.306313      0.000264781      0.00011673        -0.135102       -0.614222
                       -0.725264        -0.60965      0.000125993    -0.000212888        -0.235012        0.182569     -5.98082e-05     0.000412191
                       5.048e-06     0.000273755        -0.134817       -0.614427      3.34344e-05     0.000394564         -0.71393       -0.112428
281702.6               -0.148975        0.258934     -0.000418358    -0.000325262        -0.725068       -0.609456      0.000124071     0.000234132
                    -0.000513617    -0.000184479         -0.66334        0.306339      0.000264784     0.000116705        -0.135145       -0.614245
                       -0.725285       -0.609628      0.000125976    -0.000212901        -0.235001        0.182572     -5.97876e-05     0.000412185
                      5.0836e-06     0.000273748         -0.13486        -0.61445      3.34368e-05     0.000394556        -0.713916       -0.112368
281702.7               -0.148964        0.258933     -0.000418375    -0.000325223        -0.725089       -0.609434      0.000124097     0.000234119
                    -0.000513634    -0.000184433        -0.663301        0.306366      0.000264786      0.00011668        -0.135189       -0.614268
                       -0.725306       -0.609607      0.000125958    -0.000212914        -0.234989        0.182576     -5.97671e-05     0.000412179
                      5.1192e-06     0.000273742        -0.134904       -0.614473      3.34392e-05     0.000394548        -0.713902       -0.112308
281702.8               -0.148953        0.258931     -0.000418392    -0.000325183         -0.72511       -0.609413      0.000124122     0.000234105
                    -0.000513651    -0.000184387        -0.663262        0.306392      0.000264789     0.000116655        -0.135232       -0.614292
                       -0.725327       -0.609586      0.000125941    -0.000212926        -0.234978         0.18258     -5.97466e-05     0.000412173
                     5.15479e-06     0.000273736        -0.134947       -0.614497      3.34416e-05     0.000394541        -0.713887       -0.112248
281702.9               -0.148942        0.258929     -0.000418409    -0.000325144        -0.725131       -0.609392      0.000124148     0.000234091
                    -0.000513667    -0.000184342        -0.663223        0.306418      0.000264791      0.00011663        -0.135276       -0.614315
                       -0.725348       -0.609564      0.000125924    -0.000212939        -0.234966        0.182584     -5.97261e-05     0.000412167
                     5.19039e-06      0.00027373        -0.134991        -0.61452      3.34441e-05     0.000394533        -0.713873       -0.112188
281703                 -0.148931        0.258928     -0.000418427    -0.000325104        -0.725152        -0.60937      0.000124173     0.000234078
                    -0.000513684    -0.000184296        -0.663184        0.306445      0.000264793     0.000116605        -0.135319       -0.614338
                       -0.725369       -0.609543      0.000125906    -0.000212952        -0.234955        0.182587     -5.97055e-05     0.000412161
                     5.22598e-06     0.000273723        -0.135034       -0.614543      3.34465e-05     0.000394525        -0.713858       -0.112128
281703.1                -0.14892        0.258926     -0.000418444    -0.000325065        -0.725172       -0.609349      0.000124199     0.000234064
                    -0.000513701     -0.00018425        -0.663145        0.306471      0.000264796     0.000116581        -0.135363       -0.614361
                       -0.725389       -0.609522      0.000125889    -0.000212964        -0.234943        0.182591      -5.9685e-05     0.000412155
