! TOUCHSTONE file generated by CST MICROWAVE STUDIO
! Date and time: Wed Oct  8 07:02:43 2025
! Project name: Teste_Macro_Metasurface_Nanopilar.cst
! Parameters = {H=600; L_x=170; L_y=120; Lambda=1064; Max_L=200; Min_L=70; PathPara=1; Phi=0; Step_L=10; Theta=0; p=520; phaseX=180; phaseY=0}
! Header version: 2018
! Port assignment regex: !\s*Touchstone port\s*([0-9]+)\s*=\s*(CST MWS port|CST DS port)\s*([0-9]+|Zmin|Zmax)\s*\(\"(.*)\"\)(\s*mode\s*([0-9]+))?.*
! Touchstone port assignment:
! Touchstone port 1 = CST MWS port Zmax ("") mode 1
! Touchstone port 2 = CST MWS port Zmax ("") mode 2
! Touchstone port 3 = CST MWS port Zmin ("") mode 1
! Touchstone port 4 = CST MWS port Zmin ("") mode 2
! S-Parameters are not renormalized. Each port impedance will be approximated by the real part at minimum frequency. The values are described via the [Reference] keyword.
! Default impedance is overridden by [Reference]
[Version] 2.0
# GHz S RI R 376.73
[Number of Ports] 4
[Reference]
376.73 376.73 376.73 376.73 
[Number of Frequencies] 1001
[Network Data]
281700                 -0.246271      -0.0546513       0.00013599     0.000880755       -0.0715444       -0.959411      0.000354908     -0.00010788
                     9.96194e-05     0.000984735        -0.472239        0.413416      1.09362e-05     0.000317874        -0.324392       -0.685747
                      -0.0716116       -0.958967      8.28639e-05     0.000284563         -0.23581       0.0905298     -0.000287536     -0.00101591
                     0.000410589    -0.000148263        -0.324546       -0.685464     -0.000278914    -0.000998536        -0.621222       0.0662201
281700.1               -0.246271      -0.0546427      0.000136011     0.000880749       -0.0715737       -0.959409       0.00035489    -0.000107899
                     9.96587e-05     0.000984732        -0.472217        0.413424       1.0941e-05     0.000317867        -0.324424       -0.685743
                      -0.0716408       -0.958965      8.28631e-05     0.000284555        -0.235806       0.0905355      -0.00028757     -0.00101589
                     0.000410562    -0.000148268        -0.324577        -0.68546     -0.000278954    -0.000998516        -0.621208       0.0662485
281700.2               -0.246271       -0.054634      0.000136031     0.000880743       -0.0716029       -0.959407      0.000354873    -0.000107917
                      9.9698e-05     0.000984729        -0.472195        0.413432      1.09458e-05     0.000317859        -0.324455       -0.685739
                      -0.0716701       -0.958963      8.28622e-05     0.000284547        -0.235802       0.0905413     -0.000287603     -0.00101587
                     0.000410534    -0.000148273        -0.324609       -0.685456     -0.000278994    -0.000998496        -0.621193       0.0662768
281700.3               -0.246271      -0.0546253      0.000136052     0.000880738       -0.0716321       -0.959405      0.000354855    -0.000107935
                     9.97373e-05     0.000984726        -0.472172         0.41344      1.09505e-05     0.000317851        -0.324487       -0.685736
                      -0.0716993       -0.958961      8.28614e-05     0.000284538        -0.235798        0.090547     -0.000287637     -0.00101585
                     0.000410507    -0.000148278         -0.32464       -0.685453     -0.000279034    -0.000998476        -0.621179       0.0663052
281700.4               -0.246271      -0.0546167      0.000136073     0.000880732       -0.0716614       -0.959404      0.000354838    -0.000107953
                     9.97766e-05     0.000984723         -0.47215        0.413448      1.09553e-05     0.000317843        -0.324518       -0.685732
                      -0.0717286        -0.95896      8.28605e-05      0.00028453        -0.235794       0.0905528     -0.000287671     -0.00101584
                      0.00041048    -0.000148283        -0.324672       -0.685449     -0.000279074    -0.000998456        -0.621164       0.0663335
281700.5               -0.246272       -0.054608      0.000136094     0.000880726       -0.0716906       -0.959402       0.00035482    -0.000107972
                     9.98159e-05      0.00098472        -0.472128        0.413456      1.09601e-05     0.000317836         -0.32455       -0.685728
                      -0.0717578       -0.958958      8.28597e-05     0.000284521         -0.23579       0.0905585     -0.000287705     -0.00101582
                     0.000410453    -0.000148288        -0.324703       -0.685445     -0.000279115    -0.000998436         -0.62115       0.0663619
281700.6               -0.246272      -0.0545993      0.000136115      0.00088072       -0.0717199         -0.9594      0.000354802     -0.00010799
                     9.98552e-05     0.000984717        -0.472105        0.413464      1.09648e-05     0.000317828        -0.324581       -0.685724
                      -0.0717871       -0.958956      8.28588e-05     0.000284513        -0.235786       0.0905642     -0.000287739      -0.0010158
                     0.000410425    -0.000148293        -0.324734       -0.685441     -0.000279155    -0.000998416        -0.621136       0.0663902
281700.7               -0.246272      -0.0545907      0.000136136     0.000880714       -0.0717491       -0.959399      0.000354785    -0.000108008
                     9.98945e-05     0.000984714        -0.472083        0.413472      1.09696e-05      0.00031782        -0.324612        -0.68572
                      -0.0718163       -0.958955       8.2858e-05     0.000284505        -0.235782         0.09057     -0.000287773     -0.00101578
                     0.000410398    -0.000148298        -0.324766       -0.685437     -0.000279195    -0.000998396        -0.621121       0.0664186
281700.8               -0.246272       -0.054582      0.000136157     0.000880709       -0.0717784       -0.959397      0.000354767    -0.000108026
                     9.99338e-05     0.000984711        -0.472061         0.41348      1.09743e-05     0.000317813        -0.324644       -0.685716
                      -0.0718456       -0.958953      8.28571e-05     0.000284496        -0.235778       0.0905757     -0.000287807     -0.00101576
                     0.000410371    -0.000148303        -0.324797       -0.685434     -0.000279235    -0.000998376        -0.621107        0.066447
281700.9               -0.246272      -0.0545733      0.000136178     0.000880703       -0.0718076       -0.959395       0.00035475    -0.000108044
                      9.9973e-05     0.000984708        -0.472038        0.413488      1.09791e-05     0.000317805        -0.324675       -0.685713
                      -0.0718748       -0.958951      8.28563e-05     0.000284488        -0.235774       0.0905815     -0.000287841     -0.00101575
                     0.000410343    -0.000148308        -0.324829        -0.68543     -0.000279275    -0.000998356        -0.621092       0.0664753
281701                 -0.246272      -0.0545647      0.000136199     0.000880697       -0.0718369       -0.959393      0.000354732    -0.000108063
                     0.000100012     0.000984705        -0.472016        0.413496      1.09839e-05     0.000317797        -0.324707       -0.685709
                       -0.071904       -0.958949      8.28554e-05     0.000284479         -0.23577       0.0905872     -0.000287875     -0.00101573
                     0.000410316    -0.000148313         -0.32486       -0.685426     -0.000279315    -0.000998336        -0.621078       0.0665037
281701.1               -0.246272       -0.054556       0.00013622     0.000880691       -0.0718661       -0.959392      0.000354715    -0.000108081
                     0.000100052     0.000984702        -0.471994        0.413504      1.09886e-05     0.000317789        -0.324738       -0.685705
                      -0.0719333       -0.958948      8.28546e-05     0.000284471        -0.235766       0.0905929     -0.000287909     -0.00101571
                     0.000410289    -0.000148318        -0.324892       -0.685422     -0.000279355    -0.000998316        -0.621064        0.066532
281701.2               -0.246273      -0.0545474      0.000136241     0.000880685       -0.0718953        -0.95939      0.000354697    -0.000108099
                     0.000100091     0.000984699        -0.471971        0.413512      1.09934e-05     0.000317782         -0.32477       -0.685701
                      -0.0719625       -0.958946      8.28537e-05     0.000284463        -0.235762       0.0905987     -0.000287942     -0.00101569
                     0.000410262    -0.000148322        -0.324923       -0.685418     -0.000279396    -0.000998296        -0.621049       0.0665603
281701.3               -0.246273      -0.0545387      0.000136262      0.00088068       -0.0719246       -0.959388      0.000354679    -0.000108117
                      0.00010013     0.000984696        -0.471949         0.41352      1.09982e-05     0.000317774        -0.324801       -0.685697
                      -0.0719918       -0.958944      8.28528e-05     0.000284454        -0.235757       0.0906044     -0.000287976     -0.00101567
                     0.000410234    -0.000148327        -0.324955       -0.685415     -0.000279436    -0.000998276        -0.621035       0.0665887
281701.4               -0.246273        -0.05453      0.000136282     0.000880674       -0.0719538       -0.959386      0.000354662    -0.000108135
                     0.000100169     0.000984693        -0.471927        0.413528      1.10029e-05     0.000317766        -0.324832       -0.685693
                       -0.072021       -0.958942       8.2852e-05     0.000284446        -0.235753       0.0906101      -0.00028801     -0.00101566
                     0.000410207    -0.000148332        -0.324986       -0.685411     -0.000279476    -0.000998256         -0.62102        0.066617
281701.5               -0.246273      -0.0545214      0.000136303     0.000880668       -0.0719831       -0.959385      0.000354644    -0.000108154
                     0.000100209      0.00098469        -0.471904        0.413536      1.10077e-05     0.000317758        -0.324864        -0.68569
                      -0.0720503       -0.958941      8.28511e-05     0.000284437        -0.235749       0.0906159     -0.000288044     -0.00101564
                      0.00041018    -0.000148337        -0.325017       -0.685407     -0.000279516    -0.000998236        -0.621006       0.0666454
281701.6               -0.246273      -0.0545127      0.000136324     0.000880662       -0.0720123       -0.959383      0.000354627    -0.000108172
                     0.000100248     0.000984687        -0.471882        0.413544      1.10125e-05     0.000317751        -0.324895       -0.685686
                      -0.0720795       -0.958939      8.28502e-05     0.000284429        -0.235745       0.0906216     -0.000288078     -0.00101562
                     0.000410152    -0.000148342        -0.325049       -0.685403     -0.000279556    -0.000998216        -0.620991       0.0666737
281701.7               -0.246273       -0.054504      0.000136345     0.000880656       -0.0720416       -0.959381      0.000354609     -0.00010819
                     0.000100287     0.000984684         -0.47186        0.413552      1.10172e-05     0.000317743        -0.324927       -0.685682
                      -0.0721087       -0.958937      8.28493e-05     0.000284421        -0.235741       0.0906274     -0.000288112      -0.0010156
                     0.000410125    -0.000148347         -0.32508       -0.685399     -0.000279596    -0.000998196        -0.620977       0.0667021
281701.8               -0.246274      -0.0544954      0.000136366     0.000880651       -0.0720708       -0.959379      0.000354591    -0.000108208
                     0.000100327     0.000984681        -0.471837         0.41356       1.1022e-05     0.000317735        -0.324958       -0.685678
                       -0.072138       -0.958936      8.28485e-05     0.000284412        -0.235737       0.0906331     -0.000288146     -0.00101559
                     0.000410098    -0.000148352        -0.325112       -0.685396     -0.000279636    -0.000998176        -0.620962       0.0667304
281701.9               -0.246274      -0.0544867      0.000136387     0.000880645       -0.0721001       -0.959378      0.000354574    -0.000108226
                     0.000100366     0.000984678        -0.471815        0.413567      1.10267e-05     0.000317728         -0.32499       -0.685674
                      -0.0721672       -0.958934      8.28476e-05     0.000284404        -0.235733       0.0906388      -0.00028818     -0.00101557
                     0.000410071    -0.000148357        -0.325143       -0.685392     -0.000279676    -0.000998156        -0.620948       0.0667587
281702                 -0.246274       -0.054478      0.000136408     0.000880639       -0.0721293       -0.959376      0.000354556    -0.000108245
                     0.000100405     0.000984675        -0.471793        0.413575      1.10315e-05      0.00031772        -0.325021        -0.68567
                      -0.0721965       -0.958932      8.28467e-05     0.000284395        -0.235729       0.0906446     -0.000288214     -0.00101555
                     0.000410043    -0.000148362        -0.325175       -0.685388     -0.000279716    -0.000998136        -0.620934       0.0667871
281702.1               -0.246274      -0.0544694      0.000136429     0.000880633       -0.0721585       -0.959374      0.000354539    -0.000108263
                     0.000100444     0.000984672         -0.47177        0.413583      1.10363e-05     0.000317712        -0.325052       -0.685667
                      -0.0722257        -0.95893      8.28458e-05     0.000284387        -0.235725       0.0906503     -0.000288247     -0.00101553
                     0.000410016    -0.000148367        -0.325206       -0.685384     -0.000279757    -0.000998116        -0.620919       0.0668154
281702.2               -0.246274      -0.0544607       0.00013645     0.000880627       -0.0721878       -0.959373      0.000354521    -0.000108281
                     0.000100484     0.000984669        -0.471748        0.413591       1.1041e-05     0.000317704        -0.325084       -0.685663
                       -0.072255       -0.958929      8.28449e-05     0.000284379        -0.235721        0.090656     -0.000288281     -0.00101551
                     0.000409989    -0.000148371        -0.325237        -0.68538     -0.000279797    -0.000998096        -0.620905       0.0668437
281702.3               -0.246274      -0.0544521      0.000136471     0.000880622        -0.072217       -0.959371      0.000354503    -0.000108299
                     0.000100523     0.000984666        -0.471726        0.413599      1.10458e-05     0.000317697        -0.325115       -0.685659
                      -0.0722842       -0.958927       8.2844e-05      0.00028437        -0.235717       0.0906618     -0.000288315      -0.0010155
                     0.000409962    -0.000148376        -0.325269       -0.685376     -0.000279837    -0.000998076         -0.62089        0.066872
281702.4               -0.246274      -0.0544434      0.000136492     0.000880616       -0.0722463       -0.959369      0.000354486    -0.000108317
                     0.000100562     0.000984663        -0.471703        0.413607      1.10505e-05     0.000317689        -0.325147       -0.685655
                      -0.0723134       -0.958925      8.28431e-05     0.000284362        -0.235713       0.0906675     -0.000288349     -0.00101548
                     0.000409934    -0.000148381          -0.3253       -0.685373     -0.000279877    -0.000998056        -0.620876       0.0669004
281702.5               -0.246275      -0.0544347      0.000136513      0.00088061       -0.0722755       -0.959367      0.000354468    -0.000108335
                     0.000100602      0.00098466        -0.471681        0.413615      1.10553e-05     0.000317681        -0.325178       -0.685651
                      -0.0723427       -0.958923      8.28423e-05     0.000284353        -0.235709       0.0906732     -0.000288383     -0.00101546
                     0.000409907    -0.000148386        -0.325332       -0.685369     -0.000279917    -0.000998036        -0.620861       0.0669287
281702.6               -0.246275      -0.0544261      0.000136534     0.000880604       -0.0723048       -0.959366      0.000354451    -0.000108354
                     0.000100641     0.000984657        -0.471659        0.413623      1.10601e-05     0.000317674         -0.32521       -0.685647
                      -0.0723719       -0.958922      8.28414e-05     0.000284345        -0.235705        0.090679     -0.000288417     -0.00101544
                      0.00040988    -0.000148391        -0.325363       -0.685365     -0.000279957    -0.000998016        -0.620847        0.066957
281702.7               -0.246275      -0.0544174      0.000136555     0.000880599        -0.072334       -0.959364      0.000354433    -0.000108372
                      0.00010068     0.000984654        -0.471636        0.413631      1.10648e-05     0.000317666        -0.325241       -0.685643
                      -0.0724012        -0.95892      8.28405e-05     0.000284337          -0.2357       0.0906847     -0.000288451     -0.00101542
                     0.000409852    -0.000148396        -0.325395       -0.685361     -0.000279997    -0.000997996        -0.620833       0.0669853
281702.8               -0.246275      -0.0544087      0.000136576     0.000880593       -0.0723633       -0.959362      0.000354415     -0.00010839
                     0.000100719     0.000984651        -0.471614        0.413639      1.10696e-05     0.000317658        -0.325272        -0.68564
                      -0.0724304       -0.958918      8.28396e-05     0.000284328        -0.235696       0.0906904     -0.000288484     -0.00101541
                     0.000409825    -0.000148401        -0.325426       -0.685357     -0.000280037    -0.000997976        -0.620818       0.0670137
281702.9               -0.246275      -0.0544001      0.000136597     0.000880587       -0.0723925        -0.95936      0.000354398    -0.000108408
                     0.000100759     0.000984647        -0.471592        0.413647      1.10743e-05      0.00031765        -0.325304       -0.685636
                      -0.0724597       -0.958917      8.28387e-05      0.00028432        -0.235692       0.0906962     -0.000288518     -0.00101539
                     0.000409798    -0.000148406        -0.325458       -0.685353     -0.000280077    -0.000997956        -0.620804        0.067042
281703                 -0.246275      -0.0543914      0.000136618     0.000880581       -0.0724217       -0.959359       0.00035438    -0.000108426
                     0.000100798     0.000984644        -0.471569        0.413655      1.10791e-05     0.000317643        -0.325335       -0.685632
                      -0.0724889       -0.958915      8.28378e-05     0.000284312        -0.235688       0.0907019     -0.000288552     -0.00101537
                     0.000409771    -0.000148411        -0.325489        -0.68535     -0.000280118    -0.000997936        -0.620789       0.0670703
281703.1               -0.246275      -0.0543828      0.000136639     0.000880576        -0.072451       -0.959357      0.000354363    -0.000108444
                     0.000100837     0.000984641        -0.471547        0.413663      1.10838e-05     0.000317635        -0.325367       -0.685628
                      -0.0725181       -0.958913      8.28369e-05     0.000284303        -0.235684       0.0907077     -0.000288586     -0.00101535
