! TOUCHSTONE file generated by CST MICROWAVE STUDIO
! Date and time: Wed Oct  8 07:03:35 2025
! Project name: Teste_Macro_Metasurface_Nanopilar.cst
! Parameters = {H=600; L_x=175; L_y=180; Lambda=1064; Max_L=200; Min_L=70; PathPara=1; Phi=0; Step_L=10; Theta=0; p=520; phaseX=180; phaseY=0}
! Header version: 2018
! Port assignment regex: !\s*Touchstone port\s*([0-9]+)\s*=\s*(CST MWS port|CST DS port)\s*([0-9]+|Zmin|Zmax)\s*\(\"(.*)\"\)(\s*mode\s*([0-9]+))?.*
! Touchstone port assignment:
! Touchstone port 1 = CST MWS port Zmax ("") mode 1
! Touchstone port 2 = CST MWS port Zmax ("") mode 2
! Touchstone port 3 = CST MWS port Zmin ("") mode 1
! Touchstone port 4 = CST MWS port Zmin ("") mode 2
! S-Parameters are not renormalized. Each port impedance will be approximated by the real part at minimum frequency. The values are described via the [Reference] keyword.
! Default impedance is overridden by [Reference]
[Version] 2.0
# GHz S RI R 376.73
[Number of Ports] 4
[Reference]
376.73 376.73 376.73 376.73 
[Number of Frequencies] 1001
[Network Data]
281700                -0.0257405       -0.118283     -0.000717558     -0.00011811        -0.981485        0.115432     -0.000225561     0.000618781
                    -0.000587355    -6.92754e-05        0.0100497       -0.085373      0.000172564     0.000342004        -0.987759       0.0824111
                       -0.981331        0.115496      0.000293507     0.000423563      -0.00549787       -0.119962       0.00063202    -0.000197979
                    -0.000195759     0.000621311        -0.987743       0.0815173      0.000675941    -0.000237916       -0.0261598      -0.0796768
281700.1              -0.0257435       -0.118288     -0.000717578    -0.000118089        -0.981481        0.115462     -0.000225403     0.000618717
                    -0.000587368     -6.9262e-05        0.0100486      -0.0853789       0.00017264     0.000341998        -0.987756       0.0824405
                       -0.981327        0.115526      0.000293529     0.000423549      -0.00550347       -0.119968      0.000632018     -0.00019799
                    -0.000195678      0.00062127        -0.987739        0.081549      0.000675858    -0.000237888       -0.0261646      -0.0796812
281700.2              -0.0257464       -0.118294     -0.000717597    -0.000118067        -0.981476        0.115491     -0.000225246     0.000618652
                    -0.000587381    -6.92487e-05        0.0100475      -0.0853848      0.000172715     0.000341992        -0.987753       0.0824699
                       -0.981323        0.115555      0.000293552     0.000423534      -0.00550907       -0.119974      0.000632015       -0.000198
                    -0.000195597      0.00062123        -0.987735       0.0815806      0.000675776     -0.00023786       -0.0261694      -0.0796857
281700.3              -0.0257494       -0.118299     -0.000717617    -0.000118046        -0.981472        0.115521     -0.000225089     0.000618589
                    -0.000587393    -6.92353e-05        0.0100464      -0.0853907      0.000172791     0.000341986         -0.98775       0.0824994
                       -0.981319        0.115585      0.000293575      0.00042352      -0.00551467       -0.119979      0.000632012    -0.000198011
                    -0.000195516      0.00062119        -0.987732       0.0816122      0.000675693    -0.000237832       -0.0261742      -0.0796901
281700.4              -0.0257524       -0.118305     -0.000717636    -0.000118024        -0.981468        0.115551     -0.000224933     0.000618526
                    -0.000587406     -6.9222e-05        0.0100453      -0.0853967      0.000172866     0.000341981        -0.987747       0.0825288
                       -0.981314        0.115614      0.000293598     0.000423506      -0.00552027       -0.119985      0.000632009    -0.000198021
                    -0.000195435     0.000621149        -0.987728       0.0816438      0.000675611    -0.000237804        -0.026179      -0.0796946
281700.5              -0.0257554        -0.11831     -0.000717655    -0.000118003        -0.981464         0.11558     -0.000224778     0.000618463
                    -0.000587419    -6.92086e-05        0.0100442      -0.0854026      0.000172942     0.000341975        -0.987744       0.0825582
                        -0.98131        0.115643       0.00029362     0.000423492      -0.00552588        -0.11999      0.000632006    -0.000198032
                    -0.000195354     0.000621109        -0.987724       0.0816754      0.000675529    -0.000237776       -0.0261838       -0.079699
281700.6              -0.0257584       -0.118316     -0.000717675    -0.000117982         -0.98146         0.11561     -0.000224623     0.000618401
                    -0.000587432    -6.91953e-05        0.0100431      -0.0854085      0.000173017     0.000341969        -0.987741       0.0825876
                       -0.981306        0.115673      0.000293643     0.000423478      -0.00553148       -0.119996      0.000632003    -0.000198042
                    -0.000195273     0.000621068         -0.98772       0.0817069      0.000675446    -0.000237749       -0.0261886      -0.0797035
281700.7              -0.0257614       -0.118321     -0.000717694     -0.00011796        -0.981456         0.11564     -0.000224469     0.000618339
                    -0.000587444    -6.91819e-05         0.010042      -0.0854145      0.000173093     0.000341963        -0.987738       0.0826171
                       -0.981302        0.115702      0.000293666     0.000423464      -0.00553708       -0.120002         0.000632    -0.000198053
                    -0.000195193     0.000621028        -0.987716       0.0817384      0.000675364    -0.000237721       -0.0261935      -0.0797079
281700.8              -0.0257644       -0.118327     -0.000717713    -0.000117939        -0.981451        0.115669     -0.000224316     0.000618278
                    -0.000587457    -6.91686e-05        0.0100409      -0.0854204      0.000173168     0.000341957        -0.987735       0.0826465
                       -0.981298        0.115732      0.000293689      0.00042345      -0.00554269       -0.120007      0.000631997    -0.000198063
                    -0.000195112     0.000620987        -0.987713         0.08177      0.000675282    -0.000237693       -0.0261983      -0.0797123
281700.9              -0.0257674       -0.118332     -0.000717732    -0.000117917        -0.981447        0.115699     -0.000224163     0.000618217
                    -0.000587471    -6.91552e-05        0.0100398      -0.0854263      0.000173243     0.000341951        -0.987732       0.0826759
                       -0.981294        0.115761      0.000293712     0.000423437      -0.00554829       -0.120013      0.000631994    -0.000198074
                    -0.000195031     0.000620947        -0.987709       0.0818015        0.0006752    -0.000237665       -0.0262031      -0.0797168
281701                -0.0257704       -0.118338     -0.000717751    -0.000117896        -0.981443        0.115728     -0.000224011     0.000618157
                    -0.000587484    -6.91418e-05        0.0100387      -0.0854323      0.000173319     0.000341945        -0.987729       0.0827053
                        -0.98129        0.115791      0.000293735     0.000423423      -0.00555389       -0.120018      0.000631991    -0.000198084
                    -0.000194951     0.000620906        -0.987705        0.081833      0.000675118    -0.000237638       -0.0262079      -0.0797212
281701.1              -0.0257734       -0.118343     -0.000717769    -0.000117875        -0.981439        0.115758      -0.00022386     0.000618097
                    -0.000587497    -6.91285e-05        0.0100376      -0.0854382      0.000173394     0.000341939        -0.987726       0.0827347
                       -0.981285         0.11582      0.000293758     0.000423409       -0.0055595       -0.120024      0.000631987    -0.000198095
                     -0.00019487     0.000620866        -0.987701       0.0818644      0.000675035     -0.00023761       -0.0262127      -0.0797257
281701.2              -0.0257764       -0.118349     -0.000717788    -0.000117853        -0.981435        0.115788     -0.000223709     0.000618038
                     -0.00058751    -6.91151e-05        0.0100365      -0.0854441      0.000173469     0.000341933        -0.987723       0.0827642
                       -0.981281         0.11585      0.000293781     0.000423395       -0.0055651        -0.12003      0.000631984    -0.000198106
                     -0.00019479     0.000620825        -0.987698       0.0818959      0.000674953    -0.000237582       -0.0262175      -0.0797301
281701.3              -0.0257794       -0.118354     -0.000717807    -0.000117832        -0.981431        0.115817     -0.000223559     0.000617979
                    -0.000587524    -6.91017e-05        0.0100354        -0.08545      0.000173545     0.000341927         -0.98772       0.0827936
                       -0.981277        0.115879      0.000293804     0.000423381      -0.00557071       -0.120035      0.000631981    -0.000198116
                    -0.000194709     0.000620784        -0.987694       0.0819273      0.000674871    -0.000237554       -0.0262223      -0.0797345
281701.4              -0.0257824       -0.118359     -0.000717825     -0.00011781        -0.981426        0.115847      -0.00022341     0.000617921
                    -0.000587537    -6.90883e-05        0.0100343       -0.085456       0.00017362     0.000341921        -0.987717        0.082823
                       -0.981273        0.115908      0.000293827     0.000423367      -0.00557632       -0.120041      0.000631977    -0.000198127
                    -0.000194629     0.000620744         -0.98769       0.0819587      0.000674789    -0.000237527       -0.0262271       -0.079739
281701.5              -0.0257854       -0.118365     -0.000717844    -0.000117789        -0.981422        0.115877     -0.000223261     0.000617863
                    -0.000587551    -6.90749e-05        0.0100332      -0.0854619      0.000173695     0.000341915        -0.987714       0.0828524
                       -0.981269        0.115938       0.00029385     0.000423353      -0.00558192       -0.120046      0.000631974    -0.000198137
                    -0.000194549     0.000620703        -0.987686       0.0819902      0.000674707    -0.000237499       -0.0262319      -0.0797434
281701.6              -0.0257884        -0.11837     -0.000717862    -0.000117768        -0.981418        0.115906     -0.000223113     0.000617805
                    -0.000587564    -6.90615e-05        0.0100321      -0.0854678       0.00017377      0.00034191        -0.987711       0.0828818
                       -0.981265        0.115967      0.000293874     0.000423339      -0.00558753       -0.120052       0.00063197    -0.000198148
                    -0.000194468     0.000620662        -0.987683       0.0820216      0.000674626    -0.000237472       -0.0262367      -0.0797479
281701.7              -0.0257914       -0.118376     -0.000717881    -0.000117746        -0.981414        0.115936     -0.000222966     0.000617748
                    -0.000587578    -6.90482e-05         0.010031      -0.0854737      0.000173846     0.000341904        -0.987708       0.0829112
                        -0.98126        0.115997      0.000293897     0.000423326      -0.00559314       -0.120058      0.000631967    -0.000198159
                    -0.000194388     0.000620621        -0.987679       0.0820529      0.000674544    -0.000237444       -0.0262416      -0.0797523
281701.8              -0.0257944       -0.118381     -0.000717899    -0.000117725         -0.98141        0.115965     -0.000222819     0.000617692
                    -0.000587592    -6.90348e-05        0.0100299      -0.0854797      0.000173921     0.000341898        -0.987704       0.0829406
                       -0.981256        0.116026       0.00029392     0.000423312      -0.00559874       -0.120063      0.000631963    -0.000198169
                    -0.000194308      0.00062058        -0.987675       0.0820843      0.000674462    -0.000237416       -0.0262464      -0.0797567
281701.9              -0.0257974       -0.118387     -0.000717917    -0.000117703        -0.981405        0.115995     -0.000222674     0.000617635
                    -0.000587606    -6.90214e-05        0.0100288      -0.0854856      0.000173996     0.000341892        -0.987701       0.0829701
                       -0.981252        0.116056      0.000293943     0.000423298      -0.00560435       -0.120069      0.000631959     -0.00019818
                    -0.000194228      0.00062054        -0.987671       0.0821156       0.00067438    -0.000237389       -0.0262512      -0.0797611
281702                -0.0258004       -0.118392     -0.000717935    -0.000117682        -0.981401        0.116025     -0.000222528      0.00061758
                     -0.00058762     -6.9008e-05        0.0100277      -0.0854915      0.000174071     0.000341886        -0.987698       0.0829995
                       -0.981248        0.116085      0.000293967     0.000423284      -0.00560996       -0.120074      0.000631956    -0.000198191
                    -0.000194148     0.000620499        -0.987668        0.082147      0.000674298    -0.000237361        -0.026256      -0.0797656
281702.1              -0.0258034       -0.118398     -0.000717953     -0.00011766        -0.981397        0.116054     -0.000222384     0.000617524
                    -0.000587634    -6.89946e-05        0.0100266      -0.0854974      0.000174146      0.00034188        -0.987695       0.0830289
                       -0.981244        0.116115       0.00029399     0.000423271      -0.00561557        -0.12008      0.000631952    -0.000198201
                    -0.000194068     0.000620458        -0.987664       0.0821783      0.000674217    -0.000237334       -0.0262608        -0.07977
281702.2              -0.0258064       -0.118403     -0.000717971    -0.000117639        -0.981393        0.116084      -0.00022224      0.00061747
                    -0.000587648    -6.89811e-05        0.0100255      -0.0855034      0.000174221     0.000341875        -0.987692       0.0830583
                        -0.98124        0.116144      0.000294013     0.000423257      -0.00562118       -0.120086      0.000631948    -0.000198212
                    -0.000193989     0.000620417         -0.98766       0.0822096      0.000674135    -0.000237306       -0.0262656      -0.0797744
281702.3              -0.0258094       -0.118409     -0.000717989    -0.000117617        -0.981389        0.116114     -0.000222096     0.000617415
                    -0.000587662    -6.89677e-05        0.0100243      -0.0855093      0.000174296     0.000341869        -0.987689       0.0830877
                       -0.981235        0.116173      0.000294037     0.000423243      -0.00562679       -0.120091      0.000631944    -0.000198223
                    -0.000193909     0.000620376        -0.987656       0.0822409      0.000674053    -0.000237279       -0.0262705      -0.0797789
281702.4              -0.0258124       -0.118414     -0.000718007    -0.000117596        -0.981385        0.116143     -0.000221954     0.000617361
                    -0.000587676    -6.89543e-05        0.0100232      -0.0855152      0.000174371     0.000341863        -0.987685       0.0831171
                       -0.981231        0.116203       0.00029406      0.00042323       -0.0056324       -0.120097       0.00063194    -0.000198233
                    -0.000193829     0.000620335        -0.987653       0.0822722      0.000673972    -0.000237251       -0.0262753      -0.0797833
281702.5              -0.0258154        -0.11842     -0.000718024    -0.000117574         -0.98138        0.116173     -0.000221812     0.000617307
                    -0.000587691    -6.89409e-05        0.0100221      -0.0855211      0.000174447     0.000341857        -0.987682       0.0831465
                       -0.981227        0.116232      0.000294084     0.000423216      -0.00563801       -0.120102      0.000631936    -0.000198244
                     -0.00019375     0.000620294        -0.987649       0.0823034       0.00067389    -0.000237224       -0.0262801      -0.0797877
281702.6              -0.0258184       -0.118425     -0.000718042    -0.000117553        -0.981376        0.116202      -0.00022167     0.000617254
                    -0.000587705    -6.89275e-05         0.010021       -0.085527      0.000174522     0.000341851        -0.987679        0.083176
                       -0.981223        0.116262      0.000294107     0.000423202      -0.00564362       -0.120108      0.000631932    -0.000198255
                     -0.00019367     0.000620252        -0.987645       0.0823347      0.000673809    -0.000237196       -0.0262849      -0.0797921
281702.7              -0.0258214        -0.11843     -0.000718059    -0.000117531        -0.981372        0.116232      -0.00022153     0.000617202
                     -0.00058772     -6.8914e-05        0.0100199       -0.085533      0.000174597     0.000341846        -0.987676       0.0832054
                       -0.981219        0.116291      0.000294131     0.000423189      -0.00564923       -0.120114      0.000631927    -0.000198265
                     -0.00019359     0.000620211        -0.987641       0.0823659      0.000673727    -0.000237169       -0.0262897      -0.0797965
281702.8              -0.0258244       -0.118436     -0.000718077     -0.00011751        -0.981368        0.116262      -0.00022139     0.000617149
                    -0.000587734    -6.89006e-05        0.0100188      -0.0855389      0.000174672      0.00034184        -0.987672       0.0832348
                       -0.981215        0.116321      0.000294155     0.000423175      -0.00565484       -0.120119      0.000631923    -0.000198276
                    -0.000193511      0.00062017        -0.987638       0.0823972      0.000673646    -0.000237142       -0.0262945       -0.079801
281702.9              -0.0258274       -0.118441     -0.000718094    -0.000117489        -0.981364        0.116291      -0.00022125     0.000617097
                    -0.000587749    -6.88872e-05        0.0100177      -0.0855448      0.000174747     0.000341834        -0.987669       0.0832642
                        -0.98121         0.11635      0.000294178     0.000423162      -0.00566045       -0.120125      0.000631919    -0.000198287
                    -0.000193432     0.000620129        -0.987634       0.0824284      0.000673565    -0.000237114       -0.0262994      -0.0798054
281703                -0.0258304       -0.118447     -0.000718111    -0.000117467         -0.98136        0.116321     -0.000221112     0.000617046
                    -0.000587763    -6.88737e-05        0.0100166      -0.0855507      0.000174822     0.000341828        -0.987666       0.0832936
                       -0.981206        0.116379      0.000294202     0.000423148      -0.00566607        -0.12013      0.000631914    -0.000198298
                    -0.000193352     0.000620088         -0.98763       0.0824596      0.000673483    -0.000237087       -0.0263042      -0.0798098
281703.1              -0.0258334       -0.118452     -0.000718128    -0.000117446        -0.981355        0.116351     -0.000220974     0.000616995
                    -0.000587778    -6.88603e-05        0.0100155      -0.0855567      0.000174896     0.000341823        -0.987663       0.0833231
                       -0.981202        0.116409      0.000294226     0.000423135      -0.00567168       -0.120136       0.00063191    -0.000198308
