! TOUCHSTONE file generated by CST MICROWAVE STUDIO
! Date and time: Wed Oct  8 06:58:58 2025
! Project name: Teste_Macro_Metasurface_Nanopilar.cst
! Parameters = {H=600; L_x=140; L_y=80; Lambda=1064; Max_L=200; Min_L=70; PathPara=1; Phi=0; Step_L=10; Theta=0; p=520; phaseX=180; phaseY=0}
! Header version: 2018
! Port assignment regex: !\s*Touchstone port\s*([0-9]+)\s*=\s*(CST MWS port|CST DS port)\s*([0-9]+|Zmin|Zmax)\s*\(\"(.*)\"\)(\s*mode\s*([0-9]+))?.*
! Touchstone port assignment:
! Touchstone port 1 = CST MWS port Zmax ("") mode 1
! Touchstone port 2 = CST MWS port Zmax ("") mode 2
! Touchstone port 3 = CST MWS port Zmin ("") mode 1
! Touchstone port 4 = CST MWS port Zmin ("") mode 2
! S-Parameters are not renormalized. Each port impedance will be approximated by the real part at minimum frequency. The values are described via the [Reference] keyword.
! Default impedance is overridden by [Reference]
[Version] 2.0
# GHz S RI R 376.73
[Number of Ports] 4
[Reference]
376.73 376.73 376.73 376.73 
[Number of Frequencies] 1001
[Network Data]
281700                  0.088044      -0.0919292     -0.000200649    -0.000684097        -0.846664        0.514915      0.000224081    -4.05712e-05
                    -0.000229935    -0.000846902         0.100172        0.174995     -7.58894e-05    -8.11564e-05         0.963929        0.102491
                       -0.846491        0.514768     -4.19774e-05    -0.000259324        -0.122387       0.0361395      2.53314e-05      0.00105199
                     0.000122534     7.42076e-05         0.963781         0.10217      0.000260983     0.000788052        -0.140092        0.150622
281700.1               0.0880388      -0.0919329     -0.000200672    -0.000684098         -0.84665        0.514938       0.00022408    -4.05895e-05
                    -0.000229955    -0.000846895         0.100178        0.174986     -7.58941e-05    -8.11537e-05         0.963933        0.102457
                       -0.846477        0.514791     -4.20085e-05    -0.000259245        -0.122386       0.0361397      2.53488e-05        0.001052
                     0.000122529     7.42135e-05         0.963786        0.102137      0.000261009     0.000788048        -0.140085        0.150621
281700.2               0.0880335      -0.0919366     -0.000200694    -0.000684099        -0.846637        0.514961      0.000224078    -4.06078e-05
                    -0.000229974    -0.000846887         0.100184        0.174977     -7.58989e-05    -8.11509e-05         0.963938        0.102424
                       -0.846464        0.514814     -4.20394e-05    -0.000259167        -0.122385         0.03614      2.53662e-05      0.00105202
                     0.000122523     7.42193e-05          0.96379        0.102103      0.000261035     0.000788044        -0.140079        0.150621
281700.3               0.0880283      -0.0919404     -0.000200716    -0.000684101        -0.846623        0.514984      0.000224077    -4.06261e-05
                    -0.000229993     -0.00084688          0.10019        0.174968     -7.59036e-05    -8.11482e-05         0.963942        0.102391
                        -0.84645        0.514836       -4.207e-05    -0.000259089        -0.122384       0.0361402      2.53835e-05      0.00105204
                     0.000122518     7.42251e-05         0.963794         0.10207      0.000261061      0.00078804        -0.140072         0.15062
281700.4               0.0880231      -0.0919441     -0.000200738    -0.000684101        -0.846609        0.515007      0.000224075    -4.06444e-05
                    -0.000230013    -0.000846873         0.100196        0.174959     -7.59083e-05    -8.11455e-05         0.963947        0.102357
                       -0.846436        0.514859     -4.21004e-05    -0.000259012        -0.122383       0.0361404      2.54009e-05      0.00105205
                     0.000122512      7.4231e-05         0.963798        0.102036      0.000261087     0.000788036        -0.140065         0.15062
281700.5               0.0880178      -0.0919479     -0.000200761    -0.000684102        -0.846595         0.51503      0.000224073    -4.06627e-05
                    -0.000230032    -0.000846866         0.100201         0.17495     -7.59131e-05    -8.11428e-05         0.963951        0.102324
                       -0.846422        0.514882     -4.21306e-05    -0.000258935        -0.122382       0.0361406      2.54183e-05      0.00105207
                     0.000122507     7.42368e-05         0.963803        0.102003      0.000261113     0.000788032        -0.140059        0.150619
281700.6               0.0880126      -0.0919516     -0.000200783    -0.000684103        -0.846581        0.515053      0.000224072     -4.0681e-05
                    -0.000230051    -0.000846859         0.100207        0.174941     -7.59178e-05      -8.114e-05         0.963956         0.10229
                       -0.846409        0.514905     -4.21606e-05    -0.000258858        -0.122381       0.0361408      2.54357e-05      0.00105208
                     0.000122502     7.42426e-05         0.963807        0.101969      0.000261139     0.000788028        -0.140052        0.150619
281700.7               0.0880074      -0.0919553     -0.000200805    -0.000684104        -0.846568        0.515075       0.00022407    -4.06993e-05
                    -0.000230071    -0.000846852         0.100213        0.174932     -7.59226e-05    -8.11373e-05          0.96396        0.102257
                       -0.846395        0.514928     -4.21904e-05    -0.000258782         -0.12238        0.036141       2.5453e-05       0.0010521
                     0.000122496     7.42485e-05         0.963811        0.101936      0.000261165     0.000788024        -0.140046        0.150618
281700.8               0.0880021      -0.0919591     -0.000200827    -0.000684104        -0.846554        0.515098      0.000224069    -4.07176e-05
                     -0.00023009    -0.000846845         0.100219        0.174923     -7.59273e-05    -8.11346e-05         0.963965        0.102224
                       -0.846381        0.514951     -4.22199e-05    -0.000258706        -0.122379       0.0361413      2.54704e-05      0.00105212
                     0.000122491     7.42543e-05         0.963815        0.101902      0.000261191      0.00078802        -0.140039        0.150618
281700.9               0.0879969      -0.0919628      -0.00020085    -0.000684104         -0.84654        0.515121      0.000224067    -4.07359e-05
                     -0.00023011    -0.000846837         0.100224        0.174914      -7.5932e-05    -8.11318e-05          0.96397         0.10219
                       -0.846367        0.514974     -4.22492e-05    -0.000258631        -0.122378       0.0361415      2.54878e-05      0.00105213
                     0.000122485     7.42602e-05          0.96382        0.101869      0.000261216     0.000788016        -0.140032        0.150618
281701                 0.0879916      -0.0919666     -0.000200872    -0.000684105        -0.846526        0.515144      0.000224066    -4.07542e-05
                    -0.000230129     -0.00084683          0.10023        0.174905     -7.59368e-05    -8.11291e-05         0.963974        0.102157
                       -0.846353        0.514997     -4.22783e-05    -0.000258556        -0.122377       0.0361417      2.55051e-05      0.00105215
                      0.00012248      7.4266e-05         0.963824        0.101835      0.000261242     0.000788012        -0.140026        0.150617
281701.1               0.0879864      -0.0919703     -0.000200894    -0.000684105        -0.846513        0.515167      0.000224064    -4.07724e-05
                    -0.000230148    -0.000846823         0.100236        0.174896     -7.59415e-05    -8.11263e-05         0.963979        0.102123
                        -0.84634         0.51502     -4.23071e-05    -0.000258481        -0.122376       0.0361419      2.55225e-05      0.00105216
                     0.000122475     7.42718e-05         0.963828        0.101802      0.000261268     0.000788008        -0.140019        0.150617
281701.2               0.0879812       -0.091974     -0.000200917    -0.000684105        -0.846499         0.51519      0.000224062    -4.07907e-05
                    -0.000230168    -0.000846816         0.100242        0.174887     -7.59462e-05    -8.11236e-05         0.963983         0.10209
                       -0.846326        0.515043     -4.23357e-05    -0.000258407        -0.122375       0.0361421      2.55399e-05      0.00105218
                     0.000122469     7.42777e-05         0.963832        0.101768      0.000261294     0.000788004        -0.140013        0.150616
281701.3               0.0879759      -0.0919778     -0.000200939    -0.000684105        -0.846485        0.515213      0.000224061     -4.0809e-05
                    -0.000230187    -0.000846809         0.100247        0.174878      -7.5951e-05    -8.11209e-05         0.963988        0.102057
                       -0.846312        0.515065     -4.23641e-05    -0.000258333        -0.122374       0.0361423      2.55572e-05       0.0010522
                     0.000122464     7.42835e-05         0.963837        0.101735       0.00026132        0.000788        -0.140006        0.150616
281701.4               0.0879707      -0.0919815     -0.000200962    -0.000684105        -0.846471        0.515236      0.000224059    -4.08273e-05
                    -0.000230206    -0.000846802         0.100253        0.174869     -7.59557e-05    -8.11181e-05         0.963992        0.102023
                       -0.846298        0.515088     -4.23923e-05    -0.000258259        -0.122373       0.0361426      2.55746e-05      0.00105221
                     0.000122459     7.42894e-05         0.963841        0.101701      0.000261346     0.000787996            -0.14        0.150615
281701.5               0.0879654      -0.0919853     -0.000200984    -0.000684104        -0.846457        0.515258      0.000224058    -4.08456e-05
                    -0.000230226    -0.000846794         0.100259         0.17486     -7.59604e-05    -8.11153e-05         0.963997         0.10199
                       -0.846284        0.515111     -4.24202e-05    -0.000258186        -0.122372       0.0361428       2.5592e-05      0.00105223
                     0.000122453     7.42952e-05         0.963845        0.101668      0.000261372     0.000787992        -0.139993        0.150615
281701.6               0.0879602       -0.091989     -0.000201007    -0.000684104        -0.846444        0.515281      0.000224056    -4.08639e-05
                    -0.000230245    -0.000846787         0.100265        0.174851     -7.59652e-05    -8.11126e-05         0.964001        0.101956
                       -0.846271        0.515134     -4.24479e-05    -0.000258114         -0.12237        0.036143      2.56093e-05      0.00105224
                     0.000122448     7.43011e-05         0.963849        0.101634      0.000261398     0.000787988        -0.139986        0.150614
281701.7                0.087955      -0.0919927     -0.000201029    -0.000684103         -0.84643        0.515304      0.000224055    -4.08822e-05
                    -0.000230264     -0.00084678         0.100271        0.174842     -7.59699e-05    -8.11098e-05         0.964006        0.101923
                       -0.846257        0.515157     -4.24754e-05    -0.000258041        -0.122369       0.0361432      2.56267e-05      0.00105226
                     0.000122442     7.43069e-05         0.963854        0.101601      0.000261424     0.000787984         -0.13998        0.150614
281701.8               0.0879497      -0.0919965     -0.000201052    -0.000684103        -0.846416        0.515327      0.000224053    -4.09005e-05
                    -0.000230284    -0.000846773         0.100276        0.174833     -7.59746e-05    -8.11071e-05          0.96401         0.10189
                       -0.846243         0.51518     -4.25027e-05    -0.000257969        -0.122368       0.0361434       2.5644e-05      0.00105228
                     0.000122437     7.43127e-05         0.963858        0.101567       0.00026145      0.00078798        -0.139973        0.150613
281701.9               0.0879445      -0.0920002     -0.000201074    -0.000684102        -0.846402         0.51535      0.000224051    -4.09188e-05
                    -0.000230303    -0.000846766         0.100282        0.174824     -7.59793e-05    -8.11043e-05         0.964015        0.101856
                       -0.846229        0.515203     -4.25297e-05    -0.000257898        -0.122367       0.0361436      2.56614e-05      0.00105229
                     0.000122432     7.43186e-05         0.963862        0.101534      0.000261476     0.000787976        -0.139967        0.150613
281702                 0.0879392      -0.0920039     -0.000201097    -0.000684101        -0.846389        0.515373       0.00022405    -4.09371e-05
                    -0.000230323    -0.000846759         0.100288        0.174815     -7.59841e-05    -8.11015e-05          0.96402        0.101823
                       -0.846215        0.515226     -4.25565e-05    -0.000257827        -0.122366       0.0361438      2.56787e-05      0.00105231
                     0.000122426     7.43244e-05         0.963867          0.1015      0.000261502     0.000787972         -0.13996        0.150612
281702.1                0.087934      -0.0920077     -0.000201119      -0.0006841        -0.846375        0.515396      0.000224048    -4.09554e-05
                    -0.000230342    -0.000846752         0.100294        0.174806     -7.59888e-05    -8.10987e-05         0.964024        0.101789
                       -0.846202        0.515249     -4.25831e-05    -0.000257756        -0.122365       0.0361441      2.56961e-05      0.00105232
                     0.000122421     7.43303e-05         0.963871        0.101467      0.000261528     0.000787969        -0.139953        0.150612
281702.2               0.0879288      -0.0920114     -0.000201142    -0.000684099        -0.846361        0.515419      0.000224047    -4.09737e-05
                    -0.000230361    -0.000846744         0.100299        0.174797     -7.59935e-05     -8.1096e-05         0.964029        0.101756
                       -0.846188        0.515271     -4.26094e-05    -0.000257686        -0.122364       0.0361443      2.57134e-05      0.00105234
                     0.000122415     7.43361e-05         0.963875        0.101433      0.000261554     0.000787965        -0.139947        0.150611
281702.3               0.0879235      -0.0920152     -0.000201164    -0.000684098        -0.846347        0.515441      0.000224045     -4.0992e-05
                    -0.000230381    -0.000846737         0.100305        0.174788     -7.59982e-05    -8.10932e-05         0.964033        0.101722
                       -0.846174        0.515294     -4.26355e-05    -0.000257616        -0.122363       0.0361445      2.57307e-05      0.00105235
                      0.00012241     7.43419e-05         0.963879          0.1014       0.00026158     0.000787961         -0.13994        0.150611
281702.4               0.0879183      -0.0920189     -0.000201187    -0.000684096        -0.846333        0.515464      0.000224043    -4.10102e-05
                      -0.0002304     -0.00084673         0.100311        0.174779     -7.60029e-05    -8.10904e-05         0.964038        0.101689
                        -0.84616        0.515317     -4.26614e-05    -0.000257546        -0.122362       0.0361447      2.57481e-05      0.00105237
                     0.000122405     7.43478e-05         0.963884        0.101366      0.000261605     0.000787957        -0.139934         0.15061
281702.5                0.087913      -0.0920226      -0.00020121    -0.000684095         -0.84632        0.515487      0.000224042    -4.10285e-05
                    -0.000230419    -0.000846723         0.100317         0.17477     -7.60077e-05    -8.10876e-05         0.964042        0.101656
                       -0.846147         0.51534     -4.26871e-05    -0.000257477        -0.122361       0.0361449      2.57654e-05      0.00105239
                     0.000122399     7.43536e-05         0.963888        0.101333      0.000261631     0.000787953        -0.139927         0.15061
281702.6               0.0879078      -0.0920264     -0.000201232    -0.000684093        -0.846306         0.51551       0.00022404    -4.10468e-05
                    -0.000230439    -0.000846716         0.100322        0.174762     -7.60124e-05    -8.10848e-05         0.964047        0.101622
                       -0.846133        0.515363     -4.27125e-05    -0.000257409         -0.12236       0.0361451      2.57828e-05       0.0010524
                     0.000122394     7.43595e-05         0.963892        0.101299      0.000261657     0.000787949         -0.13992        0.150609
281702.7               0.0879025      -0.0920301     -0.000201255    -0.000684092        -0.846292        0.515533      0.000224039    -4.10651e-05
                    -0.000230458    -0.000846709         0.100328        0.174753     -7.60171e-05     -8.1082e-05         0.964051        0.101589
                       -0.846119        0.515386     -4.27377e-05     -0.00025734        -0.122359       0.0361454      2.58001e-05      0.00105242
                     0.000122388     7.43653e-05         0.963897        0.101266      0.000261683     0.000787945        -0.139914        0.150609
281702.8               0.0878973      -0.0920338     -0.000201278     -0.00068409        -0.846278        0.515556      0.000224037    -4.10834e-05
                    -0.000230477    -0.000846701         0.100334        0.174744     -7.60218e-05    -8.10793e-05         0.964056        0.101555
                       -0.846105        0.515409     -4.27627e-05    -0.000257272        -0.122358       0.0361456      2.58174e-05      0.00105243
                     0.000122383     7.43712e-05         0.963901        0.101232      0.000261709     0.000787941        -0.139907        0.150608
281702.9               0.0878921      -0.0920376       -0.0002013    -0.000684088        -0.846264        0.515579      0.000224035    -4.11017e-05
                    -0.000230497    -0.000846694          0.10034        0.174735     -7.60265e-05    -8.10765e-05          0.96406        0.101522
                       -0.846091        0.515432     -4.27874e-05    -0.000257205        -0.122357       0.0361458      2.58348e-05      0.00105245
                     0.000122378      7.4377e-05         0.963905        0.101198      0.000261735     0.000787937        -0.139901        0.150608
281703                 0.0878868      -0.0920413     -0.000201323    -0.000684086        -0.846251        0.515602      0.000224034      -4.112e-05
                    -0.000230516    -0.000846687         0.100346        0.174726     -7.60312e-05    -8.10737e-05         0.964065        0.101489
                       -0.846078        0.515455     -4.28119e-05    -0.000257138        -0.122356        0.036146      2.58521e-05      0.00105247
                     0.000122372     7.43828e-05         0.963909        0.101165      0.000261761     0.000787933        -0.139894        0.150607
281703.1               0.0878816       -0.092045     -0.000201346    -0.000684083        -0.846237        0.515624      0.000224032    -4.11383e-05
                    -0.000230535     -0.00084668         0.100351        0.174717     -7.60359e-05    -8.10709e-05         0.964069        0.101455
                       -0.846064        0.515477     -4.28362e-05    -0.000257071        -0.122355       0.0361462      2.58694e-05      0.00105248
