! TOUCHSTONE file generated by CST MICROWAVE STUDIO
! Date and time: Wed Oct  8 07:00:49 2025
! Project name: Teste_Macro_Metasurface_Nanopilar.cst
! Parameters = {H=600; L_x=155; L_y=95; Lambda=1064; Max_L=200; Min_L=70; PathPara=1; Phi=0; Step_L=10; Theta=0; p=520; phaseX=180; phaseY=0}
! Header version: 2018
! Port assignment regex: !\s*Touchstone port\s*([0-9]+)\s*=\s*(CST MWS port|CST DS port)\s*([0-9]+|Zmin|Zmax)\s*\(\"(.*)\"\)(\s*mode\s*([0-9]+))?.*
! Touchstone port assignment:
! Touchstone port 1 = CST MWS port Zmax ("") mode 1
! Touchstone port 2 = CST MWS port Zmax ("") mode 2
! Touchstone port 3 = CST MWS port Zmin ("") mode 1
! Touchstone port 4 = CST MWS port Zmin ("") mode 2
! S-Parameters are not renormalized. Each port impedance will be approximated by the real part at minimum frequency. The values are described via the [Reference] keyword.
! Default impedance is overridden by [Reference]
[Version] 2.0
# GHz S RI R 376.73
[Number of Ports] 4
[Reference]
376.73 376.73 376.73 376.73 
[Number of Frequencies] 1001
[Network Data]
281700                 -0.199658       -0.119937      6.21265e-05     5.07192e-06       -0.0561313        0.966677     -0.000334286    -0.000195888
                     2.57979e-05    -0.000125406        -0.209374       -0.062723      0.000317347    -0.000491785        -0.229642       -0.942337
                      -0.0566146         0.96667       0.00015373    -0.000378322        -0.212401       0.0961734     -9.72726e-05    -0.000323573
                    -0.000314427    -9.29542e-05        -0.229674       -0.942118     -4.34639e-05    -0.000672576        -0.157889        0.151553
281700.1               -0.199661       -0.119929      6.21201e-05      5.0487e-06       -0.0561028        0.966679     -0.000334306    -0.000195869
                     2.58193e-05    -0.000125423        -0.209373      -0.0627155      0.000317326     -0.00049179        -0.229671       -0.942331
                      -0.0565861        0.966672      0.000153744    -0.000378342        -0.212398       0.0961779     -9.72788e-05    -0.000323583
                    -0.000314424    -9.29657e-05        -0.229704       -0.942112     -4.35244e-05    -0.000672568        -0.157882        0.151555
281700.2               -0.199664       -0.119922      6.21137e-05     5.02548e-06       -0.0560742        0.966681     -0.000334325     -0.00019585
                     2.58407e-05     -0.00012544        -0.209371      -0.0627081      0.000317305    -0.000491794          -0.2297       -0.942325
                      -0.0565575        0.966674      0.000153757    -0.000378361        -0.212394       0.0961825      -9.7285e-05    -0.000323593
                    -0.000314421    -9.29773e-05        -0.229733       -0.942106     -4.35849e-05    -0.000672561        -0.157875        0.151557
281700.3               -0.199666       -0.119914      6.21074e-05     5.00226e-06       -0.0560456        0.966683     -0.000334345    -0.000195831
                      2.5862e-05    -0.000125457         -0.20937      -0.0627006      0.000317284    -0.000491799         -0.22973       -0.942318
                       -0.056529        0.966676      0.000153771    -0.000378381         -0.21239        0.096187     -9.72911e-05    -0.000323602
                    -0.000314418    -9.29888e-05        -0.229763       -0.942099     -4.36454e-05    -0.000672553        -0.157867         0.15156
281700.4               -0.199669       -0.119906       6.2101e-05     4.97904e-06       -0.0560171        0.966685     -0.000334364    -0.000195812
                     2.58834e-05    -0.000125473        -0.209369      -0.0626931      0.000317263    -0.000491804        -0.229759       -0.942312
                      -0.0565004        0.966678      0.000153784    -0.000378401        -0.212386       0.0961916     -9.72973e-05    -0.000323612
                    -0.000314416    -9.30003e-05        -0.229792       -0.942093     -4.37059e-05    -0.000672546         -0.15786        0.151562
281700.5               -0.199672       -0.119899      6.20947e-05     4.95581e-06       -0.0559885        0.966687     -0.000334383    -0.000195793
                     2.59048e-05     -0.00012549        -0.209367      -0.0626857      0.000317242    -0.000491808        -0.229789       -0.942306
                      -0.0564719         0.96668      0.000153798    -0.000378421        -0.212382       0.0961961     -9.73035e-05    -0.000323622
                    -0.000314413    -9.30118e-05        -0.229821       -0.942087     -4.37664e-05    -0.000672538        -0.157853        0.151565
281700.6               -0.199675       -0.119891      6.20883e-05     4.93258e-06       -0.0559599        0.966689     -0.000334403    -0.000195774
                     2.59261e-05    -0.000125507        -0.209366      -0.0626782      0.000317221    -0.000491813        -0.229818       -0.942299
                      -0.0564433        0.966682      0.000153811    -0.000378441        -0.212378       0.0962007     -9.73097e-05    -0.000323632
                     -0.00031441    -9.30233e-05        -0.229851       -0.942081     -4.38268e-05    -0.000672531        -0.157846        0.151567
281700.7               -0.199677       -0.119883       6.2082e-05     4.90935e-06       -0.0559314        0.966691     -0.000334422    -0.000195755
                     2.59475e-05    -0.000125524        -0.209365      -0.0626708      0.000317199    -0.000491817        -0.229848       -0.942293
                      -0.0564148        0.966684      0.000153825    -0.000378461        -0.212374       0.0962052     -9.73159e-05    -0.000323642
                    -0.000314408    -9.30349e-05         -0.22988       -0.942074     -4.38873e-05    -0.000672524        -0.157839         0.15157
281700.8                -0.19968       -0.119876      6.20757e-05     4.88612e-06       -0.0559028        0.966693     -0.000334442    -0.000195735
                     2.59688e-05    -0.000125541        -0.209363      -0.0626633      0.000317178    -0.000491822        -0.229877       -0.942287
                      -0.0563862        0.966686      0.000153838    -0.000378481         -0.21237       0.0962098     -9.73221e-05    -0.000323651
                    -0.000314405    -9.30464e-05         -0.22991       -0.942068     -4.39478e-05    -0.000672516        -0.157831        0.151572
281700.9               -0.199683       -0.119868      6.20693e-05     4.86288e-06       -0.0558742        0.966695     -0.000334461    -0.000195716
                     2.59902e-05    -0.000125558        -0.209362      -0.0626559      0.000317157    -0.000491826        -0.229906        -0.94228
                      -0.0563577        0.966688      0.000153852    -0.000378501        -0.212367       0.0962143     -9.73283e-05    -0.000323661
                    -0.000314402    -9.30579e-05        -0.229939       -0.942062     -4.40083e-05    -0.000672509        -0.157824        0.151575
281701                 -0.199685        -0.11986       6.2063e-05     4.83964e-06       -0.0558457        0.966697     -0.000334481    -0.000195697
                     2.60116e-05    -0.000125575         -0.20936      -0.0626484      0.000317136    -0.000491831        -0.229936       -0.942274
                      -0.0563292         0.96669      0.000153866    -0.000378521        -0.212363       0.0962189     -9.73344e-05    -0.000323671
                      -0.0003144    -9.30694e-05        -0.229968       -0.942055     -4.40688e-05    -0.000672501        -0.157817        0.151577
281701.1               -0.199688       -0.119852      6.20567e-05      4.8164e-06       -0.0558171        0.966699       -0.0003345    -0.000195678
                     2.60329e-05    -0.000125592        -0.209359      -0.0626409      0.000317115    -0.000491836        -0.229965       -0.942268
                      -0.0563006        0.966692      0.000153879     -0.00037854        -0.212359       0.0962234     -9.73406e-05    -0.000323681
                    -0.000314397     -9.3081e-05        -0.229998       -0.942049     -4.41292e-05    -0.000672494         -0.15781         0.15158
281701.2               -0.199691       -0.119845      6.20504e-05     4.79316e-06       -0.0557885        0.966701     -0.000334519    -0.000195659
                     2.60543e-05    -0.000125609        -0.209358      -0.0626335      0.000317094     -0.00049184        -0.229995       -0.942261
                      -0.0562721        0.966694      0.000153893     -0.00037856        -0.212355        0.096228     -9.73468e-05    -0.000323691
                    -0.000314394    -9.30925e-05        -0.230027       -0.942043     -4.41897e-05    -0.000672486        -0.157803        0.151582
281701.3               -0.199694       -0.119837      6.20441e-05     4.76991e-06         -0.05576        0.966703     -0.000334539     -0.00019564
                     2.60756e-05    -0.000125625        -0.209356       -0.062626      0.000317073    -0.000491845        -0.230024       -0.942255
                      -0.0562435        0.966696      0.000153906     -0.00037858        -0.212351       0.0962325      -9.7353e-05      -0.0003237
                    -0.000314392     -9.3104e-05        -0.230057       -0.942036     -4.42502e-05    -0.000672479        -0.157796        0.151584
281701.4               -0.199696       -0.119829      6.20378e-05     4.74666e-06       -0.0557314        0.966705     -0.000334558    -0.000195621
                      2.6097e-05    -0.000125642        -0.209355      -0.0626186      0.000317052    -0.000491849        -0.230053       -0.942249
                       -0.056215        0.966698       0.00015392      -0.0003786        -0.212347       0.0962371     -9.73591e-05     -0.00032371
                    -0.000314389    -9.31155e-05        -0.230086        -0.94203     -4.43106e-05    -0.000672471        -0.157788        0.151587
281701.5               -0.199699       -0.119822      6.20315e-05     4.72341e-06       -0.0557028        0.966707     -0.000334578    -0.000195602
                     2.61183e-05    -0.000125659        -0.209354      -0.0626111      0.000317031    -0.000491854        -0.230083       -0.942242
                      -0.0561864          0.9667      0.000153933     -0.00037862        -0.212343       0.0962416     -9.73653e-05     -0.00032372
                    -0.000314386    -9.31271e-05        -0.230116       -0.942024     -4.43711e-05    -0.000672464        -0.157781        0.151589
281701.6               -0.199702       -0.119814      6.20252e-05     4.70016e-06       -0.0556743        0.966709     -0.000334597    -0.000195582
                     2.61397e-05    -0.000125676        -0.209352      -0.0626037       0.00031701    -0.000491858        -0.230112       -0.942236
                      -0.0561579        0.966702      0.000153947    -0.000378639        -0.212339       0.0962462     -9.73715e-05     -0.00032373
                    -0.000314384    -9.31386e-05        -0.230145       -0.942017     -4.44316e-05    -0.000672456        -0.157774        0.151592
281701.7               -0.199704       -0.119806      6.20189e-05     4.67691e-06       -0.0556457        0.966711     -0.000334617    -0.000195563
                      2.6161e-05    -0.000125693        -0.209351      -0.0625962      0.000316988    -0.000491863        -0.230142       -0.942229
                      -0.0561293        0.966704       0.00015396    -0.000378659        -0.212336       0.0962507     -9.73776e-05     -0.00032374
                    -0.000314381    -9.31501e-05        -0.230174       -0.942011      -4.4492e-05    -0.000672448        -0.157767        0.151594
281701.8               -0.199707       -0.119799      6.20126e-05     4.65365e-06       -0.0556171        0.966713     -0.000334636    -0.000195544
                     2.61824e-05     -0.00012571         -0.20935      -0.0625887      0.000316967    -0.000491868        -0.230171       -0.942223
                      -0.0561008        0.966706      0.000153974    -0.000378679        -0.212332       0.0962553     -9.73838e-05    -0.000323749
                    -0.000314378    -9.31616e-05        -0.230204       -0.942005     -4.45525e-05    -0.000672441         -0.15776        0.151597
281701.9                -0.19971       -0.119791      6.20064e-05     4.63039e-06       -0.0555886        0.966715     -0.000334656    -0.000195525
                     2.62037e-05    -0.000125727        -0.209348      -0.0625813      0.000316946    -0.000491872        -0.230201       -0.942217
                      -0.0560722        0.966708      0.000153987    -0.000378699        -0.212328       0.0962598       -9.739e-05    -0.000323759
                    -0.000314376    -9.31732e-05        -0.230233       -0.941998      -4.4613e-05    -0.000672433        -0.157752        0.151599
281702                 -0.199713       -0.119783      6.20001e-05     4.60713e-06         -0.05556        0.966717     -0.000334675    -0.000195506
                     2.62251e-05    -0.000125744        -0.209347      -0.0625738      0.000316925    -0.000491877         -0.23023        -0.94221
                      -0.0560437         0.96671         0.000154    -0.000378719        -0.212324       0.0962644     -9.73961e-05    -0.000323769
                    -0.000314373    -9.31847e-05        -0.230263       -0.941992     -4.46734e-05    -0.000672426        -0.157745        0.151602
281702.1               -0.199715       -0.119775      6.19939e-05     4.58386e-06       -0.0555314        0.966719     -0.000334694    -0.000195487
                     2.62464e-05    -0.000125761        -0.209345      -0.0625664      0.000316904    -0.000491881        -0.230259       -0.942204
                      -0.0560151        0.966712      0.000154014    -0.000378738         -0.21232       0.0962689     -9.74023e-05    -0.000323779
                     -0.00031437    -9.31962e-05        -0.230292       -0.941986     -4.47339e-05    -0.000672418        -0.157738        0.151604
281702.2               -0.199718       -0.119768      6.19876e-05      4.5606e-06       -0.0555029        0.966721     -0.000334714    -0.000195468
                     2.62678e-05    -0.000125778        -0.209344      -0.0625589      0.000316883    -0.000491886        -0.230289       -0.942198
                      -0.0559866        0.966714      0.000154027    -0.000378758        -0.212316       0.0962735     -9.74085e-05    -0.000323789
                    -0.000314368    -9.32077e-05        -0.230321       -0.941979     -4.47943e-05    -0.000672411        -0.157731        0.151606
281702.3               -0.199721        -0.11976      6.19814e-05     4.53733e-06       -0.0554743        0.966723     -0.000334733    -0.000195448
                     2.62891e-05    -0.000125795        -0.209343      -0.0625515      0.000316862     -0.00049189        -0.230318       -0.942191
                      -0.0559581        0.966716      0.000154041    -0.000378778        -0.212312        0.096278     -9.74146e-05    -0.000323799
                    -0.000314365    -9.32192e-05        -0.230351       -0.941973     -4.48548e-05    -0.000672403        -0.157724        0.151609
281702.4               -0.199724       -0.119752      6.19751e-05     4.51406e-06       -0.0554457        0.966725     -0.000334753    -0.000195429
                     2.63104e-05    -0.000125812        -0.209341       -0.062544      0.000316841    -0.000491895        -0.230348       -0.942185
                      -0.0559295        0.966718      0.000154054    -0.000378797        -0.212308       0.0962826     -9.74208e-05    -0.000323808
                    -0.000314362    -9.32308e-05         -0.23038       -0.941967     -4.49152e-05    -0.000672396        -0.157717        0.151611
281702.5               -0.199726       -0.119745      6.19689e-05     4.49078e-06       -0.0554172        0.966727     -0.000334772     -0.00019541
                     2.63318e-05    -0.000125829         -0.20934      -0.0625366       0.00031682    -0.000491899        -0.230377       -0.942179
                       -0.055901         0.96672      0.000154068    -0.000378817        -0.212305       0.0962871      -9.7427e-05    -0.000323818
                     -0.00031436    -9.32423e-05         -0.23041        -0.94196     -4.49757e-05    -0.000672388        -0.157709        0.151614
281702.6               -0.199729       -0.119737      6.19626e-05     4.46751e-06       -0.0553886        0.966729     -0.000334792    -0.000195391
                     2.63531e-05    -0.000125846        -0.209339      -0.0625291      0.000316799    -0.000491904        -0.230406       -0.942172
                      -0.0558724        0.966722      0.000154081    -0.000378837        -0.212301       0.0962917     -9.74331e-05    -0.000323828
                    -0.000314357    -9.32538e-05        -0.230439       -0.941954     -4.50361e-05    -0.000672381        -0.157702        0.151616
281702.7               -0.199732       -0.119729      6.19564e-05     4.44423e-06         -0.05536        0.966731     -0.000334811    -0.000195372
                     2.63745e-05    -0.000125862        -0.209337      -0.0625217      0.000316777    -0.000491909        -0.230436       -0.942166
                      -0.0558439        0.966724      0.000154095    -0.000378857        -0.212297       0.0962962     -9.74393e-05    -0.000323838
                    -0.000314354    -9.32653e-05        -0.230468       -0.941948     -4.50966e-05    -0.000672373        -0.157695        0.151619
281702.8               -0.199734       -0.119722      6.19502e-05     4.42095e-06       -0.0553315        0.966733     -0.000334831    -0.000195353
                     2.63958e-05    -0.000125879        -0.209336      -0.0625142      0.000316756    -0.000491913        -0.230465       -0.942159
                      -0.0558153        0.966726      0.000154108    -0.000378876        -0.212293       0.0963008     -9.74454e-05    -0.000323848
                    -0.000314352    -9.32769e-05        -0.230498       -0.941941      -4.5157e-05    -0.000672365        -0.157688        0.151621
281702.9               -0.199737       -0.119714       6.1944e-05     4.39766e-06       -0.0553029        0.966735      -0.00033485    -0.000195334
                     2.64171e-05    -0.000125896        -0.209335      -0.0625067      0.000316735    -0.000491918        -0.230495       -0.942153
                      -0.0557868        0.966728      0.000154122    -0.000378896        -0.212289       0.0963053     -9.74516e-05    -0.000323858
                    -0.000314349    -9.32884e-05        -0.230527       -0.941935     -4.52175e-05    -0.000672358        -0.157681        0.151624
281703                  -0.19974       -0.119706      6.19378e-05     4.37438e-06       -0.0552743        0.966737      -0.00033487    -0.000195315
                     2.64385e-05    -0.000125913        -0.209333      -0.0624993      0.000316714    -0.000491922        -0.230524       -0.942147
                      -0.0557582         0.96673      0.000154135    -0.000378916        -0.212285       0.0963099     -9.74577e-05    -0.000323867
                    -0.000314347    -9.32999e-05        -0.230557       -0.941929     -4.52779e-05     -0.00067235        -0.157673        0.151626
281703.1               -0.199743       -0.119698      6.19316e-05     4.35109e-06       -0.0552457        0.966739     -0.000334889    -0.000195295
                     2.64598e-05     -0.00012593        -0.209332      -0.0624918      0.000316693    -0.000491927        -0.230554        -0.94214
                      -0.0557297        0.966732      0.000154148    -0.000378935        -0.212281       0.0963144     -9.74639e-05    -0.000323877
