! TOUCHSTONE file generated by CST MICROWAVE STUDIO
! Date and time: Wed Oct  8 06:59:08 2025
! Project name: Teste_Macro_Metasurface_Nanopilar.cst
! Parameters = {H=600; L_x=140; L_y=120; Lambda=1064; Max_L=200; Min_L=70; PathPara=1; Phi=0; Step_L=10; Theta=0; p=520; phaseX=180; phaseY=0}
! Header version: 2018
! Port assignment regex: !\s*Touchstone port\s*([0-9]+)\s*=\s*(CST MWS port|CST DS port)\s*([0-9]+|Zmin|Zmax)\s*\(\"(.*)\"\)(\s*mode\s*([0-9]+))?.*
! Touchstone port assignment:
! Touchstone port 1 = CST MWS port Zmax ("") mode 1
! Touchstone port 2 = CST MWS port Zmax ("") mode 2
! Touchstone port 3 = CST MWS port Zmin ("") mode 1
! Touchstone port 4 = CST MWS port Zmin ("") mode 2
! S-Parameters are not renormalized. Each port impedance will be approximated by the real part at minimum frequency. The values are described via the [Reference] keyword.
! Default impedance is overridden by [Reference]
[Version] 2.0
# GHz S RI R 376.73
[Number of Ports] 4
[Reference]
376.73 376.73 376.73 376.73 
[Number of Frequencies] 1001
[Network Data]
281700                 -0.137877       -0.167812     -0.000798971    -0.000127581         0.465286       -0.848816     -0.000155005     0.000272972
                    -0.000822142    -0.000108376        -0.212022      -0.0224281     -0.000166193     0.000116549        -0.307106       -0.921929
                        0.465281       -0.848913     -0.000179208      7.2406e-05        -0.216935      -0.0238068     -0.000769612     8.14114e-05
                    -0.000201453     0.000305347        -0.307015       -0.921929     -0.000674748     0.000282169        -0.156986        0.144439
281700.1               -0.137884       -0.167807     -0.000798967    -0.000127548         0.465258       -0.848831     -0.000154994     0.000272977
                    -0.000822146    -0.000108348        -0.212019      -0.0224212     -0.000166181     0.000116553        -0.307135       -0.921921
                        0.465253       -0.848928     -0.000179204     7.24338e-05        -0.216937      -0.0238019     -0.000769611     8.14266e-05
                    -0.000201441     0.000305354        -0.307044       -0.921921     -0.000674733     0.000282192        -0.156979        0.144441
281700.2               -0.137892       -0.167803     -0.000798964    -0.000127515          0.46523       -0.848846     -0.000154983     0.000272983
                     -0.00082215     -0.00010832        -0.212016      -0.0224143     -0.000166169     0.000116557        -0.307163       -0.921912
                        0.465225       -0.848942     -0.000179201     7.24615e-05        -0.216939      -0.0237969     -0.000769611     8.14419e-05
                    -0.000201428     0.000305361        -0.307072       -0.921912     -0.000674718     0.000282216        -0.156972        0.144444
281700.3                 -0.1379       -0.167798      -0.00079896    -0.000127482         0.465202        -0.84886     -0.000154972     0.000272989
                    -0.000822154    -0.000108292        -0.212014      -0.0224074     -0.000166157     0.000116561        -0.307192       -0.921903
                        0.465197       -0.848957     -0.000179197     7.24893e-05        -0.216941      -0.0237919     -0.000769611     8.14572e-05
                    -0.000201415     0.000305369        -0.307101       -0.921904     -0.000674703      0.00028224        -0.156965        0.144446
281700.4               -0.137908       -0.167794     -0.000798957     -0.00012745         0.465174       -0.848875     -0.000154961     0.000272994
                    -0.000822158    -0.000108265        -0.212011      -0.0224005     -0.000166145     0.000116565         -0.30722       -0.921895
                        0.465169       -0.848972     -0.000179194     7.25171e-05        -0.216943      -0.0237869     -0.000769611     8.14724e-05
                    -0.000201402     0.000305376        -0.307129       -0.921895     -0.000674689     0.000282263        -0.156959        0.144448
281700.5               -0.137916       -0.167789     -0.000798953    -0.000127417         0.465146        -0.84889     -0.000154951        0.000273
                    -0.000822162    -0.000108237        -0.212008      -0.0223936     -0.000166133     0.000116569        -0.307249       -0.921886
                        0.465141       -0.848987      -0.00017919     7.25449e-05        -0.216945       -0.023782      -0.00076961     8.14877e-05
                    -0.000201389     0.000305384        -0.307158       -0.921886     -0.000674674     0.000282287        -0.156952        0.144451
281700.6               -0.137924       -0.167785      -0.00079895    -0.000127384         0.465118       -0.848905      -0.00015494     0.000273005
                    -0.000822166    -0.000108209        -0.212005      -0.0223867     -0.000166121     0.000116573        -0.307277       -0.921877
                        0.465113       -0.849002     -0.000179186     7.25727e-05        -0.216947       -0.023777      -0.00076961      8.1503e-05
                    -0.000201376     0.000305391        -0.307186       -0.921878     -0.000674659     0.000282311        -0.156945        0.144453
281700.7               -0.137932        -0.16778     -0.000798946    -0.000127351          0.46509        -0.84892     -0.000154929     0.000273011
                     -0.00082217    -0.000108181        -0.212002      -0.0223798     -0.000166109     0.000116577        -0.307305       -0.921869
                        0.465086       -0.849017     -0.000179183     7.26005e-05        -0.216949       -0.023772      -0.00076961     8.15182e-05
                    -0.000201363     0.000305399        -0.307215       -0.921869     -0.000674644     0.000282334        -0.156938        0.144455
281700.8                -0.13794       -0.167775     -0.000798943    -0.000127318         0.465063       -0.848935     -0.000154918     0.000273017
                    -0.000822174    -0.000108153        -0.211999       -0.022373     -0.000166097     0.000116581        -0.307334        -0.92186
                        0.465058       -0.849032     -0.000179179     7.26283e-05        -0.216951       -0.023767      -0.00076961     8.15335e-05
                    -0.000201351     0.000305406        -0.307243       -0.921861     -0.000674629     0.000282358        -0.156931        0.144458
281700.9               -0.137947       -0.167771     -0.000798939    -0.000127285         0.465035        -0.84895     -0.000154907     0.000273022
                    -0.000822178    -0.000108125        -0.211997      -0.0223661     -0.000166084     0.000116585        -0.307362       -0.921851
                         0.46503       -0.849047     -0.000179176     7.26561e-05        -0.216953      -0.0237621     -0.000769609     8.15488e-05
                    -0.000201338     0.000305414        -0.307272       -0.921852     -0.000674614     0.000282381        -0.156924         0.14446
281701                 -0.137955       -0.167766     -0.000798936    -0.000127252         0.465007       -0.848965     -0.000154897     0.000273028
                    -0.000822182    -0.000108097        -0.211994      -0.0223592     -0.000166072     0.000116589        -0.307391       -0.921843
                        0.465002       -0.849062     -0.000179172     7.26839e-05        -0.216955      -0.0237571     -0.000769609     8.15641e-05
                    -0.000201325     0.000305421          -0.3073       -0.921843     -0.000674599     0.000282405        -0.156917        0.144462
281701.1               -0.137963       -0.167762     -0.000798933    -0.000127219         0.464979        -0.84898     -0.000154886     0.000273034
                    -0.000822186    -0.000108069        -0.211991      -0.0223523      -0.00016606     0.000116593        -0.307419       -0.921834
                        0.464974       -0.849077     -0.000179169     7.27117e-05        -0.216957      -0.0237521     -0.000769609     8.15794e-05
                    -0.000201312     0.000305429        -0.307329       -0.921835     -0.000674584     0.000282429         -0.15691        0.144464
281701.2               -0.137971       -0.167757     -0.000798929    -0.000127186         0.464951       -0.848995     -0.000154875     0.000273039
                     -0.00082219    -0.000108041        -0.211988      -0.0223454     -0.000166048     0.000116597        -0.307448       -0.921825
                        0.464946       -0.849092     -0.000179165     7.27396e-05        -0.216959      -0.0237471     -0.000769609     8.15947e-05
                    -0.000201299     0.000305436        -0.307357       -0.921826     -0.000674569     0.000282452        -0.156903        0.144467
281701.3               -0.137979       -0.167753     -0.000798926    -0.000127153         0.464923        -0.84901     -0.000154864     0.000273045
                    -0.000822194    -0.000108013        -0.211985      -0.0223385     -0.000166036     0.000116601        -0.307476       -0.921817
                        0.464918       -0.849107     -0.000179162     7.27674e-05        -0.216961      -0.0237422     -0.000769608       8.161e-05
                    -0.000201286     0.000305444        -0.307386       -0.921818     -0.000674554     0.000282476        -0.156896        0.144469
281701.4               -0.137987       -0.167748     -0.000798922    -0.000127121         0.464895       -0.849025     -0.000154854      0.00027305
                    -0.000822198    -0.000107985        -0.211982      -0.0223316     -0.000166024     0.000116605        -0.307505       -0.921808
                         0.46489       -0.849122     -0.000179158     7.27952e-05        -0.216963      -0.0237372     -0.000769608     8.16253e-05
                    -0.000201274     0.000305451        -0.307414       -0.921809     -0.000674539     0.000282499        -0.156889        0.144471
281701.5               -0.137995       -0.167744     -0.000798919    -0.000127088         0.464867        -0.84904     -0.000154843     0.000273056
                    -0.000822202    -0.000107958         -0.21198      -0.0223248     -0.000166012     0.000116608        -0.307533       -0.921799
                        0.464862       -0.849136     -0.000179154     7.28231e-05        -0.216965      -0.0237322     -0.000769608     8.16406e-05
                    -0.000201261     0.000305459        -0.307443         -0.9218     -0.000674525     0.000282523        -0.156882        0.144474
281701.6               -0.138002       -0.167739     -0.000798915    -0.000127055          0.46484       -0.849054     -0.000154832     0.000273062
                    -0.000822207     -0.00010793        -0.211977      -0.0223179        -0.000166     0.000116612        -0.307561       -0.921791
                        0.464835       -0.849151     -0.000179151      7.2851e-05        -0.216967      -0.0237272     -0.000769608     8.16559e-05
                    -0.000201248     0.000305466        -0.307472       -0.921792      -0.00067451     0.000282546        -0.156875        0.144476
281701.7                -0.13801       -0.167735     -0.000798912    -0.000127022         0.464812       -0.849069     -0.000154821     0.000273067
                    -0.000822211    -0.000107902        -0.211974       -0.022311     -0.000165987     0.000116616         -0.30759       -0.921782
                        0.464807       -0.849166     -0.000179147     7.28788e-05        -0.216969      -0.0237223     -0.000769607     8.16712e-05
                    -0.000201235     0.000305474          -0.3075       -0.921783     -0.000674495      0.00028257        -0.156868        0.144478
281701.8               -0.138018        -0.16773     -0.000798909    -0.000126989         0.464784       -0.849084     -0.000154811     0.000273073
                    -0.000822215    -0.000107874        -0.211971      -0.0223041     -0.000165975      0.00011662        -0.307618       -0.921773
                        0.464779       -0.849181     -0.000179144     7.29067e-05        -0.216971      -0.0237173     -0.000769607     8.16865e-05
                    -0.000201222     0.000305481        -0.307529       -0.921775      -0.00067448     0.000282593        -0.156861        0.144481
281701.9               -0.138026       -0.167726     -0.000798905    -0.000126956         0.464756       -0.849099       -0.0001548     0.000273079
                    -0.000822219    -0.000107846        -0.211968      -0.0222972     -0.000165963     0.000116624        -0.307647       -0.921765
                        0.464751       -0.849196      -0.00017914     7.29346e-05        -0.216973      -0.0237123     -0.000769607     8.17018e-05
                    -0.000201209     0.000305489        -0.307557       -0.921766     -0.000674465     0.000282617        -0.156854        0.144483
281702                 -0.138034       -0.167721     -0.000798902    -0.000126923         0.464728       -0.849114     -0.000154789     0.000273084
                    -0.000822223    -0.000107818        -0.211966      -0.0222903     -0.000165951     0.000116628        -0.307675       -0.921756
                        0.464723       -0.849211     -0.000179137     7.29625e-05        -0.216975      -0.0237073     -0.000769607     8.17171e-05
                    -0.000201197     0.000305496        -0.307586       -0.921757      -0.00067445      0.00028264        -0.156847        0.144485
281702.1               -0.138042       -0.167717     -0.000798898     -0.00012689           0.4647       -0.849129     -0.000154778      0.00027309
                    -0.000822227     -0.00010779        -0.211963      -0.0222834     -0.000165939     0.000116632        -0.307704       -0.921747
                        0.464695       -0.849226     -0.000179133     7.29904e-05        -0.216977      -0.0237023     -0.000769606     8.17324e-05
                    -0.000201184     0.000305504        -0.307614       -0.921749     -0.000674435     0.000282664         -0.15684        0.144488
281702.2                -0.13805       -0.167712     -0.000798895    -0.000126857         0.464672       -0.849144     -0.000154767     0.000273095
                    -0.000822231    -0.000107762         -0.21196      -0.0222766     -0.000165927     0.000116636        -0.307732       -0.921739
                        0.464667       -0.849241      -0.00017913     7.30183e-05        -0.216979      -0.0236974     -0.000769606     8.17478e-05
                    -0.000201171     0.000305511        -0.307643        -0.92174     -0.000674421     0.000282687        -0.156833         0.14449
281702.3               -0.138057       -0.167708     -0.000798891    -0.000126824         0.464644       -0.849159     -0.000154757     0.000273101
                    -0.000822235    -0.000107734        -0.211957      -0.0222697     -0.000165915      0.00011664        -0.307761        -0.92173
                        0.464639       -0.849256     -0.000179126     7.30462e-05        -0.216981      -0.0236924     -0.000769606     8.17631e-05
                    -0.000201158     0.000305518        -0.307671       -0.921731     -0.000674406     0.000282711        -0.156826        0.144492
281702.4               -0.138065       -0.167703     -0.000798888    -0.000126791         0.464616       -0.849174     -0.000154746     0.000273107
                    -0.000822239    -0.000107706        -0.211954      -0.0222628     -0.000165902     0.000116644        -0.307789       -0.921721
                        0.464612       -0.849271     -0.000179123     7.30741e-05        -0.216983      -0.0236874     -0.000769606     8.17784e-05
                    -0.000201145     0.000305526          -0.3077       -0.921723     -0.000674391     0.000282734        -0.156819        0.144495
281702.5               -0.138073       -0.167699     -0.000798885    -0.000126758         0.464589       -0.849189     -0.000154735     0.000273112
                    -0.000822243    -0.000107679        -0.211951      -0.0222559      -0.00016589     0.000116648        -0.307817       -0.921713
                        0.464584       -0.849286     -0.000179119      7.3102e-05        -0.216985      -0.0236824     -0.000769605     8.17937e-05
                    -0.000201132     0.000305533        -0.307728       -0.921714     -0.000674376     0.000282758        -0.156812        0.144497
281702.6               -0.138081       -0.167694     -0.000798881    -0.000126725         0.464561       -0.849204     -0.000154724     0.000273118
                    -0.000822247    -0.000107651        -0.211949       -0.022249     -0.000165878     0.000116652        -0.307846       -0.921704
                        0.464556         -0.8493     -0.000179116       7.313e-05        -0.216987      -0.0236775     -0.000769605     8.18091e-05
                     -0.00020112     0.000305541        -0.307757       -0.921706     -0.000674361     0.000282781        -0.156805        0.144499
281702.7               -0.138089       -0.167689     -0.000798878    -0.000126692         0.464533       -0.849218     -0.000154714     0.000273123
                    -0.000822251    -0.000107623        -0.211946      -0.0222421     -0.000165866     0.000116656        -0.307874       -0.921695
                        0.464528       -0.849315     -0.000179112     7.31579e-05        -0.216989      -0.0236725     -0.000769605     8.18244e-05
                    -0.000201107     0.000305548        -0.307785       -0.921697     -0.000674347     0.000282805        -0.156798        0.144501
281702.8               -0.138097       -0.167685     -0.000798874    -0.000126659         0.464505       -0.849233     -0.000154703     0.000273129
                    -0.000822255    -0.000107595        -0.211943      -0.0222353     -0.000165854      0.00011666        -0.307903       -0.921687
                          0.4645        -0.84933     -0.000179109     7.31858e-05        -0.216991      -0.0236675     -0.000769605     8.18398e-05
                    -0.000201094     0.000305556        -0.307814       -0.921688     -0.000674332     0.000282828        -0.156791        0.144504
281702.9               -0.138105        -0.16768     -0.000798871    -0.000126626         0.464477       -0.849248     -0.000154692     0.000273135
                    -0.000822259    -0.000107567         -0.21194      -0.0222284     -0.000165842     0.000116663        -0.307931       -0.921678
                        0.464472       -0.849345     -0.000179106     7.32138e-05        -0.216993      -0.0236625     -0.000769605     8.18551e-05
                    -0.000201081     0.000305563        -0.307842        -0.92168     -0.000674317     0.000282852        -0.156784        0.144506
281703                 -0.138113       -0.167676     -0.000798868    -0.000126593         0.464449       -0.849263     -0.000154681      0.00027314
                    -0.000822262    -0.000107539        -0.211937      -0.0222215     -0.000165829     0.000116667         -0.30796       -0.921669
                        0.464444        -0.84936     -0.000179102     7.32417e-05        -0.216995      -0.0236575     -0.000769604     8.18704e-05
                    -0.000201068     0.000305571        -0.307871       -0.921671     -0.000674302     0.000282875        -0.156777        0.144508
281703.1                -0.13812       -0.167671     -0.000798864     -0.00012656         0.464421       -0.849278     -0.000154671     0.000273146
                    -0.000822266    -0.000107511        -0.211934      -0.0222146     -0.000165817     0.000116671        -0.307988       -0.921661
                        0.464416       -0.849375     -0.000179099     7.32697e-05        -0.216997      -0.0236526     -0.000769604     8.18858e-05
