! TOUCHSTONE file generated by CST MICROWAVE STUDIO
! Date and time: Wed Oct  8 07:03:32 2025
! Project name: Teste_Macro_Metasurface_Nanopilar.cst
! Parameters = {H=600; L_x=175; L_y=170; Lambda=1064; Max_L=200; Min_L=70; PathPara=1; Phi=0; Step_L=10; Theta=0; p=520; phaseX=180; phaseY=0}
! Header version: 2018
! Port assignment regex: !\s*Touchstone port\s*([0-9]+)\s*=\s*(CST MWS port|CST DS port)\s*([0-9]+|Zmin|Zmax)\s*\(\"(.*)\"\)(\s*mode\s*([0-9]+))?.*
! Touchstone port assignment:
! Touchstone port 1 = CST MWS port Zmax ("") mode 1
! Touchstone port 2 = CST MWS port Zmax ("") mode 2
! Touchstone port 3 = CST MWS port Zmin ("") mode 1
! Touchstone port 4 = CST MWS port Zmin ("") mode 2
! S-Parameters are not renormalized. Each port impedance will be approximated by the real part at minimum frequency. The values are described via the [Reference] keyword.
! Default impedance is overridden by [Reference]
[Version] 2.0
# GHz S RI R 376.73
[Number of Ports] 4
[Reference]
376.73 376.73 376.73 376.73 
[Number of Frequencies] 1001
[Network Data]
281700               -0.00994391      -0.0290546     -0.000693199    -0.000859219        -0.990985      -0.0975074     -0.000200123     0.000802959
                    -0.000706985    -0.000843968       -0.0154474      -0.0550937       4.7788e-05     0.000774618        -0.993127      -0.0464072
                        -0.99073      -0.0976558      7.21901e-06     0.000823302        0.0118292      -0.0269441      0.000789588    -0.000829579
                    -7.26077e-05     0.000807958        -0.993552      -0.0462776      0.000758087     -0.00067555         0.016809      -0.0538336
281700.1             -0.00994345      -0.0290605     -0.000693221    -0.000859211        -0.990988      -0.0974779     -0.000200091     0.000802963
                    -0.000707004    -0.000843959        -0.015448      -0.0550996      4.78181e-05     0.000774623        -0.993128      -0.0463776
                       -0.990733      -0.0976263       7.2471e-06     0.000823308        0.0118283      -0.0269508      0.000789547    -0.000829614
                    -7.25815e-05     0.000807964        -0.993554       -0.046248      0.000758055    -0.000675588         0.016807      -0.0538406
281700.2             -0.00994299      -0.0290665     -0.000693243    -0.000859204         -0.99099      -0.0974484     -0.000200059     0.000802967
                    -0.000707022    -0.000843951       -0.0154487      -0.0551056      4.78482e-05     0.000774628        -0.993129       -0.046348
                       -0.990735      -0.0975968       7.2752e-06     0.000823315        0.0118274      -0.0269575      0.000789506    -0.000829649
                    -7.25553e-05     0.000807971        -0.993555      -0.0462183      0.000758024    -0.000675626         0.016805      -0.0538476
281700.3             -0.00994253      -0.0290724     -0.000693265    -0.000859196        -0.990993      -0.0974189     -0.000200027      0.00080297
                    -0.000707041    -0.000843942       -0.0154493      -0.0551116      4.78783e-05     0.000774633         -0.99313      -0.0463185
                       -0.990738      -0.0975672      7.30329e-06     0.000823322        0.0118266      -0.0269642      0.000789465    -0.000829685
                    -7.25291e-05     0.000807977        -0.993556      -0.0461887      0.000757993    -0.000675665         0.016803      -0.0538546
281700.4             -0.00994207      -0.0290783     -0.000693288    -0.000859188        -0.990996      -0.0973894     -0.000199995     0.000802974
                     -0.00070706    -0.000843933         -0.01545      -0.0551175      4.79084e-05     0.000774638        -0.993131      -0.0462889
                       -0.990741      -0.0975377      7.33139e-06     0.000823329        0.0118257      -0.0269709      0.000789424     -0.00082972
                    -7.25029e-05     0.000807984        -0.993557      -0.0461591      0.000757962    -0.000675703        0.0168011      -0.0538615
281700.5             -0.00994161      -0.0290842      -0.00069331     -0.00085918        -0.990999      -0.0973598     -0.000199963     0.000802977
                    -0.000707079    -0.000843924       -0.0154506      -0.0551235      4.79385e-05     0.000774643        -0.993132      -0.0462593
                       -0.990744      -0.0975082      7.35949e-06     0.000823335        0.0118248      -0.0269775      0.000789383    -0.000829755
                    -7.24767e-05      0.00080799        -0.993558      -0.0461295      0.000757931    -0.000675741        0.0167991      -0.0538685
281700.6             -0.00994115      -0.0290901     -0.000693332    -0.000859172        -0.991001      -0.0973303      -0.00019993     0.000802981
                    -0.000707097    -0.000843916       -0.0154513      -0.0551295      4.79686e-05     0.000774648        -0.993133      -0.0462297
                       -0.990746      -0.0974786      7.38759e-06     0.000823342        0.0118239      -0.0269842      0.000789342     -0.00082979
                    -7.24505e-05     0.000807997        -0.993559      -0.0460999      0.000757899    -0.000675779        0.0167971      -0.0538755
281700.7             -0.00994069      -0.0290961     -0.000693354    -0.000859165        -0.991004      -0.0973008     -0.000199898     0.000802985
                    -0.000707116    -0.000843907       -0.0154519      -0.0551354      4.79987e-05     0.000774653        -0.993134      -0.0462001
                       -0.990749      -0.0974491       7.4157e-06     0.000823349        0.0118231      -0.0269909      0.000789301    -0.000829826
                    -7.24243e-05     0.000808003         -0.99356      -0.0460703      0.000757868    -0.000675817        0.0167951      -0.0538825
281700.8             -0.00994023       -0.029102     -0.000693377    -0.000859157        -0.991007      -0.0972713     -0.000199866     0.000802988
                    -0.000707135    -0.000843898       -0.0154525      -0.0551414      4.80288e-05     0.000774658        -0.993135      -0.0461705
                       -0.990752      -0.0974196       7.4438e-06     0.000823356        0.0118222      -0.0269976       0.00078926    -0.000829861
                    -7.23981e-05      0.00080801        -0.993561      -0.0460407      0.000757837    -0.000675856        0.0167931      -0.0538894
281700.9             -0.00993977      -0.0291079     -0.000693399    -0.000859149        -0.991009      -0.0972417     -0.000199834     0.000802992
                    -0.000707154    -0.000843889       -0.0154532      -0.0551474       4.8059e-05     0.000774663        -0.993136      -0.0461409
                       -0.990754        -0.09739      7.47191e-06     0.000823362        0.0118213      -0.0270043      0.000789219    -0.000829896
                    -7.23719e-05     0.000808016        -0.993562       -0.046011      0.000757806    -0.000675894        0.0167911      -0.0538964
281701               -0.00993931      -0.0291138     -0.000693421    -0.000859141        -0.991012      -0.0972122     -0.000199802     0.000802995
                    -0.000707172    -0.000843881       -0.0154538      -0.0551533      4.80891e-05     0.000774668        -0.993137      -0.0461114
                       -0.990757      -0.0973605      7.50002e-06     0.000823369        0.0118204      -0.0270109      0.000789178    -0.000829931
                    -7.23456e-05     0.000808023        -0.993563      -0.0459814      0.000757774    -0.000675932        0.0167891      -0.0539034
281701.1             -0.00993885      -0.0291197     -0.000693443    -0.000859133        -0.991015      -0.0971827      -0.00019977     0.000802999
                    -0.000707191    -0.000843872       -0.0154545      -0.0551593      4.81192e-05     0.000774673        -0.993138      -0.0460818
                        -0.99076       -0.097331      7.52813e-06     0.000823376        0.0118195      -0.0270176      0.000789137    -0.000829967
                    -7.23194e-05     0.000808029        -0.993564      -0.0459518      0.000757743     -0.00067597        0.0167871      -0.0539104
281701.2             -0.00993839      -0.0291257     -0.000693465    -0.000859126        -0.991017      -0.0971532     -0.000199738     0.000803002
                     -0.00070721    -0.000843863       -0.0154551      -0.0551653      4.81494e-05     0.000774677        -0.993139      -0.0460522
                       -0.990763      -0.0973015      7.55624e-06     0.000823382        0.0118186      -0.0270243      0.000789096    -0.000830002
                    -7.22932e-05     0.000808036        -0.993565      -0.0459222      0.000757712    -0.000676009        0.0167851      -0.0539173
281701.3             -0.00993794      -0.0291316     -0.000693488    -0.000859118         -0.99102      -0.0971236     -0.000199705     0.000803006
                    -0.000707229    -0.000843854       -0.0154558      -0.0551712      4.81795e-05     0.000774682         -0.99314      -0.0460226
                       -0.990765      -0.0972719      7.58436e-06     0.000823389        0.0118178       -0.027031      0.000789055    -0.000830037
                     -7.2267e-05     0.000808042        -0.993566      -0.0458926       0.00075768    -0.000676047        0.0167832      -0.0539243
281701.4             -0.00993748      -0.0291375      -0.00069351     -0.00085911        -0.991023      -0.0970941     -0.000199673      0.00080301
                    -0.000707247    -0.000843845       -0.0154564      -0.0551772      4.82096e-05     0.000774687        -0.993141       -0.045993
                       -0.990768      -0.0972424      7.61247e-06     0.000823396        0.0118169      -0.0270377      0.000789014    -0.000830072
                    -7.22408e-05     0.000808049        -0.993567       -0.045863      0.000757649    -0.000676085        0.0167812      -0.0539313
281701.5             -0.00993702      -0.0291434     -0.000693532    -0.000859102        -0.991026      -0.0970646     -0.000199641     0.000803013
                    -0.000707266    -0.000843837       -0.0154571      -0.0551832      4.82398e-05     0.000774692        -0.993142      -0.0459634
                       -0.990771      -0.0972129      7.64059e-06     0.000823403         0.011816      -0.0270443      0.000788972    -0.000830107
                    -7.22146e-05     0.000808055        -0.993568      -0.0458334      0.000757618    -0.000676123        0.0167792      -0.0539383
281701.6             -0.00993657      -0.0291493     -0.000693554    -0.000859095        -0.991028      -0.0970351     -0.000199609     0.000803017
                    -0.000707285    -0.000843828       -0.0154577      -0.0551891      4.82699e-05     0.000774697        -0.993143      -0.0459338
                       -0.990774      -0.0971833      7.66871e-06     0.000823409        0.0118151       -0.027051      0.000788931    -0.000830143
                    -7.21883e-05     0.000808062        -0.993569      -0.0458038      0.000757587    -0.000676162        0.0167772      -0.0539453
281701.7             -0.00993611      -0.0291552     -0.000693577    -0.000859087        -0.991031      -0.0970055     -0.000199577      0.00080302
                    -0.000707304    -0.000843819       -0.0154584      -0.0551951      4.83001e-05     0.000774702        -0.993144      -0.0459043
                       -0.990776      -0.0971538      7.69683e-06     0.000823416        0.0118142      -0.0270577       0.00078889    -0.000830178
                    -7.21621e-05     0.000808068         -0.99357      -0.0457741      0.000757555      -0.0006762        0.0167752      -0.0539522
281701.8             -0.00993566      -0.0291612     -0.000693599    -0.000859079        -0.991034       -0.096976     -0.000199545     0.000803024
                    -0.000707322     -0.00084381        -0.015459      -0.0552011      4.83303e-05     0.000774707        -0.993145      -0.0458747
                       -0.990779      -0.0971243      7.72495e-06     0.000823423        0.0118134      -0.0270644      0.000788849    -0.000830213
                    -7.21359e-05     0.000808075        -0.993571      -0.0457445      0.000757524    -0.000676238        0.0167732      -0.0539592
281701.9              -0.0099352      -0.0291671     -0.000693621    -0.000859071        -0.991036      -0.0969465     -0.000199512     0.000803027
                    -0.000707341    -0.000843802       -0.0154597       -0.055207      4.83604e-05     0.000774712        -0.993146      -0.0458451
                       -0.990782      -0.0970947      7.75308e-06      0.00082343        0.0118125      -0.0270711      0.000788808    -0.000830248
                    -7.21097e-05     0.000808081        -0.993572      -0.0457149      0.000757493    -0.000676276        0.0167712      -0.0539662
281702               -0.00993475       -0.029173     -0.000693643    -0.000859063        -0.991039       -0.096917      -0.00019948     0.000803031
                     -0.00070736    -0.000843793       -0.0154603       -0.055213      4.83906e-05     0.000774717        -0.993147      -0.0458155
                       -0.990784      -0.0970652      7.78121e-06     0.000823436        0.0118116      -0.0270777      0.000788767    -0.000830283
                    -7.20834e-05     0.000808088        -0.993573      -0.0456853      0.000757462    -0.000676315        0.0167692      -0.0539732
281702.1             -0.00993429      -0.0291789     -0.000693666    -0.000859056        -0.991042      -0.0968874     -0.000199448     0.000803034
                    -0.000707379    -0.000843784        -0.015461       -0.055219      4.84208e-05     0.000774722        -0.993148      -0.0457859
                       -0.990787      -0.0970357      7.80933e-06     0.000823443        0.0118107      -0.0270844      0.000788726    -0.000830319
                    -7.20572e-05     0.000808094        -0.993574      -0.0456557       0.00075743    -0.000676353        0.0167672      -0.0539801
281702.2             -0.00993384      -0.0291848     -0.000693688    -0.000859048        -0.991045      -0.0968579     -0.000199416     0.000803038
                    -0.000707397    -0.000843775       -0.0154616       -0.055225      4.84509e-05     0.000774727        -0.993149      -0.0457563
                        -0.99079      -0.0970061      7.83746e-06      0.00082345        0.0118098      -0.0270911      0.000788685    -0.000830354
                     -7.2031e-05     0.000808101        -0.993575      -0.0456261      0.000757399    -0.000676391        0.0167652      -0.0539871
281702.3             -0.00993338      -0.0291908      -0.00069371     -0.00085904        -0.991047      -0.0968284     -0.000199384     0.000803042
                    -0.000707416    -0.000843767       -0.0154623      -0.0552309      4.84811e-05     0.000774732         -0.99315      -0.0457268
                       -0.990793      -0.0969766       7.8656e-06     0.000823456        0.0118089      -0.0270978      0.000788644    -0.000830389
                    -7.20047e-05     0.000808107        -0.993576      -0.0455965      0.000757368     -0.00067643        0.0167632      -0.0539941
281702.4             -0.00993293      -0.0291967     -0.000693732    -0.000859032         -0.99105      -0.0967989     -0.000199351     0.000803045
                    -0.000707435    -0.000843758       -0.0154629      -0.0552369      4.85113e-05     0.000774737        -0.993151      -0.0456972
                       -0.990795      -0.0969471      7.89373e-06     0.000823463         0.011808      -0.0271045      0.000788603    -0.000830424
                    -7.19785e-05     0.000808113        -0.993577      -0.0455668      0.000757337    -0.000676468        0.0167612      -0.0540011
281702.5             -0.00993248      -0.0292026     -0.000693754    -0.000859025        -0.991053      -0.0967693     -0.000199319     0.000803049
                    -0.000707454    -0.000843749       -0.0154636      -0.0552429      4.85415e-05     0.000774742        -0.993152      -0.0456676
                       -0.990798      -0.0969175      7.92187e-06      0.00082347        0.0118072      -0.0271111      0.000788562    -0.000830459
                    -7.19522e-05      0.00080812        -0.993578      -0.0455372      0.000757305    -0.000676506        0.0167592       -0.054008
281702.6             -0.00993202      -0.0292085     -0.000693777    -0.000859017        -0.991055      -0.0967398     -0.000199287     0.000803052
                    -0.000707473     -0.00084374       -0.0154642      -0.0552488      4.85717e-05     0.000774747        -0.993153       -0.045638
                       -0.990801       -0.096888         7.95e-06     0.000823476        0.0118063      -0.0271178      0.000788521    -0.000830494
                     -7.1926e-05     0.000808126        -0.993579      -0.0455076      0.000757274    -0.000676544        0.0167572       -0.054015
281702.7             -0.00993157      -0.0292144     -0.000693799    -0.000859009        -0.991058      -0.0967103     -0.000199255     0.000803056
                    -0.000707491    -0.000843732       -0.0154649      -0.0552548      4.86019e-05     0.000774752        -0.993154      -0.0456084
                       -0.990803      -0.0968585      7.97814e-06     0.000823483        0.0118054      -0.0271245      0.000788479     -0.00083053
                    -7.18998e-05     0.000808133         -0.99358       -0.045478      0.000757243    -0.000676583        0.0167552       -0.054022
281702.8             -0.00993112      -0.0292204     -0.000693821    -0.000859001        -0.991061      -0.0966808     -0.000199222     0.000803059
                     -0.00070751    -0.000843723       -0.0154655      -0.0552608      4.86321e-05     0.000774757        -0.993155      -0.0455788
                       -0.990806       -0.096829      8.00628e-06      0.00082349        0.0118045      -0.0271312      0.000788438    -0.000830565
                    -7.18735e-05     0.000808139        -0.993581      -0.0454484      0.000757212    -0.000676621        0.0167532       -0.054029
281702.9             -0.00993067      -0.0292263     -0.000693843    -0.000858994        -0.991063      -0.0966512      -0.00019919     0.000803063
                    -0.000707529    -0.000843714       -0.0154662      -0.0552667      4.86623e-05     0.000774762        -0.993156      -0.0455492
                       -0.990809      -0.0967994      8.03443e-06     0.000823496        0.0118036      -0.0271379      0.000788397      -0.0008306
                    -7.18473e-05     0.000808146        -0.993582      -0.0454188       0.00075718    -0.000676659        0.0167512      -0.0540359
281703               -0.00993022      -0.0292322     -0.000693866    -0.000858986        -0.991066      -0.0966217     -0.000199158     0.000803066
                    -0.000707548    -0.000843705       -0.0154668      -0.0552727      4.86925e-05     0.000774767        -0.993157      -0.0455197
                       -0.990812      -0.0967699      8.06257e-06     0.000823503        0.0118027      -0.0271445      0.000788356    -0.000830635
                     -7.1821e-05     0.000808152        -0.993583      -0.0453892      0.000757149    -0.000676698        0.0167492      -0.0540429
281703.1             -0.00992977      -0.0292381     -0.000693888    -0.000858978        -0.991069      -0.0965922     -0.000199126      0.00080307
                    -0.000707566    -0.000843697       -0.0154675      -0.0552787      4.87227e-05     0.000774772        -0.993158      -0.0454901
                       -0.990814      -0.0967404      8.09072e-06      0.00082351        0.0118018      -0.0271512      0.000788315     -0.00083067
