! TOUCHSTONE file generated by CST MICROWAVE STUDIO
! Date and time: Wed Oct  8 07:03:11 2025
! Project name: Teste_Macro_Metasurface_Nanopilar.cst
! Parameters = {H=600; L_x=175; L_y=90; Lambda=1064; Max_L=200; Min_L=70; PathPara=1; Phi=0; Step_L=10; Theta=0; p=520; phaseX=180; phaseY=0}
! Header version: 2018
! Port assignment regex: !\s*Touchstone port\s*([0-9]+)\s*=\s*(CST MWS port|CST DS port)\s*([0-9]+|Zmin|Zmax)\s*\(\"(.*)\"\)(\s*mode\s*([0-9]+))?.*
! Touchstone port assignment:
! Touchstone port 1 = CST MWS port Zmax ("") mode 1
! Touchstone port 2 = CST MWS port Zmax ("") mode 2
! Touchstone port 3 = CST MWS port Zmin ("") mode 1
! Touchstone port 4 = CST MWS port Zmin ("") mode 2
! S-Parameters are not renormalized. Each port impedance will be approximated by the real part at minimum frequency. The values are described via the [Reference] keyword.
! Default impedance is overridden by [Reference]
[Version] 2.0
# GHz S RI R 376.73
[Number of Ports] 4
[Reference]
376.73 376.73 376.73 376.73 
[Number of Frequencies] 1001
[Network Data]
281700                 -0.151817       -0.151651     -7.52792e-05    -0.000895824         -0.18864        0.955139      0.000810174     0.000726267
                    -0.000200779    -0.000675436        -0.112247        -0.10091     -0.000153784     0.000777226        -0.708276       -0.681667
                       -0.189314        0.954612     -0.000201267     0.000849782        -0.198156       0.0826662     -0.000807677    -0.000689419
                     0.000896481     0.000576474        -0.707863       -0.681997     -0.000387223    -0.000721955         0.102167        0.104817
281700.1               -0.151822       -0.151644     -7.53041e-05    -0.000895821        -0.188612        0.955145      0.000810224     0.000726324
                    -0.000200805     -0.00067544        -0.112244       -0.100911      -0.00015376      0.00077724        -0.708299       -0.681643
                       -0.189286        0.954618     -0.000201247     0.000849789        -0.198153       0.0826701     -0.000807733     -0.00068942
                      0.00089651     0.000576445        -0.707886       -0.681974     -0.000387259     -0.00072195         0.102175        0.104806
281700.2               -0.151826       -0.151638      -7.5329e-05    -0.000895818        -0.188585         0.95515      0.000810274     0.000726381
                    -0.000200832    -0.000675444         -0.11224       -0.100913     -0.000153736     0.000777253        -0.708322       -0.681619
                       -0.189259        0.954624     -0.000201228     0.000849795         -0.19815        0.082674     -0.000807789    -0.000689421
                     0.000896539     0.000576417        -0.707909        -0.68195     -0.000387295    -0.000721946         0.102183        0.104795
281700.3                -0.15183       -0.151632     -7.53539e-05    -0.000895814        -0.188557        0.955156      0.000810323     0.000726438
                    -0.000200858    -0.000675448        -0.112236       -0.100914     -0.000153712     0.000777267        -0.708345       -0.681595
                       -0.189231        0.954629     -0.000201208     0.000849802        -0.198147       0.0826779     -0.000807844    -0.000689422
                     0.000896568     0.000576388        -0.707932       -0.681927      -0.00038733    -0.000721941         0.102191        0.104785
281700.4               -0.151835       -0.151625     -7.53788e-05    -0.000895811         -0.18853        0.955162      0.000810373     0.000726495
                    -0.000200884    -0.000675452        -0.112232       -0.100915     -0.000153688     0.000777281        -0.708368       -0.681571
                       -0.189203        0.954635     -0.000201188     0.000849808        -0.198144       0.0826818       -0.0008079    -0.000689423
                     0.000896597     0.000576359        -0.707955       -0.681903     -0.000387366    -0.000721936           0.1022        0.104774
281700.5               -0.151839       -0.151619     -7.54037e-05    -0.000895808        -0.188502        0.955168      0.000810423     0.000726552
                    -0.000200911    -0.000675456        -0.112229       -0.100916     -0.000153664     0.000777295        -0.708391       -0.681547
                       -0.189176        0.954641     -0.000201169     0.000849815        -0.198141       0.0826857     -0.000807956    -0.000689424
                     0.000896626      0.00057633        -0.707978       -0.681879     -0.000387402    -0.000721932         0.102208        0.104763
281700.6               -0.151844       -0.151612     -7.54286e-05    -0.000895804        -0.188474        0.955173      0.000810472     0.000726609
                    -0.000200937     -0.00067546        -0.112225       -0.100918      -0.00015364     0.000777309        -0.708414       -0.681524
                       -0.189148        0.954647     -0.000201149     0.000849821        -0.198137       0.0826896     -0.000808012    -0.000689425
                     0.000896655     0.000576302        -0.708001       -0.681856     -0.000387438    -0.000721927         0.102216        0.104752
281700.7               -0.151848       -0.151606     -7.54535e-05    -0.000895801        -0.188447        0.955179      0.000810522     0.000726666
                    -0.000200964    -0.000675464        -0.112221       -0.100919     -0.000153616     0.000777323        -0.708437         -0.6815
                        -0.18912        0.954652      -0.00020113     0.000849828        -0.198134       0.0826935     -0.000808068    -0.000689426
                     0.000896684     0.000576273        -0.708025       -0.681832     -0.000387474    -0.000721923         0.102224        0.104741
281700.8               -0.151852         -0.1516     -7.54784e-05    -0.000895798        -0.188419        0.955185      0.000810572     0.000726723
                     -0.00020099    -0.000675469        -0.112218        -0.10092     -0.000153592     0.000777336         -0.70846       -0.681476
                       -0.189093        0.954658      -0.00020111     0.000849834        -0.198131       0.0826974     -0.000808123    -0.000689426
                     0.000896713     0.000576244        -0.708048       -0.681809      -0.00038751    -0.000721918         0.102232        0.104731
281700.9               -0.151857       -0.151593     -7.55033e-05    -0.000895795        -0.188392        0.955191      0.000810621      0.00072678
                    -0.000201017    -0.000675473        -0.112214       -0.100921     -0.000153568      0.00077735        -0.708483       -0.681452
                       -0.189065        0.954664     -0.000201091     0.000849841        -0.198128       0.0827013     -0.000808179    -0.000689427
                     0.000896742     0.000576216        -0.708071       -0.681785     -0.000387545    -0.000721914          0.10224         0.10472
281701                 -0.151861       -0.151587     -7.55282e-05    -0.000895791        -0.188364        0.955196      0.000810671     0.000726836
                    -0.000201043    -0.000675477         -0.11221       -0.100922     -0.000153544     0.000777364        -0.708506       -0.681428
                       -0.189038        0.954669     -0.000201071     0.000849848        -0.198125       0.0827052     -0.000808235    -0.000689428
                     0.000896771     0.000576187        -0.708094       -0.681761     -0.000387581    -0.000721909         0.102248        0.104709
281701.1               -0.151865       -0.151581     -7.55531e-05    -0.000895788        -0.188336        0.955202      0.000810721     0.000726893
                     -0.00020107    -0.000675481        -0.112207       -0.100924      -0.00015352     0.000777378        -0.708529       -0.681404
                        -0.18901        0.954675     -0.000201051     0.000849854        -0.198122       0.0827091      -0.00080829    -0.000689429
                       0.0008968     0.000576158        -0.708117       -0.681738     -0.000387617    -0.000721904         0.102257        0.104698
281701.2                -0.15187       -0.151574      -7.5578e-05    -0.000895785        -0.188309        0.955208       0.00081077      0.00072695
                    -0.000201096    -0.000675485        -0.112203       -0.100925     -0.000153496     0.000777392        -0.708552       -0.681381
                       -0.188982        0.954681     -0.000201032     0.000849861        -0.198118       0.0827131     -0.000808346     -0.00068943
                     0.000896829      0.00057613         -0.70814       -0.681714     -0.000387653      -0.0007219         0.102265        0.104687
281701.3               -0.151874       -0.151568     -7.56029e-05    -0.000895781        -0.188281        0.955214       0.00081082     0.000727007
                    -0.000201122    -0.000675489        -0.112199       -0.100926     -0.000153472     0.000777405        -0.708575       -0.681357
                       -0.188955        0.954687     -0.000201012     0.000849867        -0.198115        0.082717     -0.000808402    -0.000689431
                     0.000896858     0.000576101        -0.708163       -0.681691     -0.000387689    -0.000721895         0.102273        0.104676
281701.4               -0.151879       -0.151562     -7.56278e-05    -0.000895778        -0.188253        0.955219       0.00081087     0.000727063
                    -0.000201149    -0.000675493        -0.112195       -0.100927     -0.000153448     0.000777419        -0.708598       -0.681333
                       -0.188927        0.954692     -0.000200993     0.000849874        -0.198112       0.0827209     -0.000808457    -0.000689432
                     0.000896887     0.000576072        -0.708186       -0.681667     -0.000387725    -0.000721891         0.102281        0.104666
281701.5               -0.151883       -0.151555     -7.56527e-05    -0.000895775        -0.188226        0.955225      0.000810919      0.00072712
                    -0.000201175    -0.000675497        -0.112192       -0.100929     -0.000153424     0.000777433        -0.708621       -0.681309
                       -0.188899        0.954698     -0.000200973      0.00084988        -0.198109       0.0827248     -0.000808513    -0.000689433
                     0.000896916     0.000576044        -0.708209       -0.681643     -0.000387761    -0.000721886         0.102289        0.104655
281701.6               -0.151887       -0.151549     -7.56775e-05    -0.000895771        -0.188198        0.955231      0.000810969     0.000727177
                    -0.000201202    -0.000675502        -0.112188        -0.10093       -0.0001534     0.000777447        -0.708644       -0.681285
                       -0.188872        0.954704     -0.000200953     0.000849887        -0.198106       0.0827287     -0.000808568    -0.000689434
                     0.000896945     0.000576015        -0.708232        -0.68162     -0.000387796    -0.000721882         0.102297        0.104644
281701.7               -0.151892       -0.151542     -7.57024e-05    -0.000895768        -0.188171        0.955237      0.000811019     0.000727233
                    -0.000201228    -0.000675506        -0.112184       -0.100931     -0.000153376     0.000777461        -0.708667       -0.681261
                       -0.188844         0.95471     -0.000200934     0.000849893        -0.198103       0.0827326     -0.000808624    -0.000689435
                     0.000896974     0.000575986        -0.708255       -0.681596     -0.000387832    -0.000721877         0.102306        0.104633
281701.8               -0.151896       -0.151536     -7.57273e-05    -0.000895765        -0.188143        0.955242      0.000811069      0.00072729
                    -0.000201255     -0.00067551        -0.112181       -0.100932     -0.000153352     0.000777474         -0.70869       -0.681238
                       -0.188816        0.954715     -0.000200914       0.0008499        -0.198099       0.0827365     -0.000808679    -0.000689436
                     0.000897003     0.000575957        -0.708278       -0.681573     -0.000387868    -0.000721872         0.102314        0.104622
281701.9                 -0.1519        -0.15153     -7.57522e-05    -0.000895761        -0.188115        0.955248      0.000811118     0.000727346
                    -0.000201281    -0.000675514        -0.112177       -0.100933     -0.000153328     0.000777488        -0.708713       -0.681214
                       -0.188789        0.954721     -0.000200895     0.000849906        -0.198096       0.0827404     -0.000808735    -0.000689437
                     0.000897032     0.000575929        -0.708301       -0.681549     -0.000387904    -0.000721868         0.102322        0.104612
281702                 -0.151905       -0.151523     -7.57771e-05    -0.000895758        -0.188088        0.955254      0.000811168     0.000727403
                    -0.000201307    -0.000675518        -0.112173       -0.100935     -0.000153304     0.000777502        -0.708736        -0.68119
                       -0.188761        0.954727     -0.000200875     0.000849913        -0.198093       0.0827443      -0.00080879    -0.000689438
                     0.000897061       0.0005759        -0.708325       -0.681525      -0.00038794    -0.000721863          0.10233        0.104601
281702.1               -0.151909       -0.151517      -7.5802e-05    -0.000895755         -0.18806         0.95526      0.000811218     0.000727459
                    -0.000201334    -0.000675522         -0.11217       -0.100936      -0.00015328     0.000777516        -0.708759       -0.681166
                       -0.188734        0.954733     -0.000200856     0.000849919         -0.19809       0.0827482     -0.000808845    -0.000689438
                     0.000897089     0.000575871        -0.708348       -0.681502     -0.000387976    -0.000721859         0.102338         0.10459
281702.2               -0.151914       -0.151511     -7.58269e-05    -0.000895751        -0.188032        0.955265      0.000811268     0.000727516
                     -0.00020136    -0.000675526        -0.112166       -0.100937     -0.000153257      0.00077753        -0.708782       -0.681142
                       -0.188706        0.954738     -0.000200836     0.000849926        -0.198087       0.0827521     -0.000808901    -0.000689439
                     0.000897118     0.000575843        -0.708371       -0.681478     -0.000388011    -0.000721854         0.102346        0.104579
281702.3               -0.151918       -0.151504     -7.58518e-05    -0.000895748        -0.188005        0.955271      0.000811317     0.000727572
                    -0.000201387     -0.00067553        -0.112162       -0.100938     -0.000153233     0.000777543        -0.708805       -0.681118
                       -0.188678        0.954744     -0.000200816     0.000849932        -0.198084        0.082756     -0.000808956     -0.00068944
                     0.000897147     0.000575814        -0.708394       -0.681454     -0.000388047    -0.000721849         0.102354        0.104568
281702.4               -0.151922       -0.151498     -7.58766e-05    -0.000895745        -0.187977        0.955277      0.000811367     0.000727629
                    -0.000201413    -0.000675535        -0.112159        -0.10094     -0.000153209     0.000777557        -0.708828       -0.681095
                       -0.188651         0.95475     -0.000200797     0.000849939         -0.19808       0.0827599     -0.000809011    -0.000689441
                     0.000897176     0.000575785        -0.708417       -0.681431     -0.000388083    -0.000721845         0.102363        0.104558
281702.5               -0.151927       -0.151492     -7.59015e-05    -0.000895742         -0.18795        0.955282      0.000811417     0.000727685
                     -0.00020144    -0.000675539        -0.112155       -0.100941     -0.000153185     0.000777571        -0.708851       -0.681071
                       -0.188623        0.954755     -0.000200777     0.000849945        -0.198077       0.0827638     -0.000809067    -0.000689442
                     0.000897205     0.000575757         -0.70844       -0.681407     -0.000388119     -0.00072184         0.102371        0.104547
281702.6               -0.151931       -0.151485     -7.59264e-05    -0.000895738        -0.187922        0.955288      0.000811467     0.000727741
                    -0.000201466    -0.000675543        -0.112151       -0.100942     -0.000153161     0.000777585        -0.708874       -0.681047
                       -0.188595        0.954761     -0.000200758     0.000849952        -0.198074       0.0827677     -0.000809122    -0.000689443
                     0.000897234     0.000575728        -0.708463       -0.681384     -0.000388155    -0.000721836         0.102379        0.104536
281702.7               -0.151935       -0.151479     -7.59513e-05    -0.000895735        -0.187894        0.955294      0.000811516     0.000727798
                    -0.000201493    -0.000675547        -0.112147       -0.100943     -0.000153137     0.000777599        -0.708897       -0.681023
                       -0.188568        0.954767     -0.000200738     0.000849958        -0.198071       0.0827716     -0.000809177    -0.000689444
                     0.000897263     0.000575699        -0.708486        -0.68136     -0.000388191    -0.000721831         0.102387        0.104525
281702.8                -0.15194       -0.151472     -7.59762e-05    -0.000895732        -0.187867          0.9553      0.000811566     0.000727854
                    -0.000201519    -0.000675551        -0.112144       -0.100944     -0.000153113     0.000777612        -0.708919       -0.680999
                        -0.18854        0.954773     -0.000200719     0.000849965        -0.198068       0.0827755     -0.000809233    -0.000689445
                     0.000897292     0.000575671        -0.708509       -0.681336     -0.000388226    -0.000721826         0.102395        0.104514
281702.9               -0.151944       -0.151466     -7.60011e-05    -0.000895728        -0.187839        0.955305      0.000811616      0.00072791
                    -0.000201545    -0.000675555         -0.11214       -0.100946     -0.000153089     0.000777626        -0.708942       -0.680975
                       -0.188512        0.954778     -0.000200699     0.000849971        -0.198065       0.0827794     -0.000809288    -0.000689446
                     0.000897321     0.000575642        -0.708532       -0.681313     -0.000388262    -0.000721822         0.102403        0.104503
281703                 -0.151948        -0.15146     -7.60259e-05    -0.000895725        -0.187812        0.955311      0.000811666     0.000727967
                    -0.000201572    -0.000675559        -0.112136       -0.100947     -0.000153065      0.00077764        -0.708965       -0.680951
                       -0.188485        0.954784     -0.000200679     0.000849978        -0.198061       0.0827833     -0.000809343    -0.000689446
                      0.00089735     0.000575613        -0.708555       -0.681289     -0.000388298    -0.000721817         0.102411        0.104493
281703.1               -0.151953       -0.151453     -7.60508e-05    -0.000895722        -0.187784        0.955317      0.000811716     0.000728023
                    -0.000201598    -0.000675563        -0.112133       -0.100948     -0.000153041     0.000777654        -0.708988       -0.680928
                       -0.188457         0.95479      -0.00020066     0.000849984        -0.198058       0.0827872     -0.000809398    -0.000689447
