! TOUCHSTONE file generated by CST MICROWAVE STUDIO
! Date and time: Wed Oct  8 06:58:43 2025
! Project name: Teste_Macro_Metasurface_Nanopilar.cst
! Parameters = {H=600; L_x=135; L_y=160; Lambda=1064; Max_L=200; Min_L=70; PathPara=1; Phi=0; Step_L=10; Theta=0; p=520; phaseX=180; phaseY=0}
! Header version: 2018
! Port assignment regex: !\s*Touchstone port\s*([0-9]+)\s*=\s*(CST MWS port|CST DS port)\s*([0-9]+|Zmin|Zmax)\s*\(\"(.*)\"\)(\s*mode\s*([0-9]+))?.*
! Touchstone port assignment:
! Touchstone port 1 = CST MWS port Zmax ("") mode 1
! Touchstone port 2 = CST MWS port Zmax ("") mode 2
! Touchstone port 3 = CST MWS port Zmin ("") mode 1
! Touchstone port 4 = CST MWS port Zmin ("") mode 2
! S-Parameters are not renormalized. Each port impedance will be approximated by the real part at minimum frequency. The values are described via the [Reference] keyword.
! Default impedance is overridden by [Reference]
[Version] 2.0
# GHz S RI R 376.73
[Number of Ports] 4
[Reference]
376.73 376.73 376.73 376.73 
[Number of Frequencies] 1001
[Network Data]
281700                 -0.371195        0.371613      -0.00101978     0.000478354        -0.437677       -0.710707      0.000887987    -0.000597197
                    -0.000926175      0.00067606        -0.128638      -0.0174193       0.00122219     5.15222e-05        -0.676064       -0.718153
                       -0.437667       -0.710782        0.0012216     0.000102235        -0.504208        0.135329      -0.00144843     0.000112017
                     0.000908146     -0.00062339        -0.676186       -0.718607      -0.00145346     0.000147412       0.00723262        0.126322
281700.1               -0.371175        0.371617       -0.0010197     0.000478421        -0.437708       -0.710697      0.000888081    -0.000597099
                    -0.000926114     0.000676099        -0.128633      -0.0174192       0.00122216       5.146e-05        -0.676088       -0.718132
                       -0.437699       -0.710772       0.00122156     0.000102185        -0.504191        0.135349      -0.00144833     0.000111953
                     0.000908081     -0.00062342         -0.67621       -0.718586      -0.00145343     0.000147474       0.00724098        0.126316
281700.2               -0.371155         0.37162      -0.00101962     0.000478487        -0.437739       -0.710687      0.000888165    -0.000597008
                    -0.000926053     0.000676139        -0.128627      -0.0174191       0.00122214     5.13979e-05        -0.676111       -0.718111
                        -0.43773       -0.710761       0.00122152     0.000102134        -0.504174        0.135369      -0.00144823     0.000111894
                     0.000908016     -0.00062345        -0.676233       -0.718565       -0.0014534     0.000147537       0.00724933         0.12631
281700.3               -0.371135        0.371624      -0.00101954     0.000478554        -0.437771       -0.710676      0.000888241    -0.000596923
                    -0.000925992     0.000676179        -0.128622       -0.017419       0.00122212     5.13358e-05        -0.676135       -0.718091
                       -0.437761       -0.710751       0.00122149     0.000102084        -0.504157        0.135389      -0.00144814     0.000111839
                     0.000907951     -0.00062348        -0.676256       -0.718544      -0.00145337       0.0001476       0.00725768        0.126304
281700.4               -0.371115        0.371628      -0.00101947      0.00047862        -0.437802       -0.710666       0.00088831    -0.000596844
                    -0.000925931     0.000676219        -0.128616      -0.0174189       0.00122209     5.12737e-05        -0.676158        -0.71807
                       -0.437792       -0.710741       0.00122145     0.000102033         -0.50414        0.135409      -0.00144804     0.000111788
                     0.000907886     -0.00062351         -0.67628       -0.718523      -0.00145334     0.000147663       0.00726603        0.126298
281700.5               -0.371096        0.371631      -0.00101939     0.000478687        -0.437833       -0.710656       0.00088837    -0.000596772
                     -0.00092587     0.000676258        -0.128611      -0.0174189       0.00122207     5.12117e-05        -0.676182       -0.718049
                       -0.437823       -0.710731       0.00122141     0.000101983        -0.504123        0.135429      -0.00144795     0.000111743
                     0.000907821     -0.00062354        -0.676303       -0.718502      -0.00145331     0.000147726       0.00727438        0.126292
281700.6               -0.371076        0.371635      -0.00101931     0.000478754        -0.437864       -0.710646      0.000888423    -0.000596706
                    -0.000925809     0.000676298        -0.128606      -0.0174188       0.00122204     5.11497e-05        -0.676205       -0.718028
                       -0.437854       -0.710721       0.00122137     0.000101932        -0.504106         0.13545      -0.00144786     0.000111703
                     0.000907756     -0.00062357        -0.676327        -0.71848      -0.00145328     0.000147788       0.00728273        0.126286
281700.7               -0.371056        0.371639      -0.00101923      0.00047882        -0.437895       -0.710636      0.000888468    -0.000596648
                    -0.000925747     0.000676338          -0.1286      -0.0174187       0.00122202     5.10878e-05        -0.676228       -0.718007
                       -0.437886        -0.71071       0.00122133     0.000101882        -0.504089         0.13547      -0.00144777     0.000111668
                     0.000907691      -0.0006236         -0.67635       -0.718459      -0.00145326     0.000147851       0.00729108         0.12628
281700.8               -0.371036        0.371643      -0.00101916     0.000478887        -0.437926       -0.710625      0.000888506    -0.000596596
                    -0.000925686     0.000676378        -0.128595      -0.0174186         0.001222      5.1026e-05        -0.676252       -0.717986
                       -0.437917         -0.7107        0.0012213     0.000101831        -0.504072         0.13549      -0.00144768     0.000111639
                     0.000907626     -0.00062363        -0.676374       -0.718438      -0.00145323     0.000147914       0.00729943        0.126274
281700.9               -0.371016        0.371646      -0.00101908     0.000478954        -0.437957       -0.710615      0.000888536    -0.000596551
                    -0.000925625     0.000676417         -0.12859      -0.0174186       0.00122197     5.09642e-05        -0.676275       -0.717965
                       -0.437948        -0.71069       0.00122126      0.00010178        -0.504055         0.13551       -0.0014476     0.000111617
                     0.000907561     -0.00062366        -0.676397       -0.718417       -0.0014532     0.000147977       0.00730778        0.126268
281701                 -0.370996         0.37165        -0.001019     0.000479021        -0.437989       -0.710605      0.000888559    -0.000596513
                    -0.000925564     0.000676457        -0.128584      -0.0174185       0.00122195     5.09025e-05        -0.676299       -0.717944
                       -0.437979        -0.71068       0.00122122      0.00010173        -0.504038         0.13553      -0.00144752     0.000111601
                     0.000907496     -0.00062369        -0.676421       -0.718396      -0.00145317      0.00014804       0.00731613        0.126262
281701.1               -0.370976        0.371654      -0.00101892     0.000479088         -0.43802       -0.710595      0.000888575    -0.000596482
                    -0.000925503     0.000676497        -0.128579      -0.0174184       0.00122192     5.08408e-05        -0.676322       -0.717923
                        -0.43801       -0.710669       0.00122118     0.000101679        -0.504021         0.13555      -0.00144744     0.000111591
                     0.000907431     -0.00062372        -0.676444       -0.718375      -0.00145314     0.000148104       0.00732448        0.126256
281701.2               -0.370956        0.371657      -0.00101884     0.000479155        -0.438051       -0.710584      0.000888584    -0.000596459
                    -0.000925442     0.000676536        -0.128574      -0.0174183        0.0012219     5.07792e-05        -0.676346       -0.717902
                       -0.438041       -0.710659       0.00122115     0.000101629        -0.504004        0.135571      -0.00144737     0.000111589
                     0.000907367     -0.00062375        -0.676467       -0.718353      -0.00145311     0.000148167       0.00733282         0.12625
281701.3               -0.370936        0.371661      -0.00101877     0.000479222        -0.438082       -0.710574      0.000888586    -0.000596444
                    -0.000925381     0.000676576        -0.128568      -0.0174183       0.00122188     5.07177e-05        -0.676369       -0.717881
                       -0.438072       -0.710649       0.00122111     0.000101578        -0.503987        0.135591       -0.0014473     0.000111595
                     0.000907302     -0.00062378        -0.676491       -0.718332      -0.00145308      0.00014823       0.00734117        0.126244
281701.4               -0.370916        0.371665      -0.00101869     0.000479289        -0.438113       -0.710564      0.000888581    -0.000596436
                    -0.000925319     0.000676616        -0.128563      -0.0174182       0.00122185     5.06562e-05        -0.676393        -0.71786
                       -0.438104       -0.710639       0.00122107     0.000101528         -0.50397        0.135611      -0.00144723     0.000111608
                     0.000907237     -0.00062381        -0.676514       -0.718311      -0.00145305     0.000148294       0.00734952        0.126238
281701.5               -0.370897        0.371668      -0.00101861     0.000479356        -0.438144       -0.710554      0.000888569    -0.000596436
                    -0.000925258     0.000676656        -0.128558      -0.0174181       0.00122183     5.05948e-05        -0.676416       -0.717839
                       -0.438135       -0.710628       0.00122103     0.000101477        -0.503953        0.135631      -0.00144717     0.000111629
                     0.000907172     -0.00062384        -0.676538        -0.71829      -0.00145302     0.000148357       0.00735786        0.126232
281701.6               -0.370877        0.371672      -0.00101853     0.000479423        -0.438175       -0.710543      0.000888549    -0.000596445
                    -0.000925197     0.000676695        -0.128552       -0.017418       0.00122181     5.05334e-05        -0.676439       -0.717818
                       -0.438166       -0.710618         0.001221     0.000101427        -0.503936        0.135651      -0.00144712     0.000111658
                     0.000907107     -0.00062387        -0.676561       -0.718269      -0.00145299     0.000148421        0.0073662        0.126226
281701.7               -0.370857        0.371676      -0.00101845      0.00047949        -0.438206       -0.710533      0.000888523    -0.000596461
                    -0.000925136     0.000676735        -0.128547       -0.017418       0.00122178      5.0472e-05        -0.676463       -0.717796
                       -0.438197       -0.710608       0.00122096     0.000101376        -0.503919        0.135671      -0.00144706     0.000111696
                     0.000907042      -0.0006239        -0.676585       -0.718247      -0.00145296     0.000148485       0.00737455         0.12622
281701.8               -0.370837        0.371679      -0.00101838     0.000479557        -0.438238       -0.710523      0.000888489    -0.000596487
                    -0.000925075     0.000676775        -0.128542      -0.0174179       0.00122176     5.04105e-05        -0.676486       -0.717775
                       -0.438228       -0.710598       0.00122092     0.000101325        -0.503902        0.135692      -0.00144702     0.000111743
                     0.000906977     -0.00062393        -0.676608       -0.718226      -0.00145293     0.000148549       0.00738289        0.126214
281701.9               -0.370817        0.371683       -0.0010183     0.000479624        -0.438269       -0.710513      0.000888448    -0.000596521
                    -0.000925014     0.000676814        -0.128536      -0.0174178       0.00122174      5.0349e-05         -0.67651       -0.717754
                       -0.438259       -0.710587       0.00122088     0.000101275        -0.503885        0.135712      -0.00144697     0.000111799
                     0.000906912     -0.00062396        -0.676632       -0.718205       -0.0014529     0.000148614       0.00739123        0.126208
281702                 -0.370797        0.371687      -0.00101822     0.000479691          -0.4383       -0.710502      0.000888398    -0.000596565
                    -0.000924953     0.000676854        -0.128531      -0.0174178       0.00122172     5.02874e-05        -0.676533       -0.717733
                       -0.438291       -0.710577       0.00122084     0.000101224        -0.503868        0.135732      -0.00144693     0.000111864
                     0.000906847     -0.00062399        -0.676655       -0.718184      -0.00145287     0.000148678       0.00739958        0.126202
281702.1               -0.370777        0.371691      -0.00101814     0.000479759        -0.438331       -0.710492      0.000888342    -0.000596617
                    -0.000924891     0.000676894        -0.128525      -0.0174177       0.00122169     5.02256e-05        -0.676557       -0.717712
                       -0.438322       -0.710567       0.00122081     0.000101174        -0.503851        0.135752       -0.0014469     0.000111939
                     0.000906782     -0.00062402        -0.676678       -0.718163      -0.00145284     0.000148743       0.00740792        0.126196
281702.2               -0.370757        0.371694      -0.00101806     0.000479826        -0.438362       -0.710482      0.000888277     -0.00059668
                     -0.00092483     0.000676934         -0.12852      -0.0174176       0.00122167     5.01637e-05         -0.67658       -0.717691
                       -0.438353       -0.710557       0.00122077     0.000101123        -0.503834        0.135772      -0.00144687     0.000112024
                     0.000906717     -0.00062405        -0.676702       -0.718141      -0.00145281     0.000148808       0.00741626         0.12619
281702.3               -0.370737        0.371698      -0.00101798     0.000479893        -0.438393       -0.710472      0.000888203    -0.000596752
                    -0.000924769     0.000676973        -0.128515      -0.0174175       0.00122165     5.01017e-05        -0.676603        -0.71767
                       -0.438384       -0.710546       0.00122073     0.000101073        -0.503816        0.135792      -0.00144685     0.000112119
                     0.000906652     -0.00062408        -0.676725        -0.71812      -0.00145278     0.000148873        0.0074246        0.126184
281702.4               -0.370718        0.371702      -0.00101791     0.000479961        -0.438424       -0.710461      0.000888121    -0.000596835
                    -0.000924708     0.000677013        -0.128509      -0.0174175       0.00122163     5.00394e-05        -0.676627       -0.717648
                       -0.438415       -0.710536       0.00122069     0.000101022        -0.503799        0.135813      -0.00144683     0.000112223
                     0.000906587     -0.00062411        -0.676749       -0.718099      -0.00145275     0.000148938       0.00743293        0.126178
281702.5               -0.370698        0.371705      -0.00101783     0.000480028        -0.438456       -0.710451       0.00088803    -0.000596928
                    -0.000924647     0.000677053        -0.128504      -0.0174174        0.0012216      4.9977e-05         -0.67665       -0.717627
                       -0.438446       -0.710526       0.00122066     0.000100972        -0.503782        0.135833      -0.00144682     0.000112339
                     0.000906522     -0.00062414        -0.676772       -0.718078      -0.00145272     0.000149002       0.00744127        0.126172
281702.6               -0.370678        0.371709      -0.00101775     0.000480095        -0.438487       -0.710441      0.000887929    -0.000597033
                    -0.000924586     0.000677092        -0.128499      -0.0174173       0.00122158     4.99144e-05        -0.676673       -0.717606
                       -0.438477       -0.710516       0.00122062     0.000100921        -0.503765        0.135853      -0.00144682     0.000112464
                     0.000906457    -0.000624169        -0.676796       -0.718057      -0.00145268     0.000149066       0.00744961        0.126166
281702.7               -0.370658        0.371713      -0.00101767     0.000480163        -0.438518       -0.710431      0.000887818    -0.000597149
                    -0.000924525     0.000677132        -0.128493      -0.0174173       0.00122156     4.98516e-05        -0.676697       -0.717585
                       -0.438509       -0.710505       0.00122058      0.00010087        -0.503748        0.135873      -0.00144682       0.0001126
                     0.000906392    -0.000624199        -0.676819       -0.718035      -0.00145265     0.000149128       0.00745795        0.126159
281702.8               -0.370638        0.371716      -0.00101759      0.00048023        -0.438549        -0.71042      0.000887697    -0.000597277
                    -0.000924463     0.000677172        -0.128488      -0.0174172       0.00122154     4.97886e-05         -0.67672       -0.717563
                        -0.43854       -0.710495       0.00122054      0.00010082        -0.503731        0.135893      -0.00144682     0.000112747
                     0.000906327    -0.000624229        -0.676842       -0.718014      -0.00145262      0.00014919       0.00746628        0.126153
281702.9               -0.370618         0.37172      -0.00101751     0.000480298         -0.43858        -0.71041      0.000887564    -0.000597417
                    -0.000924402     0.000677211        -0.128483      -0.0174171       0.00122151     4.97256e-05        -0.676743       -0.717542
                       -0.438571       -0.710485       0.00122051     0.000100769        -0.503714        0.135913      -0.00144683     0.000112905
                     0.000906262    -0.000624259        -0.676866       -0.717993      -0.00145258      0.00014925       0.00747462        0.126147
281703                 -0.370598        0.371724      -0.00101743     0.000480365        -0.438611         -0.7104      0.000887419     -0.00059757
                    -0.000924341     0.000677251        -0.128477      -0.0174171       0.00122149     4.96624e-05        -0.676767       -0.717521
                       -0.438602       -0.710475       0.00122047     0.000100719        -0.503697        0.135933      -0.00144685     0.000113073
                     0.000906197    -0.000624289        -0.676889       -0.717972      -0.00145255      0.00014931       0.00748295        0.126141
281703.1               -0.370578        0.371727      -0.00101736     0.000480433        -0.438642       -0.710389      0.000887261    -0.000597737
                     -0.00092428     0.000677291        -0.128472       -0.017417       0.00122147     4.95991e-05         -0.67679       -0.717499
                       -0.438633       -0.710464       0.00122043     0.000100668         -0.50368        0.135954      -0.00144688     0.000113252
