! TOUCHSTONE file generated by CST MICROWAVE STUDIO
! Date and time: Wed Oct  8 06:58:33 2025
! Project name: Teste_Macro_Metasurface_Nanopilar.cst
! Parameters = {H=600; L_x=135; L_y=125; Lambda=1064; Max_L=200; Min_L=70; PathPara=1; Phi=0; Step_L=10; Theta=0; p=520; phaseX=180; phaseY=0}
! Header version: 2018
! Port assignment regex: !\s*Touchstone port\s*([0-9]+)\s*=\s*(CST MWS port|CST DS port)\s*([0-9]+|Zmin|Zmax)\s*\(\"(.*)\"\)(\s*mode\s*([0-9]+))?.*
! Touchstone port assignment:
! Touchstone port 1 = CST MWS port Zmax ("") mode 1
! Touchstone port 2 = CST MWS port Zmax ("") mode 2
! Touchstone port 3 = CST MWS port Zmin ("") mode 1
! Touchstone port 4 = CST MWS port Zmin ("") mode 2
! S-Parameters are not renormalized. Each port impedance will be approximated by the real part at minimum frequency. The values are described via the [Reference] keyword.
! Default impedance is overridden by [Reference]
[Version] 2.0
# GHz S RI R 376.73
[Number of Ports] 4
[Reference]
376.73 376.73 376.73 376.73 
[Number of Frequencies] 1001
[Network Data]
281700                 -0.201077       -0.131216     -0.000413162    -7.39477e-05         0.200985        -0.94276     -0.000105729    -0.000188315
                     -0.00039386    -8.20409e-05        -0.226745      -0.0457244     -0.000189076      0.00025191         -0.17792        -0.95087
                        0.200506       -0.942708     -0.000219488     0.000271587        -0.237776       0.0391259      -5.8005e-05    -5.98567e-05
                    -0.000358485     0.000174241        -0.176777       -0.950867     -0.000389821     0.000237257        -0.195877        0.123889
281700.1               -0.201082       -0.131208     -0.000413161    -7.39403e-05         0.200956       -0.942766     -0.000105801    -0.000188274
                    -0.000393857    -8.20253e-05        -0.226744      -0.0457163     -0.000189073     0.000251917        -0.177949       -0.950865
                        0.200476       -0.942714     -0.000219479     0.000271601        -0.237775       0.0391318     -5.80189e-05     -5.9854e-05
                    -0.000358484     0.000174252        -0.176806       -0.950862     -0.000389832     0.000237271        -0.195871        0.123893
281700.2               -0.201087       -0.131201      -0.00041316    -7.39329e-05         0.200926       -0.942772     -0.000105873    -0.000188232
                    -0.000393855    -8.20096e-05        -0.226743      -0.0457082      -0.00018907     0.000251923        -0.177978        -0.95086
                        0.200446       -0.942721     -0.000219469     0.000271615        -0.237773       0.0391377     -5.80328e-05    -5.98514e-05
                    -0.000358482     0.000174263        -0.176836       -0.950857     -0.000389843     0.000237285        -0.195865        0.123896
281700.3               -0.201092       -0.131193     -0.000413159    -7.39255e-05         0.200896       -0.942779     -0.000105945    -0.000188191
                    -0.000393852     -8.1994e-05        -0.226742      -0.0457001     -0.000189068      0.00025193        -0.178007       -0.950855
                        0.200417       -0.942727      -0.00021946     0.000271629        -0.237772       0.0391436     -5.80467e-05    -5.98487e-05
                     -0.00035848     0.000174274        -0.176865       -0.950852     -0.000389855     0.000237299         -0.19586          0.1239
281700.4               -0.201096       -0.131185     -0.000413158    -7.39181e-05         0.200866       -0.942785     -0.000106017    -0.000188149
                    -0.000393849    -8.19784e-05        -0.226741       -0.045692     -0.000189065     0.000251936        -0.178036       -0.950851
                        0.200387       -0.942733      -0.00021945     0.000271642        -0.237771       0.0391495     -5.80606e-05     -5.9846e-05
                    -0.000358478     0.000174285        -0.176894       -0.950848     -0.000389866     0.000237313        -0.195854        0.123904
281700.5               -0.201101       -0.131177     -0.000413157    -7.39107e-05         0.200837       -0.942792     -0.000106089    -0.000188108
                    -0.000393847    -8.19628e-05         -0.22674      -0.0456839     -0.000189062     0.000251943        -0.178065       -0.950846
                        0.200357        -0.94274     -0.000219441     0.000271656         -0.23777       0.0391554     -5.80745e-05    -5.98433e-05
                    -0.000358477     0.000174297        -0.176923       -0.950843     -0.000389877     0.000237326        -0.195848        0.123908
281700.6               -0.201106        -0.13117     -0.000413156    -7.39033e-05         0.200807       -0.942798     -0.000106161    -0.000188066
                    -0.000393844    -8.19472e-05        -0.226739      -0.0456758     -0.000189059     0.000251949        -0.178094       -0.950841
                        0.200327       -0.942746     -0.000219431      0.00027167        -0.237768       0.0391614     -5.80884e-05    -5.98406e-05
                    -0.000358475     0.000174308        -0.176953       -0.950838     -0.000389888      0.00023734        -0.195843        0.123912
281700.7               -0.201111       -0.131162     -0.000413155    -7.38959e-05         0.200777       -0.942805     -0.000106233    -0.000188025
                    -0.000393841    -8.19315e-05        -0.226738      -0.0456678     -0.000189056     0.000251956        -0.178123       -0.950836
                        0.200298       -0.942753     -0.000219421     0.000271684        -0.237767       0.0391673     -5.81022e-05    -5.98379e-05
                    -0.000358473     0.000174319        -0.176982       -0.950833       -0.0003899     0.000237354        -0.195837        0.123916
281700.8               -0.201115       -0.131154     -0.000413154    -7.38885e-05         0.200747       -0.942811     -0.000106305    -0.000187983
                    -0.000393839    -8.19159e-05        -0.226737      -0.0456597     -0.000189053     0.000251962        -0.178153       -0.950831
                        0.200268       -0.942759     -0.000219412     0.000271698        -0.237766       0.0391732     -5.81161e-05    -5.98352e-05
                    -0.000358471      0.00017433        -0.177011       -0.950829     -0.000389911     0.000237368        -0.195831         0.12392
281700.9                -0.20112       -0.131146     -0.000413153    -7.38811e-05         0.200718       -0.942817     -0.000106377    -0.000187941
                    -0.000393836    -8.19003e-05        -0.226736      -0.0456516      -0.00018905     0.000251969        -0.178182       -0.950827
                        0.200238       -0.942765     -0.000219402     0.000271712        -0.237765       0.0391791       -5.813e-05    -5.98325e-05
                     -0.00035847     0.000174341         -0.17704       -0.950824     -0.000389922     0.000237382        -0.195826        0.123924
281701                 -0.201125       -0.131139     -0.000413152    -7.38737e-05         0.200688       -0.942824     -0.000106449      -0.0001879
                    -0.000393833    -8.18847e-05        -0.226735      -0.0456435     -0.000189047     0.000251975        -0.178211       -0.950822
                        0.200208       -0.942772     -0.000219393     0.000271725        -0.237763        0.039185     -5.81439e-05    -5.98297e-05
                    -0.000358468     0.000174352         -0.17707       -0.950819     -0.000389933     0.000237396         -0.19582        0.123928
281701.1                -0.20113       -0.131131     -0.000413151    -7.38663e-05         0.200658        -0.94283     -0.000106521    -0.000187858
                    -0.000393831    -8.18691e-05        -0.226734      -0.0456354     -0.000189044     0.000251982         -0.17824       -0.950817
                        0.200178       -0.942778     -0.000219383     0.000271739        -0.237762       0.0391909     -5.81577e-05     -5.9827e-05
                    -0.000358466     0.000174364        -0.177099       -0.950814     -0.000389945      0.00023741        -0.195814        0.123932
281701.2               -0.201134       -0.131123      -0.00041315    -7.38589e-05         0.200628       -0.942837     -0.000106594    -0.000187817
                    -0.000393828    -8.18535e-05        -0.226733      -0.0456273     -0.000189041     0.000251988        -0.178269       -0.950812
                        0.200149       -0.942785     -0.000219374     0.000271753        -0.237761       0.0391968     -5.81716e-05    -5.98242e-05
                    -0.000358464     0.000174375        -0.177128       -0.950809     -0.000389956     0.000237423        -0.195809        0.123936
281701.3               -0.201139       -0.131115     -0.000413149    -7.38515e-05         0.200598       -0.942843     -0.000106666    -0.000187775
                    -0.000393826    -8.18378e-05        -0.226732      -0.0456192     -0.000189038     0.000251995        -0.178298       -0.950807
                        0.200119       -0.942791     -0.000219364     0.000271767         -0.23776       0.0392027     -5.81854e-05    -5.98214e-05
                    -0.000358462     0.000174386        -0.177157       -0.950805     -0.000389967     0.000237437        -0.195803         0.12394
281701.4               -0.201144       -0.131108     -0.000413148    -7.38441e-05         0.200569        -0.94285     -0.000106738    -0.000187733
                    -0.000393823    -8.18222e-05        -0.226731      -0.0456111     -0.000189035     0.000252001        -0.178327       -0.950803
                        0.200089       -0.942797     -0.000219355     0.000271781        -0.237758       0.0392086     -5.81993e-05    -5.98186e-05
                     -0.00035846     0.000174397        -0.177187         -0.9508     -0.000389978     0.000237451        -0.195797        0.123944
281701.5               -0.201149         -0.1311     -0.000413147    -7.38367e-05         0.200539       -0.942856      -0.00010681    -0.000187692
                     -0.00039382    -8.18066e-05         -0.22673       -0.045603     -0.000189032     0.000252008        -0.178356       -0.950798
                        0.200059       -0.942804     -0.000219345     0.000271794        -0.237757       0.0392145     -5.82132e-05    -5.98158e-05
                    -0.000358459     0.000174408        -0.177216       -0.950795      -0.00038999     0.000237465        -0.195792        0.123948
281701.6               -0.201153       -0.131092     -0.000413146    -7.38293e-05         0.200509       -0.942862     -0.000106882     -0.00018765
                    -0.000393818     -8.1791e-05        -0.226728      -0.0455949      -0.00018903     0.000252014        -0.178385       -0.950793
                         0.20003        -0.94281     -0.000219336     0.000271808        -0.237756       0.0392205      -5.8227e-05     -5.9813e-05
                    -0.000358457     0.000174419        -0.177245        -0.95079     -0.000390001     0.000237479        -0.195786        0.123952
281701.7               -0.201158       -0.131085     -0.000413145    -7.38219e-05         0.200479       -0.942869     -0.000106954    -0.000187608
                    -0.000393815    -8.17754e-05        -0.226727      -0.0455868     -0.000189027     0.000252021        -0.178414       -0.950788
                             0.2       -0.942817     -0.000219326     0.000271822        -0.237755       0.0392264     -5.82409e-05    -5.98102e-05
                    -0.000358455      0.00017443        -0.177274       -0.950785     -0.000390012     0.000237493         -0.19578        0.123956
281701.8               -0.201163       -0.131077     -0.000413144    -7.38145e-05          0.20045       -0.942875     -0.000107026    -0.000187567
                    -0.000393812    -8.17598e-05        -0.226726      -0.0455788     -0.000189024     0.000252027        -0.178444       -0.950783
                         0.19997       -0.942823     -0.000219316     0.000271836        -0.237753       0.0392323     -5.82547e-05    -5.98074e-05
                    -0.000358453     0.000174441        -0.177304       -0.950781     -0.000390023     0.000237507        -0.195775         0.12396
281701.9               -0.201167       -0.131069     -0.000413143    -7.38071e-05          0.20042       -0.942882     -0.000107098    -0.000187525
                     -0.00039381    -8.17442e-05        -0.226725      -0.0455707     -0.000189021     0.000252034        -0.178473       -0.950778
                         0.19994       -0.942829     -0.000219307      0.00027185        -0.237752       0.0392382     -5.82685e-05    -5.98046e-05
                    -0.000358451     0.000174452        -0.177333       -0.950776     -0.000390035     0.000237521        -0.195769        0.123964
281702                 -0.201172       -0.131061     -0.000413142    -7.37997e-05          0.20039       -0.942888      -0.00010717    -0.000187483
                    -0.000393807    -8.17285e-05        -0.226724      -0.0455626     -0.000189018      0.00025204        -0.178502       -0.950774
                        0.199911       -0.942836     -0.000219297     0.000271864        -0.237751       0.0392441     -5.82824e-05    -5.98017e-05
                    -0.000358449     0.000174463        -0.177362       -0.950771     -0.000390046     0.000237535        -0.195764        0.123968
281702.1               -0.201177       -0.131054     -0.000413141    -7.37923e-05          0.20036       -0.942894     -0.000107242    -0.000187441
                    -0.000393804    -8.17129e-05        -0.226723      -0.0455545     -0.000189015     0.000252047        -0.178531       -0.950769
                        0.199881       -0.942842     -0.000219288     0.000271877        -0.237749         0.03925     -5.82962e-05    -5.97988e-05
                    -0.000358447     0.000174474        -0.177391       -0.950766     -0.000390057     0.000237548        -0.195758        0.123972
281702.2               -0.201182       -0.131046      -0.00041314    -7.37849e-05          0.20033       -0.942901     -0.000107314      -0.0001874
                    -0.000393802    -8.16973e-05        -0.226722      -0.0455464     -0.000189012     0.000252053         -0.17856       -0.950764
                        0.199851       -0.942849     -0.000219278     0.000271891        -0.237748       0.0392559       -5.831e-05     -5.9796e-05
                    -0.000358445     0.000174485        -0.177421       -0.950762     -0.000390068     0.000237562        -0.195752        0.123976
281702.3               -0.201186       -0.131038     -0.000413139    -7.37775e-05         0.200301       -0.942907     -0.000107386    -0.000187358
                    -0.000393799    -8.16817e-05        -0.226721      -0.0455383     -0.000189009      0.00025206        -0.178589       -0.950759
                        0.199821       -0.942855     -0.000219269     0.000271905        -0.237747       0.0392618     -5.83239e-05    -5.97931e-05
                    -0.000358444     0.000174496         -0.17745       -0.950757      -0.00039008     0.000237576        -0.195747         0.12398
281702.4               -0.201191        -0.13103     -0.000413138    -7.37701e-05         0.200271       -0.942914     -0.000107458    -0.000187316
                    -0.000393796    -8.16661e-05         -0.22672      -0.0455302     -0.000189006     0.000252066        -0.178618       -0.950754
                        0.199791       -0.942861     -0.000219259     0.000271919        -0.237746       0.0392677     -5.83377e-05    -5.97902e-05
                    -0.000358442     0.000174507        -0.177479       -0.950752     -0.000390091      0.00023759        -0.195741        0.123984
281702.5               -0.201196       -0.131023     -0.000413137    -7.37627e-05         0.200241        -0.94292      -0.00010753    -0.000187274
                    -0.000393794    -8.16505e-05        -0.226719      -0.0455221     -0.000189003     0.000252073        -0.178647        -0.95075
                        0.199762       -0.942868      -0.00021925     0.000271933        -0.237744       0.0392736     -5.83515e-05    -5.97873e-05
                     -0.00035844     0.000174518        -0.177508       -0.950747     -0.000390102     0.000237604        -0.195735        0.123988
281702.6               -0.201201       -0.131015     -0.000413136    -7.37553e-05         0.200211       -0.942926     -0.000107602    -0.000187233
                    -0.000393791    -8.16348e-05        -0.226718       -0.045514        -0.000189     0.000252079        -0.178676       -0.950745
                        0.199732       -0.942874      -0.00021924     0.000271946        -0.237743       0.0392796     -5.83653e-05    -5.97844e-05
                    -0.000358438     0.000174529        -0.177538       -0.950742     -0.000390113     0.000237618         -0.19573        0.123992
281702.7               -0.201205       -0.131007     -0.000413135    -7.37479e-05         0.200182       -0.942933     -0.000107674    -0.000187191
                    -0.000393788    -8.16192e-05        -0.226717       -0.045506     -0.000188997     0.000252086        -0.178705        -0.95074
                        0.199702       -0.942881     -0.000219231      0.00027196        -0.237742       0.0392855     -5.83792e-05    -5.97815e-05
                    -0.000358436      0.00017454        -0.177567       -0.950738     -0.000390124     0.000237632        -0.195724        0.123996
281702.8                -0.20121       -0.130999     -0.000413134    -7.37405e-05         0.200152       -0.942939     -0.000107746    -0.000187149
                    -0.000393786    -8.16036e-05        -0.226716      -0.0454979     -0.000188994     0.000252093        -0.178735       -0.950735
                        0.199672       -0.942887     -0.000219221     0.000271974        -0.237741       0.0392914      -5.8393e-05    -5.97785e-05
                    -0.000358434     0.000174551        -0.177596       -0.950733     -0.000390136     0.000237646        -0.195718           0.124
281702.9               -0.201215       -0.130992     -0.000413133     -7.3733e-05         0.200122       -0.942946     -0.000107818    -0.000187107
                    -0.000393783     -8.1588e-05        -0.226715      -0.0454898     -0.000188991     0.000252099        -0.178764        -0.95073
                        0.199643       -0.942893     -0.000219212     0.000271988        -0.237739       0.0392973     -5.84068e-05    -5.97756e-05
                    -0.000358432     0.000174562        -0.177625       -0.950728     -0.000390147      0.00023766        -0.195713        0.124004
281703                  -0.20122       -0.130984     -0.000413132    -7.37256e-05         0.200092       -0.942952      -0.00010789    -0.000187065
                     -0.00039378    -8.15724e-05        -0.226714      -0.0454817     -0.000188988     0.000252106        -0.178793       -0.950725
                        0.199613         -0.9429     -0.000219202     0.000272002        -0.237738       0.0393032     -5.84206e-05    -5.97726e-05
                     -0.00035843     0.000174573        -0.177655       -0.950723     -0.000390158     0.000237674        -0.195707        0.124008
281703.1               -0.201224       -0.130976     -0.000413131    -7.37182e-05         0.200062       -0.942959     -0.000107962    -0.000187023
                    -0.000393778    -8.15568e-05        -0.226713      -0.0454736     -0.000188985     0.000252112        -0.178822       -0.950721
                        0.199583       -0.942906     -0.000219193     0.000272016        -0.237737       0.0393091     -5.84344e-05    -5.97697e-05
