! TOUCHSTONE file generated by CST MICROWAVE STUDIO
! Date and time: Wed Oct  8 06:59:37 2025
! Project name: Teste_Macro_Metasurface_Nanopilar.cst
! Parameters = {H=600; L_x=145; L_y=95; Lambda=1064; Max_L=200; Min_L=70; PathPara=1; Phi=0; Step_L=10; Theta=0; p=520; phaseX=180; phaseY=0}
! Header version: 2018
! Port assignment regex: !\s*Touchstone port\s*([0-9]+)\s*=\s*(CST MWS port|CST DS port)\s*([0-9]+|Zmin|Zmax)\s*\(\"(.*)\"\)(\s*mode\s*([0-9]+))?.*
! Touchstone port assignment:
! Touchstone port 1 = CST MWS port Zmax ("") mode 1
! Touchstone port 2 = CST MWS port Zmax ("") mode 2
! Touchstone port 3 = CST MWS port Zmin ("") mode 1
! Touchstone port 4 = CST MWS port Zmin ("") mode 2
! S-Parameters are not renormalized. Each port impedance will be approximated by the real part at minimum frequency. The values are described via the [Reference] keyword.
! Default impedance is overridden by [Reference]
[Version] 2.0
# GHz S RI R 376.73
[Number of Ports] 4
[Reference]
376.73 376.73 376.73 376.73 
[Number of Frequencies] 1001
[Network Data]
281700                 -0.165591        -0.14825      0.000237536    -8.50908e-05          -0.2124        0.948095       0.00014536    -0.000143793
                        0.000333    -0.000239976        -0.149515       -0.159372     -2.99767e-05    -0.000269962         0.234482       -0.939735
                       -0.212092        0.947833      0.000125426    -0.000150204        -0.213133       0.0639707      -0.00044202     -0.00038703
                     0.000109201    -0.000392742         0.234273       -0.939473     -0.000226919    -0.000259341        -0.208053       0.0720736
281700.1               -0.165596       -0.148243      0.000237561    -8.50941e-05        -0.212372        0.948101      0.000145349     -0.00014381
                     0.000333011    -0.000239978        -0.149521       -0.159365     -2.99794e-05    -0.000269963         0.234452       -0.939743
                       -0.212065         0.94784      0.000125398    -0.000150209        -0.213131       0.0639751     -0.000442047    -0.000387044
                     0.000109193     -0.00039273         0.234243        -0.93948     -0.000226936    -0.000259342        -0.208051       0.0720783
281700.2               -0.165601       -0.148236      0.000237585    -8.50973e-05        -0.212345        0.948107      0.000145338    -0.000143827
                     0.000333022     -0.00023998        -0.149527       -0.159359     -2.99822e-05    -0.000269964         0.234421        -0.93975
                       -0.212037        0.947846      0.000125371    -0.000150213        -0.213129       0.0639796     -0.000442075    -0.000387058
                     0.000109184    -0.000392719         0.234213       -0.939488     -0.000226952    -0.000259344        -0.208048       0.0720829
281700.3               -0.165605        -0.14823       0.00023761    -8.51006e-05        -0.212317        0.948114      0.000145327    -0.000143845
                     0.000333033    -0.000239983        -0.149533       -0.159352     -2.99849e-05    -0.000269965         0.234391       -0.939758
                        -0.21201        0.947852      0.000125344    -0.000150218        -0.213126        0.063984     -0.000442102    -0.000387072
                     0.000109175    -0.000392707         0.234183       -0.939496     -0.000226969    -0.000259345        -0.208046       0.0720875
281700.4                -0.16561       -0.148223      0.000237634    -8.51038e-05         -0.21229         0.94812      0.000145316    -0.000143862
                     0.000333044    -0.000239985        -0.149538       -0.159345     -2.99876e-05    -0.000269966         0.234361       -0.939766
                       -0.211982        0.947859      0.000125316    -0.000150222        -0.213124       0.0639884      -0.00044213    -0.000387086
                     0.000109166    -0.000392696         0.234153       -0.939504     -0.000226986    -0.000259346        -0.208043       0.0720921
281700.5               -0.165614       -0.148217      0.000237659    -8.51071e-05        -0.212262        0.948127      0.000145306    -0.000143879
                     0.000333055    -0.000239988        -0.149544       -0.159339     -2.99904e-05    -0.000269968         0.234331       -0.939774
                       -0.211955        0.947865      0.000125289    -0.000150226        -0.213122       0.0639929     -0.000442157      -0.0003871
                     0.000109158    -0.000392684         0.234123       -0.939511     -0.000227002    -0.000259347        -0.208041       0.0720967
281700.6               -0.165619        -0.14821      0.000237683    -8.51103e-05        -0.212235        0.948133      0.000145295    -0.000143896
                     0.000333066     -0.00023999         -0.14955       -0.159332     -2.99931e-05    -0.000269969         0.234301       -0.939781
                       -0.211927        0.947872      0.000125262    -0.000150231        -0.213119       0.0639973     -0.000442185    -0.000387113
                     0.000109149    -0.000392673         0.234093       -0.939519     -0.000227019    -0.000259348        -0.208038       0.0721013
281700.7               -0.165623       -0.148204      0.000237708    -8.51136e-05        -0.212207        0.948139      0.000145284    -0.000143914
                     0.000333077    -0.000239992        -0.149556       -0.159326     -2.99959e-05     -0.00026997         0.234271       -0.939789
                         -0.2119        0.947878      0.000125234    -0.000150235        -0.213117       0.0640018     -0.000442212    -0.000387127
                      0.00010914    -0.000392661         0.234063       -0.939527     -0.000227035    -0.000259349        -0.208036       0.0721059
281700.8               -0.165628       -0.148197      0.000237732    -8.51169e-05         -0.21218        0.948146      0.000145273    -0.000143931
                     0.000333088    -0.000239995        -0.149562       -0.159319     -2.99986e-05    -0.000269971         0.234241       -0.939797
                       -0.211873        0.947884      0.000125207     -0.00015024        -0.213114       0.0640062      -0.00044224    -0.000387141
                     0.000109132    -0.000392649         0.234033       -0.939534     -0.000227052     -0.00025935        -0.208033       0.0721105
281700.9               -0.165632        -0.14819      0.000237757    -8.51201e-05        -0.212152        0.948152      0.000145262    -0.000143948
                     0.000333099    -0.000239997        -0.149568       -0.159312     -3.00014e-05    -0.000269972         0.234211       -0.939805
                       -0.211845        0.947891      0.000125179    -0.000150244        -0.213112       0.0640107     -0.000442267    -0.000387155
                     0.000109123    -0.000392638         0.234003       -0.939542     -0.000227069    -0.000259352        -0.208031       0.0721151
281701                 -0.165637       -0.148184      0.000237781    -8.51234e-05        -0.212125        0.948158      0.000145251    -0.000143965
                      0.00033311        -0.00024        -0.149574       -0.159306     -3.00041e-05    -0.000269974         0.234181       -0.939812
                       -0.211818        0.947897      0.000125152    -0.000150248         -0.21311       0.0640151     -0.000442295    -0.000387169
                     0.000109114    -0.000392626         0.233973        -0.93955     -0.000227085    -0.000259353        -0.208028       0.0721197
281701.1               -0.165642       -0.148177      0.000237806    -8.51266e-05        -0.212097        0.948165      0.000145241    -0.000143982
                     0.000333121    -0.000240002         -0.14958       -0.159299     -3.00069e-05    -0.000269975         0.234151        -0.93982
                        -0.21179        0.947903      0.000125125    -0.000150253        -0.213107       0.0640195     -0.000442322    -0.000387183
                     0.000109106    -0.000392615         0.233943       -0.939558     -0.000227102    -0.000259354        -0.208026       0.0721243
281701.2               -0.165646       -0.148171       0.00023783    -8.51299e-05         -0.21207        0.948171       0.00014523       -0.000144
                     0.000333132    -0.000240005        -0.149585       -0.159292     -3.00097e-05    -0.000269976         0.234121       -0.939828
                       -0.211763         0.94791      0.000125097    -0.000150257        -0.213105        0.064024      -0.00044235    -0.000387196
                     0.000109097    -0.000392603         0.233913       -0.939565     -0.000227118    -0.000259355        -0.208023       0.0721289
281701.3               -0.165651       -0.148164      0.000237855    -8.51332e-05        -0.212042        0.948178      0.000145219    -0.000144017
                     0.000333143    -0.000240007        -0.149591       -0.159286     -3.00124e-05    -0.000269977         0.234091       -0.939835
                       -0.211735        0.947916       0.00012507    -0.000150261        -0.213103       0.0640284     -0.000442377     -0.00038721
                     0.000109088    -0.000392592         0.233882       -0.939573     -0.000227135    -0.000259356        -0.208021       0.0721336
281701.4               -0.165655       -0.148157      0.000237879    -8.51364e-05        -0.212015        0.948184      0.000145208    -0.000144034
                     0.000333154    -0.000240009        -0.149597       -0.159279     -3.00152e-05    -0.000269979         0.234061       -0.939843
                       -0.211708        0.947922      0.000125043    -0.000150266          -0.2131       0.0640329     -0.000442405    -0.000387224
                      0.00010908     -0.00039258         0.233852       -0.939581     -0.000227152    -0.000259357        -0.208018       0.0721382
281701.5                -0.16566       -0.148151      0.000237904    -8.51397e-05        -0.211987         0.94819      0.000145197    -0.000144051
                     0.000333164    -0.000240012        -0.149603       -0.159273      -3.0018e-05     -0.00026998         0.234031       -0.939851
                        -0.21168        0.947929      0.000125015     -0.00015027        -0.213098       0.0640373     -0.000442432    -0.000387238
                     0.000109071    -0.000392569         0.233822       -0.939588     -0.000227168    -0.000259359        -0.208016       0.0721428
281701.6               -0.165664       -0.148144      0.000237928    -8.51429e-05         -0.21196        0.948197      0.000145186    -0.000144069
                     0.000333175    -0.000240014        -0.149609       -0.159266     -3.00207e-05    -0.000269981         0.234001       -0.939859
                       -0.211653        0.947935      0.000124988    -0.000150275        -0.213095       0.0640417      -0.00044246    -0.000387252
                     0.000109062    -0.000392557         0.233792       -0.939596     -0.000227185     -0.00025936        -0.208013       0.0721474
281701.7               -0.165669       -0.148138      0.000237952    -8.51462e-05        -0.211932        0.948203      0.000145176    -0.000144086
                     0.000333186    -0.000240017        -0.149615       -0.159259     -3.00235e-05    -0.000269982         0.233971       -0.939866
                       -0.211625        0.947941       0.00012496    -0.000150279        -0.213093       0.0640462     -0.000442487    -0.000387266
                     0.000109054    -0.000392546         0.233762       -0.939604     -0.000227201    -0.000259361        -0.208011        0.072152
281701.8               -0.165674       -0.148131      0.000237977    -8.51495e-05        -0.211905        0.948209      0.000145165    -0.000144103
                     0.000333197    -0.000240019        -0.149621       -0.159253     -3.00263e-05    -0.000269983          0.23394       -0.939874
                       -0.211598        0.947948      0.000124933    -0.000150283        -0.213091       0.0640506     -0.000442515    -0.000387279
                     0.000109045    -0.000392534         0.233732       -0.939611     -0.000227218    -0.000259362        -0.208008       0.0721566
281701.9               -0.165678       -0.148125      0.000238001    -8.51528e-05        -0.211877        0.948216      0.000145154     -0.00014412
                     0.000333208    -0.000240022        -0.149626       -0.159246     -3.00291e-05    -0.000269985          0.23391       -0.939882
                        -0.21157        0.947954      0.000124906    -0.000150288        -0.213088       0.0640551     -0.000442542    -0.000387293
                     0.000109036    -0.000392522         0.233702       -0.939619     -0.000227234    -0.000259363        -0.208005       0.0721612
281702                 -0.165683       -0.148118      0.000238026     -8.5156e-05         -0.21185        0.948222      0.000145143    -0.000144137
                     0.000333219    -0.000240024        -0.149632       -0.159239     -3.00318e-05    -0.000269986          0.23388       -0.939889
                       -0.211543        0.947961      0.000124878    -0.000150292        -0.213086       0.0640595      -0.00044257    -0.000387307
                     0.000109028    -0.000392511         0.233672       -0.939627     -0.000227251    -0.000259364        -0.208003       0.0721658
281702.1               -0.165687       -0.148111       0.00023805    -8.51593e-05        -0.211822        0.948228      0.000145132    -0.000144155
                      0.00033323    -0.000240026        -0.149638       -0.159233     -3.00346e-05    -0.000269987          0.23385       -0.939897
                       -0.211515        0.947967      0.000124851    -0.000150297        -0.213084       0.0640639     -0.000442597    -0.000387321
                     0.000109019    -0.000392499         0.233642       -0.939634     -0.000227268    -0.000259365           -0.208       0.0721704
281702.2               -0.165692       -0.148105      0.000238075    -8.51626e-05        -0.211795        0.948235      0.000145121    -0.000144172
                     0.000333241    -0.000240029        -0.149644       -0.159226     -3.00374e-05    -0.000269988          0.23382       -0.939905
                       -0.211488        0.947973      0.000124823    -0.000150301        -0.213081       0.0640684     -0.000442625    -0.000387335
                      0.00010901    -0.000392488         0.233612       -0.939642     -0.000227284    -0.000259367        -0.207998        0.072175
281702.3               -0.165696       -0.148098      0.000238099    -8.51658e-05        -0.211768        0.948241      0.000145111    -0.000144189
                     0.000333252    -0.000240031         -0.14965        -0.15922     -3.00402e-05    -0.000269989          0.23379       -0.939912
                        -0.21146         0.94798      0.000124796    -0.000150306        -0.213079       0.0640728     -0.000442652    -0.000387348
                     0.000109002    -0.000392476         0.233582        -0.93965     -0.000227301    -0.000259368        -0.207995       0.0721796
281702.4               -0.165701       -0.148092      0.000238124    -8.51691e-05         -0.21174        0.948248        0.0001451    -0.000144206
                     0.000333263    -0.000240034        -0.149656       -0.159213      -3.0043e-05    -0.000269991          0.23376        -0.93992
                       -0.211433        0.947986      0.000124769     -0.00015031        -0.213076       0.0640773     -0.000442679    -0.000387362
                     0.000108993    -0.000392465         0.233552       -0.939658     -0.000227317    -0.000259369        -0.207993       0.0721842
281702.5               -0.165705       -0.148085      0.000238148    -8.51724e-05        -0.211713        0.948254      0.000145089    -0.000144224
                     0.000333274    -0.000240036        -0.149662       -0.159206     -3.00458e-05    -0.000269992          0.23373       -0.939928
                       -0.211405        0.947992      0.000124741    -0.000150314        -0.213074       0.0640817     -0.000442707    -0.000387376
                     0.000108984    -0.000392453         0.233522       -0.939665     -0.000227334     -0.00025937         -0.20799       0.0721888
281702.6                -0.16571       -0.148079      0.000238173    -8.51757e-05        -0.211685         0.94826      0.000145078    -0.000144241
                     0.000333285    -0.000240039        -0.149667         -0.1592     -3.00486e-05    -0.000269993           0.2337       -0.939936
                       -0.211378        0.947999      0.000124714    -0.000150319        -0.213072       0.0640861     -0.000442734     -0.00038739
                     0.000108976    -0.000392442         0.233492       -0.939673      -0.00022735    -0.000259371        -0.207988       0.0721934
281702.7               -0.165715       -0.148072      0.000238197     -8.5179e-05        -0.211658        0.948267      0.000145067    -0.000144258
                     0.000333295    -0.000240041        -0.149673       -0.159193     -3.00513e-05    -0.000269994          0.23367       -0.939943
                        -0.21135        0.948005      0.000124687    -0.000150323        -0.213069       0.0640906     -0.000442762    -0.000387404
                     0.000108967     -0.00039243         0.233462       -0.939681     -0.000227367    -0.000259372        -0.207985       0.0721981
281702.8               -0.165719       -0.148065      0.000238221    -8.51823e-05         -0.21163        0.948273      0.000145057    -0.000144275
                     0.000333306    -0.000240044        -0.149679       -0.159186     -3.00541e-05    -0.000269996          0.23364       -0.939951
                       -0.211323        0.948011      0.000124659    -0.000150328        -0.213067        0.064095     -0.000442789    -0.000387417
                     0.000108958    -0.000392418         0.233431       -0.939688     -0.000227383    -0.000259373        -0.207983       0.0722027
281702.9               -0.165724       -0.148059      0.000238246    -8.51855e-05        -0.211603        0.948279      0.000145046    -0.000144292
                     0.000333317    -0.000240046        -0.149685        -0.15918     -3.00569e-05    -0.000269997          0.23361       -0.939959
                       -0.211295        0.948018      0.000124632    -0.000150332        -0.213065       0.0640995     -0.000442817    -0.000387431
                      0.00010895    -0.000392407         0.233401       -0.939696       -0.0002274    -0.000259375         -0.20798       0.0722073
281703                 -0.165728       -0.148052       0.00023827    -8.51888e-05        -0.211575        0.948286      0.000145035     -0.00014431
                     0.000333328    -0.000240049        -0.149691       -0.159173     -3.00597e-05    -0.000269998          0.23358       -0.939966
                       -0.211268        0.948024      0.000124604    -0.000150336        -0.213062       0.0641039     -0.000442844    -0.000387445
                     0.000108941    -0.000392395         0.233371       -0.939704     -0.000227417    -0.000259376        -0.207978       0.0722119
281703.1               -0.165733       -0.148046      0.000238295    -8.51921e-05        -0.211548        0.948292      0.000145024    -0.000144327
                     0.000333339    -0.000240051        -0.149697       -0.159167     -3.00626e-05    -0.000269999          0.23355       -0.939974
                        -0.21124         0.94803      0.000124577    -0.000150341         -0.21306       0.0641083     -0.000442871    -0.000387459
