! TOUCHSTONE file generated by CST MICROWAVE STUDIO
! Date and time: Wed Oct  8 07:02:05 2025
! Project name: Teste_Macro_Metasurface_Nanopilar.cst
! Parameters = {H=600; L_x=165; L_y=110; Lambda=1064; Max_L=200; Min_L=70; PathPara=1; Phi=0; Step_L=10; Theta=0; p=520; phaseX=180; phaseY=0}
! Header version: 2018
! Port assignment regex: !\s*Touchstone port\s*([0-9]+)\s*=\s*(CST MWS port|CST DS port)\s*([0-9]+|Zmin|Zmax)\s*\(\"(.*)\"\)(\s*mode\s*([0-9]+))?.*
! Touchstone port assignment:
! Touchstone port 1 = CST MWS port Zmax ("") mode 1
! Touchstone port 2 = CST MWS port Zmax ("") mode 2
! Touchstone port 3 = CST MWS port Zmin ("") mode 1
! Touchstone port 4 = CST MWS port Zmin ("") mode 2
! S-Parameters are not renormalized. Each port impedance will be approximated by the real part at minimum frequency. The values are described via the [Reference] keyword.
! Default impedance is overridden by [Reference]
[Version] 2.0
# GHz S RI R 376.73
[Number of Ports] 4
[Reference]
376.73 376.73 376.73 376.73 
[Number of Frequencies] 1001
[Network Data]
281700                -0.0459126       -0.149815     -0.000246391     0.000316379         0.802594       -0.559629     -0.000160051    -0.000621228
                    -0.000262998     0.000508966        -0.122672       -0.294269      5.27052e-05     0.000426877        -0.890037       -0.293664
                        0.802473       -0.559442      0.000130826     0.000311101         -0.12774      -0.0919879      -0.00062026    -0.000565862
                    -0.000208948    -0.000595355        -0.889838       -0.293928     -0.000587753    -0.000486366         0.259773        -0.17375
281700.1              -0.0459208       -0.149818     -0.000246359     0.000316389         0.802574       -0.559656     -0.000160078    -0.000621232
                    -0.000262964     0.000508969        -0.122678        -0.29428      5.27374e-05     0.000426878        -0.890045       -0.293625
                        0.802453       -0.559469      0.000130845       0.0003111        -0.127746      -0.0919877     -0.000620288    -0.000565849
                    -0.000208984    -0.000595343        -0.889845        -0.29389     -0.000587791    -0.000486341          0.25977       -0.173777
281700.2              -0.0459289        -0.14982     -0.000246326     0.000316399         0.802555       -0.559683     -0.000160104    -0.000621237
                     -0.00026293     0.000508973        -0.122685       -0.294291      5.27696e-05     0.000426879        -0.890052       -0.293587
                        0.802433       -0.559496      0.000130863     0.000311099        -0.127751      -0.0919876     -0.000620315    -0.000565837
                     -0.00020902    -0.000595332        -0.889853       -0.293852     -0.000587829    -0.000486315         0.259767       -0.173804
281700.3               -0.045937       -0.149822     -0.000246294     0.000316408         0.802535        -0.55971      -0.00016013    -0.000621242
                    -0.000262896     0.000508976        -0.122691       -0.294302      5.28019e-05      0.00042688         -0.89006       -0.293549
                        0.802413       -0.559524      0.000130881     0.000311098        -0.127757      -0.0919874     -0.000620343    -0.000565825
                    -0.000209056    -0.000595321        -0.889861       -0.293813     -0.000587868     -0.00048629         0.259764       -0.173832
281700.4              -0.0459452       -0.149824     -0.000246261     0.000316418         0.802515       -0.559737     -0.000160156    -0.000621247
                    -0.000262862     0.000508979        -0.122698       -0.294313      5.28341e-05     0.000426881        -0.890068        -0.29351
                        0.802394       -0.559551      0.000130899     0.000311097        -0.127763      -0.0919872     -0.000620371    -0.000565813
                    -0.000209092    -0.000595309        -0.889869       -0.293775     -0.000587906    -0.000486265         0.259761       -0.173859
281700.5              -0.0459533       -0.149827     -0.000246229     0.000316428         0.802496       -0.559764     -0.000160182    -0.000621252
                    -0.000262828     0.000508982        -0.122704       -0.294323      5.28663e-05     0.000426882        -0.890076       -0.293472
                        0.802374       -0.559578      0.000130917     0.000311096        -0.127768      -0.0919871     -0.000620398    -0.000565801
                    -0.000209128    -0.000595298        -0.889876       -0.293737     -0.000587945    -0.000486239         0.259758       -0.173887
281700.6              -0.0459614       -0.149829     -0.000246196     0.000316437         0.802476       -0.559791     -0.000160208    -0.000621257
                    -0.000262795     0.000508985        -0.122711       -0.294334      5.28986e-05     0.000426883        -0.890083       -0.293433
                        0.802354       -0.559605      0.000130936     0.000311094        -0.127774      -0.0919869     -0.000620426    -0.000565789
                    -0.000209164    -0.000595287        -0.889884       -0.293698     -0.000587983    -0.000486214         0.259755       -0.173914
281700.7              -0.0459696       -0.149831     -0.000246163     0.000316447         0.802456       -0.559818     -0.000160234    -0.000621262
                    -0.000262761     0.000508988        -0.122718       -0.294345      5.29308e-05     0.000426884        -0.890091       -0.293395
                        0.802335       -0.559632      0.000130954     0.000311093        -0.127779      -0.0919867     -0.000620453    -0.000565777
                      -0.0002092    -0.000595275        -0.889892        -0.29366     -0.000588022    -0.000486189         0.259752       -0.173941
281700.8              -0.0459777       -0.149833      -0.00024613     0.000316457         0.802436       -0.559845      -0.00016026    -0.000621266
                    -0.000262727     0.000508991        -0.122724       -0.294356       5.2963e-05     0.000426885        -0.890099       -0.293357
                        0.802315       -0.559659      0.000130972     0.000311092        -0.127785      -0.0919865     -0.000620481    -0.000565765
                    -0.000209236    -0.000595264          -0.8899       -0.293622      -0.00058806    -0.000486164         0.259749       -0.173969
281700.9              -0.0459858       -0.149836     -0.000246098     0.000316466         0.802417       -0.559873     -0.000160287    -0.000621271
                    -0.000262693     0.000508994        -0.122731       -0.294367      5.29953e-05     0.000426887        -0.890107       -0.293318
                        0.802295       -0.559686       0.00013099     0.000311091        -0.127791      -0.0919864     -0.000620509    -0.000565753
                    -0.000209272    -0.000595253        -0.889907       -0.293583     -0.000588098    -0.000486138         0.259746       -0.173996
281701                 -0.045994       -0.149838     -0.000246065     0.000316476         0.802397         -0.5599     -0.000160313    -0.000621276
                    -0.000262659     0.000508997        -0.122737       -0.294378      5.30275e-05     0.000426888        -0.890114        -0.29328
                        0.802276       -0.559713      0.000131009      0.00031109        -0.127796      -0.0919862     -0.000620536    -0.000565741
                    -0.000209308    -0.000595241        -0.889915       -0.293545     -0.000588137    -0.000486113         0.259743       -0.174024
281701.1              -0.0460021        -0.14984     -0.000246032     0.000316486         0.802377       -0.559927     -0.000160339    -0.000621281
                    -0.000262625        0.000509        -0.122744       -0.294389      5.30598e-05     0.000426889        -0.890122       -0.293242
                        0.802256        -0.55974      0.000131027     0.000311089        -0.127802       -0.091986     -0.000620564    -0.000565729
                    -0.000209344     -0.00059523        -0.889923       -0.293507     -0.000588175    -0.000486088          0.25974       -0.174051
281701.2              -0.0460102       -0.149842     -0.000245999     0.000316496         0.802358       -0.559954     -0.000160365    -0.000621286
                    -0.000262592     0.000509004         -0.12275         -0.2944      5.30921e-05      0.00042689         -0.89013       -0.293203
                        0.802236       -0.559767      0.000131045     0.000311089        -0.127808      -0.0919858     -0.000620591    -0.000565717
                     -0.00020938    -0.000595219        -0.889931       -0.293468     -0.000588214    -0.000486062         0.259737       -0.174079
281701.3              -0.0460183       -0.149845     -0.000245966     0.000316505         0.802338       -0.559981     -0.000160391    -0.000621291
                    -0.000262558     0.000509007        -0.122757       -0.294411      5.31243e-05     0.000426891        -0.890138       -0.293165
                        0.802216       -0.559794      0.000131063     0.000311088        -0.127813      -0.0919857     -0.000620619    -0.000565705
                    -0.000209415    -0.000595207        -0.889939        -0.29343     -0.000588252    -0.000486037         0.259734       -0.174106
281701.4              -0.0460265       -0.149847     -0.000245934     0.000316515         0.802318       -0.560008     -0.000160417    -0.000621296
                    -0.000262524      0.00050901        -0.122763       -0.294421      5.31566e-05     0.000426892        -0.890145       -0.293127
                        0.802197       -0.559821      0.000131082     0.000311087        -0.127819      -0.0919855     -0.000620647    -0.000565693
                    -0.000209451    -0.000595196        -0.889946       -0.293392     -0.000588291    -0.000486012         0.259731       -0.174133
281701.5              -0.0460346       -0.149849     -0.000245901     0.000316525         0.802298       -0.560035     -0.000160443      -0.0006213
                     -0.00026249     0.000509013         -0.12277       -0.294432      5.31888e-05     0.000426893        -0.890153       -0.293088
                        0.802177       -0.559848        0.0001311     0.000311086        -0.127824      -0.0919853     -0.000620674    -0.000565681
                    -0.000209487    -0.000595185        -0.889954       -0.293353     -0.000588329    -0.000485987         0.259728       -0.174161
281701.6              -0.0460427       -0.149851     -0.000245868     0.000316535         0.802279       -0.560062      -0.00016047    -0.000621305
                    -0.000262456     0.000509016        -0.122776       -0.294443      5.32211e-05     0.000426894        -0.890161        -0.29305
                        0.802157       -0.559875      0.000131118     0.000311085         -0.12783      -0.0919851     -0.000620702    -0.000565668
                    -0.000209523    -0.000595173        -0.889962       -0.293315     -0.000588368    -0.000485961         0.259725       -0.174188
281701.7              -0.0460509       -0.149854     -0.000245835     0.000316545         0.802259       -0.560089     -0.000160496     -0.00062131
                    -0.000262423     0.000509019        -0.122783       -0.294454      5.32534e-05     0.000426895        -0.890169       -0.293012
                        0.802138       -0.559902      0.000131137     0.000311084        -0.127836       -0.091985     -0.000620729    -0.000565656
                    -0.000209559    -0.000595162         -0.88997       -0.293277     -0.000588406    -0.000485936         0.259722       -0.174216
281701.8               -0.046059       -0.149856     -0.000245802     0.000316555         0.802239       -0.560116     -0.000160522    -0.000621315
                    -0.000262389     0.000509022         -0.12279       -0.294465      5.32856e-05     0.000426896        -0.890176       -0.292973
                        0.802118       -0.559929      0.000131155     0.000311083        -0.127841      -0.0919848     -0.000620757    -0.000565644
                    -0.000209595    -0.000595151        -0.889977       -0.293238     -0.000588445    -0.000485911         0.259719       -0.174243
281701.9              -0.0460671       -0.149858     -0.000245769     0.000316565          0.80222       -0.560143     -0.000160548     -0.00062132
                    -0.000262355     0.000509025        -0.122796       -0.294476      5.33179e-05     0.000426897        -0.890184       -0.292935
                        0.802098       -0.559956      0.000131173     0.000311082        -0.127847      -0.0919846     -0.000620785    -0.000565632
                    -0.000209631    -0.000595139        -0.889985         -0.2932     -0.000588483    -0.000485885         0.259716        -0.17427
281702                -0.0460753        -0.14986     -0.000245736     0.000316575           0.8022        -0.56017     -0.000160574    -0.000621325
                    -0.000262321     0.000509028        -0.122803       -0.294487      5.33502e-05     0.000426898        -0.890192       -0.292896
                        0.802079       -0.559984      0.000131192     0.000311081        -0.127853      -0.0919844     -0.000620812     -0.00056562
                    -0.000209667    -0.000595128        -0.889993       -0.293162     -0.000588522     -0.00048586         0.259713       -0.174298
281702.1              -0.0460834       -0.149862     -0.000245703     0.000316584          0.80218       -0.560197       -0.0001606     -0.00062133
                    -0.000262287     0.000509031        -0.122809       -0.294498      5.33825e-05     0.000426899          -0.8902       -0.292858
                        0.802059       -0.560011       0.00013121      0.00031108        -0.127858      -0.0919842      -0.00062084    -0.000565608
                    -0.000209703    -0.000595117        -0.890001       -0.293123      -0.00058856    -0.000485835          0.25971       -0.174325
281702.2              -0.0460915       -0.149865     -0.000245669     0.000316594          0.80216       -0.560224     -0.000160627    -0.000621334
                    -0.000262253     0.000509035        -0.122816       -0.294509      5.34148e-05       0.0004269        -0.890207        -0.29282
                        0.802039       -0.560038      0.000131228      0.00031108        -0.127864      -0.0919841     -0.000620867    -0.000565596
                    -0.000209739    -0.000595105        -0.890008       -0.293085     -0.000588599    -0.000485809         0.259707       -0.174353
281702.3              -0.0460997       -0.149867     -0.000245636     0.000316604         0.802141       -0.560251     -0.000160653    -0.000621339
                     -0.00026222     0.000509038        -0.122822       -0.294519      5.34471e-05     0.000426901        -0.890215       -0.292781
                        0.802019       -0.560065      0.000131247     0.000311079         -0.12787      -0.0919839     -0.000620895    -0.000565584
                    -0.000209775    -0.000595094        -0.890016       -0.293047     -0.000588637    -0.000485784         0.259704        -0.17438
281702.4              -0.0461078       -0.149869     -0.000245603     0.000316614         0.802121       -0.560278     -0.000160679    -0.000621344
                    -0.000262186     0.000509041        -0.122829        -0.29453      5.34793e-05     0.000426902        -0.890223       -0.292743
                           0.802       -0.560092      0.000131265     0.000311078        -0.127875      -0.0919837     -0.000620923    -0.000565571
                     -0.00020981    -0.000595083        -0.890024       -0.293008     -0.000588676    -0.000485759         0.259701       -0.174408
281702.5              -0.0461159       -0.149871      -0.00024557     0.000316624         0.802101       -0.560305     -0.000160705    -0.000621349
                    -0.000262152     0.000509044        -0.122835       -0.294541      5.35116e-05     0.000426904        -0.890231       -0.292705
                         0.80198       -0.560119      0.000131284     0.000311077        -0.127881      -0.0919835      -0.00062095    -0.000565559
                    -0.000209846    -0.000595071        -0.890031        -0.29297     -0.000588714    -0.000485733         0.259698       -0.174435
281702.6              -0.0461241       -0.149874     -0.000245537     0.000316634         0.802082       -0.560332     -0.000160731    -0.000621354
                    -0.000262118     0.000509047        -0.122842       -0.294552      5.35439e-05     0.000426905        -0.890238       -0.292666
                         0.80196       -0.560146      0.000131302     0.000311076        -0.127886      -0.0919834     -0.000620978    -0.000565547
                    -0.000209882     -0.00059506        -0.890039       -0.292932     -0.000588753    -0.000485708         0.259695       -0.174462
281702.7              -0.0461322       -0.149876     -0.000245504     0.000316644         0.802062       -0.560359     -0.000160758    -0.000621359
                    -0.000262084      0.00050905        -0.122849       -0.294563      5.35762e-05     0.000426906        -0.890246       -0.292628
                        0.801941       -0.560173       0.00013132     0.000311076        -0.127892      -0.0919832     -0.000621006    -0.000565535
                    -0.000209918    -0.000595049        -0.890047       -0.292893     -0.000588791    -0.000485683         0.259692        -0.17449
281702.8              -0.0461403       -0.149878      -0.00024547     0.000316654         0.802042       -0.560386     -0.000160784    -0.000621364
                    -0.000262051     0.000509053        -0.122855       -0.294574      5.36085e-05     0.000426907        -0.890254        -0.29259
                        0.801921         -0.5602      0.000131339     0.000311075        -0.127898       -0.091983     -0.000621033    -0.000565523
                    -0.000209954    -0.000595037        -0.890055       -0.292855      -0.00058883    -0.000485657         0.259689       -0.174517
281702.9              -0.0461485        -0.14988     -0.000245437     0.000316665         0.802022       -0.560413      -0.00016081    -0.000621368
                    -0.000262017     0.000509056        -0.122862       -0.294585      5.36408e-05     0.000426908        -0.890261       -0.292551
                        0.801901       -0.560227      0.000131357     0.000311074        -0.127903      -0.0919828     -0.000621061    -0.000565511
                     -0.00020999    -0.000595026        -0.890062       -0.292816     -0.000588868    -0.000485632         0.259685       -0.174545
281703                -0.0461566       -0.149882     -0.000245404     0.000316675         0.802003        -0.56044     -0.000160836    -0.000621373
                    -0.000261983     0.000509059        -0.122868       -0.294596      5.36731e-05     0.000426909        -0.890269       -0.292513
                        0.801881       -0.560254      0.000131376     0.000311073        -0.127909      -0.0919826     -0.000621088    -0.000565499
                    -0.000210026    -0.000595015         -0.89007       -0.292778     -0.000588907    -0.000485607         0.259682       -0.174572
281703.1              -0.0461648       -0.149885      -0.00024537     0.000316685         0.801983       -0.560467     -0.000160862    -0.000621378
                    -0.000261949     0.000509062        -0.122875       -0.294607      5.37055e-05      0.00042691        -0.890277       -0.292474
                        0.801862       -0.560281      0.000131394     0.000311073        -0.127915      -0.0919824     -0.000621116    -0.000565486
