! TOUCHSTONE file generated by CST MICROWAVE STUDIO
! Date and time: Wed Oct  8 06:55:02 2025
! Project name: Teste_Macro_Metasurface_Nanopilar.cst
! Parameters = {H=600; L_x=105; L_y=140; Lambda=1064; Max_L=200; Min_L=70; PathPara=1; Phi=0; Step_L=10; Theta=0; p=520; phaseX=180; phaseY=0}
! Header version: 2018
! Port assignment regex: !\s*Touchstone port\s*([0-9]+)\s*=\s*(CST MWS port|CST DS port)\s*([0-9]+|Zmin|Zmax)\s*\(\"(.*)\"\)(\s*mode\s*([0-9]+))?.*
! Touchstone port assignment:
! Touchstone port 1 = CST MWS port Zmax ("") mode 1
! Touchstone port 2 = CST MWS port Zmax ("") mode 2
! Touchstone port 3 = CST MWS port Zmin ("") mode 1
! Touchstone port 4 = CST MWS port Zmin ("") mode 2
! S-Parameters are not renormalized. Each port impedance will be approximated by the real part at minimum frequency. The values are described via the [Reference] keyword.
! Default impedance is overridden by [Reference]
[Version] 2.0
# GHz S RI R 376.73
[Number of Ports] 4
[Reference]
376.73 376.73 376.73 376.73 
[Number of Frequencies] 1001
[Network Data]
281700                  -0.19007       -0.127793     -0.000403156    -0.000272368         0.103724       -0.960529     -2.56648e-05    -0.000305455
                    -0.000223003    -0.000284871        -0.177833       0.0883799     -0.000159128    -0.000165972         0.625288        0.745055
                        0.103903       -0.960757     -0.000208486     -0.00024379        -0.213856        0.085273     -1.66041e-05    -0.000266707
                     2.58274e-05    -0.000282747         0.625474        0.745265      2.54927e-05    -0.000272762        -0.120065        0.158807
281700.1               -0.190074       -0.127785     -0.000403171    -0.000272369         0.103694       -0.960533     -2.56814e-05    -0.000305457
                    -0.000223024    -0.000284873        -0.177826       0.0883841     -0.000159134    -0.000165968         0.625313        0.745035
                        0.103873        -0.96076      -0.00020849    -0.000243782        -0.213853       0.0852779     -1.66136e-05    -0.000266718
                     2.58151e-05    -0.000282745         0.625499        0.745245      2.54837e-05    -0.000272768        -0.120057        0.158807
281700.2               -0.190077       -0.127777     -0.000403185    -0.000272371         0.103664       -0.960536      -2.5698e-05     -0.00030546
                    -0.000223044    -0.000284875        -0.177819       0.0883882     -0.000159139    -0.000165964         0.625339        0.745015
                        0.103842       -0.960764     -0.000208493    -0.000243774         -0.21385       0.0852828     -1.66231e-05    -0.000266729
                     2.58028e-05    -0.000282742         0.625524        0.745225      2.54747e-05    -0.000272774        -0.120049        0.158807
281700.3               -0.190081       -0.127769       -0.0004032    -0.000272372         0.103634        -0.96054     -2.57146e-05    -0.000305463
                    -0.000223065    -0.000284878        -0.177812       0.0883924     -0.000159145    -0.000165961         0.625364        0.744995
                        0.103812       -0.960767     -0.000208497    -0.000243767        -0.213847       0.0852877     -1.66326e-05    -0.000266739
                     2.57905e-05     -0.00028274         0.625549        0.745205      2.54656e-05    -0.000272779        -0.120042        0.158807
281700.4               -0.190085       -0.127762     -0.000403215    -0.000272374         0.103603       -0.960544     -2.57312e-05    -0.000305465
                    -0.000223085     -0.00028488        -0.177805       0.0883966     -0.000159151    -0.000165957         0.625389        0.744975
                        0.103782       -0.960771     -0.000208501    -0.000243759        -0.213843       0.0852926     -1.66421e-05     -0.00026675
                     2.57782e-05    -0.000282738         0.625574        0.745185      2.54566e-05    -0.000272785        -0.120034        0.158807
281700.5               -0.190089       -0.127754      -0.00040323    -0.000272375         0.103573       -0.960547     -2.57479e-05    -0.000305468
                    -0.000223106    -0.000284882        -0.177797       0.0884008     -0.000159157    -0.000165953         0.625414        0.744955
                        0.103751       -0.960774     -0.000208504    -0.000243751         -0.21384       0.0852975     -1.66516e-05     -0.00026676
                     2.57659e-05    -0.000282735           0.6256        0.745165      2.54476e-05    -0.000272791        -0.120026        0.158807
281700.6               -0.190093       -0.127746     -0.000403245    -0.000272377         0.103543       -0.960551     -2.57645e-05    -0.000305471
                    -0.000223126    -0.000284885         -0.17779       0.0884049     -0.000159163    -0.000165949          0.62544        0.744935
                        0.103721       -0.960778     -0.000208508    -0.000243743        -0.213837       0.0853024     -1.66611e-05    -0.000266771
                     2.57536e-05    -0.000282733         0.625625        0.745145      2.54385e-05    -0.000272796        -0.120019        0.158807
281700.7               -0.190097       -0.127738     -0.000403259    -0.000272378         0.103512       -0.960554     -2.57811e-05    -0.000305473
                    -0.000223147    -0.000284887        -0.177783       0.0884091     -0.000159169    -0.000165945         0.625465        0.744915
                        0.103691       -0.960782     -0.000208512    -0.000243736        -0.213833       0.0853072     -1.66706e-05    -0.000266781
                     2.57413e-05    -0.000282731          0.62565        0.745125      2.54295e-05    -0.000272802        -0.120011        0.158807
281700.8               -0.190101        -0.12773     -0.000403274    -0.000272379         0.103482       -0.960558     -2.57977e-05    -0.000305476
                    -0.000223167    -0.000284889        -0.177776       0.0884133     -0.000159175    -0.000165941          0.62549        0.744895
                        0.103661       -0.960785     -0.000208515    -0.000243728         -0.21383       0.0853121     -1.66801e-05    -0.000266792
                      2.5729e-05    -0.000282728         0.625675        0.745105      2.54204e-05    -0.000272807        -0.120003        0.158807
281700.9               -0.190104       -0.127722     -0.000403289    -0.000272381         0.103452       -0.960561     -2.58143e-05    -0.000305479
                    -0.000223188    -0.000284891        -0.177769       0.0884174     -0.000159181    -0.000165937         0.625515        0.744875
                         0.10363       -0.960789     -0.000208519     -0.00024372        -0.213827        0.085317     -1.66896e-05    -0.000266802
                     2.57167e-05    -0.000282726         0.625701        0.745085      2.54114e-05    -0.000272813        -0.119996        0.158807
281701                 -0.190108       -0.127714     -0.000403304    -0.000272382         0.103421       -0.960565     -2.58309e-05    -0.000305481
                    -0.000223208    -0.000284894        -0.177762       0.0884216     -0.000159186    -0.000165933         0.625541        0.744855
                          0.1036       -0.960792     -0.000208522    -0.000243713        -0.213824       0.0853219     -1.66991e-05    -0.000266813
                     2.57044e-05    -0.000282724         0.625726        0.745065      2.54024e-05    -0.000272819        -0.119988        0.158807
281701.1               -0.190112       -0.127707     -0.000403319    -0.000272384         0.103391       -0.960569     -2.58475e-05    -0.000305484
                    -0.000223229    -0.000284896        -0.177754       0.0884258     -0.000159192     -0.00016593         0.625566        0.744835
                         0.10357       -0.960796     -0.000208526    -0.000243705         -0.21382       0.0853268     -1.67086e-05    -0.000266823
                     2.56921e-05    -0.000282722         0.625751        0.745045      2.53933e-05    -0.000272824         -0.11998        0.158807
281701.2               -0.190116       -0.127699     -0.000403334    -0.000272385         0.103361       -0.960572     -2.58642e-05    -0.000305487
                    -0.000223249    -0.000284898        -0.177747       0.0884299     -0.000159198    -0.000165926         0.625591        0.744814
                        0.103539         -0.9608      -0.00020853    -0.000243697        -0.213817       0.0853317     -1.67181e-05    -0.000266834
                     2.56798e-05    -0.000282719         0.625776        0.745025      2.53843e-05     -0.00027283        -0.119973        0.158807
281701.3                -0.19012       -0.127691     -0.000403348    -0.000272387         0.103331       -0.960576     -2.58808e-05    -0.000305489
                     -0.00022327      -0.0002849         -0.17774       0.0884341     -0.000159204    -0.000165922         0.625616        0.744794
                        0.103509       -0.960803     -0.000208533     -0.00024369        -0.213814       0.0853365     -1.67276e-05    -0.000266844
                     2.56676e-05    -0.000282717         0.625802        0.745005      2.53752e-05    -0.000272836        -0.119965        0.158807
281701.4               -0.190124       -0.127683     -0.000403363    -0.000272388           0.1033       -0.960579     -2.58974e-05    -0.000305492
                    -0.000223291    -0.000284902        -0.177733       0.0884383      -0.00015921    -0.000165918         0.625641        0.744774
                        0.103479       -0.960807     -0.000208537    -0.000243682         -0.21381       0.0853414     -1.67371e-05    -0.000266855
                     2.56553e-05    -0.000282715         0.625827        0.744985      2.53662e-05    -0.000272841        -0.119957        0.158807
281701.5               -0.190127       -0.127675     -0.000403378     -0.00027239          0.10327       -0.960583      -2.5914e-05    -0.000305495
                    -0.000223311    -0.000284905        -0.177726       0.0884424     -0.000159216    -0.000165914         0.625667        0.744754
                        0.103449        -0.96081     -0.000208541    -0.000243674        -0.213807       0.0853463     -1.67466e-05    -0.000266866
                      2.5643e-05    -0.000282712         0.625852        0.744965      2.53571e-05    -0.000272847         -0.11995        0.158807
281701.6               -0.190131       -0.127667     -0.000403393    -0.000272391          0.10324       -0.960587     -2.59306e-05    -0.000305497
                    -0.000223332    -0.000284907        -0.177718       0.0884466     -0.000159222     -0.00016591         0.625692        0.744734
                        0.103418       -0.960814     -0.000208544    -0.000243666        -0.213804       0.0853512     -1.67561e-05    -0.000266876
                     2.56307e-05     -0.00028271         0.625877        0.744945      2.53481e-05    -0.000272853        -0.119942        0.158807
281701.7               -0.190135       -0.127659     -0.000403408    -0.000272393         0.103209        -0.96059     -2.59472e-05      -0.0003055
                    -0.000223352    -0.000284909        -0.177711       0.0884508     -0.000159228    -0.000165906         0.625717        0.744714
                        0.103388       -0.960817     -0.000208548    -0.000243659        -0.213801       0.0853561     -1.67656e-05    -0.000266887
                     2.56184e-05    -0.000282708         0.625903        0.744925      2.53391e-05    -0.000272858        -0.119934        0.158807
281701.8               -0.190139       -0.127651     -0.000403422    -0.000272394         0.103179       -0.960594     -2.59638e-05    -0.000305503
                    -0.000223373    -0.000284911        -0.177704       0.0884549     -0.000159234    -0.000165903         0.625742        0.744694
                        0.103358       -0.960821     -0.000208552    -0.000243651        -0.213797        0.085361     -1.67751e-05    -0.000266897
                     2.56061e-05    -0.000282705         0.625928        0.744905        2.533e-05    -0.000272864        -0.119927        0.158807
281701.9               -0.190143       -0.127644     -0.000403437    -0.000272396         0.103149       -0.960597     -2.59804e-05    -0.000305505
                    -0.000223393    -0.000284913        -0.177697       0.0884591     -0.000159239    -0.000165899         0.625768        0.744674
                        0.103327       -0.960825     -0.000208555    -0.000243643        -0.213794       0.0853658     -1.67846e-05    -0.000266908
                     2.55938e-05    -0.000282703         0.625953        0.744885       2.5321e-05    -0.000272869        -0.119919        0.158807
281702                 -0.190147       -0.127636     -0.000403452    -0.000272397         0.103118       -0.960601     -2.59971e-05    -0.000305508
                    -0.000223414    -0.000284915         -0.17769       0.0884633     -0.000159245    -0.000165895         0.625793        0.744654
                        0.103297       -0.960828     -0.000208559    -0.000243636        -0.213791       0.0853707     -1.67941e-05    -0.000266918
                     2.55815e-05    -0.000282701         0.625978        0.744865      2.53119e-05    -0.000272875        -0.119912        0.158807
281702.1                -0.19015       -0.127628     -0.000403467    -0.000272399         0.103088       -0.960604     -2.60137e-05    -0.000305511
                    -0.000223434    -0.000284917        -0.177683       0.0884674     -0.000159251    -0.000165891         0.625818        0.744634
                        0.103267       -0.960832     -0.000208563    -0.000243628        -0.213788       0.0853756     -1.68036e-05    -0.000266929
                     2.55692e-05    -0.000282699         0.626004        0.744845      2.53029e-05    -0.000272881        -0.119904        0.158807
281702.2               -0.190154        -0.12762     -0.000403482      -0.0002724         0.103058       -0.960608     -2.60303e-05    -0.000305513
                    -0.000223455    -0.000284919        -0.177675       0.0884716     -0.000159257    -0.000165887         0.625843        0.744614
                        0.103237       -0.960835     -0.000208566     -0.00024362        -0.213784       0.0853805     -1.68131e-05    -0.000266939
                      2.5557e-05    -0.000282696         0.626029        0.744825      2.52938e-05    -0.000272886        -0.119896        0.158807
281702.3               -0.190158       -0.127612     -0.000403496    -0.000272402         0.103028       -0.960611     -2.60469e-05    -0.000305516
                    -0.000223476    -0.000284921        -0.177668       0.0884758     -0.000159263    -0.000165883         0.625869        0.744594
                        0.103206       -0.960839      -0.00020857    -0.000243612        -0.213781       0.0853854     -1.68226e-05     -0.00026695
                     2.55447e-05    -0.000282694         0.626054        0.744805      2.52848e-05    -0.000272892        -0.119889        0.158807
281702.4               -0.190162       -0.127604     -0.000403511    -0.000272403         0.102997       -0.960615     -2.60635e-05    -0.000305519
                    -0.000223496    -0.000284923        -0.177661       0.0884799     -0.000159269    -0.000165879         0.625894        0.744574
                        0.103176       -0.960842     -0.000208574    -0.000243605        -0.213778       0.0853903     -1.68321e-05    -0.000266961
                     2.55324e-05    -0.000282692         0.626079        0.744785      2.52757e-05    -0.000272898        -0.119881        0.158807
281702.5               -0.190166       -0.127596     -0.000403526    -0.000272405         0.102967       -0.960619     -2.60801e-05    -0.000305521
                    -0.000223517    -0.000284925        -0.177654       0.0884841     -0.000159275    -0.000165875         0.625919        0.744554
                        0.103146       -0.960846     -0.000208577    -0.000243597        -0.213774       0.0853951     -1.68416e-05    -0.000266971
                     2.55201e-05    -0.000282689         0.626104        0.744765      2.52667e-05    -0.000272903        -0.119873        0.158807
281702.6                -0.19017       -0.127589     -0.000403541    -0.000272406         0.102937       -0.960622     -2.60967e-05    -0.000305524
                    -0.000223537    -0.000284927        -0.177647       0.0884883     -0.000159281    -0.000165872         0.625944        0.744534
                        0.103115       -0.960849     -0.000208581    -0.000243589        -0.213771          0.0854     -1.68511e-05    -0.000266982
                     2.55078e-05    -0.000282687          0.62613        0.744745      2.52576e-05    -0.000272909        -0.119866        0.158807
281702.7               -0.190174       -0.127581     -0.000403556    -0.000272408         0.102906       -0.960626     -2.61133e-05    -0.000305527
                    -0.000223558    -0.000284929         -0.17764       0.0884924     -0.000159286    -0.000165868          0.62597        0.744514
                        0.103085       -0.960853     -0.000208584    -0.000243582        -0.213768       0.0854049     -1.68606e-05    -0.000266992
                     2.54955e-05    -0.000282685         0.626155        0.744725      2.52486e-05    -0.000272915        -0.119858        0.158807
281702.8               -0.190177       -0.127573     -0.000403571    -0.000272409         0.102876       -0.960629     -2.61299e-05     -0.00030553
                    -0.000223578    -0.000284931        -0.177632       0.0884966     -0.000159292    -0.000165864         0.625995        0.744494
                        0.103055       -0.960857     -0.000208588    -0.000243574        -0.213765       0.0854098     -1.68701e-05    -0.000267003
                     2.54833e-05    -0.000282682          0.62618        0.744705      2.52395e-05     -0.00027292         -0.11985        0.158807
281702.9               -0.190181       -0.127565     -0.000403585    -0.000272411         0.102846       -0.960633     -2.61466e-05    -0.000305532
                    -0.000223599    -0.000284933        -0.177625       0.0885007     -0.000159298     -0.00016586          0.62602        0.744474
                        0.103025        -0.96086     -0.000208592    -0.000243566        -0.213761       0.0854147     -1.68796e-05    -0.000267013
                      2.5471e-05     -0.00028268         0.626205        0.744685      2.52305e-05    -0.000272926        -0.119843        0.158807
281703                 -0.190185       -0.127557       -0.0004036    -0.000272412         0.102816       -0.960636     -2.61632e-05    -0.000305535
                    -0.000223619    -0.000284935        -0.177618       0.0885049     -0.000159304    -0.000165856         0.626045        0.744454
                        0.102994       -0.960864     -0.000208595    -0.000243558        -0.213758       0.0854195     -1.68891e-05    -0.000267024
                     2.54587e-05    -0.000282678         0.626231        0.744665      2.52214e-05    -0.000272931        -0.119835        0.158808
281703.1               -0.190189       -0.127549     -0.000403615    -0.000272414         0.102785        -0.96064     -2.61798e-05    -0.000305538
                     -0.00022364    -0.000284937        -0.177611       0.0885091      -0.00015931    -0.000165852          0.62607        0.744434
                        0.102964       -0.960867     -0.000208599    -0.000243551        -0.213755       0.0854244     -1.68986e-05    -0.000267034
