! TOUCHSTONE file generated by CST MICROWAVE STUDIO
! Date and time: Wed Oct  8 07:04:22 2025
! Project name: Teste_Macro_Metasurface_Nanopilar.cst
! Parameters = {H=600; L_x=185; L_y=90; Lambda=1064; Max_L=200; Min_L=70; PathPara=1; Phi=0; Step_L=10; Theta=0; p=520; phaseX=180; phaseY=0}
! Header version: 2018
! Port assignment regex: !\s*Touchstone port\s*([0-9]+)\s*=\s*(CST MWS port|CST DS port)\s*([0-9]+|Zmin|Zmax)\s*\(\"(.*)\"\)(\s*mode\s*([0-9]+))?.*
! Touchstone port assignment:
! Touchstone port 1 = CST MWS port Zmax ("") mode 1
! Touchstone port 2 = CST MWS port Zmax ("") mode 2
! Touchstone port 3 = CST MWS port Zmin ("") mode 1
! Touchstone port 4 = CST MWS port Zmin ("") mode 2
! S-Parameters are not renormalized. Each port impedance will be approximated by the real part at minimum frequency. The values are described via the [Reference] keyword.
! Default impedance is overridden by [Reference]
[Version] 2.0
# GHz S RI R 376.73
[Number of Ports] 4
[Reference]
376.73 376.73 376.73 376.73 
[Number of Frequencies] 1001
[Network Data]
281700                 -0.177364       -0.133384     -0.000794245     0.000328544        -0.075458        0.968336      0.000873148    -0.000132967
                    -0.000850679     0.000281906         -0.18465       -0.384946     -0.000128451     0.000799276        -0.869414          -0.205
                      -0.0755923        0.968369      2.04684e-05     0.000607127        -0.195918        0.104341      0.000360747    -0.000834673
                     0.000927825    -5.88979e-05        -0.869968       -0.205121      0.000390974    -0.000928838         0.322555       -0.271276
281700.1               -0.177367       -0.133376     -0.000794239     0.000328587       -0.0754295        0.968338      0.000873158    -0.000133018
                    -0.000850682     0.000281959         -0.18466       -0.384955      -0.00012843     0.000799301        -0.869416       -0.204962
                      -0.0755639        0.968371      2.04824e-05     0.000607138        -0.195914        0.104345      0.000360723    -0.000834701
                     0.000927828    -5.89646e-05         -0.86997       -0.205084      0.000390963    -0.000928872         0.322546       -0.271306
281700.2                -0.17737       -0.133369     -0.000794233      0.00032863       -0.0754011        0.968341      0.000873168    -0.000133069
                    -0.000850685     0.000282012        -0.184671       -0.384963     -0.000128409     0.000799327        -0.869419       -0.204924
                      -0.0755354        0.968374      2.04964e-05      0.00060715         -0.19591        0.104349      0.000360698    -0.000834729
                     0.000927832    -5.90313e-05        -0.869973       -0.205046      0.000390952    -0.000928905         0.322536       -0.271337
281700.3               -0.177373       -0.133362     -0.000794228     0.000328674       -0.0753727        0.968343      0.000873178    -0.000133121
                    -0.000850688     0.000282065        -0.184681       -0.384971     -0.000128388     0.000799352        -0.869422       -0.204887
                       -0.075507        0.968376      2.05105e-05     0.000607161        -0.195905        0.104353      0.000360673    -0.000834757
                     0.000927836     -5.9098e-05        -0.869976       -0.205009      0.000390941    -0.000928938         0.322526       -0.271367
281700.4               -0.177376       -0.133354     -0.000794222     0.000328717       -0.0753442        0.968346      0.000873188    -0.000133172
                    -0.000850691     0.000282118        -0.184692        -0.38498     -0.000128367     0.000799378        -0.869424       -0.204849
                      -0.0754786        0.968379      2.05245e-05     0.000607173        -0.195901        0.104357      0.000360648    -0.000834786
                      0.00092784    -5.91647e-05        -0.869979       -0.204971       0.00039093    -0.000928972         0.322517       -0.271398
281700.5               -0.177379       -0.133347     -0.000794216      0.00032876       -0.0753158        0.968349      0.000873198    -0.000133224
                    -0.000850694     0.000282171        -0.184702       -0.384988     -0.000128346     0.000799404        -0.869427       -0.204812
                      -0.0754501        0.968382      2.05386e-05     0.000607185        -0.195897         0.10436      0.000360624    -0.000834814
                     0.000927844    -5.92314e-05        -0.869981       -0.204933      0.000390919    -0.000929005         0.322507       -0.271428
281700.6               -0.177382        -0.13334     -0.000794211     0.000328804       -0.0752874        0.968351      0.000873208    -0.000133275
                    -0.000850698     0.000282224        -0.184713       -0.384996     -0.000128325     0.000799429         -0.86943       -0.204774
                      -0.0754217        0.968384      2.05526e-05     0.000607196        -0.195893        0.104364      0.000360599    -0.000834842
                     0.000927848    -5.92981e-05        -0.869984       -0.204896      0.000390908    -0.000929038         0.322498       -0.271459
281700.7               -0.177385       -0.133333     -0.000794205     0.000328847       -0.0752589        0.968354      0.000873217    -0.000133327
                    -0.000850701     0.000282277        -0.184724       -0.385005     -0.000128304     0.000799455        -0.869432       -0.204736
                      -0.0753933        0.968387      2.05667e-05     0.000607208        -0.195888        0.104368      0.000360574    -0.000834871
                     0.000927852    -5.93648e-05        -0.869987       -0.204858      0.000390898    -0.000929072         0.322488       -0.271489
281700.8               -0.177388       -0.133325       -0.0007942      0.00032889       -0.0752305        0.968357      0.000873227    -0.000133378
                    -0.000850704      0.00028233        -0.184734       -0.385013     -0.000128283      0.00079948        -0.869435       -0.204699
                      -0.0753648         0.96839      2.05808e-05     0.000607219        -0.195884        0.104372      0.000360549    -0.000834899
                     0.000927856    -5.94315e-05        -0.869989       -0.204821      0.000390887    -0.000929105         0.322478        -0.27152
281700.9               -0.177391       -0.133318     -0.000794194     0.000328934       -0.0752021        0.968359      0.000873237     -0.00013343
                    -0.000850707     0.000282383        -0.184745       -0.385021     -0.000128262     0.000799506        -0.869438       -0.204661
                      -0.0753364        0.968392      2.05948e-05     0.000607231         -0.19588        0.104376      0.000360524    -0.000834927
                      0.00092786    -5.94982e-05        -0.869992       -0.204783      0.000390876    -0.000929138         0.322469        -0.27155
281701                 -0.177394       -0.133311     -0.000794189     0.000328977       -0.0751736        0.968362      0.000873247    -0.000133481
                     -0.00085071     0.000282436        -0.184755        -0.38503     -0.000128241     0.000799531         -0.86944       -0.204624
                       -0.075308        0.968395      2.06089e-05     0.000607243        -0.195876         0.10438        0.0003605    -0.000834956
                     0.000927864    -5.95649e-05        -0.869995       -0.204745      0.000390865    -0.000929171         0.322459       -0.271581
281701.1               -0.177397       -0.133304     -0.000794183     0.000329021       -0.0751452        0.968365      0.000873257    -0.000133532
                    -0.000850713     0.000282489        -0.184766       -0.385038      -0.00012822     0.000799557        -0.869443       -0.204586
                      -0.0752795        0.968398       2.0623e-05     0.000607254        -0.195871        0.104383      0.000360475    -0.000834984
                     0.000927867    -5.96316e-05        -0.869997       -0.204708      0.000390854    -0.000929205         0.322449       -0.271611
281701.2                 -0.1774       -0.133296     -0.000794178     0.000329064       -0.0751168        0.968367      0.000873266    -0.000133584
                    -0.000850716     0.000282541        -0.184776       -0.385047       -0.0001282     0.000799582        -0.869446       -0.204548
                      -0.0752511          0.9684      2.06371e-05     0.000607266        -0.195867        0.104387       0.00036045    -0.000835012
                     0.000927871    -5.96983e-05            -0.87        -0.20467      0.000390843    -0.000929238          0.32244       -0.271642
281701.3               -0.177403       -0.133289     -0.000794173     0.000329108       -0.0750883         0.96837      0.000873276    -0.000133635
                    -0.000850719     0.000282594        -0.184787       -0.385055     -0.000128179     0.000799608        -0.869448       -0.204511
                      -0.0752227        0.968403      2.06512e-05     0.000607278        -0.195863        0.104391      0.000360425    -0.000835041
                     0.000927875     -5.9765e-05        -0.870003       -0.204632      0.000390832    -0.000929271          0.32243       -0.271672
281701.4               -0.177406       -0.133282     -0.000794167     0.000329151       -0.0750599        0.968372      0.000873286    -0.000133687
                    -0.000850722     0.000282647        -0.184798       -0.385063     -0.000128158     0.000799633        -0.869451       -0.204473
                      -0.0751942        0.968405      2.06653e-05     0.000607289        -0.195858        0.104395      0.000360401    -0.000835069
                     0.000927879    -5.98318e-05        -0.870005       -0.204595      0.000390821    -0.000929305         0.322421       -0.271703
281701.5               -0.177409       -0.133275     -0.000794162     0.000329195       -0.0750315        0.968375      0.000873296    -0.000133738
                    -0.000850725       0.0002827        -0.184808       -0.385072     -0.000128137     0.000799659        -0.869454       -0.204436
                      -0.0751658        0.968408      2.06794e-05     0.000607301        -0.195854        0.104399      0.000360376    -0.000835097
                     0.000927883    -5.98985e-05        -0.870008       -0.204557       0.00039081    -0.000929338         0.322411       -0.271733
281701.6               -0.177412       -0.133267     -0.000794157     0.000329239        -0.075003        0.968378      0.000873306     -0.00013379
                    -0.000850729     0.000282753        -0.184819        -0.38508     -0.000128116     0.000799684        -0.869456       -0.204398
                      -0.0751374        0.968411      2.06935e-05     0.000607313         -0.19585        0.104403      0.000360351    -0.000835126
                     0.000927887    -5.99652e-05        -0.870011        -0.20452      0.000390799    -0.000929371         0.322401       -0.271764
281701.7               -0.177415        -0.13326     -0.000794151     0.000329282       -0.0749746         0.96838      0.000873315    -0.000133841
                    -0.000850732     0.000282806        -0.184829       -0.385088     -0.000128095      0.00079971        -0.869459        -0.20436
                      -0.0751089        0.968413      2.07077e-05     0.000607324        -0.195846        0.104407      0.000360326    -0.000835154
                     0.000927891    -6.00319e-05        -0.870013       -0.204482      0.000390788    -0.000929405         0.322392       -0.271794
281701.8               -0.177418       -0.133253     -0.000794146     0.000329326       -0.0749462        0.968383      0.000873325    -0.000133893
                    -0.000850735     0.000282859         -0.18484       -0.385097     -0.000128074     0.000799735        -0.869461       -0.204323
                      -0.0750805        0.968416      2.07218e-05     0.000607336        -0.195841         0.10441      0.000360301    -0.000835182
                     0.000927894    -6.00987e-05        -0.870016       -0.204444      0.000390777    -0.000929438         0.322382       -0.271825
281701.9               -0.177421       -0.133246     -0.000794141     0.000329369       -0.0749177        0.968386      0.000873335    -0.000133944
                    -0.000850738     0.000282912        -0.184851       -0.385105     -0.000128053     0.000799761        -0.869464       -0.204285
                      -0.0750521        0.968419      2.07359e-05     0.000607348        -0.195837        0.104414      0.000360277     -0.00083521
                     0.000927898    -6.01654e-05        -0.870019       -0.204407      0.000390766    -0.000929471         0.322372       -0.271855
281702                 -0.177424       -0.133238     -0.000794136     0.000329413       -0.0748893        0.968388      0.000873345    -0.000133995
                    -0.000850741     0.000282965        -0.184861       -0.385113     -0.000128032     0.000799786        -0.869467       -0.204248
                      -0.0750236        0.968421      2.07501e-05      0.00060736        -0.195833        0.104418      0.000360252    -0.000835239
                     0.000927902    -6.02321e-05        -0.870021       -0.204369      0.000390755    -0.000929505         0.322363       -0.271886
281702.1               -0.177427       -0.133231     -0.000794131     0.000329457       -0.0748609        0.968391      0.000873355    -0.000134047
                    -0.000850744     0.000283018        -0.184872       -0.385122     -0.000128011     0.000799812        -0.869469        -0.20421
                      -0.0749952        0.968424      2.07642e-05     0.000607371        -0.195829        0.104422      0.000360227    -0.000835267
                     0.000927906    -6.02988e-05        -0.870024       -0.204331      0.000390744    -0.000929538         0.322353       -0.271916
281702.2                -0.17743       -0.133224     -0.000794126       0.0003295       -0.0748324        0.968394      0.000873364    -0.000134098
                    -0.000850747     0.000283071        -0.184882        -0.38513      -0.00012799     0.000799837        -0.869472       -0.204172
                      -0.0749668        0.968427      2.07784e-05     0.000607383        -0.195824        0.104426      0.000360202    -0.000835295
                      0.00092791    -6.03656e-05        -0.870027       -0.204294      0.000390733    -0.000929571         0.322343       -0.271947
281702.3               -0.177433       -0.133217     -0.000794121     0.000329544        -0.074804        0.968396      0.000873374     -0.00013415
                     -0.00085075     0.000283124        -0.184893       -0.385138     -0.000127969     0.000799863        -0.869475       -0.204135
                      -0.0749383        0.968429      2.07925e-05     0.000607395         -0.19582         0.10443      0.000360177    -0.000835324
                     0.000927914    -6.04323e-05        -0.870029       -0.204256      0.000390722    -0.000929605         0.322334       -0.271977
281702.4               -0.177436       -0.133209     -0.000794116     0.000329588       -0.0747756        0.968399      0.000873384    -0.000134201
                    -0.000850753     0.000283177        -0.184903       -0.385147     -0.000127948     0.000799888        -0.869477       -0.204097
                      -0.0749099        0.968432      2.08067e-05     0.000607407        -0.195816        0.104433      0.000360153    -0.000835352
                     0.000927918     -6.0499e-05        -0.870032       -0.204219      0.000390711    -0.000929638         0.322324       -0.272008
281702.5               -0.177439       -0.133202     -0.000794111     0.000329631       -0.0747471        0.968401      0.000873394    -0.000134253
                    -0.000850756      0.00028323        -0.184914       -0.385155     -0.000127927     0.000799914         -0.86948        -0.20406
                      -0.0748815        0.968434      2.08209e-05     0.000607418        -0.195812        0.104437      0.000360128     -0.00083538
                     0.000927921    -6.05658e-05        -0.870034       -0.204181        0.0003907    -0.000929671         0.322314       -0.272038
281702.6               -0.177442       -0.133195     -0.000794106     0.000329675       -0.0747187        0.968404      0.000873403    -0.000134304
                    -0.000850759     0.000283283        -0.184925       -0.385163     -0.000127907     0.000799939        -0.869483       -0.204022
                       -0.074853        0.968437      2.08351e-05      0.00060743        -0.195807        0.104441      0.000360103    -0.000835409
                     0.000927925    -6.06325e-05        -0.870037       -0.204143      0.000390689    -0.000929705         0.322305       -0.272069
281702.7               -0.177445       -0.133188     -0.000794101     0.000329719       -0.0746903        0.968407      0.000873413    -0.000134356
                    -0.000850762     0.000283336        -0.184935       -0.385172     -0.000127886     0.000799965        -0.869485       -0.203984
                      -0.0748246         0.96844      2.08492e-05     0.000607442        -0.195803        0.104445      0.000360078    -0.000835437
                     0.000927929    -6.06993e-05         -0.87004       -0.204106      0.000390678    -0.000929738         0.322295       -0.272099
281702.8               -0.177448        -0.13318     -0.000794096     0.000329763       -0.0746618        0.968409      0.000873423    -0.000134407
                    -0.000850765     0.000283389        -0.184946        -0.38518     -0.000127865      0.00079999        -0.869488       -0.203947
                      -0.0747962        0.968442      2.08634e-05     0.000607454        -0.195799        0.104449      0.000360053    -0.000835465
                     0.000927933     -6.0766e-05        -0.870042       -0.204068      0.000390667    -0.000929771         0.322285        -0.27213
281702.9               -0.177451       -0.133173     -0.000794091     0.000329806       -0.0746334        0.968412      0.000873433    -0.000134459
                    -0.000850768     0.000283442        -0.184956       -0.385188     -0.000127844     0.000800016         -0.86949       -0.203909
                      -0.0747677        0.968445      2.08776e-05     0.000607466        -0.195794        0.104453      0.000360028    -0.000835494
                     0.000927937    -6.08327e-05        -0.870045        -0.20403      0.000390656    -0.000929805         0.322276        -0.27216
281703                 -0.177454       -0.133166     -0.000794086      0.00032985       -0.0746049        0.968415      0.000873442     -0.00013451
                    -0.000850771     0.000283495        -0.184967       -0.385197     -0.000127823     0.000800042        -0.869493       -0.203872
                      -0.0747393        0.968448      2.08918e-05     0.000607477         -0.19579        0.104456      0.000360004    -0.000835522
                      0.00092794    -6.08995e-05        -0.870048       -0.203993      0.000390645    -0.000929838         0.322266       -0.272191
281703.1               -0.177457       -0.133159     -0.000794082     0.000329894       -0.0745765        0.968417      0.000873452    -0.000134562
                    -0.000850774     0.000283548        -0.184978       -0.385205     -0.000127802     0.000800067        -0.869496       -0.203834
                      -0.0747109         0.96845       2.0906e-05     0.000607489        -0.195786         0.10446      0.000359979     -0.00083555
