! TOUCHSTONE file generated by CST MICROWAVE STUDIO
! Date and time: Wed Oct  8 06:56:33 2025
! Project name: Teste_Macro_Metasurface_Nanopilar.cst
! Parameters = {H=600; L_x=120; L_y=75; Lambda=1064; Max_L=200; Min_L=70; PathPara=1; Phi=0; Step_L=10; Theta=0; p=520; phaseX=180; phaseY=0}
! Header version: 2018
! Port assignment regex: !\s*Touchstone port\s*([0-9]+)\s*=\s*(CST MWS port|CST DS port)\s*([0-9]+|Zmin|Zmax)\s*\(\"(.*)\"\)(\s*mode\s*([0-9]+))?.*
! Touchstone port assignment:
! Touchstone port 1 = CST MWS port Zmax ("") mode 1
! Touchstone port 2 = CST MWS port Zmax ("") mode 2
! Touchstone port 3 = CST MWS port Zmin ("") mode 1
! Touchstone port 4 = CST MWS port Zmin ("") mode 2
! S-Parameters are not renormalized. Each port impedance will be approximated by the real part at minimum frequency. The values are described via the [Reference] keyword.
! Default impedance is overridden by [Reference]
[Version] 2.0
# GHz S RI R 376.73
[Number of Ports] 4
[Reference]
376.73 376.73 376.73 376.73 
[Number of Frequencies] 1001
[Network Data]
281700                  0.116709     -0.00224955     -8.71725e-05    -0.000120214        -0.942741        0.311387     -8.85933e-05     2.96858e-05
                     4.72553e-05     -0.00021615        -0.206604        -0.14501      0.000142053    -0.000132391         -0.29395        0.918375
                        -0.94215        0.311752      7.70988e-05    -4.86644e-05       -0.0952455       0.0677871     -6.27346e-06    -4.18173e-05
                    -0.000294599     0.000277371        -0.293872        0.918558     -0.000118523     5.02011e-05        -0.253061     -0.00104951
281700.1                0.116706     -0.00225511     -8.71665e-05    -0.000120212        -0.942733        0.311412     -8.85984e-05     2.96837e-05
                     4.72485e-05     -0.00021615        -0.206609       -0.145003      0.000142039    -0.000132401        -0.293924        0.918383
                       -0.942142        0.311777      7.70941e-05     -4.8668e-05       -0.0952432       0.0677863     -6.26923e-06    -4.18067e-05
                     -0.00029463     0.000277366        -0.293845        0.918566     -0.000118513      5.0213e-05        -0.253062     -0.00104379
281700.2                0.116704     -0.00226066     -8.71605e-05    -0.000120211        -0.942725        0.311437     -8.86036e-05     2.96817e-05
                     4.72418e-05     -0.00021615        -0.206615       -0.144997      0.000142024     -0.00013241        -0.293898        0.918391
                       -0.942134        0.311802      7.70893e-05    -4.86715e-05        -0.095241       0.0677855       -6.265e-06    -4.17961e-05
                    -0.000294662     0.000277361        -0.293819        0.918574     -0.000118503     5.02248e-05        -0.253062     -0.00103806
281700.3                0.116702     -0.00226622     -8.71545e-05    -0.000120209        -0.942717        0.311462     -8.86087e-05     2.96796e-05
                     4.72351e-05     -0.00021615         -0.20662        -0.14499      0.000142009     -0.00013242        -0.293872          0.9184
                       -0.942126        0.311827      7.70846e-05     -4.8675e-05       -0.0952388       0.0677847     -6.26077e-06    -4.17855e-05
                    -0.000294694     0.000277356        -0.293793        0.918583     -0.000118493     5.02367e-05        -0.253063     -0.00103233
281700.4                0.116699     -0.00227177     -8.71485e-05    -0.000120208        -0.942709        0.311487     -8.86139e-05     2.96776e-05
                     4.72284e-05     -0.00021615        -0.206626       -0.144983      0.000141994    -0.000132429        -0.293845        0.918408
                       -0.942118        0.311853      7.70798e-05    -4.86785e-05       -0.0952366       0.0677838     -6.25654e-06    -4.17749e-05
                    -0.000294726      0.00027735        -0.293767        0.918591     -0.000118483     5.02485e-05        -0.253063      -0.0010266
281700.5                0.116697     -0.00227732     -8.71424e-05    -0.000120206        -0.942701        0.311513      -8.8619e-05     2.96755e-05
                     4.72216e-05     -0.00021615        -0.206631       -0.144976      0.000141979    -0.000132439        -0.293819        0.918416
                       -0.942109        0.311878      7.70751e-05     -4.8682e-05       -0.0952343        0.067783     -6.25231e-06    -4.17643e-05
                    -0.000294758     0.000277345         -0.29374        0.918599     -0.000118473     5.02604e-05        -0.253064     -0.00102087
281700.6                0.116694     -0.00228288     -8.71364e-05    -0.000120205        -0.942693        0.311538     -8.86242e-05     2.96735e-05
                     4.72149e-05     -0.00021615        -0.206637       -0.144969      0.000141965    -0.000132448        -0.293793        0.918424
                       -0.942101        0.311903      7.70704e-05    -4.86855e-05       -0.0952321       0.0677822     -6.24808e-06    -4.17537e-05
                    -0.000294789      0.00027734        -0.293714        0.918607     -0.000118463     5.02722e-05        -0.253065     -0.00101514
281700.7                0.116692     -0.00228843     -8.71304e-05    -0.000120203        -0.942685        0.311563     -8.86293e-05     2.96715e-05
                     4.72082e-05     -0.00021615        -0.206642       -0.144963       0.00014195    -0.000132458        -0.293767        0.918433
                       -0.942093        0.311928      7.70656e-05     -4.8689e-05       -0.0952299       0.0677813     -6.24384e-06    -4.17431e-05
                    -0.000294821     0.000277335        -0.293688        0.918615     -0.000118453     5.02841e-05        -0.253065     -0.00100941
281700.8                 0.11669     -0.00229399     -8.71244e-05    -0.000120202        -0.942677        0.311588     -8.86345e-05     2.96694e-05
                     4.72015e-05     -0.00021615        -0.206648       -0.144956      0.000141935    -0.000132468         -0.29374        0.918441
                       -0.942085        0.311953      7.70609e-05    -4.86925e-05       -0.0952277       0.0677805     -6.23961e-06    -4.17325e-05
                    -0.000294853      0.00027733        -0.293662        0.918624     -0.000118443      5.0296e-05        -0.253066     -0.00100368
281700.9                0.116687     -0.00229954     -8.71183e-05      -0.0001202        -0.942669        0.311613     -8.86396e-05     2.96674e-05
                     4.71947e-05     -0.00021615        -0.206653       -0.144949       0.00014192    -0.000132477        -0.293714        0.918449
                       -0.942077        0.311978      7.70562e-05     -4.8696e-05       -0.0952255       0.0677797     -6.23537e-06    -4.17219e-05
                    -0.000294885     0.000277325        -0.293635        0.918632     -0.000118433     5.03078e-05        -0.253066    -0.000997953
281701                  0.116685     -0.00230509     -8.71123e-05    -0.000120199        -0.942661        0.311638     -8.86448e-05     2.96653e-05
                      4.7188e-05     -0.00021615        -0.206658       -0.144942      0.000141905    -0.000132487        -0.293688        0.918457
                       -0.942069        0.312003      7.70514e-05    -4.86996e-05       -0.0952232       0.0677789     -6.23113e-06    -4.17114e-05
                    -0.000294917      0.00027732        -0.293609         0.91864     -0.000118423     5.03197e-05        -0.253067    -0.000992224
281701.1                0.116682     -0.00231065     -8.71063e-05    -0.000120197        -0.942653        0.311664     -8.86499e-05     2.96633e-05
                     4.71813e-05     -0.00021615        -0.206664       -0.144936      0.000141891    -0.000132496        -0.293662        0.918465
                       -0.942061        0.312029      7.70467e-05    -4.87031e-05        -0.095221        0.067778     -6.22689e-06    -4.17008e-05
                    -0.000294948     0.000277315        -0.293583        0.918648     -0.000118413     5.03315e-05        -0.253067    -0.000986495
281701.2                 0.11668      -0.0023162     -8.71003e-05    -0.000120196        -0.942645        0.311689     -8.86551e-05     2.96613e-05
                     4.71746e-05     -0.00021615        -0.206669       -0.144929      0.000141876    -0.000132506        -0.293635        0.918474
                       -0.942053        0.312054      7.70419e-05    -4.87066e-05       -0.0952188       0.0677772     -6.22265e-06    -4.16902e-05
                     -0.00029498     0.000277309        -0.293557        0.918657     -0.000118403     5.03434e-05        -0.253068    -0.000980765
281701.3                0.116678     -0.00232175     -8.70943e-05    -0.000120195        -0.942637        0.311714     -8.86602e-05     2.96592e-05
                     4.71679e-05     -0.00021615        -0.206675       -0.144922      0.000141861    -0.000132515        -0.293609        0.918482
                       -0.942045        0.312079      7.70372e-05    -4.87101e-05       -0.0952166       0.0677764      -6.2184e-06    -4.16796e-05
                    -0.000295012     0.000277304         -0.29353        0.918665     -0.000118393     5.03553e-05        -0.253069    -0.000975036
281701.4                0.116675      -0.0023273     -8.70882e-05    -0.000120193        -0.942629        0.311739     -8.86654e-05     2.96572e-05
                     4.71612e-05     -0.00021615         -0.20668       -0.144915      0.000141846    -0.000132525        -0.293583         0.91849
                       -0.942037        0.312104      7.70325e-05    -4.87136e-05       -0.0952143       0.0677756     -6.21416e-06     -4.1669e-05
                    -0.000295044     0.000277299        -0.293504        0.918673     -0.000118383     5.03671e-05        -0.253069    -0.000969306
281701.5                0.116673     -0.00233286     -8.70822e-05    -0.000120192        -0.942621        0.311764     -8.86706e-05     2.96552e-05
                     4.71545e-05    -0.000216149        -0.206686       -0.144909      0.000141831    -0.000132534        -0.293557        0.918498
                       -0.942029        0.312129      7.70277e-05    -4.87171e-05       -0.0952121       0.0677747     -6.20991e-06    -4.16584e-05
                    -0.000295075     0.000277294        -0.293478        0.918681     -0.000118373      5.0379e-05         -0.25307    -0.000963577
281701.6                 0.11667     -0.00233841     -8.70762e-05     -0.00012019        -0.942613         0.31179     -8.86757e-05     2.96531e-05
                     4.71477e-05    -0.000216149        -0.206691       -0.144902      0.000141817    -0.000132544         -0.29353        0.918507
                       -0.942021        0.312154       7.7023e-05    -4.87206e-05       -0.0952099       0.0677739     -6.20566e-06    -4.16479e-05
                    -0.000295107     0.000277289        -0.293452        0.918689     -0.000118363     5.03909e-05         -0.25307    -0.000957848
281701.7                0.116668     -0.00234396     -8.70702e-05    -0.000120189        -0.942605        0.311815     -8.86809e-05     2.96511e-05
                      4.7141e-05    -0.000216149        -0.206696       -0.144895      0.000141802    -0.000132553        -0.293504        0.918515
                       -0.942013         0.31218      7.70183e-05    -4.87241e-05       -0.0952077       0.0677731     -6.20141e-06    -4.16373e-05
                    -0.000295139     0.000277284        -0.293425        0.918698     -0.000118353     5.04028e-05        -0.253071    -0.000952118
281701.8                0.116666     -0.00234951     -8.70641e-05    -0.000120187        -0.942597         0.31184     -8.86861e-05     2.96491e-05
                     4.71343e-05    -0.000216149        -0.206702       -0.144888      0.000141787    -0.000132563        -0.293478        0.918523
                       -0.942004        0.312205      7.70135e-05    -4.87277e-05       -0.0952054       0.0677722     -6.19716e-06    -4.16267e-05
                    -0.000295171     0.000277279        -0.293399        0.918706     -0.000118343     5.04146e-05        -0.253071    -0.000946388
281701.9                0.116663     -0.00235507     -8.70581e-05    -0.000120186        -0.942589        0.311865     -8.86912e-05      2.9647e-05
                     4.71276e-05    -0.000216149        -0.206707       -0.144882      0.000141772    -0.000132572        -0.293452        0.918531
                       -0.941996         0.31223      7.70088e-05    -4.87312e-05       -0.0952032       0.0677714     -6.19291e-06    -4.16161e-05
                    -0.000295203     0.000277274        -0.293373        0.918714     -0.000118333     5.04265e-05        -0.253072    -0.000940659
281702                  0.116661     -0.00236062     -8.70521e-05    -0.000120184        -0.942581         0.31189     -8.86964e-05      2.9645e-05
                     4.71209e-05    -0.000216149        -0.206713       -0.144875      0.000141758    -0.000132582        -0.293425        0.918539
                       -0.941988        0.312255       7.7004e-05    -4.87347e-05        -0.095201       0.0677706     -6.18865e-06    -4.16056e-05
                    -0.000295234     0.000277269        -0.293347        0.918722     -0.000118323     5.04384e-05        -0.253073    -0.000934929
281702.1                0.116658     -0.00236617     -8.70461e-05    -0.000120183        -0.942573        0.311915     -8.87016e-05      2.9643e-05
                     4.71142e-05    -0.000216149        -0.206718       -0.144868      0.000141743    -0.000132591        -0.293399        0.918548
                        -0.94198         0.31228      7.69993e-05    -4.87382e-05       -0.0951988       0.0677698      -6.1844e-06     -4.1595e-05
                    -0.000295266     0.000277264         -0.29332        0.918731     -0.000118313     5.04503e-05        -0.253073    -0.000929199
281702.2                0.116656     -0.00237172     -8.70401e-05    -0.000120181        -0.942565        0.311941     -8.87067e-05     2.96409e-05
                     4.71075e-05    -0.000216149        -0.206724       -0.144861      0.000141728    -0.000132601        -0.293373        0.918556
                       -0.941972        0.312305      7.69946e-05    -4.87417e-05       -0.0951966       0.0677689     -6.18014e-06    -4.15844e-05
                    -0.000295298     0.000277259        -0.293294        0.918739     -0.000118303     5.04621e-05        -0.253074     -0.00092347
281702.3                0.116654     -0.00237727      -8.7034e-05     -0.00012018        -0.942556        0.311966     -8.87119e-05     2.96389e-05
                     4.71008e-05    -0.000216149        -0.206729       -0.144854      0.000141713     -0.00013261        -0.293347        0.918564
                       -0.941964         0.31233      7.69898e-05    -4.87452e-05       -0.0951943       0.0677681     -6.17588e-06    -4.15738e-05
                     -0.00029533     0.000277254        -0.293268        0.918747     -0.000118293      5.0474e-05        -0.253074     -0.00091774
281702.4                0.116651     -0.00238282      -8.7028e-05    -0.000120178        -0.942548        0.311991     -8.87171e-05     2.96369e-05
                     4.70941e-05    -0.000216149        -0.206734       -0.144848      0.000141699     -0.00013262         -0.29332        0.918572
                       -0.941956        0.312356      7.69851e-05    -4.87487e-05       -0.0951921       0.0677673     -6.17162e-06    -4.15633e-05
                    -0.000295362     0.000277249        -0.293242        0.918755     -0.000118283     5.04859e-05        -0.253075     -0.00091201
281702.5                0.116649     -0.00238838      -8.7022e-05    -0.000120177         -0.94254        0.312016     -8.87223e-05     2.96349e-05
                     4.70874e-05    -0.000216149         -0.20674       -0.144841      0.000141684    -0.000132629        -0.293294         0.91858
                       -0.941948        0.312381      7.69803e-05    -4.87522e-05       -0.0951899       0.0677665     -6.16736e-06    -4.15527e-05
                    -0.000295393     0.000277243        -0.293215        0.918763     -0.000118273     5.04978e-05        -0.253076     -0.00090628
281702.6                0.116646     -0.00239393      -8.7016e-05    -0.000120175        -0.942532        0.312041     -8.87274e-05     2.96328e-05
                     4.70807e-05    -0.000216149        -0.206745       -0.144834      0.000141669    -0.000132639        -0.293268        0.918589
                        -0.94194        0.312406      7.69756e-05    -4.87558e-05       -0.0951877       0.0677656     -6.16309e-06    -4.15421e-05
                    -0.000295425     0.000277238        -0.293189        0.918772     -0.000118263     5.05096e-05        -0.253076     -0.00090055
281702.7                0.116644     -0.00239948     -8.70099e-05    -0.000120174        -0.942524        0.312067     -8.87326e-05     2.96308e-05
                      4.7074e-05    -0.000216149        -0.206751       -0.144827      0.000141654    -0.000132648        -0.293242        0.918597
                       -0.941932        0.312431      7.69709e-05    -4.87593e-05       -0.0951855       0.0677648     -6.15883e-06    -4.15316e-05
                    -0.000295457     0.000277233        -0.293163         0.91878     -0.000118254     5.05215e-05        -0.253077     -0.00089482
281702.8                0.116642     -0.00240503     -8.70039e-05    -0.000120172        -0.942516        0.312092     -8.87378e-05     2.96288e-05
                     4.70673e-05    -0.000216149        -0.206756       -0.144821      0.000141639    -0.000132658        -0.293215        0.918605
                       -0.941924        0.312456      7.69661e-05    -4.87628e-05       -0.0951832        0.067764     -6.15456e-06     -4.1521e-05
                    -0.000295489     0.000277228        -0.293137        0.918788     -0.000118244     5.05334e-05        -0.253077     -0.00088909
281702.9                0.116639     -0.00241058     -8.69979e-05    -0.000120171        -0.942508        0.312117      -8.8743e-05     2.96268e-05
                     4.70606e-05    -0.000216149        -0.206762       -0.144814      0.000141625    -0.000132667        -0.293189        0.918613
                       -0.941915        0.312481      7.69614e-05    -4.87663e-05        -0.095181       0.0677631     -6.15029e-06    -4.15104e-05
                    -0.000295521     0.000277223         -0.29311        0.918796     -0.000118234     5.05453e-05        -0.253078     -0.00088336
281703                  0.116637     -0.00241613     -8.69919e-05     -0.00012017          -0.9425        0.312142     -8.87482e-05     2.96247e-05
                     4.70539e-05    -0.000216149        -0.206767       -0.144807       0.00014161    -0.000132677        -0.293163        0.918622
                       -0.941907        0.312506      7.69567e-05    -4.87698e-05       -0.0951788       0.0677623     -6.14602e-06    -4.14999e-05
                    -0.000295552     0.000277218        -0.293084        0.918804     -0.000118224     5.05572e-05        -0.253078     -0.00087763
281703.1                0.116634     -0.00242168     -8.69858e-05    -0.000120168        -0.942492        0.312167     -8.87533e-05     2.96227e-05
                     4.70472e-05    -0.000216149        -0.206772         -0.1448      0.000141595    -0.000132686        -0.293137         0.91863
                       -0.941899        0.312532      7.69519e-05    -4.87733e-05       -0.0951766       0.0677615     -6.14175e-06    -4.14893e-05
