! TOUCHSTONE file generated by CST MICROWAVE STUDIO
! Date and time: Wed Oct  8 06:53:23 2025
! Project name: Teste_Macro_Metasurface_Nanopilar.cst
! Parameters = {H=600; L_x=90; L_y=165; Lambda=1064; Max_L=200; Min_L=70; PathPara=1; Phi=0; Step_L=10; Theta=0; p=520; phaseX=180; phaseY=0}
! Header version: 2018
! Port assignment regex: !\s*Touchstone port\s*([0-9]+)\s*=\s*(CST MWS port|CST DS port)\s*([0-9]+|Zmin|Zmax)\s*\(\"(.*)\"\)(\s*mode\s*([0-9]+))?.*
! Touchstone port assignment:
! Touchstone port 1 = CST MWS port Zmax ("") mode 1
! Touchstone port 2 = CST MWS port Zmax ("") mode 2
! Touchstone port 3 = CST MWS port Zmin ("") mode 1
! Touchstone port 4 = CST MWS port Zmin ("") mode 2
! S-Parameters are not renormalized. Each port impedance will be approximated by the real part at minimum frequency. The values are described via the [Reference] keyword.
! Default impedance is overridden by [Reference]
[Version] 2.0
# GHz S RI R 376.73
[Number of Ports] 4
[Reference]
376.73 376.73 376.73 376.73 
[Number of Frequencies] 1001
[Network Data]
281700                 -0.177941      -0.0451861     -0.000140767      0.00128974        -0.408706       -0.888129     -0.000798892      0.00016275
                    -0.000320786      0.00107978         -0.12443       -0.162183      0.000538596    -0.000232716         -0.30744        0.926964
                       -0.408384       -0.888236      0.000778721     -0.00020441       -0.0826449        0.163218      0.000484143      0.00108765
                    -0.000566366    -0.000100064        -0.307614        0.926546      0.000743349      0.00127398        -0.196802       0.0560343
281700.1               -0.177938      -0.0451808      -0.00014073      0.00128974        -0.408734       -0.888117     -0.000798886     0.000162796
                    -0.000320783      0.00107979        -0.124435       -0.162178      0.000538597    -0.000232723        -0.307414        0.926973
                       -0.408412       -0.888224       0.00077872    -0.000204428       -0.0826364        0.163217      0.000484152      0.00108766
                     -0.00056634    -0.000100031        -0.307587        0.926555      0.000743393      0.00127395          -0.1968        0.056038
281700.2               -0.177934      -0.0451755     -0.000140694      0.00128974        -0.408763       -0.888105     -0.000798879     0.000162842
                     -0.00032078      0.00107979        -0.124441       -0.162172      0.000538597     -0.00023273        -0.307387        0.926982
                        -0.40844       -0.888212      0.000778719    -0.000204446       -0.0826279        0.163216      0.000484161      0.00108768
                    -0.000566314    -9.99967e-05        -0.307561        0.926564      0.000743438      0.00127392        -0.196798       0.0560418
281700.3               -0.177931      -0.0451703     -0.000140657      0.00128973        -0.408791       -0.888092     -0.000798873     0.000162889
                    -0.000320777      0.00107979        -0.124446       -0.162167      0.000538598    -0.000232737        -0.307361        0.926991
                       -0.408469         -0.8882      0.000778718    -0.000204463       -0.0826194        0.163215      0.000484171      0.00108769
                    -0.000566288    -9.99629e-05        -0.307535        0.926573      0.000743482      0.00127389        -0.196796       0.0560455
281700.4               -0.177927       -0.045165      -0.00014062      0.00128973        -0.408819        -0.88808     -0.000798867     0.000162935
                    -0.000320774      0.00107979        -0.124452       -0.162162      0.000538599    -0.000232744        -0.307334           0.927
                       -0.408497       -0.888188      0.000778717    -0.000204481       -0.0826109        0.163214       0.00048418      0.00108771
                    -0.000566261    -9.99292e-05        -0.307508        0.926582      0.000743526      0.00127386        -0.196794       0.0560493
281700.5               -0.177924      -0.0451597     -0.000140584      0.00128973        -0.408847       -0.888068     -0.000798861     0.000162981
                    -0.000320771      0.00107979        -0.124457       -0.162157      0.000538599     -0.00023275        -0.307308        0.927009
                       -0.408525       -0.888176      0.000778716    -0.000204499       -0.0826024        0.163213       0.00048419      0.00108772
                    -0.000566235    -9.98954e-05        -0.307482        0.926591       0.00074357      0.00127383        -0.196792        0.056053
281700.6               -0.177921      -0.0451544     -0.000140547      0.00128973        -0.408876       -0.888056     -0.000798855     0.000163027
                    -0.000320768       0.0010798        -0.124462       -0.162151        0.0005386    -0.000232757        -0.307281        0.927018
                       -0.408553       -0.888164      0.000778715    -0.000204517        -0.082594        0.163212      0.000484199      0.00108774
                    -0.000566209    -9.98616e-05        -0.307455          0.9266      0.000743615      0.00127381         -0.19679       0.0560568
281700.7               -0.177917      -0.0451492     -0.000140511      0.00128973        -0.408904       -0.888044     -0.000798848     0.000163073
                    -0.000320766       0.0010798        -0.124468       -0.162146        0.0005386    -0.000232764        -0.307255        0.927027
                       -0.408582       -0.888152      0.000778713    -0.000204535       -0.0825855        0.163211      0.000484209      0.00108776
                    -0.000566183    -9.98278e-05        -0.307429        0.926609      0.000743659      0.00127378        -0.196788       0.0560605
281700.8               -0.177914      -0.0451439     -0.000140474      0.00128972        -0.408932       -0.888032     -0.000798842     0.000163119
                    -0.000320763       0.0010798        -0.124473       -0.162141      0.000538601    -0.000232771        -0.307229        0.927036
                        -0.40861        -0.88814      0.000778712    -0.000204553        -0.082577        0.163211      0.000484218      0.00108777
                    -0.000566156     -9.9794e-05        -0.307402        0.926618      0.000743703      0.00127375        -0.196786       0.0560643
281700.9                -0.17791      -0.0451386     -0.000140438      0.00128972         -0.40896        -0.88802     -0.000798836     0.000163165
                     -0.00032076       0.0010798        -0.124479       -0.162135      0.000538602    -0.000232778        -0.307202        0.927045
                       -0.408638       -0.888128      0.000778711    -0.000204571       -0.0825685         0.16321      0.000484228      0.00108779
                     -0.00056613    -9.97602e-05        -0.307376        0.926627      0.000743747      0.00127372        -0.196784        0.056068
281701                 -0.177907      -0.0451333     -0.000140401      0.00128972        -0.408988       -0.888008      -0.00079883     0.000163211
                    -0.000320757       0.0010798        -0.124484        -0.16213      0.000538602    -0.000232785        -0.307176        0.927054
                       -0.408666       -0.888116       0.00077871    -0.000204589         -0.08256        0.163209      0.000484237       0.0010878
                    -0.000566104    -9.97264e-05         -0.30735        0.926636      0.000743791      0.00127369        -0.196782       0.0560718
281701.1               -0.177904      -0.0451281     -0.000140365      0.00128972        -0.409017       -0.887996     -0.000798823     0.000163258
                    -0.000320754      0.00107981         -0.12449       -0.162125      0.000538603    -0.000232792        -0.307149        0.927063
                       -0.408695       -0.888104      0.000778709    -0.000204607       -0.0825515        0.163208      0.000484247      0.00108782
                    -0.000566078    -9.96926e-05        -0.307323        0.926645      0.000743836      0.00127366         -0.19678       0.0560756
281701.2                 -0.1779      -0.0451228     -0.000140328      0.00128972        -0.409045       -0.887984     -0.000798817     0.000163304
                    -0.000320751      0.00107981        -0.124495        -0.16212      0.000538603    -0.000232799        -0.307123        0.927072
                       -0.408723       -0.888092      0.000778708    -0.000204624        -0.082543        0.163207      0.000484256      0.00108783
                    -0.000566051    -9.96588e-05        -0.307297        0.926654       0.00074388      0.00127364        -0.196778       0.0560793
281701.3               -0.177897      -0.0451175     -0.000140292      0.00128972        -0.409073       -0.887972     -0.000798811      0.00016335
                    -0.000320748      0.00107981          -0.1245       -0.162114      0.000538604    -0.000232806        -0.307096        0.927081
                       -0.408751        -0.88808      0.000778707    -0.000204642       -0.0825345        0.163206      0.000484265      0.00108785
                    -0.000566025     -9.9625e-05         -0.30727        0.926663      0.000743924      0.00127361        -0.196776       0.0560831
281701.4               -0.177893      -0.0451122     -0.000140255      0.00128971        -0.409101        -0.88796     -0.000798804     0.000163396
                    -0.000320746      0.00107981        -0.124506       -0.162109      0.000538605    -0.000232812         -0.30707         0.92709
                       -0.408779       -0.888068      0.000778705     -0.00020466        -0.082526        0.163205      0.000484275      0.00108786
                    -0.000565999    -9.95912e-05        -0.307244        0.926672      0.000743968      0.00127358        -0.196774       0.0560868
281701.5                -0.17789       -0.045107     -0.000140218      0.00128971        -0.409129       -0.887948     -0.000798798     0.000163442
                    -0.000320743      0.00107981        -0.124511       -0.162104      0.000538605    -0.000232819        -0.307043        0.927099
                       -0.408808       -0.888056      0.000778704    -0.000204678       -0.0825175        0.163204      0.000484284      0.00108788
                    -0.000565972    -9.95574e-05        -0.307218        0.926681      0.000744013      0.00127355        -0.196772       0.0560906
281701.6               -0.177886      -0.0451017     -0.000140182      0.00128971        -0.409158       -0.887936     -0.000798792     0.000163488
                     -0.00032074      0.00107982        -0.124517       -0.162098      0.000538606    -0.000232826        -0.307017        0.927108
                       -0.408836       -0.888044      0.000778703    -0.000204696        -0.082509        0.163203      0.000484294      0.00108789
                    -0.000565946    -9.95236e-05        -0.307191         0.92669      0.000744057      0.00127352         -0.19677       0.0560943
281701.7               -0.177883      -0.0450964     -0.000140145      0.00128971        -0.409186       -0.887924     -0.000798786     0.000163534
                    -0.000320737      0.00107982        -0.124522       -0.162093      0.000538606    -0.000232833         -0.30699        0.927117
                       -0.408864       -0.888032      0.000778702    -0.000204714       -0.0825005        0.163202      0.000484303      0.00108791
                     -0.00056592    -9.94898e-05        -0.307165        0.926699      0.000744101      0.00127349        -0.196768       0.0560981
281701.8                -0.17788      -0.0450911     -0.000140109      0.00128971        -0.409214       -0.887912     -0.000798779     0.000163581
                    -0.000320734      0.00107982        -0.124528       -0.162088      0.000538607     -0.00023284        -0.306964        0.927126
                       -0.408892        -0.88802      0.000778701    -0.000204732        -0.082492        0.163201      0.000484312      0.00108793
                    -0.000565894     -9.9456e-05        -0.307138        0.926708      0.000744145      0.00127347        -0.196766       0.0561018
281701.9               -0.177876      -0.0450859     -0.000140072       0.0012897        -0.409242         -0.8879     -0.000798773     0.000163627
                    -0.000320731      0.00107982        -0.124533       -0.162083      0.000538607    -0.000232847        -0.306937        0.927134
                       -0.408921       -0.888008        0.0007787     -0.00020475       -0.0824835          0.1632      0.000484322      0.00108794
                    -0.000565867    -9.94222e-05        -0.307112        0.926717       0.00074419      0.00127344        -0.196764       0.0561056
281702                 -0.177873      -0.0450806     -0.000140036       0.0012897        -0.409271       -0.887887     -0.000798767     0.000163673
                    -0.000320729      0.00107982        -0.124538       -0.162077      0.000538608    -0.000232854        -0.306911        0.927143
                       -0.408949       -0.887996      0.000778699    -0.000204767       -0.0824751        0.163199      0.000484331      0.00108796
                    -0.000565841    -9.93884e-05        -0.307085        0.926726      0.000744234      0.00127341        -0.196762       0.0561093
281702.1               -0.177869      -0.0450753     -0.000139999       0.0012897        -0.409299       -0.887875      -0.00079876     0.000163719
                    -0.000320726      0.00107983        -0.124544       -0.162072      0.000538609    -0.000232861        -0.306885        0.927152
                       -0.408977       -0.887983      0.000778698    -0.000204785       -0.0824666        0.163198      0.000484341      0.00108797
                    -0.000565815    -9.93546e-05        -0.307059        0.926735      0.000744278      0.00127338         -0.19676       0.0561131
281702.2               -0.177866        -0.04507     -0.000139963       0.0012897        -0.409327       -0.887863     -0.000798754     0.000163765
                    -0.000320723      0.00107983        -0.124549       -0.162067      0.000538609    -0.000232868        -0.306858        0.927161
                       -0.409005       -0.887971      0.000778696    -0.000204803       -0.0824581        0.163197       0.00048435      0.00108799
                    -0.000565788    -9.93208e-05        -0.307033        0.926744      0.000744322      0.00127335        -0.196758       0.0561168
281702.3               -0.177863      -0.0450648     -0.000139926       0.0012897        -0.409355       -0.887851     -0.000798747     0.000163811
                     -0.00032072      0.00107983        -0.124555       -0.162061       0.00053861    -0.000232875        -0.306832         0.92717
                       -0.409033       -0.887959      0.000778695    -0.000204821       -0.0824496        0.163196      0.000484359        0.001088
                    -0.000565762     -9.9287e-05        -0.307006        0.926753      0.000744367      0.00127332        -0.196756       0.0561206
281702.4               -0.177859      -0.0450595      -0.00013989       0.0012897        -0.409383       -0.887839     -0.000798741     0.000163858
                    -0.000320717      0.00107983         -0.12456       -0.162056       0.00053861    -0.000232881        -0.306805        0.927179
                       -0.409062       -0.887947      0.000778694    -0.000204839       -0.0824411        0.163195      0.000484369      0.00108802
                    -0.000565735    -9.92532e-05         -0.30698        0.926762      0.000744411       0.0012733        -0.196754       0.0561243
281702.5               -0.177856      -0.0450542     -0.000139853      0.00128969        -0.409412       -0.887827     -0.000798735     0.000163904
                    -0.000320714      0.00107983        -0.124566       -0.162051      0.000538611    -0.000232888        -0.306779        0.927188
                        -0.40909       -0.887935      0.000778693    -0.000204857       -0.0824326        0.163194      0.000484378      0.00108803
                    -0.000565709    -9.92194e-05        -0.306953         0.92677      0.000744455      0.00127327        -0.196752       0.0561281
281702.6               -0.177852       -0.045049     -0.000139817      0.00128969         -0.40944       -0.887815     -0.000798728      0.00016395
                    -0.000320712      0.00107984        -0.124571       -0.162046      0.000538612    -0.000232895        -0.306752        0.927197
                       -0.409118       -0.887923      0.000778692    -0.000204875       -0.0824241        0.163193      0.000484388      0.00108805
                    -0.000565683    -9.91856e-05        -0.306927        0.926779      0.000744499      0.00127324         -0.19675       0.0561318
281702.7               -0.177849      -0.0450437      -0.00013978      0.00128969        -0.409468       -0.887803     -0.000798722     0.000163996
                    -0.000320709      0.00107984        -0.124576        -0.16204      0.000538612    -0.000232902        -0.306726        0.927206
                       -0.409146       -0.887911      0.000778691    -0.000204893       -0.0824156        0.163192      0.000484397      0.00108806
                    -0.000565656    -9.91518e-05          -0.3069        0.926788      0.000744544      0.00127321        -0.196748       0.0561356
281702.8               -0.177845      -0.0450384     -0.000139743      0.00128969        -0.409496       -0.887791     -0.000798716     0.000164042
                    -0.000320706      0.00107984        -0.124582       -0.162035      0.000538613    -0.000232909        -0.306699        0.927215
                       -0.409175       -0.887899       0.00077869     -0.00020491       -0.0824071        0.163192      0.000484406      0.00108808
                     -0.00056563    -9.91179e-05        -0.306874        0.926797      0.000744588      0.00127318        -0.196746       0.0561393
281702.9               -0.177842      -0.0450331     -0.000139707      0.00128969        -0.409524       -0.887779     -0.000798709     0.000164089
                    -0.000320703      0.00107984        -0.124587        -0.16203      0.000538613    -0.000232916        -0.306673        0.927224
                       -0.409203       -0.887887      0.000778689    -0.000204928       -0.0823986        0.163191      0.000484416       0.0010881
                    -0.000565604    -9.90841e-05        -0.306848        0.926806      0.000744632      0.00127315        -0.196744       0.0561431
281703                 -0.177839      -0.0450279      -0.00013967      0.00128968        -0.409553       -0.887767     -0.000798703     0.000164135
                      -0.0003207      0.00107984        -0.124593       -0.162024      0.000538614    -0.000232923        -0.306646        0.927233
                       -0.409231       -0.887875      0.000778687    -0.000204946       -0.0823901         0.16319      0.000484425      0.00108811
                    -0.000565577    -9.90503e-05        -0.306821        0.926815      0.000744676      0.00127313        -0.196742       0.0561469
281703.1               -0.177835      -0.0450226     -0.000139634      0.00128968        -0.409581       -0.887755     -0.000798696     0.000164181
                    -0.000320698      0.00107985        -0.124598       -0.162019      0.000538615     -0.00023293         -0.30662        0.927242
                       -0.409259       -0.887863      0.000778686    -0.000204964       -0.0823816        0.163189      0.000484434      0.00108813
