! TOUCHSTONE file generated by CST MICROWAVE STUDIO
! Date and time: Wed Oct  8 06:58:27 2025
! Project name: Teste_Macro_Metasurface_Nanopilar.cst
! Parameters = {H=600; L_x=135; L_y=100; Lambda=1064; Max_L=200; Min_L=70; PathPara=1; Phi=0; Step_L=10; Theta=0; p=520; phaseX=180; phaseY=0}
! Header version: 2018
! Port assignment regex: !\s*Touchstone port\s*([0-9]+)\s*=\s*(CST MWS port|CST DS port)\s*([0-9]+|Zmin|Zmax)\s*\(\"(.*)\"\)(\s*mode\s*([0-9]+))?.*
! Touchstone port assignment:
! Touchstone port 1 = CST MWS port Zmax ("") mode 1
! Touchstone port 2 = CST MWS port Zmax ("") mode 2
! Touchstone port 3 = CST MWS port Zmin ("") mode 1
! Touchstone port 4 = CST MWS port Zmin ("") mode 2
! S-Parameters are not renormalized. Each port impedance will be approximated by the real part at minimum frequency. The values are described via the [Reference] keyword.
! Default impedance is overridden by [Reference]
[Version] 2.0
# GHz S RI R 376.73
[Number of Ports] 4
[Reference]
376.73 376.73 376.73 376.73 
[Number of Frequencies] 1001
[Network Data]
281700                  -0.21698      -0.0889605        0.0004939    -0.000295389        0.0188144        0.967514      0.000179099     -0.00078352
                     0.000414079    -0.000299291       -0.0190431       -0.167864      0.000278708    -0.000778328         0.619396       -0.754692
                       0.0184288        0.967376      0.000160951    -0.000799805        -0.213585       0.0976284      1.45316e-05    -0.000359676
                     0.000207941    -0.000770453         0.619669       -0.754953     -2.55275e-05    -0.000375015        -0.171085       0.0170014
281700.1               -0.216982      -0.0889523      0.000493896    -0.000295403        0.0188434        0.967514      0.000179078    -0.000783521
                     0.000414076    -0.000299309       -0.0190523       -0.167864      0.000278685    -0.000778339         0.619371       -0.754713
                       0.0184578        0.967376       0.00016093    -0.000799835        -0.213581        0.097633      1.45177e-05    -0.000359691
                     0.000207916    -0.000770463         0.619644       -0.754974      -2.5544e-05    -0.000375021        -0.171086       0.0170038
281700.2               -0.216983      -0.0889441      0.000493892    -0.000295418        0.0188725        0.967514      0.000179058    -0.000783523
                     0.000414072    -0.000299326       -0.0190615       -0.167864      0.000278662    -0.000778349         0.619345       -0.754734
                       0.0184868        0.967375      0.000160908    -0.000799865        -0.213577       0.0976376      1.45037e-05    -0.000359706
                     0.000207892    -0.000770473         0.619618       -0.754994     -2.55605e-05    -0.000375026        -0.171087       0.0170062
281700.3               -0.216985      -0.0889359      0.000493888    -0.000295432        0.0189015        0.967513      0.000179037    -0.000783524
                     0.000414068    -0.000299344       -0.0190706       -0.167864      0.000278639    -0.000778359          0.61932       -0.754754
                       0.0185159        0.967375      0.000160887    -0.000799895        -0.213573       0.0976423      1.44897e-05    -0.000359721
                     0.000207867    -0.000770483         0.619593       -0.755015      -2.5577e-05    -0.000375031        -0.171087       0.0170085
281700.4               -0.216986      -0.0889277      0.000493885    -0.000295447        0.0189305        0.967513      0.000179017    -0.000783526
                     0.000414064    -0.000299361       -0.0190798       -0.167864      0.000278616    -0.000778369         0.619294       -0.754775
                       0.0185449        0.967375      0.000160865    -0.000799925        -0.213569       0.0976469      1.44757e-05    -0.000359736
                     0.000207842    -0.000770493         0.619567       -0.755036     -2.55934e-05    -0.000375036        -0.171088       0.0170109
281700.5               -0.216988      -0.0889195      0.000493881    -0.000295461        0.0189596        0.967513      0.000178997    -0.000783528
                      0.00041406    -0.000299378        -0.019089       -0.167864      0.000278593    -0.000778379         0.619269       -0.754796
                       0.0185739        0.967375      0.000160844    -0.000799955        -0.213565       0.0976516      1.44618e-05    -0.000359752
                     0.000207817    -0.000770503         0.619542       -0.755057     -2.56099e-05    -0.000375041        -0.171089       0.0170133
281700.6                -0.21699      -0.0889113      0.000493877    -0.000295475        0.0189886        0.967513      0.000178976    -0.000783529
                     0.000414056    -0.000299396       -0.0190982       -0.167864      0.000278571     -0.00077839         0.619243       -0.754817
                       0.0186029        0.967375      0.000160822    -0.000799985        -0.213561       0.0976562      1.44478e-05    -0.000359767
                     0.000207793    -0.000770513         0.619516       -0.755077     -2.56264e-05    -0.000375046         -0.17109       0.0170156
281700.7               -0.216991      -0.0889031      0.000493873     -0.00029549        0.0190176        0.967513      0.000178956    -0.000783531
                     0.000414052    -0.000299413       -0.0191074       -0.167864      0.000278548      -0.0007784         0.619218       -0.754837
                        0.018632        0.967375      0.000160801    -0.000800015        -0.213557       0.0976608      1.44338e-05    -0.000359782
                     0.000207768    -0.000770523         0.619491       -0.755098     -2.56429e-05    -0.000375051         -0.17109        0.017018
281700.8               -0.216993      -0.0888949      0.000493869    -0.000295504        0.0190467        0.967512      0.000178936    -0.000783532
                     0.000414048    -0.000299431       -0.0191166       -0.167865      0.000278525     -0.00077841         0.619192       -0.754858
                        0.018661        0.967374      0.000160779    -0.000800044        -0.213553       0.0976655      1.44198e-05    -0.000359797
                     0.000207743    -0.000770533         0.619465       -0.755119     -2.56594e-05    -0.000375056        -0.171091       0.0170204
281700.9               -0.216994      -0.0888867      0.000493866    -0.000295519        0.0190757        0.967512      0.000178915    -0.000783534
                     0.000414044    -0.000299448       -0.0191258       -0.167865      0.000278502     -0.00077842         0.619166       -0.754879
                         0.01869        0.967374      0.000160758    -0.000800074        -0.213549       0.0976701      1.44059e-05    -0.000359812
                     0.000207719    -0.000770543         0.619439        -0.75514     -2.56759e-05    -0.000375061        -0.171092       0.0170227
281701                 -0.216996      -0.0888786      0.000493862    -0.000295533        0.0191048        0.967512      0.000178895    -0.000783536
                      0.00041404    -0.000299466        -0.019135       -0.167865      0.000278479    -0.000778431         0.619141         -0.7549
                        0.018719        0.967374      0.000160737    -0.000800104        -0.213545       0.0976747      1.43919e-05    -0.000359827
                     0.000207694    -0.000770553         0.619414       -0.755161     -2.56923e-05    -0.000375066        -0.171093       0.0170251
281701.1               -0.216997      -0.0888704      0.000493858    -0.000295547        0.0191338        0.967512      0.000178875    -0.000783537
                     0.000414037    -0.000299483       -0.0191441       -0.167865      0.000278456    -0.000778441         0.619115        -0.75492
                       0.0187481        0.967374      0.000160715    -0.000800134        -0.213541       0.0976794      1.43779e-05    -0.000359842
                     0.000207669    -0.000770562         0.619388       -0.755181     -2.57088e-05    -0.000375071        -0.171093       0.0170275
281701.2               -0.216999      -0.0888622      0.000493854    -0.000295562        0.0191628        0.967512      0.000178854    -0.000783539
                     0.000414033      -0.0002995       -0.0191533       -0.167865      0.000278433    -0.000778451          0.61909       -0.754941
                       0.0187771        0.967374      0.000160694    -0.000800164        -0.213537        0.097684      1.43639e-05    -0.000359858
                     0.000207644    -0.000770572         0.619363       -0.755202     -2.57253e-05    -0.000375076        -0.171094       0.0170298
281701.3               -0.217001       -0.088854      0.000493851    -0.000295576        0.0191919        0.967512      0.000178834     -0.00078354
                     0.000414029    -0.000299518       -0.0191625       -0.167865      0.000278411    -0.000778461         0.619064       -0.754962
                       0.0188061        0.967373      0.000160672    -0.000800194        -0.213533       0.0976886        1.435e-05    -0.000359873
                      0.00020762    -0.000770582         0.619337       -0.755223     -2.57418e-05    -0.000375081        -0.171095       0.0170322
281701.4               -0.217002      -0.0888458      0.000493847     -0.00029559        0.0192209        0.967511      0.000178814    -0.000783542
                     0.000414025    -0.000299535       -0.0191717       -0.167865      0.000278388    -0.000778472         0.619039       -0.754982
                       0.0188352        0.967373      0.000160651    -0.000800224        -0.213529       0.0976933       1.4336e-05    -0.000359888
                     0.000207595    -0.000770592         0.619312       -0.755244     -2.57583e-05    -0.000375086        -0.171096       0.0170346
281701.5               -0.217004      -0.0888376      0.000493843    -0.000295605        0.0192499        0.967511      0.000178793    -0.000783544
                     0.000414021    -0.000299553       -0.0191809       -0.167865      0.000278365    -0.000778482         0.619013       -0.755003
                       0.0188642        0.967373      0.000160629    -0.000800254        -0.213525       0.0976979       1.4322e-05    -0.000359903
                      0.00020757    -0.000770602         0.619286       -0.755264     -2.57748e-05    -0.000375091        -0.171096       0.0170369
281701.6               -0.217005      -0.0888294      0.000493839    -0.000295619         0.019279        0.967511      0.000178773    -0.000783545
                     0.000414017     -0.00029957       -0.0191901       -0.167865      0.000278342    -0.000778492         0.618988       -0.755024
                       0.0188932        0.967373      0.000160608    -0.000800284        -0.213521       0.0977026       1.4308e-05    -0.000359918
                     0.000207546    -0.000770612         0.619261       -0.755285     -2.57913e-05    -0.000375096        -0.171097       0.0170393
281701.7               -0.217007      -0.0888212      0.000493836    -0.000295634         0.019308        0.967511      0.000178753    -0.000783547
                     0.000414013    -0.000299588       -0.0191993       -0.167865      0.000278319    -0.000778502         0.618962       -0.755045
                       0.0189222        0.967373      0.000160586    -0.000800314        -0.213517       0.0977072       1.4294e-05    -0.000359933
                     0.000207521    -0.000770622         0.619235       -0.755306     -2.58077e-05    -0.000375101        -0.171098       0.0170417
281701.8               -0.217008       -0.088813      0.000493832    -0.000295648         0.019337        0.967511      0.000178732    -0.000783548
                     0.000414009    -0.000299605       -0.0192085       -0.167865      0.000278296    -0.000778513         0.618936       -0.755065
                       0.0189513        0.967373      0.000160565    -0.000800344        -0.213514       0.0977118      1.42801e-05    -0.000359948
                     0.000207496    -0.000770632          0.61921       -0.755327     -2.58242e-05    -0.000375106        -0.171099        0.017044
281701.9                -0.21701      -0.0888048      0.000493828    -0.000295662        0.0193661         0.96751      0.000178712     -0.00078355
                     0.000414005    -0.000299622       -0.0192176       -0.167865      0.000278274    -0.000778523         0.618911       -0.755086
                       0.0189803        0.967372      0.000160543    -0.000800374         -0.21351       0.0977165      1.42661e-05    -0.000359963
                     0.000207472    -0.000770642         0.619184       -0.755347     -2.58407e-05    -0.000375112        -0.171099       0.0170464
281702                 -0.217012      -0.0887966      0.000493824    -0.000295677        0.0193951         0.96751      0.000178692    -0.000783552
                     0.000414001     -0.00029964       -0.0192268       -0.167865      0.000278251    -0.000778533         0.618885       -0.755107
                       0.0190093        0.967372      0.000160522    -0.000800404        -0.213506       0.0977211      1.42521e-05    -0.000359979
                     0.000207447    -0.000770652         0.619159       -0.755368     -2.58572e-05    -0.000375117          -0.1711       0.0170488
281702.1               -0.217013      -0.0887884      0.000493821    -0.000295691        0.0194241         0.96751      0.000178671    -0.000783553
                     0.000413997    -0.000299657        -0.019236       -0.167865      0.000278228    -0.000778543          0.61886       -0.755128
                       0.0190383        0.967372      0.000160501    -0.000800434        -0.213502       0.0977257      1.42381e-05    -0.000359994
                     0.000207422    -0.000770662         0.619133       -0.755389     -2.58737e-05    -0.000375122        -0.171101       0.0170511
281702.2               -0.217015      -0.0887802      0.000493817    -0.000295706        0.0194532         0.96751      0.000178651    -0.000783555
                     0.000413994    -0.000299675       -0.0192452       -0.167865      0.000278205    -0.000778553         0.618834       -0.755148
                       0.0190674        0.967372      0.000160479    -0.000800464        -0.213498       0.0977304      1.42241e-05    -0.000360009
                     0.000207397    -0.000770672         0.619108        -0.75541     -2.58902e-05    -0.000375127        -0.171102       0.0170535
281702.3               -0.217016       -0.088772      0.000493813     -0.00029572        0.0194822         0.96751      0.000178631    -0.000783556
                      0.00041399    -0.000299692       -0.0192544       -0.167865      0.000278182    -0.000778564         0.618809       -0.755169
                       0.0190964        0.967372      0.000160458    -0.000800494        -0.213494        0.097735      1.42101e-05    -0.000360024
                     0.000207373    -0.000770682         0.619082       -0.755431     -2.59067e-05    -0.000375132        -0.171102       0.0170559
281702.4               -0.217018      -0.0887638      0.000493809    -0.000295734        0.0195113        0.967509       0.00017861    -0.000783558
                     0.000413986     -0.00029971       -0.0192636       -0.167865      0.000278159    -0.000778574         0.618783        -0.75519
                       0.0191254        0.967371      0.000160436    -0.000800524         -0.21349       0.0977396      1.41961e-05    -0.000360039
                     0.000207348    -0.000770691         0.619056       -0.755451     -2.59231e-05    -0.000375137        -0.171103       0.0170582
281702.5               -0.217019      -0.0887556      0.000493805    -0.000295749        0.0195403        0.967509       0.00017859     -0.00078356
                     0.000413982    -0.000299727       -0.0192728       -0.167866      0.000278136    -0.000778584         0.618758       -0.755211
                       0.0191544        0.967371      0.000160415    -0.000800555        -0.213486       0.0977443      1.41822e-05    -0.000360054
                     0.000207323    -0.000770701         0.619031       -0.755472     -2.59396e-05    -0.000375142        -0.171104       0.0170606
281702.6               -0.217021      -0.0887474      0.000493802    -0.000295763        0.0195693        0.967509       0.00017857    -0.000783561
                     0.000413978    -0.000299744       -0.0192819       -0.167866      0.000278114    -0.000778594         0.618732       -0.755231
                       0.0191835        0.967371      0.000160393    -0.000800585        -0.213482       0.0977489      1.41682e-05    -0.000360069
                     0.000207299    -0.000770711         0.619005       -0.755493     -2.59561e-05    -0.000375147        -0.171105        0.017063
281702.7               -0.217023      -0.0887392      0.000493798    -0.000295777        0.0195984        0.967509      0.000178549    -0.000783563
                     0.000413974    -0.000299762       -0.0192911       -0.167866      0.000278091    -0.000778604         0.618706       -0.755252
                       0.0192125        0.967371      0.000160372    -0.000800615        -0.213478       0.0977535      1.41542e-05    -0.000360084
                     0.000207274    -0.000770721          0.61898       -0.755514     -2.59726e-05    -0.000375152        -0.171105       0.0170653
281702.8               -0.217024       -0.088731      0.000493794    -0.000295792        0.0196274        0.967509      0.000178529    -0.000783564
                      0.00041397    -0.000299779       -0.0193003       -0.167866      0.000278068    -0.000778615         0.618681       -0.755273
                       0.0192415        0.967371       0.00016035    -0.000800645        -0.213474       0.0977582      1.41402e-05    -0.000360099
                     0.000207249    -0.000770731         0.618954       -0.755534     -2.59891e-05    -0.000375157        -0.171106       0.0170677
281702.9               -0.217026      -0.0887228       0.00049379    -0.000295806        0.0196564        0.967508      0.000178509    -0.000783566
                     0.000413966    -0.000299797       -0.0193095       -0.167866      0.000278045    -0.000778625         0.618655       -0.755293
                       0.0192705         0.96737      0.000160329    -0.000800675         -0.21347       0.0977628      1.41262e-05    -0.000360114
                     0.000207225    -0.000770741         0.618929       -0.755555     -2.60056e-05    -0.000375162        -0.171107       0.0170701
281703                 -0.217027      -0.0887146      0.000493787    -0.000295821        0.0196855        0.967508      0.000178488    -0.000783568
                     0.000413962    -0.000299814       -0.0193187       -0.167866      0.000278022    -0.000778635          0.61863       -0.755314
                       0.0192996         0.96737      0.000160307    -0.000800705        -0.213466       0.0977674      1.41122e-05     -0.00036013
                       0.0002072    -0.000770751         0.618903       -0.755576      -2.6022e-05    -0.000375167        -0.171108       0.0170724
281703.1               -0.217029      -0.0887064      0.000493783    -0.000295835        0.0197145        0.967508      0.000178468    -0.000783569
                     0.000413958    -0.000299832       -0.0193279       -0.167866      0.000277999    -0.000778645         0.618604       -0.755335
                       0.0193286         0.96737      0.000160286    -0.000800735        -0.213462       0.0977721      1.40982e-05    -0.000360145
