! TOUCHSTONE file generated by CST MICROWAVE STUDIO
! Date and time: Wed Oct  8 07:04:11 2025
! Project name: Teste_Macro_Metasurface_Nanopilar.cst
! Parameters = {H=600; L_x=180; L_y=185; Lambda=1064; Max_L=200; Min_L=70; PathPara=1; Phi=0; Step_L=10; Theta=0; p=520; phaseX=180; phaseY=0}
! Header version: 2018
! Port assignment regex: !\s*Touchstone port\s*([0-9]+)\s*=\s*(CST MWS port|CST DS port)\s*([0-9]+|Zmin|Zmax)\s*\(\"(.*)\"\)(\s*mode\s*([0-9]+))?.*
! Touchstone port assignment:
! Touchstone port 1 = CST MWS port Zmax ("") mode 1
! Touchstone port 2 = CST MWS port Zmax ("") mode 2
! Touchstone port 3 = CST MWS port Zmin ("") mode 1
! Touchstone port 4 = CST MWS port Zmin ("") mode 2
! S-Parameters are not renormalized. Each port impedance will be approximated by the real part at minimum frequency. The values are described via the [Reference] keyword.
! Default impedance is overridden by [Reference]
[Version] 2.0
# GHz S RI R 376.73
[Number of Ports] 4
[Reference]
376.73 376.73 376.73 376.73 
[Number of Frequencies] 1001
[Network Data]
281700                  0.202653       -0.221353     -0.000959382    -0.000428534        -0.769571        0.510242      0.000562921     0.000134714
                    -0.000812982    -0.000465998        -0.225022         -0.2567     -3.77833e-05     0.000334475        -0.927635      -0.0574138
                       -0.769674        0.510693     -0.000115551     0.000424998        -0.233515        0.136552      0.000563945    -0.000779382
                     0.000351658      0.00040188        -0.927698      -0.0571237      0.000687829    -0.000874007          0.25682       -0.212444
281700.1                0.202666       -0.221374     -0.000958993    -0.000429175        -0.769532        0.510281      0.000562826     0.000134726
                    -0.000813019    -0.000465994        -0.225021       -0.256696     -3.77785e-05     0.000334505        -0.927639      -0.0573785
                       -0.769634        0.510732     -0.000115824     0.000425158        -0.233517        0.136591      0.000563979    -0.000779479
                     0.000351632     0.000401876        -0.927702      -0.0570884      0.000687768    -0.000874047         0.256802       -0.212462
281700.2                0.202679       -0.221394     -0.000958639    -0.000429748        -0.769492         0.51032      0.000562731     0.000134737
                    -0.000813056    -0.000465991        -0.225021       -0.256692     -3.77741e-05     0.000334534        -0.927643      -0.0573431
                       -0.769595        0.510771     -0.000116076     0.000425307        -0.233519        0.136629      0.000564014    -0.000779575
                     0.000351605     0.000401873        -0.927706       -0.057053      0.000687706    -0.000874088         0.256784       -0.212479
281700.3                0.202693       -0.221415     -0.000958322     -0.00043025        -0.769453        0.510359      0.000562636     0.000134749
                    -0.000813093    -0.000465987        -0.225021       -0.256688       -3.777e-05     0.000334562        -0.927647      -0.0573078
                       -0.769555         0.51081     -0.000116307     0.000425443         -0.23352        0.136668      0.000564049    -0.000779672
                     0.000351578     0.000401869         -0.92771      -0.0570177      0.000687644    -0.000874129         0.256766       -0.212496
281700.4                0.202706       -0.221436     -0.000958044    -0.000430679        -0.769413        0.510398      0.000562541     0.000134761
                    -0.000813131    -0.000465984         -0.22502       -0.256684     -3.77663e-05      0.00033459        -0.927651      -0.0572724
                       -0.769516        0.510849     -0.000116514     0.000425567        -0.233522        0.136707      0.000564084    -0.000779769
                     0.000351551     0.000401866        -0.927714      -0.0569823      0.000687582     -0.00087417         0.256748       -0.212514
281700.5                0.202719       -0.221456     -0.000957808    -0.000431031        -0.769373        0.510437      0.000562447     0.000134773
                    -0.000813168     -0.00046598         -0.22502        -0.25668     -3.77628e-05     0.000334617        -0.927655      -0.0572371
                       -0.769476        0.510888     -0.000116698     0.000425677        -0.233524        0.136746       0.00056412    -0.000779866
                     0.000351524     0.000401862        -0.927718       -0.056947      0.000687519    -0.000874212          0.25673       -0.212531
281700.6                0.202732       -0.221477     -0.000957614    -0.000431305        -0.769334        0.510476      0.000562352     0.000134785
                    -0.000813205    -0.000465976         -0.22502       -0.256677     -3.77596e-05     0.000334644        -0.927659      -0.0572017
                       -0.769436        0.510927     -0.000116857     0.000425774        -0.233526        0.136785      0.000564155    -0.000779963
                     0.000351498     0.000401858        -0.927722      -0.0569116      0.000687456    -0.000874255         0.256712       -0.212548
281700.7                0.202746       -0.221498     -0.000957466    -0.000431498        -0.769294        0.510515      0.000562257     0.000134797
                    -0.000813242    -0.000465972        -0.225019       -0.256673     -3.77565e-05      0.00033467        -0.927663      -0.0571664
                       -0.769397        0.510966      -0.00011699     0.000425856        -0.233528        0.136824       0.00056419     -0.00078006
                     0.000351471     0.000401854        -0.927726      -0.0568763      0.000687392    -0.000874299         0.256694       -0.212566
281700.8                0.202759       -0.221519     -0.000957365    -0.000431607        -0.769254        0.510554      0.000562162     0.000134809
                    -0.000813279    -0.000465968        -0.225019       -0.256669     -3.77536e-05     0.000334696        -0.927667       -0.057131
                       -0.769357        0.511004     -0.000117096     0.000425923         -0.23353        0.136863      0.000564225    -0.000780157
                     0.000351444     0.000401851         -0.92773      -0.0568409      0.000687328    -0.000874343         0.256676       -0.212583
281700.9                0.202772       -0.221539     -0.000957312     -0.00043163        -0.769215        0.510593      0.000562067     0.000134821
                    -0.000813316    -0.000465964        -0.225019       -0.256665     -3.77508e-05     0.000334721        -0.927671      -0.0570957
                       -0.769317        0.511043     -0.000117175     0.000425976        -0.233532        0.136902       0.00056426    -0.000780255
                     0.000351418     0.000401847        -0.927734      -0.0568055      0.000687264    -0.000874388         0.256658         -0.2126
281701                  0.202785        -0.22156     -0.000957309    -0.000431565        -0.769175        0.510632      0.000561972     0.000134833
                    -0.000813354     -0.00046596        -0.225018       -0.256661     -3.77481e-05     0.000334746        -0.927675      -0.0570603
                       -0.769278        0.511082     -0.000117226     0.000426012        -0.233534        0.136941      0.000564295    -0.000780352
                     0.000351391     0.000401843        -0.927738      -0.0567702        0.0006872    -0.000874434         0.256641       -0.212617
281701.1                0.202799       -0.221581     -0.000957357     -0.00043141        -0.769135        0.510671      0.000561877     0.000134845
                    -0.000813391    -0.000465956        -0.225018       -0.256657     -3.77454e-05     0.000334771        -0.927679       -0.057025
                       -0.769238        0.511121     -0.000117247     0.000426033        -0.233535         0.13698      0.000564331    -0.000780449
                     0.000351364     0.000401839        -0.927742      -0.0567348      0.000687135    -0.000874481         0.256623       -0.212635
281701.2                0.202812       -0.221602     -0.000957456    -0.000431164        -0.769096         0.51071      0.000561782     0.000134857
                    -0.000813428    -0.000465952        -0.225018       -0.256653     -3.77428e-05     0.000334795        -0.927683      -0.0569896
                       -0.769199         0.51116     -0.000117238     0.000426038        -0.233537        0.137019      0.000564366    -0.000780547
                     0.000351338     0.000401835        -0.927746      -0.0566994      0.000687071    -0.000874529         0.256605       -0.212652
281701.3                0.202825       -0.221622     -0.000957607    -0.000430823        -0.769056        0.510749      0.000561687     0.000134869
                    -0.000813466    -0.000465948        -0.225017       -0.256649     -3.77402e-05     0.000334819        -0.927687      -0.0569543
                       -0.769159        0.511199     -0.000117199     0.000426027        -0.233539        0.137058      0.000564401    -0.000780644
                     0.000351311     0.000401831         -0.92775      -0.0566641      0.000687007    -0.000874578         0.256587       -0.212669
281701.4                0.202838       -0.221643      -0.00095781    -0.000430387        -0.769016        0.510788      0.000561592     0.000134882
                    -0.000813503    -0.000465944        -0.225017       -0.256646     -3.77375e-05     0.000334842        -0.927691      -0.0569189
                       -0.769119        0.511238     -0.000117129     0.000425999        -0.233541        0.137097      0.000564436    -0.000780742
                     0.000351285     0.000401827        -0.927754      -0.0566287      0.000686943    -0.000874628         0.256569       -0.212687
281701.5                0.202852       -0.221664     -0.000958064    -0.000429855        -0.768977        0.510827      0.000561497     0.000134894
                    -0.000813541     -0.00046594        -0.225017       -0.256642     -3.77348e-05     0.000334865        -0.927695      -0.0568836
                        -0.76908        0.511277     -0.000117027     0.000425954        -0.233543        0.137136      0.000564472     -0.00078084
                     0.000351258     0.000401823        -0.927758      -0.0565933      0.000686879    -0.000874679         0.256551       -0.212704
281701.6                0.202865       -0.221685     -0.000958369    -0.000429224        -0.768937        0.510866      0.000561402     0.000134906
                    -0.000813578    -0.000465936        -0.225017       -0.256638     -3.77321e-05     0.000334888        -0.927699      -0.0568482
                        -0.76904        0.511316     -0.000116893     0.000425893        -0.233545        0.137175      0.000564507    -0.000780937
                     0.000351232     0.000401819        -0.927762       -0.056558      0.000686816    -0.000874731         0.256533       -0.212721
281701.7                0.202878       -0.221705     -0.000958724    -0.000428494        -0.768897        0.510904      0.000561307     0.000134919
                    -0.000813616    -0.000465931        -0.225016       -0.256634     -3.77293e-05      0.00033491        -0.927703      -0.0568129
                          -0.769        0.511355     -0.000116727     0.000425814        -0.233547        0.137214      0.000564543    -0.000781035
                     0.000351205     0.000401815        -0.927766      -0.0565226      0.000686754    -0.000874784         0.256515       -0.212738
281701.8                0.202892       -0.221726     -0.000959128    -0.000427664        -0.768858        0.510943      0.000561212     0.000134931
                    -0.000813653    -0.000465927        -0.225016        -0.25663     -3.77264e-05     0.000334932        -0.927707      -0.0567775
                        -0.76896        0.511394     -0.000116527     0.000425719        -0.233548        0.137253      0.000564578    -0.000781133
                     0.000351179     0.000401811         -0.92777      -0.0564872      0.000686692    -0.000874838         0.256497       -0.212756
281701.9                0.202905       -0.221747     -0.000959579    -0.000426733        -0.768818        0.510982      0.000561117     0.000134944
                    -0.000813691    -0.000465923        -0.225016       -0.256626     -3.77235e-05     0.000334954        -0.927711      -0.0567422
                       -0.768921        0.511433     -0.000116295     0.000425608         -0.23355        0.137293      0.000564614    -0.000781231
                     0.000351152     0.000401807        -0.927774      -0.0564518      0.000686631    -0.000874892          0.25648       -0.212773
281702                  0.202918       -0.221768     -0.000960076    -0.000425702        -0.768778        0.511021      0.000561022     0.000134957
                    -0.000813729    -0.000465918        -0.225015       -0.256622     -3.77204e-05     0.000334975        -0.927715      -0.0567069
                       -0.768881        0.511472     -0.000116029     0.000425479        -0.233552        0.137332      0.000564649    -0.000781329
                     0.000351126     0.000401803        -0.927778      -0.0564165      0.000686571    -0.000874948         0.256462        -0.21279
281702.1                0.202931       -0.221788     -0.000960614     -0.00042457        -0.768739         0.51106      0.000560927     0.000134969
                    -0.000813766    -0.000465914        -0.225015       -0.256618     -3.77173e-05     0.000334996        -0.927719      -0.0566715
                       -0.768841        0.511511      -0.00011573     0.000425335        -0.233554        0.137371      0.000564685    -0.000781427
                       0.0003511     0.000401798        -0.927782      -0.0563811      0.000686512    -0.000875003         0.256444       -0.212808
281702.2                0.202945       -0.221809     -0.000961193    -0.000423337        -0.768699        0.511099      0.000560832     0.000134982
                    -0.000813804     -0.00046591        -0.225015       -0.256614      -3.7714e-05     0.000335017        -0.927723      -0.0566362
                       -0.768802         0.51155     -0.000115398     0.000425175        -0.233556         0.13741       0.00056472    -0.000781525
                     0.000351074     0.000401794        -0.927786      -0.0563457      0.000686455    -0.000875059         0.256426       -0.212825
281702.3                0.202958        -0.22183     -0.000961809    -0.000422004        -0.768659        0.511138      0.000560737     0.000134995
                    -0.000813842    -0.000465905        -0.225014       -0.256611     -3.77106e-05     0.000335038        -0.927727      -0.0566008
                       -0.768762        0.511589     -0.000115032     0.000424998        -0.233557        0.137449      0.000564756    -0.000781623
                     0.000351047      0.00040179         -0.92779      -0.0563103      0.000686398    -0.000875116         0.256408       -0.212842
281702.4                0.202971       -0.221851     -0.000962459    -0.000420572        -0.768619        0.511177      0.000560642     0.000135008
                    -0.000813879    -0.000465901        -0.225014       -0.256607     -3.77072e-05     0.000335059        -0.927731      -0.0565655
                       -0.768722        0.511628     -0.000114634     0.000424807        -0.233559        0.137488      0.000564792    -0.000781721
                     0.000351021     0.000401785        -0.927794      -0.0562749      0.000686342    -0.000875172          0.25639       -0.212859
281702.5                0.202985       -0.221872     -0.000963139    -0.000419042         -0.76858        0.511216      0.000560547     0.000135021
                    -0.000813917    -0.000465896        -0.225014       -0.256603     -3.77036e-05     0.000335079        -0.927735      -0.0565301
                       -0.768682        0.511666     -0.000114204     0.000424601        -0.233561        0.137527      0.000564827     -0.00078182
                     0.000350995     0.000401781        -0.927798      -0.0562395      0.000686287    -0.000875229         0.256372       -0.212877
281702.6                0.202998       -0.221892     -0.000963845    -0.000417415         -0.76854        0.511255      0.000560452     0.000135033
                    -0.000813955    -0.000465892        -0.225014       -0.256599     -3.76998e-05       0.0003351        -0.927739      -0.0564948
                       -0.768643        0.511705     -0.000113741      0.00042438        -0.233563        0.137566      0.000564863    -0.000781918
                     0.000350969     0.000401776        -0.927802      -0.0562041      0.000686233    -0.000875285         0.256354       -0.212894
281702.7                0.203011       -0.221913     -0.000964574    -0.000415694          -0.7685        0.511294      0.000560357     0.000135046
                    -0.000813993    -0.000465888        -0.225013       -0.256595      -3.7696e-05      0.00033512        -0.927743      -0.0564595
                       -0.768603        0.511744     -0.000113247     0.000424145        -0.233565        0.137605      0.000564899    -0.000782017
                     0.000350943     0.000401771        -0.927806      -0.0561687       0.00068618    -0.000875342         0.256336       -0.212911
281702.8                0.203024       -0.221934     -0.000965322    -0.000413881         -0.76846        0.511333      0.000560262     0.000135059
                    -0.000814031    -0.000465883        -0.225013       -0.256591     -3.76921e-05      0.00033514        -0.927747      -0.0564241
                       -0.768563        0.511783     -0.000112722     0.000423898        -0.233566        0.137644      0.000564935    -0.000782115
                     0.000350917     0.000401767         -0.92781      -0.0561334      0.000686128    -0.000875398         0.256318       -0.212928
281702.9                0.203038       -0.221955     -0.000966083    -0.000411977        -0.768421        0.511372      0.000560166     0.000135073
                    -0.000814069    -0.000465879        -0.225013       -0.256587      -3.7688e-05     0.000335159        -0.927751      -0.0563888
                       -0.768523        0.511822     -0.000112167     0.000423638        -0.233568        0.137683       0.00056497    -0.000782214
                     0.000350891     0.000401762        -0.927814       -0.056098      0.000686077    -0.000875453         0.256301       -0.212946
281703                  0.203051       -0.221976     -0.000966855    -0.000409987        -0.768381        0.511411      0.000560071     0.000135086
                    -0.000814106    -0.000465874        -0.225012       -0.256583     -3.76838e-05     0.000335179        -0.927755      -0.0563534
                       -0.768484        0.511861     -0.000111583     0.000423365         -0.23357        0.137722      0.000565006    -0.000782312
                     0.000350865     0.000401757        -0.927818      -0.0560625      0.000686027    -0.000875509         0.256283       -0.212963
281703.1                0.203064       -0.221996     -0.000967632    -0.000407912        -0.768341         0.51145      0.000559976     0.000135099
                    -0.000814144     -0.00046587        -0.225012       -0.256579     -3.76796e-05     0.000335199        -0.927759      -0.0563181
                       -0.768444          0.5119      -0.00011097     0.000423082        -0.233572        0.137762      0.000565042    -0.000782411
