! TOUCHSTONE file generated by CST MICROWAVE STUDIO
! Date and time: Wed Oct  8 07:05:22 2025
! Project name: Teste_Macro_Metasurface_Nanopilar.cst
! Parameters = {H=600; L_x=190; L_y=180; Lambda=1064; Max_L=200; Min_L=70; PathPara=1; Phi=0; Step_L=10; Theta=0; p=520; phaseX=180; phaseY=0}
! Header version: 2018
! Port assignment regex: !\s*Touchstone port\s*([0-9]+)\s*=\s*(CST MWS port|CST DS port)\s*([0-9]+|Zmin|Zmax)\s*\(\"(.*)\"\)(\s*mode\s*([0-9]+))?.*
! Touchstone port assignment:
! Touchstone port 1 = CST MWS port Zmax ("") mode 1
! Touchstone port 2 = CST MWS port Zmax ("") mode 2
! Touchstone port 3 = CST MWS port Zmin ("") mode 1
! Touchstone port 4 = CST MWS port Zmin ("") mode 2
! S-Parameters are not renormalized. Each port impedance will be approximated by the real part at minimum frequency. The values are described via the [Reference] keyword.
! Default impedance is overridden by [Reference]
[Version] 2.0
# GHz S RI R 376.73
[Number of Ports] 4
[Reference]
376.73 376.73 376.73 376.73 
[Number of Frequencies] 1001
[Network Data]
281700                 -0.150392       -0.199186      0.000568563      0.00033598        -0.958502        0.108196     -0.000476904    -0.000691701
                     0.000438124     0.000210686        -0.347409       -0.709417     -0.000111382    -0.000754907        -0.465498       -0.181115
                       -0.958578        0.108442     -0.000417406    -0.000628805        0.0994694       -0.226748     -0.000416867     0.000985173
                    -0.000146494     -0.00111273         -0.46571       -0.181033      -0.00023903      0.00106264         0.749441      0.00280281
281700.1               -0.150396       -0.199188      0.000568624     0.000335952        -0.958497        0.108225      -0.00047692    -0.000691651
                     0.000438155     0.000210756        -0.347452       -0.709358     -0.000111485    -0.000754908         -0.46558       -0.181107
                       -0.958574        0.108471     -0.000417433    -0.000628736        0.0994593       -0.226758     -0.000416801     0.000985134
                    -0.000146655     -0.00111267        -0.465792       -0.181025     -0.000239014      0.00106267         0.749411      0.00267435
281700.2               -0.150401       -0.199191      0.000568686     0.000335923        -0.958493        0.108254     -0.000476936    -0.000691601
                     0.000438185     0.000210825        -0.347496       -0.709298     -0.000111589    -0.000754909        -0.465663         -0.1811
                       -0.958569          0.1085     -0.000417459    -0.000628667        0.0994492       -0.226767     -0.000416736     0.000985094
                    -0.000146816     -0.00111261        -0.465875       -0.181017     -0.000238997      0.00106271         0.749381      0.00254591
281700.3               -0.150405       -0.199193      0.000568747     0.000335895        -0.958488        0.108283     -0.000476951    -0.000691551
                     0.000438215     0.000210895        -0.347539       -0.709239     -0.000111693     -0.00075491        -0.465745       -0.181092
                       -0.958565        0.108529     -0.000417486    -0.000628597        0.0994391       -0.226777      -0.00041667     0.000985055
                    -0.000146978     -0.00111255        -0.465957       -0.181009     -0.000238981      0.00106274         0.749351       0.0024175
281700.4               -0.150409       -0.199196      0.000568808     0.000335866        -0.958484        0.108312     -0.000476967    -0.000691501
                     0.000438245     0.000210965        -0.347583        -0.70918     -0.000111796    -0.000754911        -0.465828       -0.181084
                        -0.95856        0.108558     -0.000417512    -0.000628528         0.099429       -0.226787     -0.000416604     0.000985015
                    -0.000147139     -0.00111248         -0.46604       -0.181001     -0.000238964      0.00106278         0.749321       0.0022891
281700.5               -0.150414       -0.199199       0.00056887     0.000335838        -0.958479        0.108341     -0.000476983     -0.00069145
                     0.000438276     0.000211035        -0.347626        -0.70912       -0.0001119    -0.000754912         -0.46591       -0.181076
                       -0.958556        0.108587     -0.000417538    -0.000628459        0.0994189       -0.226796     -0.000416538     0.000984976
                    -0.000147302     -0.00111242        -0.466122       -0.180993     -0.000238947      0.00106281         0.749291      0.00216073
281700.6               -0.150418       -0.199201      0.000568931     0.000335809        -0.958474         0.10837     -0.000476998      -0.0006914
                     0.000438306     0.000211105         -0.34767       -0.709061     -0.000112004    -0.000754913        -0.465993       -0.181068
                       -0.958551        0.108616     -0.000417564     -0.00062839        0.0994088       -0.226806     -0.000416472     0.000984936
                    -0.000147464     -0.00111236        -0.466204       -0.180985      -0.00023893      0.00106285         0.749261      0.00203238
281700.7               -0.150422       -0.199204      0.000568991     0.000335781         -0.95847        0.108398     -0.000477014     -0.00069135
                     0.000438337     0.000211176        -0.347713       -0.709001     -0.000112108    -0.000754913        -0.466075        -0.18106
                       -0.958547        0.108645      -0.00041759    -0.000628321        0.0993987       -0.226816     -0.000416406     0.000984896
                    -0.000147627      -0.0011123        -0.466287       -0.180977     -0.000238913      0.00106288         0.749231      0.00190405
281700.8               -0.150427       -0.199206      0.000569052     0.000335752        -0.958465        0.108427     -0.000477029      -0.0006913
                     0.000438367     0.000211246        -0.347757       -0.708942     -0.000112212    -0.000754914        -0.466158       -0.181052
                       -0.958542        0.108674     -0.000417616    -0.000628253        0.0993887       -0.226825     -0.000416339     0.000984856
                     -0.00014779     -0.00111224        -0.466369       -0.180969     -0.000238896      0.00106292           0.7492      0.00177574
281700.9               -0.150431       -0.199209      0.000569113     0.000335724        -0.958461        0.108456     -0.000477045     -0.00069125
                     0.000438398     0.000211317          -0.3478       -0.708883     -0.000112316    -0.000754914         -0.46624       -0.181044
                       -0.958538        0.108703     -0.000417641    -0.000628184        0.0993786       -0.226835     -0.000416273     0.000984816
                    -0.000147953     -0.00111217        -0.466452       -0.180961     -0.000238878      0.00106295          0.74917      0.00164746
281701                 -0.150435       -0.199212      0.000569173     0.000335695        -0.958456        0.108485      -0.00047706    -0.000691199
                     0.000438429     0.000211388        -0.347844       -0.708823      -0.00011242    -0.000754915        -0.466323       -0.181036
                       -0.958533        0.108732     -0.000417666    -0.000628115        0.0993685       -0.226845     -0.000416206     0.000984776
                    -0.000148117     -0.00111211        -0.466534       -0.180953     -0.000238861      0.00106299          0.74914      0.00151919
281701.1                -0.15044       -0.199214      0.000569233     0.000335667        -0.958452        0.108514     -0.000477075    -0.000691149
                     0.000438459     0.000211458        -0.347887       -0.708764     -0.000112525    -0.000754915        -0.466405       -0.181028
                       -0.958529        0.108761     -0.000417691    -0.000628046        0.0993584       -0.226854     -0.000416139     0.000984736
                    -0.000148281     -0.00111205        -0.466616       -0.180945     -0.000238843      0.00106303          0.74911      0.00139095
281701.2               -0.150444       -0.199217      0.000569293     0.000335638        -0.958447        0.108543     -0.000477091    -0.000691099
                      0.00043849     0.000211529        -0.347931       -0.708705     -0.000112629    -0.000754915        -0.466487        -0.18102
                       -0.958524         0.10879     -0.000417716    -0.000627978        0.0993483       -0.226864     -0.000416072     0.000984695
                    -0.000148445     -0.00111198        -0.466699       -0.180937     -0.000238825      0.00106306          0.74908      0.00126274
281701.3               -0.150448       -0.199219      0.000569353      0.00033561        -0.958443        0.108571     -0.000477106    -0.000691048
                     0.000438521     0.000211601        -0.347974       -0.708645     -0.000112734    -0.000754915         -0.46657       -0.181012
                       -0.958519        0.108818     -0.000417741    -0.000627909        0.0993382       -0.226874     -0.000416004     0.000984655
                     -0.00014861     -0.00111192        -0.466781       -0.180929     -0.000238807       0.0010631         0.749049      0.00113454
281701.4               -0.150453       -0.199222      0.000569413     0.000335582        -0.958438          0.1086     -0.000477121    -0.000690998
                     0.000438552     0.000211672        -0.348017       -0.708586     -0.000112838    -0.000754915        -0.466652       -0.181004
                       -0.958515        0.108847     -0.000417765     -0.00062784        0.0993281       -0.226883     -0.000415937     0.000984614
                    -0.000148775     -0.00111186        -0.466863       -0.180921     -0.000238789      0.00106313         0.749019      0.00100637
281701.5               -0.150457       -0.199225      0.000569472     0.000335553        -0.958434        0.108629     -0.000477136    -0.000690947
                     0.000438584     0.000211743        -0.348061       -0.708527     -0.000112943    -0.000754915        -0.466735       -0.180995
                        -0.95851        0.108876      -0.00041779    -0.000627772         0.099318       -0.226893     -0.000415869     0.000984574
                     -0.00014894     -0.00111179        -0.466946       -0.180913     -0.000238771      0.00106317         0.748989     0.000878214
281701.6               -0.150461       -0.199227      0.000569532     0.000335525        -0.958429        0.108658     -0.000477151    -0.000690897
                     0.000438615     0.000211815        -0.348104       -0.708467     -0.000113047    -0.000754915        -0.466817       -0.180987
                       -0.958506        0.108905     -0.000417814    -0.000627703        0.0993079       -0.226903     -0.000415801     0.000984533
                    -0.000149105     -0.00111173        -0.467028       -0.180904     -0.000238752      0.00106321         0.748959     0.000750085
281701.7               -0.150466        -0.19923      0.000569591     0.000335496        -0.958425        0.108687     -0.000477166    -0.000690846
                     0.000438646     0.000211886        -0.348147       -0.708408     -0.000113152    -0.000754914        -0.466899       -0.180979
                       -0.958501        0.108934     -0.000417838    -0.000627635        0.0992978       -0.226912     -0.000415733     0.000984492
                    -0.000149271     -0.00111166         -0.46711       -0.180896     -0.000238734      0.00106324         0.748928     0.000621978
281701.8                -0.15047       -0.199232      0.000569651     0.000335468         -0.95842        0.108716     -0.000477181    -0.000690795
                     0.000438677     0.000211958        -0.348191       -0.708348     -0.000113257    -0.000754914        -0.466982       -0.180971
                       -0.958497        0.108963     -0.000417862    -0.000627567        0.0992877       -0.226922     -0.000415665     0.000984451
                    -0.000149438      -0.0011116        -0.467192       -0.180888     -0.000238715      0.00106328         0.748898     0.000493893
281701.9               -0.150474       -0.199235       0.00056971      0.00033544        -0.958416        0.108745     -0.000477196    -0.000690745
                     0.000438709      0.00021203        -0.348234       -0.708289     -0.000113362    -0.000754913        -0.467064       -0.180963
                       -0.958492        0.108992     -0.000417885    -0.000627498        0.0992776       -0.226932     -0.000415597      0.00098441
                    -0.000149604     -0.00111153        -0.467275        -0.18088     -0.000238696      0.00106332         0.748867      0.00036583
281702                 -0.150479       -0.199237      0.000569768     0.000335411        -0.958411        0.108773     -0.000477211    -0.000690694
                      0.00043874     0.000212102        -0.348277        -0.70823     -0.000113467    -0.000754912        -0.467146       -0.180954
                       -0.958488        0.109021     -0.000417909     -0.00062743        0.0992675       -0.226941     -0.000415528     0.000984369
                    -0.000149771     -0.00111147        -0.467357       -0.180872     -0.000238677      0.00106335         0.748837      0.00023779
281702.1               -0.150483        -0.19924      0.000569827     0.000335383        -0.958407        0.108802     -0.000477226    -0.000690643
                     0.000438772     0.000212174         -0.34832        -0.70817     -0.000113572    -0.000754911        -0.467229       -0.180946
                       -0.958483         0.10905     -0.000417932    -0.000627362        0.0992574       -0.226951     -0.000415459     0.000984328
                    -0.000149938      -0.0011114        -0.467439       -0.180863     -0.000238658      0.00106339         0.748807     0.000109771
281702.2               -0.150487       -0.199243      0.000569886     0.000335354        -0.958402        0.108831      -0.00047724    -0.000690593
                     0.000438804     0.000212246        -0.348364       -0.708111     -0.000113677     -0.00075491        -0.467311       -0.180938
                       -0.958479        0.109079     -0.000417955    -0.000627294        0.0992472       -0.226961      -0.00041539     0.000984286
                    -0.000150105     -0.00111134        -0.467521       -0.180855     -0.000238639      0.00106343         0.748776     -1.8225e-05
281702.3               -0.150492       -0.199245      0.000569944     0.000335326        -0.958398         0.10886     -0.000477255    -0.000690542
                     0.000438836     0.000212319        -0.348407       -0.708052     -0.000113782    -0.000754909        -0.467393        -0.18093
                       -0.958474        0.109108     -0.000417978    -0.000627225        0.0992371        -0.22697     -0.000415321     0.000984245
                    -0.000150273     -0.00111127        -0.467604       -0.180847      -0.00023862      0.00106346         0.748746    -0.000146199
281702.4               -0.150496       -0.199248      0.000570003     0.000335298        -0.958393        0.108889      -0.00047727    -0.000690491
                     0.000438867     0.000212391         -0.34845       -0.707992     -0.000113888    -0.000754908        -0.467476       -0.180921
                        -0.95847        0.109137     -0.000418001    -0.000627157         0.099227        -0.22698     -0.000415252     0.000984203
                    -0.000150441      -0.0011112        -0.467686       -0.180839       -0.0002386       0.0010635         0.748715    -0.000274151
281702.5                 -0.1505        -0.19925      0.000570061     0.000335269        -0.958389        0.108918     -0.000477284     -0.00069044
                     0.000438899     0.000212464        -0.348493       -0.707933     -0.000113993    -0.000754907        -0.467558       -0.180913
                       -0.958465        0.109166     -0.000418024    -0.000627089        0.0992169       -0.226989     -0.000415183     0.000984161
                     -0.00015061     -0.00111114        -0.467768        -0.18083      -0.00023858      0.00106354         0.748685     -0.00040208
281702.6               -0.150505       -0.199253      0.000570119     0.000335241        -0.958384        0.108947     -0.000477299    -0.000690389
                     0.000438931     0.000212537        -0.348536       -0.707874     -0.000114098    -0.000754906         -0.46764       -0.180904
                       -0.958461        0.109195     -0.000418046    -0.000627021        0.0992068       -0.226999     -0.000415113      0.00098412
                    -0.000150779     -0.00111107         -0.46785       -0.180822      -0.00023856      0.00106357         0.748654    -0.000529987
281702.7               -0.150509       -0.199256      0.000570177     0.000335213         -0.95838        0.108975     -0.000477313    -0.000690338
                     0.000438963      0.00021261        -0.348579       -0.707814     -0.000114204    -0.000754904        -0.467722       -0.180896
                       -0.958456        0.109224     -0.000418069    -0.000626954        0.0991967       -0.227009     -0.000415043     0.000984078
                    -0.000150948     -0.00111101        -0.467932       -0.180813      -0.00023854      0.00106361         0.748623    -0.000657873
281702.8               -0.150513       -0.199258      0.000570235     0.000335184        -0.958375        0.109004     -0.000477328    -0.000690287
                     0.000438996     0.000212683        -0.348622       -0.707755      -0.00011431    -0.000754902        -0.467805       -0.180888
                       -0.958451        0.109252     -0.000418091    -0.000626886        0.0991866       -0.227018     -0.000414973     0.000984036
                    -0.000151117     -0.00111094        -0.468015       -0.180805      -0.00023852      0.00106365         0.748593    -0.000785735
281702.9               -0.150518       -0.199261      0.000570292     0.000335156         -0.95837        0.109033     -0.000477342    -0.000690236
                     0.000439028     0.000212756        -0.348666       -0.707696     -0.000114415    -0.000754901        -0.467887       -0.180879
                       -0.958447        0.109281     -0.000418113    -0.000626818        0.0991765       -0.227028     -0.000414903     0.000983994
                    -0.000151287     -0.00111087        -0.468097       -0.180797       -0.0002385      0.00106369         0.748562    -0.000913576
281703                 -0.150522       -0.199263       0.00057035     0.000335128        -0.958366        0.109062     -0.000477356    -0.000690185
                      0.00043906     0.000212829        -0.348709       -0.707637     -0.000114521    -0.000754899        -0.467969       -0.180871
                       -0.958442         0.10931     -0.000418135     -0.00062675        0.0991664       -0.227038     -0.000414833     0.000983951
                    -0.000151457      -0.0011108        -0.468179       -0.180788     -0.000238479      0.00106372         0.748532     -0.00104139
281703.1               -0.150526       -0.199266      0.000570407       0.0003351        -0.958361        0.109091      -0.00047737    -0.000690134
                     0.000439093     0.000212903        -0.348752       -0.707577     -0.000114627    -0.000754897        -0.468051       -0.180862
                       -0.958438        0.109339     -0.000418156    -0.000626683        0.0991563       -0.227047     -0.000414762     0.000983909
