! TOUCHSTONE file generated by CST MICROWAVE STUDIO
! Date and time: Wed Oct  8 06:57:50 2025
! Project name: Teste_Macro_Metasurface_Nanopilar.cst
! Parameters = {H=600; L_x=130; L_y=95; Lambda=1064; Max_L=200; Min_L=70; PathPara=1; Phi=0; Step_L=10; Theta=0; p=520; phaseX=180; phaseY=0}
! Header version: 2018
! Port assignment regex: !\s*Touchstone port\s*([0-9]+)\s*=\s*(CST MWS port|CST DS port)\s*([0-9]+|Zmin|Zmax)\s*\(\"(.*)\"\)(\s*mode\s*([0-9]+))?.*
! Touchstone port assignment:
! Touchstone port 1 = CST MWS port Zmax ("") mode 1
! Touchstone port 2 = CST MWS port Zmax ("") mode 2
! Touchstone port 3 = CST MWS port Zmin ("") mode 1
! Touchstone port 4 = CST MWS port Zmin ("") mode 2
! S-Parameters are not renormalized. Each port impedance will be approximated by the real part at minimum frequency. The values are described via the [Reference] keyword.
! Default impedance is overridden by [Reference]
[Version] 2.0
# GHz S RI R 376.73
[Number of Ports] 4
[Reference]
376.73 376.73 376.73 376.73 
[Number of Frequencies] 1001
[Network Data]
281700                 -0.102782       -0.174223     -0.000882838     0.000239866        -0.420963        0.881145     -0.000506199    -0.000447801
                     -0.00102056     0.000429158         0.101387       0.0736057     -7.17812e-05     0.000466544         0.978778      -0.0766271
                       -0.420868         0.88105     -0.000172474     0.000559798         -0.20044       0.0301589     -0.000764446     0.000549068
                    -0.000637106    -0.000308296          0.97862      -0.0768634     -0.000659781     0.000579769       -0.0942583       0.0899401
281700.1               -0.102789       -0.174218     -0.000882837     0.000239899        -0.420938        0.881157     -0.000506215    -0.000447785
                     -0.00102055     0.000429202         0.101389       0.0735961     -7.17599e-05     0.000466547         0.978776      -0.0766617
                       -0.420843        0.881062     -0.000172453     0.000559808        -0.200439       0.0301626     -0.000764428     0.000549087
                    -0.000637121    -0.000308264         0.978618      -0.0768981     -0.000659761     0.000579784       -0.0942548       0.0899373
281700.2               -0.102796       -0.174214     -0.000882836     0.000239932        -0.420913        0.881169     -0.000506232    -0.000447769
                     -0.00102054     0.000429245          0.10139       0.0735866     -7.17386e-05      0.00046655         0.978773      -0.0766964
                       -0.420818        0.881074     -0.000172432     0.000559819        -0.200438       0.0301663     -0.000764409     0.000549105
                    -0.000637135    -0.000308231         0.978616      -0.0769328      -0.00065974     0.000579799       -0.0942514       0.0899346
281700.3               -0.102802        -0.17421     -0.000882836     0.000239965        -0.420888        0.881181     -0.000506249    -0.000447753
                     -0.00102054     0.000429289         0.101392       0.0735771     -7.17173e-05     0.000466554         0.978771      -0.0767311
                       -0.420793        0.881086      -0.00017241      0.00055983        -0.200438       0.0301699     -0.000764391     0.000549124
                     -0.00063715    -0.000308198         0.978614      -0.0769675     -0.000659719     0.000579815        -0.094248       0.0899318
281700.4               -0.102809       -0.174206     -0.000882835     0.000239998        -0.420864        0.881193     -0.000506266    -0.000447737
                     -0.00102053     0.000429332         0.101393       0.0735675     -7.16959e-05     0.000466557         0.978769      -0.0767658
                       -0.420768        0.881098     -0.000172389     0.000559841        -0.200437       0.0301736     -0.000764372     0.000549143
                    -0.000637164    -0.000308166         0.978611      -0.0770022     -0.000659698      0.00057983       -0.0942446       0.0899291
281700.5               -0.102815       -0.174202     -0.000882834     0.000240031        -0.420839        0.881205     -0.000506283    -0.000447721
                     -0.00102052     0.000429376         0.101395        0.073558     -7.16746e-05      0.00046656         0.978767      -0.0768005
                       -0.420743         0.88111     -0.000172368     0.000559851        -0.200436       0.0301773     -0.000764354     0.000549162
                    -0.000637179    -0.000308133         0.978609      -0.0770369     -0.000659677     0.000579845       -0.0942411       0.0899264
281700.6               -0.102822       -0.174198     -0.000882833     0.000240064        -0.420814        0.881217       -0.0005063    -0.000447705
                     -0.00102051     0.000429419         0.101396       0.0735485     -7.16533e-05     0.000466564         0.978765      -0.0768351
                       -0.420718        0.881122     -0.000172346     0.000559862        -0.200435        0.030181     -0.000764336      0.00054918
                    -0.000637194    -0.000308101         0.978607      -0.0770716     -0.000659657      0.00057986       -0.0942377       0.0899236
281700.7               -0.102828       -0.174194     -0.000882833     0.000240097        -0.420789        0.881229     -0.000506317    -0.000447689
                      -0.0010205     0.000429462         0.101397        0.073539     -7.16319e-05     0.000466567         0.978763      -0.0768698
                       -0.420693        0.881134     -0.000172325     0.000559873        -0.200435       0.0301847     -0.000764317     0.000549199
                    -0.000637208    -0.000308068         0.978605      -0.0771063     -0.000659636     0.000579875       -0.0942343       0.0899209
281700.8               -0.102835        -0.17419     -0.000882832      0.00024013        -0.420764        0.881241     -0.000506334    -0.000447672
                     -0.00102049     0.000429506         0.101399       0.0735294     -7.16106e-05      0.00046657          0.97876      -0.0769045
                       -0.420668        0.881146     -0.000172303     0.000559883        -0.200434       0.0301883     -0.000764299     0.000549218
                    -0.000637223    -0.000308035         0.978603       -0.077141     -0.000659615      0.00057989       -0.0942309       0.0899181
281700.9               -0.102841       -0.174186     -0.000882831     0.000240164        -0.420739        0.881253     -0.000506351    -0.000447656
                     -0.00102048     0.000429549           0.1014       0.0735199     -7.15893e-05     0.000466573         0.978758      -0.0769392
                       -0.420643        0.881158     -0.000172282     0.000559894        -0.200433        0.030192      -0.00076428     0.000549237
                    -0.000637237    -0.000308003         0.978601      -0.0771757     -0.000659594     0.000579905       -0.0942274       0.0899154
281701                 -0.102848       -0.174182      -0.00088283     0.000240197        -0.420714        0.881265     -0.000506368     -0.00044764
                     -0.00102047     0.000429593         0.101402       0.0735104     -7.15679e-05     0.000466577         0.978756      -0.0769739
                       -0.420618         0.88117     -0.000172261     0.000559905        -0.200432       0.0301957     -0.000764262     0.000549255
                    -0.000637252     -0.00030797         0.978598      -0.0772104     -0.000659574      0.00057992        -0.094224       0.0899127
281701.1               -0.102854       -0.174178      -0.00088283      0.00024023        -0.420689        0.881277     -0.000506385    -0.000447624
                     -0.00102046     0.000429636         0.101403       0.0735008     -7.15466e-05      0.00046658         0.978754      -0.0770085
                       -0.420593        0.881182     -0.000172239     0.000559915        -0.200432       0.0301994     -0.000764244     0.000549274
                    -0.000637266    -0.000307938         0.978596      -0.0772451     -0.000659553     0.000579935       -0.0942206       0.0899099
281701.2               -0.102861       -0.174174     -0.000882829     0.000240263        -0.420664        0.881289     -0.000506402    -0.000447608
                     -0.00102045      0.00042968         0.101405       0.0734913     -7.15253e-05     0.000466583         0.978752      -0.0770432
                       -0.420568        0.881194     -0.000172218     0.000559926        -0.200431        0.030203     -0.000764225     0.000549293
                    -0.000637281    -0.000307905         0.978594      -0.0772797     -0.000659532      0.00057995       -0.0942172       0.0899072
281701.3               -0.102868        -0.17417     -0.000882828     0.000240296        -0.420639        0.881301     -0.000506419    -0.000447592
                     -0.00102044     0.000429723         0.101406       0.0734818      -7.1504e-05     0.000466587         0.978749      -0.0770779
                       -0.420543        0.881206     -0.000172197     0.000559937         -0.20043       0.0302067     -0.000764207     0.000549311
                    -0.000637296    -0.000307872         0.978592      -0.0773144     -0.000659511     0.000579966       -0.0942137       0.0899044
281701.4               -0.102874       -0.174166     -0.000882828     0.000240329        -0.420614        0.881312     -0.000506436    -0.000447576
                     -0.00102043     0.000429767         0.101407       0.0734723     -7.14826e-05      0.00046659         0.978747      -0.0771126
                       -0.420518        0.881218     -0.000172175     0.000559948        -0.200429       0.0302104     -0.000764188      0.00054933
                     -0.00063731     -0.00030784          0.97859      -0.0773491      -0.00065949     0.000579981       -0.0942103       0.0899017
281701.5               -0.102881       -0.174161     -0.000882827     0.000240362        -0.420589        0.881324     -0.000506453     -0.00044756
                     -0.00102042      0.00042981         0.101409       0.0734627     -7.14613e-05     0.000466593         0.978745      -0.0771473
                       -0.420494        0.881229     -0.000172154     0.000559958        -0.200428       0.0302141      -0.00076417     0.000549349
                    -0.000637325    -0.000307807         0.978587      -0.0773838      -0.00065947     0.000579996       -0.0942069        0.089899
281701.6               -0.102887       -0.174157     -0.000882826     0.000240395        -0.420564        0.881336      -0.00050647    -0.000447544
                     -0.00102042     0.000429854          0.10141       0.0734532       -7.144e-05     0.000466597         0.978743      -0.0771819
                       -0.420469        0.881241     -0.000172132     0.000559969        -0.200428       0.0302177     -0.000764152     0.000549368
                    -0.000637339    -0.000307775         0.978585      -0.0774185     -0.000659449     0.000580011       -0.0942035       0.0898962
281701.7               -0.102894       -0.174153     -0.000882825     0.000240428        -0.420539        0.881348     -0.000506487    -0.000447527
                     -0.00102041     0.000429897         0.101412       0.0734437     -7.14187e-05       0.0004666         0.978741      -0.0772166
                       -0.420444        0.881253     -0.000172111      0.00055998        -0.200427       0.0302214     -0.000764133     0.000549386
                    -0.000637354    -0.000307742         0.978583      -0.0774532     -0.000659428     0.000580026       -0.0942001       0.0898935
281701.8                 -0.1029       -0.174149     -0.000882825     0.000240462        -0.420514         0.88136     -0.000506504    -0.000447511
                      -0.0010204     0.000429941         0.101413       0.0734341     -7.13973e-05     0.000466603         0.978738      -0.0772513
                       -0.420419        0.881265      -0.00017209      0.00055999        -0.200426       0.0302251     -0.000764115     0.000549405
                    -0.000637368     -0.00030771         0.978581      -0.0774879     -0.000659407     0.000580041       -0.0941966       0.0898907
281701.9               -0.102907       -0.174145     -0.000882824     0.000240495        -0.420489        0.881372      -0.00050652    -0.000447495
                     -0.00102039     0.000429984         0.101415       0.0734246      -7.1376e-05     0.000466606         0.978736       -0.077286
                       -0.420394        0.881277     -0.000172068     0.000560001        -0.200425       0.0302288     -0.000764097     0.000549424
                    -0.000637383    -0.000307677         0.978579      -0.0775226     -0.000659387     0.000580056       -0.0941932        0.089888
281702                 -0.102913       -0.174141     -0.000882823     0.000240528        -0.420464        0.881384     -0.000506537    -0.000447479
                     -0.00102038     0.000430028         0.101416       0.0734151     -7.13547e-05      0.00046661         0.978734      -0.0773207
                       -0.420369        0.881289     -0.000172047     0.000560012        -0.200425       0.0302325     -0.000764078     0.000549443
                    -0.000637397    -0.000307644         0.978577      -0.0775573     -0.000659366     0.000580071       -0.0941898       0.0898853
281702.1                -0.10292       -0.174137     -0.000882822     0.000240561        -0.420439        0.881396     -0.000506554    -0.000447463
                     -0.00102037     0.000430071         0.101417       0.0734056     -7.13334e-05     0.000466613         0.978732      -0.0773553
                       -0.420344        0.881301     -0.000172026     0.000560022        -0.200424       0.0302361      -0.00076406     0.000549461
                    -0.000637412    -0.000307612         0.978574       -0.077592     -0.000659345     0.000580086       -0.0941864       0.0898825
281702.2               -0.102926       -0.174133     -0.000882822     0.000240594        -0.420414        0.881408     -0.000506571    -0.000447447
                     -0.00102036     0.000430115         0.101419        0.073396      -7.1312e-05     0.000466616          0.97873        -0.07739
                       -0.420319        0.881313     -0.000172004     0.000560033        -0.200423       0.0302398     -0.000764041      0.00054948
                    -0.000637426    -0.000307579         0.978572      -0.0776267     -0.000659324     0.000580101        -0.094183       0.0898798
281702.3               -0.102933       -0.174129     -0.000882821     0.000240627        -0.420389         0.88142     -0.000506588    -0.000447431
                     -0.00102035     0.000430158          0.10142       0.0733865     -7.12907e-05     0.000466619         0.978728      -0.0774247
                       -0.420294        0.881325     -0.000171983     0.000560044        -0.200422       0.0302435     -0.000764023     0.000549499
                    -0.000637441    -0.000307547          0.97857      -0.0776614     -0.000659303     0.000580117       -0.0941795        0.089877
281702.4               -0.102939       -0.174125      -0.00088282      0.00024066        -0.420364        0.881432     -0.000506605    -0.000447415
                     -0.00102034     0.000430201         0.101422        0.073377     -7.12694e-05     0.000466623         0.978725      -0.0774594
                       -0.420269        0.881337     -0.000171961     0.000560054        -0.200422       0.0302472     -0.000764005     0.000549518
                    -0.000637455    -0.000307514         0.978568      -0.0776961     -0.000659283     0.000580132       -0.0941761       0.0898743
281702.5               -0.102946       -0.174121     -0.000882819     0.000240693        -0.420339        0.881444     -0.000506622    -0.000447398
                     -0.00102033     0.000430245         0.101423       0.0733674     -7.12481e-05     0.000466626         0.978723      -0.0774941
                       -0.420244        0.881349      -0.00017194     0.000560065        -0.200421       0.0302508     -0.000763986     0.000549536
                     -0.00063747    -0.000307481         0.978566      -0.0777308     -0.000659262     0.000580147       -0.0941727       0.0898715
281702.6               -0.102953       -0.174117     -0.000882819     0.000240727        -0.420314        0.881456     -0.000506639    -0.000447382
                     -0.00102032     0.000430288         0.101424       0.0733579     -7.12268e-05     0.000466629         0.978721      -0.0775287
                       -0.420219        0.881361     -0.000171919     0.000560076         -0.20042       0.0302545     -0.000763968     0.000549555
                    -0.000637484    -0.000307449         0.978563      -0.0777655     -0.000659241     0.000580162       -0.0941693       0.0898688
281702.7               -0.102959       -0.174113     -0.000882818      0.00024076        -0.420289        0.881468     -0.000506656    -0.000447366
                     -0.00102031     0.000430332         0.101426       0.0733484     -7.12054e-05     0.000466633         0.978719      -0.0775634
                       -0.420194        0.881373     -0.000171897     0.000560087        -0.200419       0.0302582     -0.000763949     0.000549574
                    -0.000637499    -0.000307416         0.978561      -0.0778002      -0.00065922     0.000580177       -0.0941659       0.0898661
281702.8               -0.102966       -0.174108     -0.000882817     0.000240793        -0.420264         0.88148     -0.000506673     -0.00044735
                      -0.0010203     0.000430375         0.101427       0.0733389     -7.11841e-05     0.000466636         0.978717      -0.0775981
                       -0.420169        0.881385     -0.000171876     0.000560097        -0.200419       0.0302619     -0.000763931     0.000549593
                    -0.000637513    -0.000307384         0.978559      -0.0778349       -0.0006592     0.000580192       -0.0941624       0.0898633
281702.9               -0.102972       -0.174104     -0.000882816     0.000240826         -0.42024        0.881492      -0.00050669    -0.000447334
                     -0.00102029     0.000430419         0.101429       0.0733293     -7.11628e-05     0.000466639         0.978714      -0.0776328
                       -0.420144        0.881396     -0.000171854     0.000560108        -0.200418       0.0302655     -0.000763913     0.000549611
                    -0.000637528    -0.000307351         0.978557      -0.0778696     -0.000659179     0.000580207        -0.094159       0.0898606
281703                 -0.102979         -0.1741     -0.000882816     0.000240859        -0.420215        0.881503     -0.000506707    -0.000447318
                     -0.00102028     0.000430462          0.10143       0.0733198     -7.11415e-05     0.000466642         0.978712      -0.0776675
                       -0.420119        0.881408     -0.000171833     0.000560119        -0.200417       0.0302692     -0.000763894      0.00054963
                    -0.000637542    -0.000307318         0.978555      -0.0779043     -0.000659158     0.000580222       -0.0941556       0.0898578
281703.1               -0.102985       -0.174096     -0.000882815     0.000240892         -0.42019        0.881515     -0.000506724    -0.000447302
                     -0.00102028     0.000430506         0.101432       0.0733103     -7.11202e-05     0.000466646          0.97871      -0.0777021
                       -0.420094         0.88142     -0.000171812     0.000560129        -0.200416       0.0302729     -0.000763876     0.000549649
