! TOUCHSTONE file generated by CST MICROWAVE STUDIO
! Date and time: Wed Oct  8 06:53:59 2025
! Project name: Teste_Macro_Metasurface_Nanopilar.cst
! Parameters = {H=600; L_x=95; L_y=170; Lambda=1064; Max_L=200; Min_L=70; PathPara=1; Phi=0; Step_L=10; Theta=0; p=520; phaseX=180; phaseY=0}
! Header version: 2018
! Port assignment regex: !\s*Touchstone port\s*([0-9]+)\s*=\s*(CST MWS port|CST DS port)\s*([0-9]+|Zmin|Zmax)\s*\(\"(.*)\"\)(\s*mode\s*([0-9]+))?.*
! Touchstone port assignment:
! Touchstone port 1 = CST MWS port Zmax ("") mode 1
! Touchstone port 2 = CST MWS port Zmax ("") mode 2
! Touchstone port 3 = CST MWS port Zmin ("") mode 1
! Touchstone port 4 = CST MWS port Zmin ("") mode 2
! S-Parameters are not renormalized. Each port impedance will be approximated by the real part at minimum frequency. The values are described via the [Reference] keyword.
! Default impedance is overridden by [Reference]
[Version] 2.0
# GHz S RI R 376.73
[Number of Ports] 4
[Reference]
376.73 376.73 376.73 376.73 
[Number of Frequencies] 1001
[Network Data]
281700                  -0.10912      -0.0881629     -0.000333592     3.79682e-05        -0.722707       -0.668992       0.00038777     4.02818e-05
                    -0.000193082     3.88607e-05        -0.212436      -0.0593188      1.83879e-05       0.0004845         0.199616        0.949323
                       -0.722429       -0.668593     -8.27732e-05     0.000455902        0.0934681       0.0984501      2.29566e-06    -0.000411275
                     0.000204304    -8.36232e-05         0.199422        0.949622     -0.000180099     -0.00029772        -0.170984        0.139379
281700.1               -0.109116      -0.0881644     -0.000333591     3.79716e-05        -0.722729       -0.668968      0.000387773     4.02665e-05
                    -0.000193065     3.88451e-05        -0.212435       -0.059311      1.83983e-05     0.000484484         0.199646        0.949318
                       -0.722452       -0.668569       -8.276e-05     0.000455899        0.0934758       0.0984396      2.27273e-06    -0.000411287
                     0.000204271    -8.36095e-05         0.199451        0.949616     -0.000180117    -0.000297706        -0.170978        0.139382
281700.2               -0.109112      -0.0881658     -0.000333589     3.79749e-05        -0.722752       -0.668944      0.000387776     4.02511e-05
                    -0.000193047     3.88295e-05        -0.212434      -0.0593032      1.84087e-05     0.000484468         0.199675        0.949312
                       -0.722474       -0.668545     -8.27469e-05     0.000455897        0.0934836       0.0984291       2.2498e-06    -0.000411298
                     0.000204238    -8.35958e-05          0.19948        0.949611     -0.000180135    -0.000297691        -0.170972        0.139385
281700.3               -0.109108      -0.0881672     -0.000333587     3.79783e-05        -0.722774        -0.66892      0.000387779     4.02358e-05
                    -0.000193029     3.88139e-05        -0.212433      -0.0592954      1.84191e-05     0.000484452         0.199704        0.949307
                       -0.722496       -0.668521     -8.27337e-05     0.000455894        0.0934913       0.0984187      2.22686e-06    -0.000411309
                     0.000204205    -8.35821e-05          0.19951        0.949605     -0.000180153    -0.000297677        -0.170966        0.139388
281700.4               -0.109104      -0.0881687     -0.000333586     3.79816e-05        -0.722797       -0.668896      0.000387782     4.02205e-05
                    -0.000193012     3.87983e-05        -0.212432      -0.0592876      1.84295e-05     0.000484436         0.199733        0.949301
                       -0.722519       -0.668497     -8.27206e-05     0.000455891         0.093499       0.0984082      2.20393e-06     -0.00041132
                     0.000204171    -8.35684e-05         0.199539          0.9496     -0.000180171    -0.000297663         -0.17096        0.139391
281700.5                 -0.1091      -0.0881701     -0.000333584      3.7985e-05        -0.722819       -0.668872      0.000387785     4.02051e-05
                    -0.000192994     3.87826e-05        -0.212431      -0.0592797        1.844e-05      0.00048442         0.199763        0.949296
                       -0.722541       -0.668473     -8.27074e-05     0.000455889        0.0935067       0.0983977      2.18099e-06    -0.000411331
                     0.000204138    -8.35547e-05         0.199568        0.949594     -0.000180189    -0.000297648        -0.170953        0.139394
281700.6               -0.109096      -0.0881715     -0.000333582     3.79883e-05        -0.722842       -0.668848      0.000387787     4.01898e-05
                    -0.000192977      3.8767e-05        -0.212431      -0.0592719      1.84504e-05     0.000484404         0.199792         0.94929
                       -0.722564        -0.66845     -8.26943e-05     0.000455886        0.0935144       0.0983872      2.15806e-06    -0.000411343
                     0.000204105     -8.3541e-05         0.199597        0.949589     -0.000180206    -0.000297634        -0.170947        0.139397
281700.7               -0.109092       -0.088173     -0.000333581     3.79917e-05        -0.722864       -0.668824       0.00038779     4.01744e-05
                    -0.000192959     3.87514e-05         -0.21243      -0.0592641      1.84608e-05     0.000484388         0.199821        0.949285
                       -0.722586       -0.668426     -8.26811e-05     0.000455884        0.0935222       0.0983767      2.13512e-06    -0.000411354
                     0.000204072    -8.35273e-05         0.199627        0.949583     -0.000180224     -0.00029762        -0.170941        0.139399
281700.8               -0.109089      -0.0881744     -0.000333579      3.7995e-05        -0.722887         -0.6688      0.000387793     4.01591e-05
                    -0.000192942     3.87357e-05        -0.212429      -0.0592563      1.84712e-05     0.000484371          0.19985        0.949279
                       -0.722609       -0.668402      -8.2668e-05     0.000455881        0.0935299       0.0983663      2.11218e-06    -0.000411365
                     0.000204038    -8.35135e-05         0.199656        0.949578     -0.000180242    -0.000297606        -0.170935        0.139402
281700.9               -0.109085      -0.0881759     -0.000333577     3.79984e-05        -0.722909       -0.668776      0.000387796     4.01437e-05
                    -0.000192924     3.87201e-05        -0.212428      -0.0592485      1.84816e-05     0.000484355          0.19988        0.949274
                       -0.722631       -0.668378     -8.26549e-05     0.000455878        0.0935376       0.0983558      2.08924e-06    -0.000411376
                     0.000204005    -8.34998e-05         0.199685        0.949572      -0.00018026    -0.000297591        -0.170929        0.139405
281701                 -0.109081      -0.0881773     -0.000333576     3.80017e-05        -0.722932       -0.668752      0.000387799     4.01284e-05
                    -0.000192907     3.87044e-05        -0.212427      -0.0592407       1.8492e-05     0.000484339         0.199909        0.949268
                       -0.722654       -0.668354     -8.26417e-05     0.000455876        0.0935453       0.0983453       2.0663e-06    -0.000411387
                     0.000203972     -8.3486e-05         0.199715        0.949567     -0.000180278    -0.000297577        -0.170923        0.139408
281701.1               -0.109077      -0.0881787     -0.000333574     3.80051e-05        -0.722954       -0.668728      0.000387802      4.0113e-05
                    -0.000192889     3.86888e-05        -0.212426      -0.0592329      1.85025e-05     0.000484323         0.199938        0.949263
                       -0.722676        -0.66833     -8.26286e-05     0.000455873         0.093553       0.0983348      2.04336e-06    -0.000411398
                     0.000203939    -8.34722e-05         0.199744        0.949561     -0.000180296    -0.000297563        -0.170916        0.139411
281701.2               -0.109073      -0.0881802     -0.000333572     3.80084e-05        -0.722977       -0.668704      0.000387805     4.00977e-05
                    -0.000192871     3.86731e-05        -0.212426      -0.0592251      1.85129e-05     0.000484307         0.199968        0.949257
                       -0.722699       -0.668306     -8.26154e-05     0.000455871        0.0935607       0.0983243      2.02041e-06     -0.00041141
                     0.000203905    -8.34585e-05         0.199773        0.949556     -0.000180313    -0.000297549         -0.17091        0.139414
281701.3               -0.109069      -0.0881816     -0.000333571     3.80118e-05        -0.722999       -0.668681      0.000387808     4.00823e-05
                    -0.000192854     3.86574e-05        -0.212425      -0.0592173      1.85233e-05     0.000484291         0.199997        0.949252
                       -0.722721       -0.668282     -8.26023e-05     0.000455868        0.0935685       0.0983138      1.99747e-06    -0.000411421
                     0.000203872    -8.34447e-05         0.199802         0.94955     -0.000180331    -0.000297534        -0.170904        0.139417
281701.4               -0.109065      -0.0881831     -0.000333569     3.80151e-05        -0.723022       -0.668657      0.000387811      4.0067e-05
                    -0.000192836     3.86417e-05        -0.212424      -0.0592095      1.85337e-05     0.000484275         0.200026        0.949246
                       -0.722744       -0.668258     -8.25892e-05     0.000455865        0.0935762       0.0983034      1.97453e-06    -0.000411432
                     0.000203839    -8.34309e-05         0.199832        0.949545     -0.000180349     -0.00029752        -0.170898         0.13942
281701.5               -0.109061      -0.0881845     -0.000333567     3.80185e-05        -0.723044       -0.668633      0.000387814     4.00516e-05
                    -0.000192819      3.8626e-05        -0.212423      -0.0592016      1.85441e-05     0.000484259         0.200055        0.949241
                       -0.722766       -0.668234      -8.2576e-05     0.000455863        0.0935839       0.0982929      1.95158e-06    -0.000411443
                     0.000203806     -8.3417e-05         0.199861        0.949539     -0.000180367    -0.000297506        -0.170892        0.139423
281701.6               -0.109057       -0.088186     -0.000333566     3.80219e-05        -0.723067       -0.668609      0.000387817     4.00363e-05
                    -0.000192801     3.86103e-05        -0.212422      -0.0591938      1.85545e-05     0.000484243         0.200085        0.949235
                       -0.722789        -0.66821     -8.25629e-05      0.00045586        0.0935916       0.0982824      1.92863e-06    -0.000411454
                     0.000203772    -8.34032e-05          0.19989        0.949534     -0.000180385    -0.000297491        -0.170886        0.139426
281701.7               -0.109053      -0.0881874     -0.000333564     3.80252e-05        -0.723089       -0.668585       0.00038782     4.00209e-05
                    -0.000192784     3.85946e-05        -0.212421       -0.059186       1.8565e-05     0.000484227         0.200114         0.94923
                       -0.722811       -0.668186     -8.25497e-05     0.000455857        0.0935993       0.0982719      1.90569e-06    -0.000411466
                     0.000203739    -8.33894e-05         0.199919        0.949528     -0.000180402    -0.000297477        -0.170879        0.139429
281701.8               -0.109049      -0.0881888     -0.000333562     3.80286e-05        -0.723112       -0.668561      0.000387822     4.00056e-05
                    -0.000192766     3.85789e-05        -0.212421      -0.0591782      1.85754e-05     0.000484211         0.200143        0.949224
                       -0.722833       -0.668163     -8.25366e-05     0.000455855         0.093607       0.0982614      1.88274e-06    -0.000411477
                     0.000203706    -8.33755e-05         0.199949        0.949523      -0.00018042    -0.000297463        -0.170873        0.139432
281701.9               -0.109045      -0.0881903     -0.000333561     3.80319e-05        -0.723134       -0.668537      0.000387825     3.99902e-05
                    -0.000192749     3.85632e-05         -0.21242      -0.0591704      1.85858e-05     0.000484195         0.200173        0.949219
                       -0.722856       -0.668139     -8.25235e-05     0.000455852        0.0936147       0.0982509      1.85979e-06    -0.000411488
                     0.000203673    -8.33617e-05         0.199978        0.949517     -0.000180438    -0.000297449        -0.170867        0.139435
281702                 -0.109041      -0.0881917     -0.000333559     3.80353e-05        -0.723157       -0.668513      0.000387828     3.99748e-05
                    -0.000192731     3.85475e-05        -0.212419      -0.0591626      1.85962e-05     0.000484179         0.200202        0.949213
                       -0.722878       -0.668115     -8.25103e-05      0.00045585        0.0936225       0.0982404      1.83684e-06    -0.000411499
                     0.000203639    -8.33478e-05         0.200007        0.949512     -0.000180456    -0.000297434        -0.170861        0.139438
281702.1               -0.109037      -0.0881932     -0.000333557     3.80386e-05        -0.723179       -0.668489      0.000387831     3.99595e-05
                    -0.000192714     3.85318e-05        -0.212418      -0.0591548      1.86066e-05     0.000484163         0.200231        0.949208
                       -0.722901       -0.668091     -8.24972e-05     0.000455847        0.0936302       0.0982299      1.81389e-06     -0.00041151
                     0.000203606    -8.33339e-05         0.200036        0.949506     -0.000180473     -0.00029742        -0.170855        0.139441
281702.2               -0.109033      -0.0881946     -0.000333556      3.8042e-05        -0.723202       -0.668465      0.000387834     3.99441e-05
                    -0.000192696      3.8516e-05        -0.212417       -0.059147       1.8617e-05     0.000484147          0.20026        0.949202
                       -0.722923       -0.668067     -8.24841e-05     0.000455844        0.0936379       0.0982195      1.79094e-06    -0.000411521
                     0.000203573      -8.332e-05         0.200066          0.9495     -0.000180491    -0.000297406        -0.170849        0.139444
281702.3               -0.109029      -0.0881961     -0.000333554     3.80454e-05        -0.723224       -0.668441      0.000387837     3.99288e-05
                    -0.000192678     3.85003e-05        -0.212416      -0.0591392      1.86275e-05     0.000484131          0.20029        0.949197
                       -0.722946       -0.668043     -8.24709e-05     0.000455842        0.0936456        0.098209      1.76798e-06    -0.000411533
                      0.00020354    -8.33061e-05         0.200095        0.949495     -0.000180509    -0.000297392        -0.170842        0.139446
281702.4               -0.109025      -0.0881975     -0.000333552     3.80487e-05        -0.723247       -0.668417       0.00038784     3.99134e-05
                    -0.000192661     3.84846e-05        -0.212416      -0.0591314      1.86379e-05     0.000484115         0.200319        0.949191
                       -0.722968       -0.668019     -8.24578e-05     0.000455839        0.0936533       0.0981985      1.74503e-06    -0.000411544
                     0.000203506    -8.32922e-05         0.200124        0.949489     -0.000180527    -0.000297377        -0.170836        0.139449
281702.5               -0.109022       -0.088199     -0.000333551     3.80521e-05        -0.723269       -0.668393      0.000387843      3.9898e-05
                    -0.000192643     3.84688e-05        -0.212415      -0.0591236      1.86483e-05     0.000484099         0.200348        0.949186
                       -0.722991       -0.667995     -8.24447e-05     0.000455836         0.093661        0.098188      1.72208e-06    -0.000411555
                     0.000203473    -8.32783e-05         0.200154        0.949484     -0.000180545    -0.000297363         -0.17083        0.139452
281702.6               -0.109018      -0.0882004     -0.000333549     3.80554e-05        -0.723292       -0.668369      0.000387846     3.98827e-05
                    -0.000192626      3.8453e-05        -0.212414      -0.0591157      1.86587e-05     0.000484083         0.200378         0.94918
                       -0.723013       -0.667971     -8.24315e-05     0.000455834        0.0936687       0.0981775      1.69912e-06    -0.000411566
                      0.00020344    -8.32644e-05         0.200183        0.949478     -0.000180562    -0.000297349        -0.170824        0.139455
281702.7               -0.109014      -0.0882019     -0.000333547     3.80588e-05        -0.723314       -0.668346      0.000387849     3.98673e-05
                    -0.000192608     3.84373e-05        -0.212413      -0.0591079      1.86691e-05     0.000484067         0.200407        0.949175
                       -0.723036       -0.667947     -8.24184e-05     0.000455831        0.0936764        0.098167      1.67616e-06    -0.000411577
                     0.000203407    -8.32504e-05         0.200212        0.949473      -0.00018058    -0.000297335        -0.170818        0.139458
281702.8                -0.10901      -0.0882033     -0.000333546     3.80622e-05        -0.723337       -0.668322      0.000387852     3.98519e-05
                    -0.000192591     3.84215e-05        -0.212412      -0.0591001      1.86795e-05     0.000484051         0.200436        0.949169
                       -0.723058       -0.667923     -8.24053e-05     0.000455829        0.0936841       0.0981565      1.65321e-06    -0.000411588
                     0.000203373    -8.32365e-05         0.200241        0.949467     -0.000180598     -0.00029732        -0.170812        0.139461
281702.9               -0.109006      -0.0882047     -0.000333544     3.80655e-05        -0.723359       -0.668298      0.000387855     3.98366e-05
                    -0.000192573     3.84057e-05        -0.212411      -0.0590923        1.869e-05     0.000484035         0.200465        0.949164
                        -0.72308       -0.667899     -8.23921e-05     0.000455826        0.0936918        0.098146      1.63025e-06      -0.0004116
                      0.00020334    -8.32225e-05         0.200271        0.949462     -0.000180616    -0.000297306        -0.170805        0.139464
281703                 -0.109002      -0.0882062     -0.000333542     3.80689e-05        -0.723382       -0.668274      0.000387858     3.98212e-05
                    -0.000192556     3.83899e-05        -0.212411      -0.0590845      1.87004e-05     0.000484019         0.200495        0.949158
                       -0.723103       -0.667875      -8.2379e-05     0.000455823        0.0936996       0.0981355      1.60729e-06    -0.000411611
                     0.000203307    -8.32085e-05           0.2003        0.949456     -0.000180633    -0.000297292        -0.170799        0.139467
281703.1               -0.108998      -0.0882076     -0.000333541     3.80723e-05        -0.723404        -0.66825      0.000387861     3.98058e-05
                    -0.000192538     3.83741e-05         -0.21241      -0.0590767      1.87108e-05     0.000484003         0.200524        0.949153
                       -0.723125       -0.667851     -8.23659e-05     0.000455821        0.0937073        0.098125      1.58433e-06    -0.000411622
