! TOUCHSTONE file generated by CST MICROWAVE STUDIO
! Date and time: Wed Oct  8 06:55:46 2025
! Project name: Teste_Macro_Metasurface_Nanopilar.cst
! Parameters = {H=600; L_x=110; L_y=170; Lambda=1064; Max_L=200; Min_L=70; PathPara=1; Phi=0; Step_L=10; Theta=0; p=520; phaseX=180; phaseY=0}
! Header version: 2018
! Port assignment regex: !\s*Touchstone port\s*([0-9]+)\s*=\s*(CST MWS port|CST DS port)\s*([0-9]+|Zmin|Zmax)\s*\(\"(.*)\"\)(\s*mode\s*([0-9]+))?.*
! Touchstone port assignment:
! Touchstone port 1 = CST MWS port Zmax ("") mode 1
! Touchstone port 2 = CST MWS port Zmax ("") mode 2
! Touchstone port 3 = CST MWS port Zmin ("") mode 1
! Touchstone port 4 = CST MWS port Zmin ("") mode 2
! S-Parameters are not renormalized. Each port impedance will be approximated by the real part at minimum frequency. The values are described via the [Reference] keyword.
! Default impedance is overridden by [Reference]
[Version] 2.0
# GHz S RI R 376.73
[Number of Ports] 4
[Reference]
376.73 376.73 376.73 376.73 
[Number of Frequencies] 1001
[Network Data]
281700                 -0.586544        -0.51128     -0.000800743     2.83579e-05        -0.552611        0.186887     -0.000175349      6.6907e-05
                    -5.59011e-05    -3.93097e-05       -0.0714157        -0.16242      -8.8698e-05    -0.000402702         0.734628       -0.641212
                       -0.552845        0.186895      0.000847539     -0.00052781        0.0631493       -0.767904     -9.97389e-05      0.00051646
                     0.000273595     5.76525e-05         0.735105       -0.641124     -0.000412067     0.000339265        -0.153649      -0.0899155
281700.1               -0.586584       -0.511267     -0.000800751     2.84291e-05         -0.55257        0.186911     -0.000175374     6.69171e-05
                    -5.58672e-05    -3.93324e-05       -0.0714242       -0.162421     -8.87365e-05    -0.000402705         0.734606       -0.641237
                       -0.552805        0.186919      0.000847559    -0.000527918        0.0630875       -0.767931     -9.96925e-05     0.000516469
                     0.000273608     5.76189e-05         0.735083       -0.641149     -0.000412045     0.000339273        -0.153654      -0.0899139
281700.2               -0.586625       -0.511254      -0.00080076     2.85003e-05        -0.552529        0.186934     -0.000175398     6.69272e-05
                    -5.58333e-05    -3.93552e-05       -0.0714327       -0.162421     -8.87749e-05    -0.000402708         0.734584       -0.641261
                       -0.552764        0.186943      0.000847579    -0.000528025        0.0630256       -0.767959      -9.9646e-05     0.000516478
                     0.000273621     5.75854e-05         0.735061       -0.641173     -0.000412023      0.00033928         -0.15366      -0.0899122
281700.3               -0.586665       -0.511241     -0.000800768     2.85715e-05        -0.552489        0.186958     -0.000175422     6.69373e-05
                    -5.57993e-05    -3.93779e-05       -0.0714413       -0.162422     -8.88134e-05    -0.000402711         0.734562       -0.641285
                       -0.552723        0.186967        0.0008476    -0.000528133        0.0629638       -0.767986     -9.95995e-05     0.000516486
                     0.000273634     5.75518e-05         0.735039       -0.641197     -0.000412002     0.000339287        -0.153665      -0.0899105
281700.4               -0.586705       -0.511228     -0.000800777     2.86427e-05        -0.552448        0.186982     -0.000175446     6.69475e-05
                    -5.57654e-05    -3.94007e-05       -0.0714498       -0.162422     -8.88518e-05    -0.000402714          0.73454        -0.64131
                       -0.552682        0.186991       0.00084762    -0.000528241         0.062902       -0.768013     -9.95531e-05     0.000516495
                     0.000273647     5.75183e-05         0.735017       -0.641222      -0.00041198     0.000339294        -0.153671      -0.0899088
281700.5               -0.586746       -0.511215     -0.000800786     2.87139e-05        -0.552407        0.187006     -0.000175471     6.69576e-05
                    -5.57314e-05    -3.94234e-05       -0.0714583       -0.162423     -8.88903e-05    -0.000402717         0.734518       -0.641334
                       -0.552641        0.187014       0.00084764    -0.000528349        0.0628402       -0.768041     -9.95066e-05     0.000516503
                     0.000273661     5.74847e-05         0.734995       -0.641246     -0.000411958     0.000339301        -0.153676      -0.0899071
281700.6               -0.586786       -0.511202     -0.000800794     2.87851e-05        -0.552366         0.18703     -0.000175495     6.69677e-05
                    -5.56975e-05    -3.94462e-05       -0.0714669       -0.162423     -8.89287e-05     -0.00040272         0.734496       -0.641358
                       -0.552601        0.187038       0.00084766    -0.000528457        0.0627783       -0.768068     -9.94601e-05     0.000516512
                     0.000273674     5.74511e-05         0.734972        -0.64127     -0.000411937     0.000339309        -0.153682      -0.0899054
281700.7               -0.586827       -0.511189     -0.000800803     2.88563e-05        -0.552325        0.187053     -0.000175519     6.69777e-05
                    -5.56636e-05     -3.9469e-05       -0.0714754       -0.162424     -8.89672e-05    -0.000402723         0.734473       -0.641383
                        -0.55256        0.187062      0.000847681    -0.000528565        0.0627165       -0.768095     -9.94136e-05     0.000516521
                     0.000273687     5.74176e-05          0.73495       -0.641295     -0.000411915     0.000339316        -0.153687      -0.0899038
281700.8               -0.586867       -0.511176     -0.000800811     2.89275e-05        -0.552285        0.187077     -0.000175544     6.69878e-05
                    -5.56296e-05    -3.94917e-05       -0.0714839       -0.162424     -8.90056e-05    -0.000402726         0.734451       -0.641407
                       -0.552519        0.187086      0.000847701    -0.000528673        0.0626547       -0.768123     -9.93671e-05     0.000516529
                       0.0002737      5.7384e-05         0.734928       -0.641319     -0.000411894     0.000339323        -0.153693      -0.0899021
281700.9               -0.586907       -0.511163     -0.000800819     2.89987e-05        -0.552244        0.187101     -0.000175568     6.69979e-05
                    -5.55957e-05    -3.95145e-05       -0.0714925       -0.162425     -8.90441e-05    -0.000402729         0.734429       -0.641431
                       -0.552478         0.18711      0.000847721    -0.000528781        0.0625928        -0.76815     -9.93207e-05     0.000516538
                     0.000273713     5.73504e-05         0.734906       -0.641343     -0.000411872      0.00033933        -0.153698      -0.0899004
281701                 -0.586948        -0.51115     -0.000800828       2.907e-05        -0.552203        0.187125     -0.000175592      6.7008e-05
                    -5.55617e-05    -3.95373e-05        -0.071501       -0.162426     -8.90826e-05    -0.000402732         0.734407       -0.641456
                       -0.552437        0.187133      0.000847741    -0.000528889         0.062531       -0.768177     -9.92742e-05     0.000516546
                     0.000273726     5.73168e-05         0.734884       -0.641368      -0.00041185     0.000339337        -0.153704      -0.0898987
281701.1               -0.586988       -0.511137     -0.000800836     2.91412e-05        -0.552162        0.187148     -0.000175617     6.70181e-05
                    -5.55278e-05    -3.95601e-05       -0.0715095       -0.162426      -8.9121e-05    -0.000402735         0.734385        -0.64148
                       -0.552397        0.187157      0.000847761    -0.000528997        0.0624691       -0.768205     -9.92277e-05     0.000516555
                     0.000273739     5.72833e-05         0.734862       -0.641392     -0.000411829     0.000339345        -0.153709       -0.089897
281701.2               -0.587029       -0.511124     -0.000800845     2.92125e-05        -0.552121        0.187172     -0.000175641     6.70281e-05
                    -5.54938e-05    -3.95829e-05       -0.0715181       -0.162427     -8.91595e-05    -0.000402738         0.734363       -0.641504
                       -0.552356        0.187181      0.000847782    -0.000529105        0.0624072       -0.768232     -9.91812e-05     0.000516564
                     0.000273753     5.72497e-05         0.734839       -0.641416     -0.000411807     0.000339352        -0.153715      -0.0898953
281701.3               -0.587069       -0.511111     -0.000800853     2.92837e-05        -0.552081        0.187196     -0.000175665     6.70382e-05
                    -5.54599e-05    -3.96057e-05       -0.0715266       -0.162427     -8.91979e-05    -0.000402741          0.73434       -0.641529
                       -0.552315        0.187205      0.000847802    -0.000529213        0.0623454       -0.768259     -9.91347e-05     0.000516572
                     0.000273766     5.72161e-05         0.734817       -0.641441     -0.000411786     0.000339359         -0.15372      -0.0898937
281701.4               -0.587109       -0.511098     -0.000800862      2.9355e-05         -0.55204         0.18722      -0.00017569     6.70482e-05
                    -5.54259e-05    -3.96285e-05       -0.0715352       -0.162428     -8.92364e-05    -0.000402744         0.734318       -0.641553
                       -0.552274        0.187228      0.000847822    -0.000529321        0.0622835       -0.768287     -9.90882e-05     0.000516581
                     0.000273779     5.71825e-05         0.734795       -0.641465     -0.000411764     0.000339366        -0.153726       -0.089892
281701.5                -0.58715       -0.511085      -0.00080087     2.94263e-05        -0.551999        0.187243     -0.000175714     6.70583e-05
                     -5.5392e-05    -3.96513e-05       -0.0715437       -0.162428     -8.92749e-05    -0.000402747         0.734296       -0.641577
                       -0.552233        0.187252      0.000847842    -0.000529429        0.0622216       -0.768314     -9.90417e-05      0.00051659
                     0.000273792     5.71489e-05         0.734773       -0.641489     -0.000411743     0.000339374        -0.153731      -0.0898903
281701.6                -0.58719       -0.511072     -0.000800879     2.94976e-05        -0.551958        0.187267     -0.000175738     6.70683e-05
                    -5.53581e-05    -3.96742e-05       -0.0715522       -0.162429     -8.93133e-05     -0.00040275         0.734274       -0.641602
                       -0.552193        0.187276      0.000847862    -0.000529537        0.0621598       -0.768341     -9.89952e-05     0.000516598
                     0.000273805     5.71153e-05         0.734751       -0.641514     -0.000411721     0.000339381        -0.153737      -0.0898886
281701.7               -0.587231       -0.511059     -0.000800887     2.95688e-05        -0.551917        0.187291     -0.000175763     6.70784e-05
                    -5.53241e-05     -3.9697e-05       -0.0715608       -0.162429     -8.93518e-05    -0.000402753         0.734252       -0.641626
                       -0.552152          0.1873      0.000847882    -0.000529645        0.0620979       -0.768369     -9.89487e-05     0.000516607
                     0.000273818     5.70817e-05         0.734729       -0.641538       -0.0004117     0.000339388        -0.153742      -0.0898869
281701.8               -0.587271       -0.511046     -0.000800895     2.96401e-05        -0.551877        0.187315     -0.000175787     6.70884e-05
                    -5.52902e-05    -3.97198e-05       -0.0715693        -0.16243     -8.93902e-05    -0.000402756          0.73423       -0.641651
                       -0.552111        0.187323      0.000847902    -0.000529753         0.062036       -0.768396     -9.89022e-05     0.000516615
                     0.000273831     5.70481e-05         0.734707       -0.641562     -0.000411678     0.000339395        -0.153748      -0.0898852
281701.9               -0.587312       -0.511033     -0.000800904     2.97115e-05        -0.551836        0.187338     -0.000175811     6.70984e-05
                    -5.52562e-05    -3.97427e-05       -0.0715778        -0.16243     -8.94287e-05    -0.000402759         0.734208       -0.641675
                        -0.55207        0.187347      0.000847922    -0.000529861        0.0619741       -0.768423     -9.88557e-05     0.000516624
                     0.000273845     5.70145e-05         0.734684       -0.641587     -0.000411656     0.000339402        -0.153753      -0.0898835
281702                 -0.587352        -0.51102     -0.000800912     2.97828e-05        -0.551795        0.187362     -0.000175836     6.71084e-05
                    -5.52223e-05    -3.97655e-05       -0.0715864       -0.162431     -8.94672e-05    -0.000402762         0.734185       -0.641699
                       -0.552029        0.187371      0.000847943    -0.000529969        0.0619122       -0.768451     -9.88092e-05     0.000516633
                     0.000273858     5.69809e-05         0.734662       -0.641611     -0.000411635      0.00033941        -0.153759      -0.0898818
281702.1               -0.587392       -0.511007     -0.000800921     2.98541e-05        -0.551754        0.187386      -0.00017586     6.71185e-05
                    -5.51883e-05    -3.97884e-05       -0.0715949       -0.162432     -8.95056e-05    -0.000402764         0.734163       -0.641724
                       -0.551989        0.187394      0.000847963    -0.000530077        0.0618503       -0.768478     -9.87627e-05     0.000516641
                     0.000273871     5.69473e-05          0.73464       -0.641635     -0.000411613     0.000339417        -0.153765      -0.0898801
281702.2               -0.587433       -0.510994     -0.000800929     2.99254e-05        -0.551713        0.187409     -0.000175884     6.71285e-05
                    -5.51544e-05    -3.98112e-05       -0.0716034       -0.162432     -8.95441e-05    -0.000402767         0.734141       -0.641748
                       -0.551948        0.187418      0.000847983    -0.000530185        0.0617884       -0.768505     -9.87162e-05      0.00051665
                     0.000273884     5.69137e-05         0.734618        -0.64166     -0.000411592     0.000339424         -0.15377      -0.0898785
281702.3               -0.587473       -0.510981     -0.000800937     2.99968e-05        -0.551672        0.187433     -0.000175909     6.71385e-05
                    -5.51204e-05    -3.98341e-05        -0.071612       -0.162433     -8.95825e-05     -0.00040277         0.734119       -0.641772
                       -0.551907        0.187442      0.000848003    -0.000530293        0.0617265       -0.768532     -9.86697e-05     0.000516658
                     0.000273897     5.68801e-05         0.734596       -0.641684      -0.00041157     0.000339431        -0.153776      -0.0898768
281702.4               -0.587514       -0.510968     -0.000800946     3.00681e-05        -0.551632        0.187457     -0.000175933     6.71485e-05
                    -5.50865e-05    -3.98569e-05       -0.0716205       -0.162433      -8.9621e-05    -0.000402773         0.734097       -0.641797
                       -0.551866        0.187466      0.000848023    -0.000530401        0.0616646        -0.76856     -9.86232e-05     0.000516667
                      0.00027391     5.68465e-05         0.734574       -0.641708     -0.000411549     0.000339438        -0.153781      -0.0898751
281702.5               -0.587554       -0.510955     -0.000800954     3.01395e-05        -0.551591         0.18748     -0.000175957     6.71585e-05
                    -5.50525e-05    -3.98798e-05        -0.071629       -0.162434     -8.96595e-05    -0.000402776         0.734075       -0.641821
                       -0.551825        0.187489      0.000848043    -0.000530509        0.0616027       -0.768587     -9.85766e-05     0.000516676
                     0.000273923     5.68129e-05         0.734551       -0.641733     -0.000411527     0.000339446        -0.153787      -0.0898734
281702.6               -0.587594       -0.510942     -0.000800962     3.02108e-05         -0.55155        0.187504     -0.000175982     6.71685e-05
                    -5.50185e-05    -3.99027e-05       -0.0716376       -0.162434     -8.96979e-05    -0.000402779         0.734052       -0.641845
                       -0.551784        0.187513      0.000848063    -0.000530618        0.0615408       -0.768614     -9.85301e-05     0.000516684
                     0.000273937     5.67793e-05         0.734529       -0.641757     -0.000411506     0.000339453        -0.153792      -0.0898717
281702.7               -0.587635       -0.510929     -0.000800971     3.02822e-05        -0.551509        0.187528     -0.000176006     6.71784e-05
                    -5.49846e-05    -3.99256e-05       -0.0716461       -0.162435     -8.97364e-05    -0.000402782          0.73403        -0.64187
                       -0.551744        0.187537      0.000848083    -0.000530726        0.0614789       -0.768641     -9.84836e-05     0.000516693
                      0.00027395     5.67457e-05         0.734507       -0.641781     -0.000411484      0.00033946        -0.153798        -0.08987
281702.8               -0.587675       -0.510916     -0.000800979     3.03536e-05        -0.551468        0.187551     -0.000176031     6.71884e-05
                    -5.49506e-05    -3.99485e-05       -0.0716546       -0.162435     -8.97749e-05    -0.000402784         0.734008       -0.641894
                       -0.551703         0.18756      0.000848103    -0.000530834        0.0614169       -0.768669     -9.84371e-05     0.000516702
                     0.000273963     5.67121e-05         0.734485       -0.641806     -0.000411463     0.000339467        -0.153803      -0.0898683
281702.9               -0.587716       -0.510903     -0.000800987      3.0425e-05        -0.551427        0.187575     -0.000176055     6.71984e-05
                    -5.49167e-05    -3.99714e-05       -0.0716632       -0.162436     -8.98133e-05    -0.000402787         0.733986       -0.641918
                       -0.551662        0.187584      0.000848123    -0.000530942         0.061355       -0.768696     -9.83905e-05      0.00051671
                     0.000273976     5.66784e-05         0.734463        -0.64183     -0.000411441     0.000339474        -0.153809      -0.0898666
281703                 -0.587756        -0.51089     -0.000800996     3.04964e-05        -0.551387        0.187599     -0.000176079     6.72084e-05
                    -5.48827e-05    -3.99943e-05       -0.0716717       -0.162436     -8.98518e-05     -0.00040279         0.733964       -0.641943
                       -0.551621        0.187608      0.000848143     -0.00053105        0.0612931       -0.768723      -9.8344e-05     0.000516719
                     0.000273989     5.66448e-05         0.734441       -0.641854      -0.00041142     0.000339482        -0.153814      -0.0898649
281703.1               -0.587796       -0.510877     -0.000801004     3.05678e-05        -0.551346        0.187623     -0.000176104     6.72183e-05
                    -5.48488e-05    -4.00172e-05       -0.0716802       -0.162437     -8.98903e-05    -0.000402793         0.733942       -0.641967
                        -0.55158        0.187631      0.000848163    -0.000531159        0.0612311        -0.76875     -9.82975e-05     0.000516728
