! TOUCHSTONE file generated by CST MICROWAVE STUDIO
! Date and time: Wed Oct  8 07:05:06 2025
! Project name: Teste_Macro_Metasurface_Nanopilar.cst
! Parameters = {H=600; L_x=190; L_y=120; Lambda=1064; Max_L=200; Min_L=70; PathPara=1; Phi=0; Step_L=10; Theta=0; p=520; phaseX=180; phaseY=0}
! Header version: 2018
! Port assignment regex: !\s*Touchstone port\s*([0-9]+)\s*=\s*(CST MWS port|CST DS port)\s*([0-9]+|Zmin|Zmax)\s*\(\"(.*)\"\)(\s*mode\s*([0-9]+))?.*
! Touchstone port assignment:
! Touchstone port 1 = CST MWS port Zmax ("") mode 1
! Touchstone port 2 = CST MWS port Zmax ("") mode 2
! Touchstone port 3 = CST MWS port Zmin ("") mode 1
! Touchstone port 4 = CST MWS port Zmin ("") mode 2
! S-Parameters are not renormalized. Each port impedance will be approximated by the real part at minimum frequency. The values are described via the [Reference] keyword.
! Default impedance is overridden by [Reference]
[Version] 2.0
# GHz S RI R 376.73
[Number of Ports] 4
[Reference]
376.73 376.73 376.73 376.73 
[Number of Frequencies] 1001
[Network Data]
281700                 -0.227885     0.000937167      -0.00027668    -0.000223631        -0.302155       -0.920506      0.000336141    -0.000110895
                    -0.000217567    -9.25294e-05       -0.0408426        0.207892       0.00037957    -0.000310067        -0.875118       -0.421348
                       -0.302042        -0.92038      0.000254837    -0.000289849        -0.184797        0.133333      3.42557e-05     0.000165845
                     0.000316048     -0.00015871         -0.87522       -0.421674      5.74069e-05      6.4938e-05        -0.142915         0.15614
281700.1               -0.227882      0.00094435     -0.000276705    -0.000223577        -0.302185       -0.920497       0.00033615    -0.000110897
                    -0.000217588    -9.25218e-05       -0.0408348        0.207887      0.000379733    -0.000309858        -0.875133       -0.421322
                        -0.30207       -0.920372      0.000254741    -0.000289825        -0.184791        0.133336      3.42817e-05     0.000165854
                     0.000316051    -0.000158723        -0.875234       -0.421649      5.77139e-05     6.36051e-05        -0.142906        0.156139
281700.2               -0.227879     0.000951532      -0.00027673    -0.000223522        -0.302215       -0.920487       0.00033616    -0.000110899
                     -0.00021761    -9.25141e-05       -0.0408269        0.207881        0.0003799    -0.000309646        -0.875147       -0.421296
                       -0.302097       -0.920363      0.000254646    -0.000289802        -0.184784         0.13334      3.43077e-05     0.000165862
                     0.000316053    -0.000158736        -0.875248       -0.421623      5.80101e-05     6.22375e-05        -0.142897        0.156138
281700.3               -0.227876     0.000958714     -0.000276755    -0.000223467        -0.302245       -0.920478      0.000336169    -0.000110901
                    -0.000217631    -9.25064e-05       -0.0408191        0.207876       0.00038007    -0.000309429        -0.875161       -0.421269
                       -0.302125       -0.920355      0.000254551     -0.00028978        -0.184777        0.133343      3.43338e-05      0.00016587
                     0.000316056     -0.00015875        -0.875262       -0.421597      5.82944e-05     6.08342e-05        -0.142888        0.156137
281700.4               -0.227873     0.000965896     -0.000276781     -0.00022341        -0.302275       -0.920469      0.000336179    -0.000110903
                    -0.000217652    -9.24987e-05       -0.0408112        0.207871      0.000380244    -0.000309208        -0.875175       -0.421243
                       -0.302153       -0.920347      0.000254456    -0.000289759        -0.184771        0.133347      3.43598e-05     0.000165878
                     0.000316059    -0.000158763        -0.875277       -0.421571      5.85656e-05     5.93941e-05        -0.142879        0.156136
281700.5               -0.227869     0.000973077     -0.000276806    -0.000223354        -0.302305        -0.92046      0.000336188    -0.000110905
                    -0.000217673    -9.24909e-05       -0.0408034        0.207866      0.000380421    -0.000308983         -0.87519       -0.421217
                       -0.302181       -0.920338       0.00025436     -0.00028974        -0.184764         0.13335      3.43859e-05     0.000165886
                     0.000316061    -0.000158776        -0.875291       -0.421545      5.88226e-05     5.79164e-05         -0.14287        0.156136
281700.6               -0.227866     0.000980258     -0.000276831    -0.000223296        -0.302335       -0.920451      0.000336198    -0.000110907
                    -0.000217694    -9.24832e-05       -0.0407955         0.20786      0.000380603    -0.000308753        -0.875204       -0.421191
                       -0.302209        -0.92033      0.000254265    -0.000289723        -0.184757        0.133354      3.44121e-05     0.000165895
                     0.000316064     -0.00015879        -0.875305       -0.421519       5.9064e-05        5.64e-05        -0.142861        0.156135
281700.7               -0.227863     0.000987438     -0.000276857    -0.000223238        -0.302365       -0.920442      0.000336207    -0.000110909
                    -0.000217715    -9.24754e-05       -0.0407877        0.207855      0.000380788    -0.000308519        -0.875218       -0.421164
                       -0.302237       -0.920322      0.000254171    -0.000289707        -0.184751        0.133357      3.44382e-05     0.000165903
                     0.000316066    -0.000158803        -0.875319       -0.421493      5.92885e-05     5.48439e-05        -0.142852        0.156134
281700.8                -0.22786     0.000994618     -0.000276882    -0.000223179        -0.302394       -0.920433      0.000336217    -0.000110912
                    -0.000217736    -9.24676e-05       -0.0407798         0.20785      0.000380977     -0.00030828        -0.875232       -0.421138
                       -0.302265       -0.920313      0.000254076    -0.000289692        -0.184744        0.133361      3.44643e-05     0.000165911
                     0.000316069    -0.000158816        -0.875333       -0.421467      5.94945e-05     5.32473e-05        -0.142844        0.156133
281700.9               -0.227856       0.0010018     -0.000276908    -0.000223119        -0.302424       -0.920424      0.000336226    -0.000110914
                    -0.000217757    -9.24598e-05        -0.040772        0.207845       0.00038117    -0.000308037        -0.875246       -0.421112
                       -0.302293       -0.920305      0.000253982    -0.000289678        -0.184738        0.133364      3.44905e-05     0.000165919
                     0.000316071    -0.000158829        -0.875347       -0.421441      5.96805e-05     5.16089e-05        -0.142835        0.156132
281701                 -0.227853      0.00100898     -0.000276933    -0.000223059        -0.302454       -0.920415      0.000336236    -0.000110916
                    -0.000217778    -9.24519e-05       -0.0407641        0.207839      0.000381367    -0.000307788        -0.875261       -0.421085
                       -0.302321       -0.920297      0.000253887    -0.000289666        -0.184731        0.133368      3.45167e-05     0.000165928
                     0.000316074    -0.000158843        -0.875361       -0.421416      5.98447e-05     4.99279e-05        -0.142826        0.156131
281701.1                -0.22785      0.00101616     -0.000276959    -0.000222998        -0.302484       -0.920406      0.000336245    -0.000110918
                    -0.000217799     -9.2444e-05       -0.0407562        0.207834      0.000381568    -0.000307534        -0.875275       -0.421059
                       -0.302349       -0.920288      0.000253793    -0.000289655        -0.184724        0.133371      3.45429e-05     0.000165936
                     0.000316076    -0.000158856        -0.875375        -0.42139      5.99854e-05     4.82033e-05        -0.142817        0.156131
281701.2               -0.227847      0.00102333     -0.000276985    -0.000222936        -0.302514       -0.920396      0.000336255     -0.00011092
                     -0.00021782    -9.24361e-05       -0.0407484        0.207829      0.000381774    -0.000307276        -0.875289       -0.421033
                       -0.302377        -0.92028        0.0002537    -0.000289645        -0.184718        0.133375      3.45692e-05     0.000165944
                     0.000316079    -0.000158869        -0.875389       -0.421364      6.01006e-05     4.64341e-05        -0.142808         0.15613
281701.3               -0.227844      0.00103051     -0.000277011    -0.000222873        -0.302544       -0.920387      0.000336265    -0.000110922
                    -0.000217841    -9.24282e-05       -0.0407405        0.207824      0.000381984    -0.000307012        -0.875303       -0.421007
                       -0.302405       -0.920272      0.000253606    -0.000289637        -0.184711        0.133378      3.45954e-05     0.000165952
                     0.000316081    -0.000158882        -0.875403       -0.421338      6.01883e-05     4.46193e-05        -0.142799        0.156129
281701.4                -0.22784      0.00103769     -0.000277037     -0.00022281        -0.302574       -0.920378      0.000336274    -0.000110924
                    -0.000217862    -9.24203e-05       -0.0407327        0.207818      0.000382199    -0.000306742        -0.875318        -0.42098
                       -0.302433       -0.920263      0.000253513     -0.00028963        -0.184705        0.133382      3.46217e-05     0.000165961
                     0.000316084    -0.000158895        -0.875417       -0.421312      6.02462e-05      4.2758e-05         -0.14279        0.156128
281701.5               -0.227837      0.00104487     -0.000277064    -0.000222746        -0.302603       -0.920369      0.000336284    -0.000110927
                    -0.000217883    -9.24123e-05       -0.0407248        0.207813      0.000382418    -0.000306467        -0.875332       -0.420954
                       -0.302461       -0.920255      0.000253421    -0.000289624        -0.184698        0.133385       3.4648e-05     0.000165969
                     0.000316086    -0.000158908        -0.875431       -0.421286       6.0272e-05     4.08493e-05        -0.142781        0.156127
281701.6               -0.227834      0.00105204      -0.00027709    -0.000222681        -0.302633        -0.92036      0.000336293    -0.000110929
                    -0.000217903    -9.24044e-05        -0.040717        0.207808      0.000382643    -0.000306185        -0.875346       -0.420928
                       -0.302489       -0.920247      0.000253329     -0.00028962        -0.184691        0.133389      3.46743e-05     0.000165977
                     0.000316088    -0.000158922        -0.875446        -0.42126      6.02634e-05     3.88923e-05        -0.142772        0.156127
281701.7               -0.227831      0.00105922     -0.000277117    -0.000222615        -0.302663        -0.92035      0.000336303    -0.000110931
                    -0.000217924    -9.23964e-05       -0.0407091        0.207802      0.000382872    -0.000305898         -0.87536       -0.420902
                       -0.302517       -0.920238      0.000253237    -0.000289617        -0.184685        0.133392      3.47007e-05     0.000165986
                     0.000316091    -0.000158935         -0.87546       -0.421234      6.02175e-05     3.68864e-05        -0.142763        0.156126
281701.8               -0.227827       0.0010664     -0.000277144    -0.000222549        -0.302693       -0.920341      0.000336312    -0.000110933
                    -0.000217945    -9.23883e-05       -0.0407013        0.207797      0.000383106    -0.000305605        -0.875375       -0.420875
                       -0.302545        -0.92023      0.000253145    -0.000289615        -0.184678        0.133396       3.4727e-05     0.000165994
                     0.000316093    -0.000158948        -0.875474       -0.421208      6.01317e-05     3.48306e-05        -0.142754        0.156125
281701.9               -0.227824      0.00107357     -0.000277171    -0.000222481        -0.302723       -0.920332      0.000336322    -0.000110935
                    -0.000217966    -9.23803e-05       -0.0406934        0.207792      0.000383346    -0.000305305        -0.875389       -0.420849
                       -0.302572       -0.920222      0.000253055    -0.000289614        -0.184671        0.133399      3.47534e-05     0.000166002
                     0.000316095    -0.000158961        -0.875488       -0.421182      6.00029e-05     3.27243e-05        -0.142745        0.156124
281702                 -0.227821      0.00108075     -0.000277198    -0.000222413        -0.302752       -0.920323      0.000336331    -0.000110937
                    -0.000217987    -9.23722e-05       -0.0406855        0.207787      0.000383591    -0.000304999        -0.875403       -0.420823
                         -0.3026       -0.920213      0.000252964    -0.000289615        -0.184665        0.133403      3.47798e-05      0.00016601
                     0.000316098    -0.000158974        -0.875502       -0.421156      5.98281e-05      3.0567e-05        -0.142736        0.156123
281702.1               -0.227818      0.00108792     -0.000277226    -0.000222344        -0.302782       -0.920313      0.000336341     -0.00011094
                    -0.000218007    -9.23641e-05       -0.0406777        0.207781      0.000383841    -0.000304686        -0.875417       -0.420796
                       -0.302628       -0.920205      0.000252874    -0.000289617        -0.184658        0.133406      3.48062e-05     0.000166019
                       0.0003161    -0.000158987        -0.875516        -0.42113       5.9604e-05     2.83582e-05        -0.142727        0.156122
281702.2               -0.227814       0.0010951     -0.000277254    -0.000222274        -0.302812       -0.920304       0.00033635    -0.000110942
                    -0.000218028     -9.2356e-05       -0.0406698        0.207776      0.000384097    -0.000304366        -0.875431        -0.42077
                       -0.302656       -0.920197      0.000252785     -0.00028962        -0.184651         0.13341      3.48327e-05     0.000166027
                     0.000316102       -0.000159         -0.87553       -0.421104      5.93269e-05     2.60975e-05        -0.142718        0.156122
281702.3               -0.227811      0.00110227     -0.000277282    -0.000222203        -0.302841       -0.920295       0.00033636    -0.000110944
                    -0.000218049    -9.23479e-05        -0.040662        0.207771      0.000384359    -0.000304038        -0.875446       -0.420744
                       -0.302684       -0.920188      0.000252696    -0.000289624        -0.184645        0.133413      3.48591e-05     0.000166035
                     0.000316104    -0.000159013        -0.875544       -0.421079      5.89933e-05     2.37847e-05        -0.142709        0.156121
281702.4               -0.227808      0.00110945      -0.00027731    -0.000222132        -0.302871       -0.920285      0.000336369    -0.000110946
                     -0.00021807    -9.23397e-05       -0.0406541        0.207766      0.000384627    -0.000303704         -0.87546       -0.420718
                       -0.302712        -0.92018      0.000252608    -0.000289629        -0.184638        0.133417      3.48856e-05     0.000166044
                     0.000316106    -0.000159026        -0.875558       -0.421053      5.85993e-05     2.14197e-05          -0.1427         0.15612
281702.5               -0.227805      0.00111662     -0.000277339    -0.000222059        -0.302901       -0.920276      0.000336379    -0.000110948
                     -0.00021809    -9.23315e-05       -0.0406463         0.20776      0.000384901    -0.000303361        -0.875474       -0.420691
                        -0.30274       -0.920172       0.00025252    -0.000289636        -0.184632         0.13342      3.49121e-05     0.000166052
                     0.000316109    -0.000159039        -0.875572       -0.421027      5.81407e-05     1.90026e-05        -0.142692        0.156119
281702.6               -0.227802      0.00112379     -0.000277368    -0.000221986        -0.302931       -0.920267      0.000336388     -0.00011095
                    -0.000218111    -9.23233e-05       -0.0406384        0.207755      0.000385181    -0.000303011        -0.875488       -0.420665
                       -0.302768       -0.920163      0.000252433    -0.000289643        -0.184625        0.133424      3.49387e-05      0.00016606
                     0.000316111    -0.000159052        -0.875586       -0.421001      5.76132e-05     1.65336e-05        -0.142683        0.156118
281702.7               -0.227798      0.00113097     -0.000277397    -0.000221911         -0.30296       -0.920257      0.000336397    -0.000110952
                    -0.000218132     -9.2315e-05       -0.0406306         0.20775      0.000385468    -0.000302653        -0.875503       -0.420639
                       -0.302796       -0.920155      0.000252347    -0.000289652        -0.184618        0.133427      3.49652e-05     0.000166069
                     0.000316113    -0.000159065          -0.8756       -0.420975      5.70125e-05     1.40134e-05        -0.142674        0.156117
281702.8               -0.227795      0.00113814     -0.000277427    -0.000221836         -0.30299       -0.920248      0.000336407    -0.000110955
                    -0.000218152    -9.23068e-05       -0.0406227        0.207745      0.000385761    -0.000302286        -0.875517       -0.420612
                       -0.302824       -0.920146      0.000252261    -0.000289662        -0.184612        0.133431      3.49918e-05     0.000166077
                     0.000316115    -0.000159078        -0.875614       -0.420949      5.63337e-05     1.14427e-05        -0.142665        0.156117
281702.9               -0.227792      0.00114531     -0.000277457     -0.00022176         -0.30302       -0.920239      0.000336416    -0.000110957
                    -0.000218173    -9.22985e-05       -0.0406149        0.207739      0.000386061     -0.00030191        -0.875531       -0.420586
                       -0.302852       -0.920138      0.000252176    -0.000289673        -0.184605        0.133434      3.50184e-05     0.000166085
                     0.000316117    -0.000159091        -0.875628       -0.420923       5.5572e-05     8.82246e-06        -0.142656        0.156116
281703                 -0.227789      0.00115248     -0.000277487    -0.000221683        -0.303049       -0.920229      0.000336426    -0.000110959
                    -0.000218193    -9.22902e-05        -0.040607        0.207734      0.000386369    -0.000301525        -0.875545        -0.42056
                        -0.30288        -0.92013      0.000252092    -0.000289685        -0.184598        0.133438       3.5045e-05     0.000166094
                     0.000316119    -0.000159104        -0.875642       -0.420897      5.47223e-05     6.15411e-06        -0.142647        0.156115
281703.1               -0.227785      0.00115965     -0.000277518    -0.000221605        -0.303079        -0.92022      0.000336435    -0.000110961
                    -0.000218214    -9.22818e-05       -0.0405991        0.207729      0.000386683    -0.000301131        -0.875559       -0.420534
                       -0.302908       -0.920121      0.000252009    -0.000289698        -0.184592        0.133441      3.50716e-05     0.000166102
