! TOUCHSTONE file generated by CST MICROWAVE STUDIO
! Date and time: Wed Oct  8 06:54:11 2025
! Project name: Teste_Macro_Metasurface_Nanopilar.cst
! Parameters = {H=600; L_x=100; L_y=80; Lambda=1064; Max_L=200; Min_L=70; PathPara=1; Phi=0; Step_L=10; Theta=0; p=520; phaseX=180; phaseY=0}
! Header version: 2018
! Port assignment regex: !\s*Touchstone port\s*([0-9]+)\s*=\s*(CST MWS port|CST DS port)\s*([0-9]+|Zmin|Zmax)\s*\(\"(.*)\"\)(\s*mode\s*([0-9]+))?.*
! Touchstone port assignment:
! Touchstone port 1 = CST MWS port Zmax ("") mode 1
! Touchstone port 2 = CST MWS port Zmax ("") mode 2
! Touchstone port 3 = CST MWS port Zmin ("") mode 1
! Touchstone port 4 = CST MWS port Zmin ("") mode 2
! S-Parameters are not renormalized. Each port impedance will be approximated by the real part at minimum frequency. The values are described via the [Reference] keyword.
! Default impedance is overridden by [Reference]
[Version] 2.0
# GHz S RI R 376.73
[Number of Ports] 4
[Reference]
376.73 376.73 376.73 376.73 
[Number of Frequencies] 1001
[Network Data]
281700                   0.11362     -0.00143259     -0.000303707      0.00039575        -0.943571        0.310041     -0.000121872    -3.37944e-05
                     -0.00045186     0.000349216        0.0548777       -0.110836      9.19958e-05     0.000222288        -0.812627         0.56746
                       -0.943169        0.309881     -7.18756e-05    -9.94607e-06       -0.0925716       0.0663467      0.000491757    -0.000101852
                    -2.97656e-05      2.3765e-05        -0.812559        0.567105      0.000351451    -0.000248333        -0.123344       0.0136881
281700.1                0.113617     -0.00143803     -0.000303703     0.000395762        -0.943563        0.310066     -0.000121874    -3.37895e-05
                    -0.000451863     0.000349226        0.0548719       -0.110839      9.20123e-05     0.000222277        -0.812611        0.567482
                       -0.943161        0.309906     -7.18751e-05    -9.94266e-06       -0.0925694       0.0663459      0.000491761    -0.000101872
                    -2.97553e-05     2.37698e-05        -0.812544        0.567127      0.000351444    -0.000248323        -0.123344       0.0136884
281700.2                0.113615     -0.00144347     -0.000303699     0.000395774        -0.943555        0.310091     -0.000121876    -3.37846e-05
                    -0.000451865     0.000349235        0.0548662       -0.110841      9.20288e-05     0.000222266        -0.812596        0.567504
                       -0.943153        0.309931     -7.18746e-05    -9.93925e-06       -0.0925671        0.066345      0.000491765    -0.000101891
                     -2.9745e-05     2.37746e-05        -0.812528        0.567149      0.000351438    -0.000248312        -0.123344       0.0136887
281700.3                0.113613     -0.00144891     -0.000303695     0.000395786        -0.943547        0.310116     -0.000121878    -3.37796e-05
                    -0.000451867     0.000349245        0.0548604       -0.110844      9.20453e-05     0.000222255         -0.81258        0.567527
                       -0.943145        0.309957     -7.18741e-05    -9.93584e-06       -0.0925649       0.0663441      0.000491769     -0.00010191
                    -2.97347e-05     2.37794e-05        -0.812513        0.567171      0.000351431    -0.000248301        -0.123344        0.013689
281700.4                 0.11361     -0.00145435     -0.000303692     0.000395798        -0.943539        0.310142      -0.00012188    -3.37747e-05
                    -0.000451869     0.000349255        0.0548546       -0.110847      9.20617e-05     0.000222244        -0.812565        0.567549
                       -0.943137        0.309982     -7.18736e-05    -9.93243e-06       -0.0925626       0.0663432      0.000491773     -0.00010193
                    -2.97245e-05     2.37842e-05        -0.812497        0.567193      0.000351424     -0.00024829        -0.123344       0.0136893
281700.5                0.113608     -0.00145979     -0.000303688      0.00039581        -0.943531        0.310167     -0.000121882    -3.37698e-05
                    -0.000451872     0.000349265        0.0548489        -0.11085      9.20782e-05     0.000222233         -0.81255        0.567571
                       -0.943129        0.310007     -7.18731e-05    -9.92902e-06       -0.0925604       0.0663423      0.000491777    -0.000101949
                    -2.97142e-05      2.3789e-05        -0.812482        0.567215      0.000351418    -0.000248279        -0.123344       0.0136896
281700.6                0.113605     -0.00146523     -0.000303684     0.000395822        -0.943523        0.310192     -0.000121883    -3.37648e-05
                    -0.000451874     0.000349275        0.0548431       -0.110853      9.20946e-05     0.000222222        -0.812534        0.567593
                       -0.943121        0.310032     -7.18726e-05    -9.92561e-06       -0.0925581       0.0663414      0.000491781    -0.000101968
                    -2.97039e-05     2.37937e-05        -0.812467        0.567237      0.000351411    -0.000248269        -0.123343       0.0136899
281700.7                0.113603     -0.00147067     -0.000303681     0.000395835        -0.943515        0.310217     -0.000121885    -3.37599e-05
                    -0.000451876     0.000349284        0.0548373       -0.110855      9.21111e-05     0.000222211        -0.812519        0.567615
                       -0.943113        0.310057     -7.18721e-05     -9.9222e-06       -0.0925559       0.0663406      0.000491785    -0.000101988
                    -2.96936e-05     2.37985e-05        -0.812451        0.567259      0.000351404    -0.000248258        -0.123343       0.0136902
281700.8                0.113601     -0.00147611     -0.000303677     0.000395847        -0.943507        0.310242     -0.000121887     -3.3755e-05
                    -0.000451878     0.000349294        0.0548315       -0.110858      9.21275e-05       0.0002222        -0.812503        0.567637
                       -0.943105        0.310083     -7.18716e-05    -9.91878e-06       -0.0925537       0.0663397      0.000491789    -0.000102007
                    -2.96833e-05     2.38033e-05        -0.812436        0.567281      0.000351398    -0.000248247        -0.123343       0.0136906
281700.9                0.113598     -0.00148155     -0.000303673     0.000395859        -0.943499        0.310268     -0.000121889      -3.375e-05
                    -0.000451881     0.000349304        0.0548258       -0.110861       9.2144e-05     0.000222189        -0.812488        0.567659
                       -0.943097        0.310108     -7.18712e-05    -9.91537e-06       -0.0925514       0.0663388      0.000491792    -0.000102026
                     -2.9673e-05     2.38081e-05         -0.81242        0.567303      0.000351391    -0.000248236        -0.123343       0.0136909
281701                  0.113596     -0.00148699      -0.00030367     0.000395871        -0.943491        0.310293     -0.000121891    -3.37451e-05
                    -0.000451883     0.000349314          0.05482       -0.110864      9.21604e-05     0.000222178        -0.812473        0.567681
                       -0.943089        0.310133     -7.18707e-05    -9.91195e-06       -0.0925492       0.0663379      0.000491796    -0.000102046
                    -2.96627e-05     2.38129e-05        -0.812405        0.567325      0.000351384    -0.000248226        -0.123343       0.0136912
281701.1                0.113593     -0.00149243     -0.000303666     0.000395883        -0.943483        0.310318     -0.000121893    -3.37402e-05
                    -0.000451885     0.000349324        0.0548142       -0.110866      9.21769e-05     0.000222167        -0.812457        0.567703
                       -0.943081        0.310158     -7.18702e-05    -9.90854e-06       -0.0925469        0.066337        0.0004918    -0.000102065
                    -2.96525e-05     2.38176e-05         -0.81239        0.567347      0.000351378    -0.000248215        -0.123343       0.0136915
281701.2                0.113591     -0.00149787     -0.000303662     0.000395895        -0.943475        0.310343     -0.000121895    -3.37352e-05
                    -0.000451887     0.000349334        0.0548084       -0.110869      9.21933e-05     0.000222156        -0.812442        0.567725
                       -0.943073        0.310184     -7.18697e-05    -9.90512e-06       -0.0925447       0.0663362      0.000491804    -0.000102084
                    -2.96422e-05     2.38224e-05        -0.812374         0.56737      0.000351371    -0.000248204        -0.123343       0.0136918
281701.3                0.113589     -0.00150331     -0.000303659     0.000395907        -0.943467        0.310369     -0.000121897    -3.37303e-05
                    -0.000451889     0.000349343        0.0548027       -0.110872      9.22097e-05     0.000222145        -0.812426        0.567747
                       -0.943065        0.310209     -7.18692e-05    -9.90171e-06       -0.0925425       0.0663353      0.000491808    -0.000102104
                    -2.96319e-05     2.38272e-05        -0.812359        0.567392      0.000351364    -0.000248193        -0.123343       0.0136921
281701.4                0.113586     -0.00150875     -0.000303655     0.000395919        -0.943459        0.310394     -0.000121899    -3.37254e-05
                    -0.000451892     0.000349353        0.0547969       -0.110875      9.22262e-05     0.000222134        -0.812411        0.567769
                       -0.943057        0.310234     -7.18687e-05    -9.89829e-06       -0.0925402       0.0663344      0.000491812    -0.000102123
                    -2.96216e-05      2.3832e-05        -0.812343        0.567414      0.000351358    -0.000248182        -0.123343       0.0136924
281701.5                0.113584     -0.00151419     -0.000303651     0.000395931        -0.943451        0.310419       -0.0001219    -3.37205e-05
                    -0.000451894     0.000349363        0.0547911       -0.110878      9.22426e-05     0.000222123        -0.812396        0.567791
                       -0.943049        0.310259     -7.18682e-05    -9.89487e-06        -0.092538       0.0663335      0.000491816    -0.000102142
                    -2.96113e-05     2.38368e-05        -0.812328        0.567436      0.000351351    -0.000248172        -0.123342       0.0136927
281701.6                0.113581     -0.00151963     -0.000303647     0.000395943        -0.943443        0.310444     -0.000121902    -3.37155e-05
                    -0.000451896     0.000349373        0.0547854        -0.11088       9.2259e-05     0.000222113         -0.81238        0.567813
                       -0.943041        0.310284     -7.18677e-05    -9.89146e-06       -0.0925357       0.0663326       0.00049182    -0.000102162
                    -2.96011e-05     2.38415e-05        -0.812312        0.567458      0.000351345    -0.000248161        -0.123342        0.013693
281701.7                0.113579     -0.00152507     -0.000303644     0.000395955        -0.943435        0.310469     -0.000121904    -3.37106e-05
                    -0.000451898     0.000349383        0.0547796       -0.110883      9.22754e-05     0.000222102        -0.812365        0.567836
                       -0.943033         0.31031     -7.18672e-05    -9.88804e-06       -0.0925335       0.0663318      0.000491824    -0.000102181
                    -2.95908e-05     2.38463e-05        -0.812297         0.56748      0.000351338     -0.00024815        -0.123342       0.0136933
281701.8                0.113577      -0.0015305      -0.00030364     0.000395968        -0.943427        0.310495     -0.000121906    -3.37057e-05
                    -0.000451901     0.000349392        0.0547738       -0.110886      9.22919e-05     0.000222091        -0.812349        0.567858
                       -0.943025        0.310335     -7.18667e-05    -9.88462e-06       -0.0925312       0.0663309      0.000491828      -0.0001022
                    -2.95805e-05     2.38511e-05        -0.812282        0.567502      0.000351331    -0.000248139        -0.123342       0.0136936
281701.9                0.113574     -0.00153594     -0.000303636      0.00039598        -0.943418         0.31052     -0.000121908    -3.37007e-05
                    -0.000451903     0.000349402         0.054768       -0.110889      9.23083e-05      0.00022208        -0.812334         0.56788
                       -0.943017         0.31036     -7.18662e-05     -9.8812e-06        -0.092529         0.06633      0.000491832     -0.00010222
                    -2.95702e-05     2.38559e-05        -0.812266        0.567524      0.000351325    -0.000248129        -0.123342       0.0136939
281702                  0.113572     -0.00154138     -0.000303633     0.000395992         -0.94341        0.310545      -0.00012191    -3.36958e-05
                    -0.000451905     0.000349412        0.0547623       -0.110891      9.23247e-05     0.000222069        -0.812318        0.567902
                       -0.943009        0.310385     -7.18657e-05    -9.87778e-06       -0.0925268       0.0663291      0.000491835    -0.000102239
                      -2.956e-05     2.38607e-05        -0.812251        0.567546      0.000351318    -0.000248118        -0.123342       0.0136942
281702.1                0.113569     -0.00154682     -0.000303629     0.000396004        -0.943402         0.31057     -0.000121912    -3.36909e-05
                    -0.000451907     0.000349422        0.0547565       -0.110894      9.23411e-05     0.000222058        -0.812303        0.567924
                       -0.943001        0.310411     -7.18652e-05    -9.87436e-06       -0.0925245       0.0663282      0.000491839    -0.000102258
                    -2.95497e-05     2.38654e-05        -0.812235        0.567568      0.000351311    -0.000248107        -0.123342       0.0136946
281702.2                0.113567     -0.00155226     -0.000303625     0.000396016        -0.943394        0.310595     -0.000121914    -3.36859e-05
                     -0.00045191     0.000349432        0.0547507       -0.110897      9.23575e-05     0.000222047        -0.812288        0.567946
                       -0.942993        0.310436     -7.18647e-05    -9.87094e-06       -0.0925223       0.0663273      0.000491843    -0.000102278
                    -2.95394e-05     2.38702e-05         -0.81222         0.56759      0.000351305    -0.000248096        -0.123342       0.0136949
281702.3                0.113565      -0.0015577     -0.000303622     0.000396028        -0.943386        0.310621     -0.000121916     -3.3681e-05
                    -0.000451912     0.000349442        0.0547449         -0.1109      9.23739e-05     0.000222036        -0.812272        0.567968
                       -0.942985        0.310461     -7.18642e-05    -9.86751e-06         -0.09252       0.0663265      0.000491847    -0.000102297
                    -2.95291e-05      2.3875e-05        -0.812205        0.567612      0.000351298    -0.000248086        -0.123342       0.0136952
281702.4                0.113562     -0.00156313     -0.000303618      0.00039604        -0.943378        0.310646     -0.000121917    -3.36761e-05
                    -0.000451914     0.000349451        0.0547392       -0.110903      9.23903e-05     0.000222025        -0.812257         0.56799
                       -0.942977        0.310486     -7.18636e-05    -9.86409e-06       -0.0925178       0.0663256      0.000491851    -0.000102316
                    -2.95189e-05     2.38798e-05        -0.812189        0.567634      0.000351292    -0.000248075        -0.123341       0.0136955
281702.5                 0.11356     -0.00156857     -0.000303614     0.000396052         -0.94337        0.310671     -0.000121919    -3.36711e-05
                    -0.000451916     0.000349461        0.0547334       -0.110905      9.24067e-05     0.000222014        -0.812241        0.568012
                       -0.942969        0.310511     -7.18631e-05    -9.86067e-06       -0.0925156       0.0663247      0.000491855    -0.000102336
                    -2.95086e-05     2.38846e-05        -0.812174        0.567656      0.000351285    -0.000248064        -0.123341       0.0136958
281702.6                0.113557     -0.00157401      -0.00030361     0.000396064        -0.943362        0.310696     -0.000121921    -3.36662e-05
                    -0.000451918     0.000349471        0.0547276       -0.110908      9.24231e-05     0.000222003        -0.812226        0.568034
                       -0.942961        0.310537     -7.18626e-05    -9.85724e-06       -0.0925133       0.0663238      0.000491859    -0.000102355
                    -2.94983e-05     2.38893e-05        -0.812158        0.567678      0.000351278    -0.000248054        -0.123341       0.0136961
281702.7                0.113555     -0.00157945     -0.000303607     0.000396076        -0.943354        0.310722     -0.000121923    -3.36613e-05
                    -0.000451921     0.000349481        0.0547218       -0.110911      9.24395e-05     0.000221992        -0.812211        0.568056
                       -0.942953        0.310562     -7.18621e-05    -9.85382e-06       -0.0925111       0.0663229      0.000491863    -0.000102374
                    -2.94881e-05     2.38941e-05        -0.812143          0.5677      0.000351272    -0.000248043        -0.123341       0.0136964
281702.8                0.113553     -0.00158488     -0.000303603     0.000396088        -0.943346        0.310747     -0.000121925    -3.36563e-05
                    -0.000451923     0.000349491        0.0547161       -0.110914      9.24559e-05     0.000221981        -0.812195        0.568078
                       -0.942945        0.310587     -7.18616e-05    -9.85039e-06       -0.0925088        0.066322      0.000491867    -0.000102394
                    -2.94778e-05     2.38989e-05        -0.812127        0.567722      0.000351265    -0.000248032        -0.123341       0.0136967
281702.9                 0.11355     -0.00159032     -0.000303599       0.0003961        -0.943338        0.310772     -0.000121927    -3.36514e-05
                    -0.000451925     0.000349501        0.0547103       -0.110916      9.24722e-05      0.00022197         -0.81218          0.5681
                       -0.942937        0.310612     -7.18611e-05    -9.84697e-06       -0.0925066       0.0663212      0.000491871    -0.000102413
                    -2.94676e-05     2.39037e-05        -0.812112        0.567745      0.000351258    -0.000248021        -0.123341        0.013697
281703                  0.113548     -0.00159576     -0.000303596     0.000396112         -0.94333        0.310797     -0.000121929    -3.36465e-05
                    -0.000451927      0.00034951        0.0547045       -0.110919      9.24886e-05     0.000221959        -0.812164        0.568122
                       -0.942929        0.310638     -7.18606e-05    -9.84354e-06       -0.0925044       0.0663203      0.000491875    -0.000102432
                    -2.94573e-05     2.39085e-05        -0.812097        0.567767      0.000351252    -0.000248011        -0.123341       0.0136973
281703.1                0.113545     -0.00160119     -0.000303592     0.000396125        -0.943322        0.310822     -0.000121931    -3.36415e-05
                     -0.00045193      0.00034952        0.0546987       -0.110922       9.2505e-05     0.000221948        -0.812149        0.568144
                       -0.942921        0.310663     -7.18601e-05    -9.84012e-06       -0.0925021       0.0663194      0.000491878    -0.000102452
