! TOUCHSTONE file generated by CST MICROWAVE STUDIO
! Date and time: Wed Oct  8 07:03:28 2025
! Project name: Teste_Macro_Metasurface_Nanopilar.cst
! Parameters = {H=600; L_x=175; L_y=155; Lambda=1064; Max_L=200; Min_L=70; PathPara=1; Phi=0; Step_L=10; Theta=0; p=520; phaseX=180; phaseY=0}
! Header version: 2018
! Port assignment regex: !\s*Touchstone port\s*([0-9]+)\s*=\s*(CST MWS port|CST DS port)\s*([0-9]+|Zmin|Zmax)\s*\(\"(.*)\"\)(\s*mode\s*([0-9]+))?.*
! Touchstone port assignment:
! Touchstone port 1 = CST MWS port Zmax ("") mode 1
! Touchstone port 2 = CST MWS port Zmax ("") mode 2
! Touchstone port 3 = CST MWS port Zmin ("") mode 1
! Touchstone port 4 = CST MWS port Zmin ("") mode 2
! S-Parameters are not renormalized. Each port impedance will be approximated by the real part at minimum frequency. The values are described via the [Reference] keyword.
! Default impedance is overridden by [Reference]
[Version] 2.0
# GHz S RI R 376.73
[Number of Ports] 4
[Reference]
376.73 376.73 376.73 376.73 
[Number of Frequencies] 1001
[Network Data]
281700                -0.0507327        0.116044     -0.000774506     0.000196513        -0.895436       -0.415891          6.7e-05    -0.000142795
                    -0.000719545     0.000246604       -0.0128332        0.016438     -3.77196e-06     6.06195e-05        -0.977613       -0.188606
                       -0.895724       -0.415938      1.47812e-05     5.16275e-05         -0.05983        0.110936      0.000546061     0.000640457
                     1.15146e-05    -7.41038e-05        -0.977702        -0.18854      0.000610801      0.00062489       0.00161348       0.0183633
281700.1              -0.0507268         0.11604     -0.000774503     0.000196546        -0.895449       -0.415864      6.70176e-05    -0.000142759
                     -0.00071956     0.000246704       -0.0128313       0.0164321     -3.77885e-06     6.06213e-05        -0.977618       -0.188577
                       -0.895738       -0.415911      1.47953e-05     5.16297e-05        -0.059824        0.110932      0.000545933      0.00064046
                     1.15202e-05    -7.41914e-05        -0.977708       -0.188511      0.000610823      0.00062487       0.00161509        0.018357
281700.2              -0.0507209        0.116036     -0.000774499      0.00019658        -0.895463       -0.415838      6.70353e-05    -0.000142723
                    -0.000719575     0.000246804       -0.0128295       0.0164261     -3.78574e-06     6.06231e-05        -0.977624       -0.188547
                       -0.895751       -0.415885      1.48094e-05     5.16319e-05       -0.0598181        0.110929      0.000545805     0.000640463
                     1.15259e-05    -7.42791e-05        -0.977713       -0.188482      0.000610845     0.000624851       0.00161671       0.0183507
281700.3               -0.050715        0.116032     -0.000774496     0.000196613        -0.895476       -0.415812       6.7053e-05    -0.000142686
                     -0.00071959     0.000246904       -0.0128276       0.0164201     -3.79262e-06     6.06249e-05         -0.97763       -0.188518
                       -0.895764       -0.415859      1.48234e-05     5.16341e-05       -0.0598122        0.110925      0.000545677     0.000640467
                     1.15319e-05    -7.43668e-05        -0.977719       -0.188453      0.000610867     0.000624831       0.00161833       0.0183445
281700.4              -0.0507091        0.116028     -0.000774492     0.000196646        -0.895489       -0.415786      6.70708e-05     -0.00014265
                    -0.000719606     0.000247003       -0.0128257       0.0164142      -3.7995e-06     6.06267e-05        -0.977636       -0.188489
                       -0.895777       -0.415832      1.48373e-05     5.16363e-05       -0.0598063        0.110921      0.000545549      0.00064047
                      1.1538e-05    -7.44545e-05        -0.977725       -0.188423      0.000610889     0.000624812       0.00161994       0.0183382
281700.5              -0.0507032        0.116024     -0.000774489      0.00019668        -0.895502       -0.415759      6.70886e-05    -0.000142613
                    -0.000719621     0.000247103       -0.0128238       0.0164082     -3.80637e-06     6.06284e-05        -0.977642        -0.18846
                        -0.89579       -0.415806      1.48511e-05     5.16386e-05       -0.0598003        0.110918      0.000545421     0.000640473
                     1.15444e-05    -7.45422e-05        -0.977731       -0.188394      0.000610912     0.000624792       0.00162156       0.0183319
281700.6              -0.0506973         0.11602     -0.000774485     0.000196713        -0.895515       -0.415733      6.71065e-05    -0.000142576
                    -0.000719637     0.000247202        -0.012822       0.0164022     -3.81323e-06     6.06301e-05        -0.977648       -0.188431
                       -0.895803       -0.415779      1.48649e-05     5.16408e-05       -0.0597944        0.110914      0.000545293     0.000640476
                     1.15509e-05    -7.46299e-05        -0.977736       -0.188365      0.000610934     0.000624773       0.00162317       0.0183256
281700.7              -0.0506914        0.116016     -0.000774481     0.000196747        -0.895528       -0.415707      6.71244e-05    -0.000142539
                    -0.000719653     0.000247302       -0.0128201       0.0163962     -3.82009e-06     6.06319e-05        -0.977653       -0.188402
                       -0.895816       -0.415753      1.48786e-05     5.16431e-05       -0.0597885        0.110911      0.000545166     0.000640479
                     1.15577e-05    -7.47177e-05        -0.977742       -0.188336      0.000610956     0.000624753       0.00162479       0.0183193
281700.8              -0.0506855        0.116012     -0.000774478      0.00019678        -0.895541        -0.41568      6.71423e-05    -0.000142502
                    -0.000719669     0.000247401       -0.0128182       0.0163903     -3.82694e-06     6.06336e-05        -0.977659       -0.188373
                       -0.895829       -0.415727      1.48922e-05     5.16453e-05       -0.0597826        0.110907      0.000545039     0.000640482
                     1.15646e-05    -7.48054e-05        -0.977748       -0.188307      0.000610978     0.000624734       0.00162641        0.018313
281700.9              -0.0506796        0.116008     -0.000774474     0.000196813        -0.895554       -0.415654      6.71604e-05    -0.000142465
                    -0.000719685       0.0002475       -0.0128164       0.0163843     -3.83379e-06     6.06352e-05        -0.977665       -0.188344
                       -0.895842         -0.4157      1.49057e-05     5.16476e-05       -0.0597766        0.110904      0.000544911     0.000640485
                     1.15718e-05    -7.48932e-05        -0.977754       -0.188278         0.000611     0.000624714       0.00162802       0.0183067
281701                -0.0506737        0.116004      -0.00077447     0.000196847        -0.895567       -0.415628      6.71784e-05    -0.000142428
                    -0.000719701     0.000247599       -0.0128145       0.0163783     -3.84063e-06     6.06369e-05        -0.977671       -0.188315
                       -0.895856       -0.415674      1.49192e-05     5.16498e-05       -0.0597707          0.1109      0.000544784     0.000640488
                     1.15791e-05     -7.4981e-05         -0.97776       -0.188249      0.000611022     0.000624695       0.00162964       0.0183005
281701.1              -0.0506678           0.116     -0.000774467      0.00019688        -0.895581       -0.415601      6.71965e-05     -0.00014239
                    -0.000719718     0.000247698       -0.0128126       0.0163724     -3.84747e-06     6.06386e-05        -0.977677       -0.188286
                       -0.895869       -0.415648      1.49326e-05     5.16521e-05       -0.0597648        0.110896      0.000544657     0.000640491
                     1.15867e-05    -7.50688e-05        -0.977765        -0.18822      0.000611045     0.000624676       0.00163125       0.0182942
281701.2              -0.0506619        0.115995     -0.000774463     0.000196914        -0.895594       -0.415575      6.72147e-05    -0.000142353
                    -0.000719734     0.000247797       -0.0128108       0.0163664      -3.8543e-06     6.06402e-05        -0.977682       -0.188257
                       -0.895882       -0.415621       1.4946e-05     5.16544e-05       -0.0597589        0.110893       0.00054453     0.000640494
                     1.15944e-05    -7.51567e-05        -0.977771        -0.18819      0.000611067     0.000624656       0.00163287       0.0182879
281701.3               -0.050656        0.115991     -0.000774459     0.000196947        -0.895607       -0.415549      6.72329e-05    -0.000142315
                    -0.000719751     0.000247895       -0.0128089       0.0163604     -3.86112e-06     6.06419e-05        -0.977688       -0.188228
                       -0.895895       -0.415595      1.49592e-05     5.16567e-05       -0.0597529        0.110889      0.000544404     0.000640497
                     1.16023e-05    -7.52445e-05        -0.977777       -0.188161      0.000611089     0.000624637       0.00163449       0.0182816
281701.4              -0.0506501        0.115987     -0.000774455     0.000196981         -0.89562       -0.415522      6.72512e-05    -0.000142277
                    -0.000719768     0.000247994        -0.012807       0.0163544     -3.86794e-06     6.06435e-05        -0.977694       -0.188199
                       -0.895908       -0.415569      1.49724e-05     5.16589e-05        -0.059747        0.110886      0.000544277     0.000640499
                     1.16105e-05    -7.53324e-05        -0.977783       -0.188132      0.000611111     0.000624618        0.0016361       0.0182753
281701.5              -0.0506441        0.115983     -0.000774452     0.000197014        -0.895633       -0.415496      6.72696e-05    -0.000142239
                    -0.000719785     0.000248092       -0.0128052       0.0163485     -3.87475e-06     6.06451e-05          -0.9777        -0.18817
                       -0.895921       -0.415542      1.49855e-05     5.16612e-05       -0.0597411        0.110882      0.000544151     0.000640502
                     1.16188e-05    -7.54202e-05        -0.977788       -0.188103      0.000611133     0.000624598       0.00163772        0.018269
281701.6              -0.0506382        0.115979     -0.000774448     0.000197047        -0.895646        -0.41547      6.72879e-05    -0.000142201
                    -0.000719802     0.000248191       -0.0128033       0.0163425     -3.88156e-06     6.06467e-05        -0.977706       -0.188141
                       -0.895934       -0.415516      1.49986e-05     5.16635e-05       -0.0597352        0.110879      0.000544025     0.000640505
                     1.16274e-05    -7.55081e-05        -0.977794       -0.188074      0.000611155     0.000624579       0.00163934       0.0182627
281701.7              -0.0506323        0.115975     -0.000774444     0.000197081        -0.895659       -0.415443      6.73064e-05    -0.000142163
                    -0.000719819     0.000248289       -0.0128014       0.0163365     -3.88836e-06     6.06482e-05        -0.977712       -0.188112
                       -0.895947       -0.415489      1.50116e-05     5.16658e-05       -0.0597293        0.110875      0.000543898     0.000640508
                     1.16362e-05     -7.5596e-05          -0.9778       -0.188045      0.000611177      0.00062456       0.00164095       0.0182564
281701.8              -0.0506264        0.115971      -0.00077444     0.000197114        -0.895672       -0.415417      6.73249e-05    -0.000142125
                    -0.000719836     0.000248387       -0.0127996       0.0163306     -3.89515e-06     6.06498e-05        -0.977717       -0.188082
                        -0.89596       -0.415463      1.50245e-05     5.16681e-05       -0.0597233        0.110872      0.000543772      0.00064051
                     1.16451e-05    -7.56838e-05        -0.977806       -0.188016      0.000611199     0.000624541       0.00164257       0.0182501
281701.9              -0.0506205        0.115967     -0.000774436     0.000197148        -0.895685       -0.415391      6.73435e-05    -0.000142086
                    -0.000719854     0.000248485       -0.0127977       0.0163246     -3.90194e-06     6.06513e-05        -0.977723       -0.188053
                       -0.895974       -0.415437      1.50373e-05     5.16704e-05       -0.0597174        0.110868      0.000543647     0.000640513
                     1.16543e-05    -7.57717e-05        -0.977811       -0.187987      0.000611221     0.000624521       0.00164419       0.0182438
281702                -0.0506146        0.115963     -0.000774432     0.000197181        -0.895698       -0.415364      6.73621e-05    -0.000142048
                    -0.000719872     0.000248583       -0.0127958       0.0163186     -3.90872e-06     6.06528e-05        -0.977729       -0.188024
                       -0.895987        -0.41541      1.50501e-05     5.16727e-05       -0.0597115        0.110864      0.000543521     0.000640515
                     1.16637e-05    -7.58596e-05        -0.977817       -0.187957      0.000611243     0.000624502        0.0016458       0.0182375
281702.1              -0.0506087        0.115959     -0.000774429     0.000197214        -0.895711       -0.415338      6.73807e-05    -0.000142009
                    -0.000719889     0.000248681        -0.012794       0.0163126     -3.91549e-06     6.06544e-05        -0.977735       -0.187995
                          -0.896       -0.415384      1.50628e-05      5.1675e-05       -0.0597056        0.110861      0.000543395     0.000640518
                     1.16732e-05    -7.59475e-05        -0.977823       -0.187928      0.000611266     0.000624483       0.00164742       0.0182312
281702.2              -0.0506028        0.115955     -0.000774425     0.000197248        -0.895725       -0.415312      6.73995e-05     -0.00014197
                    -0.000719907     0.000248778       -0.0127921       0.0163067     -3.92226e-06     6.06558e-05        -0.977741       -0.187966
                       -0.896013       -0.415358      1.50754e-05     5.16773e-05       -0.0596997        0.110857       0.00054327      0.00064052
                      1.1683e-05    -7.60353e-05        -0.977829       -0.187899      0.000611288     0.000624464       0.00164904       0.0182249
281702.3              -0.0505969        0.115951     -0.000774421     0.000197281        -0.895738       -0.415285      6.74183e-05    -0.000141931
                    -0.000719925     0.000248876       -0.0127903       0.0163007     -3.92902e-06     6.06573e-05        -0.977746       -0.187937
                       -0.896026       -0.415331       1.5088e-05     5.16796e-05       -0.0596938        0.110854      0.000543145     0.000640523
                      1.1693e-05    -7.61232e-05        -0.977834        -0.18787       0.00061131     0.000624445       0.00165065       0.0182186
281702.4               -0.050591        0.115947     -0.000774417     0.000197315        -0.895751       -0.415259      6.74371e-05    -0.000141892
                    -0.000719944     0.000248973       -0.0127884       0.0162947     -3.93578e-06     6.06588e-05        -0.977752       -0.187908
                       -0.896039       -0.415305      1.51004e-05      5.1682e-05       -0.0596878         0.11085       0.00054302     0.000640525
                     1.17032e-05    -7.62111e-05         -0.97784       -0.187841      0.000611332     0.000624426       0.00165227       0.0182123
281702.5              -0.0505851        0.115943     -0.000774413     0.000197348        -0.895764       -0.415233       6.7456e-05    -0.000141852
                    -0.000719962      0.00024907       -0.0127865       0.0162888     -3.94253e-06     6.06602e-05        -0.977758       -0.187879
                       -0.896052       -0.415278      1.51129e-05     5.16843e-05       -0.0596819        0.110847      0.000542895     0.000640528
                     1.17136e-05     -7.6299e-05        -0.977846       -0.187812      0.000611354     0.000624406       0.00165388        0.018206
281702.6              -0.0505792        0.115939     -0.000774409     0.000197381        -0.895777       -0.415206       6.7475e-05    -0.000141813
                    -0.000719981     0.000249167       -0.0127847       0.0162828     -3.94927e-06     6.06617e-05        -0.977764        -0.18785
                       -0.896065       -0.415252      1.51252e-05     5.16866e-05        -0.059676        0.110843       0.00054277      0.00064053
                     1.17242e-05    -7.63868e-05        -0.977852       -0.187783      0.000611376     0.000624387        0.0016555       0.0181997
281702.7              -0.0505733        0.115935     -0.000774405     0.000197415         -0.89579        -0.41518      6.74941e-05    -0.000141774
                    -0.000719999     0.000249264       -0.0127828       0.0162768       -3.956e-06     6.06631e-05         -0.97777       -0.187821
                       -0.896078       -0.415226      1.51375e-05     5.16889e-05       -0.0596701        0.110839      0.000542645     0.000640532
                     1.17351e-05    -7.64747e-05        -0.977857       -0.187753      0.000611398     0.000624368       0.00165712       0.0181934
281702.8              -0.0505674        0.115931     -0.000774401     0.000197448        -0.895803       -0.415154      6.75132e-05    -0.000141734
                    -0.000720018     0.000249361       -0.0127809       0.0162708     -3.96273e-06     6.06645e-05        -0.977775       -0.187792
                       -0.896092       -0.415199      1.51496e-05     5.16912e-05       -0.0596642        0.110836      0.000542521     0.000640535
                     1.17461e-05    -7.65626e-05        -0.977863       -0.187724       0.00061142     0.000624349       0.00165873       0.0181871
281702.9              -0.0505615        0.115927     -0.000774397     0.000197482        -0.895816       -0.415127      6.75323e-05    -0.000141694
                    -0.000720037     0.000249458       -0.0127791       0.0162649     -3.96945e-06     6.06659e-05        -0.977781       -0.187763
                       -0.896105       -0.415173      1.51618e-05     5.16935e-05       -0.0596582        0.110832      0.000542396     0.000640537
                     1.17573e-05    -7.66504e-05        -0.977869       -0.187695      0.000611442      0.00062433       0.00166035       0.0181808
281703                -0.0505556        0.115923     -0.000774393     0.000197515        -0.895829       -0.415101      6.75516e-05    -0.000141654
                    -0.000720056     0.000249555       -0.0127772       0.0162589     -3.97617e-06     6.06672e-05        -0.977787       -0.187734
                       -0.896118       -0.415147      1.51738e-05     5.16958e-05       -0.0596523        0.110829      0.000542272     0.000640539
                     1.17688e-05    -7.67382e-05        -0.977875       -0.187666      0.000611464     0.000624311       0.00166197       0.0181745
281703.1              -0.0505497        0.115919     -0.000774389     0.000197549        -0.895842       -0.415075      6.75709e-05    -0.000141614
                    -0.000720075     0.000249651       -0.0127754       0.0162529     -3.98288e-06     6.06686e-05        -0.977793       -0.187704
                       -0.896131        -0.41512      1.51858e-05     5.16981e-05       -0.0596464        0.110825      0.000542148     0.000640541
