! TOUCHSTONE file generated by CST MICROWAVE STUDIO
! Date and time: Wed Oct  8 07:03:07 2025
! Project name: Teste_Macro_Metasurface_Nanopilar.cst
! Parameters = {H=600; L_x=175; L_y=75; Lambda=1064; Max_L=200; Min_L=70; PathPara=1; Phi=0; Step_L=10; Theta=0; p=520; phaseX=180; phaseY=0}
! Header version: 2018
! Port assignment regex: !\s*Touchstone port\s*([0-9]+)\s*=\s*(CST MWS port|CST DS port)\s*([0-9]+|Zmin|Zmax)\s*\(\"(.*)\"\)(\s*mode\s*([0-9]+))?.*
! Touchstone port assignment:
! Touchstone port 1 = CST MWS port Zmax ("") mode 1
! Touchstone port 2 = CST MWS port Zmax ("") mode 2
! Touchstone port 3 = CST MWS port Zmin ("") mode 1
! Touchstone port 4 = CST MWS port Zmin ("") mode 2
! S-Parameters are not renormalized. Each port impedance will be approximated by the real part at minimum frequency. The values are described via the [Reference] keyword.
! Default impedance is overridden by [Reference]
[Version] 2.0
# GHz S RI R 376.73
[Number of Ports] 4
[Reference]
376.73 376.73 376.73 376.73 
[Number of Frequencies] 1001
[Network Data]
281700                 0.0779493      -0.0954077       7.3897e-06     0.000566675        -0.825306         0.55024      8.87555e-05    -0.000435647
                     0.000134126     0.000347109        -0.167211       -0.127791      0.000120786    -0.000213346       -0.0533728       -0.969614
                       -0.824984        0.549891      0.000221577    -0.000383194        -0.118243       0.0354663     -0.000482431    -1.07044e-05
                     0.000309188    -0.000432029       -0.0530579       -0.969216     -0.000466444     8.30618e-05        -0.152978        0.145577
281700.1               0.0779439      -0.0954109      7.40565e-06      0.00056669        -0.825291        0.550263      8.87342e-05    -0.000435675
                     0.000134128     0.000347099        -0.167213       -0.127784      0.000120784    -0.000213352       -0.0534038       -0.969613
                       -0.824969        0.549913      0.000221563    -0.000383211        -0.118242       0.0354664     -0.000482421    -1.06799e-05
                     0.000309179    -0.000432044       -0.0530889       -0.969215     -0.000466445     8.30813e-05        -0.152971         0.14558
281700.2               0.0779385      -0.0954141      7.42159e-06     0.000566704        -0.825276        0.550285       8.8713e-05    -0.000435703
                      0.00013413     0.000347089        -0.167215       -0.127776      0.000120782    -0.000213358       -0.0534348       -0.969612
                       -0.824954        0.549935      0.000221549    -0.000383228        -0.118241       0.0354666      -0.00048241    -1.06554e-05
                      0.00030917     -0.00043206       -0.0531198       -0.969214     -0.000466445     8.31008e-05        -0.152965        0.145582
281700.3               0.0779331      -0.0954173      7.43755e-06     0.000566719        -0.825261        0.550307      8.86918e-05    -0.000435732
                     0.000134132     0.000347079        -0.167217       -0.127769       0.00012078    -0.000213363       -0.0534657       -0.969611
                        -0.82494        0.549957      0.000221535    -0.000383245         -0.11824       0.0354668     -0.000482399    -1.06309e-05
                     0.000309162    -0.000432075       -0.0531508       -0.969213     -0.000466445     8.31202e-05        -0.152958        0.145585
281700.4               0.0779278      -0.0954205      7.45351e-06     0.000566734        -0.825247        0.550329      8.86705e-05     -0.00043576
                     0.000134134     0.000347069        -0.167218       -0.127762      0.000120778    -0.000213369       -0.0534967        -0.96961
                       -0.824925         0.54998      0.000221521    -0.000383262        -0.118239       0.0354669     -0.000482389    -1.06064e-05
                     0.000309153     -0.00043209       -0.0531817       -0.969212     -0.000466446     8.31397e-05        -0.152951        0.145587
281700.5               0.0779224      -0.0954237      7.46947e-06     0.000566749        -0.825232        0.550352      8.86493e-05    -0.000435788
                     0.000134136      0.00034706         -0.16722       -0.127754      0.000120776    -0.000213375       -0.0535277       -0.969609
                        -0.82491        0.550002      0.000221507    -0.000383279        -0.118238       0.0354671     -0.000482378    -1.05819e-05
                     0.000309144    -0.000432105       -0.0532126       -0.969211     -0.000466446     8.31592e-05        -0.152945         0.14559
281700.6                0.077917      -0.0954269      7.48544e-06     0.000566764        -0.825217        0.550374      8.86281e-05    -0.000435816
                     0.000134138      0.00034705        -0.167222       -0.127747      0.000120774    -0.000213381       -0.0535586       -0.969608
                       -0.824896        0.550024      0.000221493    -0.000383296        -0.118237       0.0354673     -0.000482368    -1.05574e-05
                     0.000309135    -0.000432121       -0.0532436        -0.96921     -0.000466447     8.31786e-05        -0.152938        0.145592
281700.7               0.0779116      -0.0954301      7.50141e-06     0.000566779        -0.825202        0.550396      8.86069e-05    -0.000435844
                      0.00013414      0.00034704        -0.167224       -0.127739      0.000120772    -0.000213387       -0.0535896       -0.969607
                       -0.824881        0.550046      0.000221479    -0.000383313        -0.118236       0.0354674     -0.000482357    -1.05329e-05
                     0.000309126    -0.000432136       -0.0532745       -0.969208     -0.000466447     8.31981e-05        -0.152931        0.145595
281700.8               0.0779063      -0.0954333      7.51739e-06     0.000566794        -0.825188        0.550419      8.85857e-05    -0.000435872
                     0.000134142      0.00034703        -0.167226       -0.127732       0.00012077    -0.000213393       -0.0536206       -0.969606
                       -0.824866        0.550069      0.000221465     -0.00038333        -0.118235       0.0354676     -0.000482346    -1.05083e-05
                     0.000309117    -0.000432151       -0.0533054       -0.969207     -0.000466447     8.32176e-05        -0.152925        0.145597
281700.9               0.0779009      -0.0954365      7.53338e-06     0.000566809        -0.825173        0.550441      8.85645e-05      -0.0004359
                     0.000134144      0.00034702        -0.167228       -0.127725      0.000120768    -0.000213399       -0.0536515       -0.969605
                       -0.824851        0.550091      0.000221452    -0.000383347        -0.118234       0.0354678     -0.000482336    -1.04838e-05
                     0.000309108    -0.000432167       -0.0533364       -0.969206     -0.000466448     8.32371e-05        -0.152918          0.1456
281701                 0.0778955      -0.0954397      7.54937e-06     0.000566824        -0.825158        0.550463      8.85433e-05    -0.000435928
                     0.000134146      0.00034701        -0.167229       -0.127717      0.000120767    -0.000213405       -0.0536825       -0.969604
                       -0.824837        0.550113      0.000221438    -0.000383364        -0.118233       0.0354679     -0.000482325    -1.04592e-05
                     0.000309099    -0.000432182       -0.0533673       -0.969205     -0.000466448     8.32565e-05        -0.152911        0.145602
281701.1               0.0778901      -0.0954429      7.56536e-06     0.000566839        -0.825143        0.550486      8.85221e-05    -0.000435957
                     0.000134148        0.000347        -0.167231        -0.12771      0.000120765    -0.000213411       -0.0537135       -0.969603
                       -0.824822        0.550136      0.000221424    -0.000383381        -0.118232       0.0354681     -0.000482315    -1.04347e-05
                      0.00030909    -0.000432197       -0.0533983       -0.969204     -0.000466448      8.3276e-05        -0.152905        0.145605
281701.2               0.0778848      -0.0954461      7.58136e-06     0.000566854        -0.825129        0.550508       8.8501e-05    -0.000435985
                      0.00013415      0.00034699        -0.167233       -0.127703      0.000120763    -0.000213417       -0.0537444       -0.969602
                       -0.824807        0.550158       0.00022141    -0.000383398        -0.118231       0.0354683     -0.000482304    -1.04101e-05
                     0.000309081    -0.000432213       -0.0534292       -0.969203     -0.000466449     8.32955e-05        -0.152898        0.145607
281701.3               0.0778794      -0.0954493      7.59736e-06     0.000566869        -0.825114         0.55053      8.84798e-05    -0.000436013
                     0.000134152     0.000346981        -0.167235       -0.127695      0.000120761    -0.000213423       -0.0537754       -0.969601
                       -0.824792         0.55018      0.000221396    -0.000383415         -0.11823       0.0354684     -0.000482293    -1.03856e-05
                     0.000309072    -0.000432228       -0.0534601       -0.969202     -0.000466449     8.33149e-05        -0.152891         0.14561
281701.4                0.077874      -0.0954525      7.61337e-06     0.000566884        -0.825099        0.550552      8.84586e-05    -0.000436041
                     0.000134154     0.000346971        -0.167237       -0.127688      0.000120759    -0.000213428       -0.0538064         -0.9696
                       -0.824778        0.550202      0.000221382    -0.000383432        -0.118229       0.0354686     -0.000482283     -1.0361e-05
                     0.000309063    -0.000432243       -0.0534911       -0.969201      -0.00046645     8.33344e-05        -0.152885        0.145612
281701.5               0.0778686      -0.0954557      7.62939e-06     0.000566899        -0.825085        0.550575      8.84375e-05    -0.000436069
                     0.000134156     0.000346961        -0.167239       -0.127681      0.000120757    -0.000213434       -0.0538373       -0.969599
                       -0.824763        0.550225      0.000221368    -0.000383449        -0.118228       0.0354688     -0.000482272    -1.03364e-05
                     0.000309054    -0.000432258        -0.053522         -0.9692      -0.00046645     8.33539e-05        -0.152878        0.145615
281701.6               0.0778633      -0.0954589      7.64541e-06     0.000566914         -0.82507        0.550597      8.84163e-05    -0.000436097
                     0.000134158     0.000346951         -0.16724       -0.127673      0.000120755     -0.00021344       -0.0538683       -0.969598
                       -0.824748        0.550247      0.000221354    -0.000383467        -0.118227       0.0354689     -0.000482262    -1.03118e-05
                     0.000309045    -0.000432274        -0.053553       -0.969199      -0.00046645     8.33734e-05        -0.152872        0.145618
281701.7               0.0778579      -0.0954621      7.66143e-06     0.000566929        -0.825055        0.550619      8.83951e-05    -0.000436126
                      0.00013416     0.000346941        -0.167242       -0.127666      0.000120753    -0.000213446       -0.0538993       -0.969597
                       -0.824733        0.550269       0.00022134    -0.000383484        -0.118226       0.0354691     -0.000482251    -1.02872e-05
                     0.000309036    -0.000432289       -0.0535839       -0.969198     -0.000466451     8.33928e-05        -0.152865         0.14562
281701.8               0.0778525      -0.0954653      7.67746e-06     0.000566944         -0.82504        0.550642       8.8374e-05    -0.000436154
                     0.000134162     0.000346931        -0.167244       -0.127658      0.000120751    -0.000213452       -0.0539302       -0.969596
                       -0.824719        0.550291      0.000221326    -0.000383501        -0.118225       0.0354693      -0.00048224    -1.02626e-05
                     0.000309027    -0.000432304       -0.0536148       -0.969197     -0.000466451     8.34123e-05        -0.152858        0.145623
281701.9               0.0778471      -0.0954685       7.6935e-06     0.000566959        -0.825026        0.550664      8.83529e-05    -0.000436182
                     0.000134164     0.000346921        -0.167246       -0.127651      0.000120749    -0.000213458       -0.0539612       -0.969595
                       -0.824704        0.550314      0.000221312    -0.000383518        -0.118224       0.0354695      -0.00048223     -1.0238e-05
                     0.000309019     -0.00043232       -0.0536458       -0.969196     -0.000466451     8.34318e-05        -0.152852        0.145625
281702                 0.0778417      -0.0954717      7.70954e-06     0.000566973        -0.825011        0.550686      8.83317e-05     -0.00043621
                     0.000134166     0.000346911        -0.167248       -0.127644      0.000120747    -0.000213464       -0.0539922       -0.969594
                       -0.824689        0.550336      0.000221298    -0.000383535        -0.118223       0.0354696     -0.000482219    -1.02134e-05
                      0.00030901    -0.000432335       -0.0536767       -0.969195     -0.000466452     8.34513e-05        -0.152845        0.145628
281702.1               0.0778364      -0.0954749      7.72558e-06     0.000566988        -0.824996        0.550709      8.83106e-05    -0.000436239
                     0.000134168     0.000346902         -0.16725       -0.127636      0.000120745     -0.00021347       -0.0540231       -0.969593
                       -0.824674        0.550358      0.000221284    -0.000383552        -0.118222       0.0354698     -0.000482209    -1.01887e-05
                     0.000309001     -0.00043235       -0.0537077       -0.969194     -0.000466452     8.34707e-05        -0.152838         0.14563
281702.2                0.077831      -0.0954781      7.74163e-06     0.000567003        -0.824981        0.550731      8.82895e-05    -0.000436267
                      0.00013417     0.000346892        -0.167251       -0.127629      0.000120743    -0.000213476       -0.0540541       -0.969592
                        -0.82466        0.550381       0.00022127    -0.000383569        -0.118221         0.03547     -0.000482198    -1.01641e-05
                     0.000308992    -0.000432366       -0.0537386       -0.969193     -0.000466453     8.34902e-05        -0.152832        0.145633
281702.3               0.0778256      -0.0954813      7.75769e-06     0.000567018        -0.824967        0.550753      8.82683e-05    -0.000436295
                     0.000134172     0.000346882        -0.167253       -0.127622      0.000120741    -0.000213482       -0.0540851       -0.969591
                       -0.824645        0.550403      0.000221256    -0.000383586         -0.11822       0.0354701     -0.000482187    -1.01394e-05
                     0.000308983    -0.000432381       -0.0537695       -0.969192     -0.000466453     8.35097e-05        -0.152825        0.145635
281702.4               0.0778202      -0.0954845      7.77375e-06     0.000567033        -0.824952        0.550775      8.82472e-05    -0.000436323
                     0.000134174     0.000346872        -0.167255       -0.127614      0.000120739    -0.000213488        -0.054116        -0.96959
                        -0.82463        0.550425      0.000221242    -0.000383603        -0.118219       0.0354703     -0.000482177    -1.01148e-05
                     0.000308974    -0.000432396       -0.0538005       -0.969191     -0.000466453     8.35292e-05        -0.152818        0.145638
281702.5               0.0778149      -0.0954877      7.78982e-06     0.000567048        -0.824937        0.550798      8.82261e-05    -0.000436352
                     0.000134176     0.000346862        -0.167257       -0.127607      0.000120737    -0.000213493        -0.054147       -0.969589
                       -0.824615        0.550447      0.000221228     -0.00038362        -0.118218       0.0354705     -0.000482166    -1.00901e-05
                     0.000308965    -0.000432411       -0.0538314        -0.96919     -0.000466454     8.35486e-05        -0.152812         0.14564
281702.6               0.0778095      -0.0954909      7.80589e-06     0.000567063        -0.824922         0.55082       8.8205e-05     -0.00043638
                     0.000134178     0.000346852        -0.167259         -0.1276      0.000120735    -0.000213499        -0.054178       -0.969588
                       -0.824601         0.55047      0.000221214    -0.000383637        -0.118217       0.0354706     -0.000482156    -1.00655e-05
                     0.000308956    -0.000432427       -0.0538623       -0.969189     -0.000466454     8.35681e-05        -0.152805        0.145643
281702.7               0.0778041      -0.0954941      7.82196e-06     0.000567078        -0.824908        0.550842      8.81839e-05    -0.000436408
                      0.00013418     0.000346842        -0.167261       -0.127592      0.000120733    -0.000213505        -0.054209       -0.969587
                       -0.824586        0.550492        0.0002212    -0.000383654        -0.118216       0.0354708     -0.000482145    -1.00408e-05
                     0.000308947    -0.000432442       -0.0538933       -0.969188     -0.000466454     8.35876e-05        -0.152798        0.145645
281702.8               0.0777987      -0.0954973      7.83805e-06     0.000567093        -0.824893        0.550865      8.81628e-05    -0.000436436
                     0.000134182     0.000346832        -0.167262       -0.127585      0.000120732    -0.000213511       -0.0542399       -0.969585
                       -0.824571        0.550514      0.000221186    -0.000383671        -0.118215        0.035471     -0.000482134    -1.00161e-05
                     0.000308938    -0.000432457       -0.0539242       -0.969187     -0.000466455     8.36071e-05        -0.152792        0.145648
281702.9               0.0777933      -0.0955005      7.85413e-06     0.000567108        -0.824878        0.550887      8.81417e-05    -0.000436465
                     0.000134184     0.000346823        -0.167264       -0.127577       0.00012073    -0.000213517       -0.0542709       -0.969584
                       -0.824556        0.550536      0.000221172    -0.000383688        -0.118214       0.0354711     -0.000482124    -9.99142e-06
                     0.000308929    -0.000432473       -0.0539552       -0.969186     -0.000466455     8.36265e-05        -0.152785         0.14565
281703                  0.077788      -0.0955037      7.87022e-06     0.000567123        -0.824863        0.550909      8.81206e-05    -0.000436493
                     0.000134186     0.000346813        -0.167266        -0.12757      0.000120728    -0.000213523       -0.0543019       -0.969583
                       -0.824541        0.550559      0.000221158    -0.000383705        -0.118213       0.0354713     -0.000482113    -9.96673e-06
                      0.00030892    -0.000432488       -0.0539861       -0.969185     -0.000466456      8.3646e-05        -0.152778        0.145653
281703.1               0.0777826      -0.0955069      7.88632e-06     0.000567138        -0.824849        0.550931      8.80996e-05    -0.000436521
                     0.000134188     0.000346803        -0.167268       -0.127563      0.000120726    -0.000213529       -0.0543328       -0.969582
                       -0.824527        0.550581      0.000221144    -0.000383722        -0.118212       0.0354715     -0.000482103    -9.94202e-06
