! TOUCHSTONE file generated by CST MICROWAVE STUDIO
! Date and time: Wed Oct  8 06:59:42 2025
! Project name: Teste_Macro_Metasurface_Nanopilar.cst
! Parameters = {H=600; L_x=145; L_y=115; Lambda=1064; Max_L=200; Min_L=70; PathPara=1; Phi=0; Step_L=10; Theta=0; p=520; phaseX=180; phaseY=0}
! Header version: 2018
! Port assignment regex: !\s*Touchstone port\s*([0-9]+)\s*=\s*(CST MWS port|CST DS port)\s*([0-9]+|Zmin|Zmax)\s*\(\"(.*)\"\)(\s*mode\s*([0-9]+))?.*
! Touchstone port assignment:
! Touchstone port 1 = CST MWS port Zmax ("") mode 1
! Touchstone port 2 = CST MWS port Zmax ("") mode 2
! Touchstone port 3 = CST MWS port Zmin ("") mode 1
! Touchstone port 4 = CST MWS port Zmin ("") mode 2
! S-Parameters are not renormalized. Each port impedance will be approximated by the real part at minimum frequency. The values are described via the [Reference] keyword.
! Default impedance is overridden by [Reference]
[Version] 2.0
# GHz S RI R 376.73
[Number of Ports] 4
[Reference]
376.73 376.73 376.73 376.73 
[Number of Frequencies] 1001
[Network Data]
281700                -0.0381286       -0.150423     -0.000591709    -0.000167053         0.758126       -0.618702     -8.00497e-05     0.000210067
                     -0.00062987    -0.000162004        -0.194057     -0.00604836     -3.09603e-05    -0.000111021        -0.409273       -0.886036
                        0.758564       -0.618636     -2.96007e-05     -1.7133e-05        -0.142663      -0.0646013      -0.00068345    -7.70702e-05
                    -0.000100997     0.000246726        -0.409462         -0.8857     -0.000631516    -9.88555e-05        -0.122146        0.150721
281700.1              -0.0381371       -0.150424     -0.000591716    -0.000167053         0.758104       -0.618727     -8.00384e-05      0.00021007
                    -0.000629881    -0.000161999        -0.194053     -0.00604262      -3.0965e-05    -0.000111047        -0.409301       -0.886025
                        0.758543       -0.618661     -2.95972e-05     -1.7135e-05        -0.142667      -0.0646003     -0.000683459     -7.7049e-05
                    -0.000100985     0.000246739         -0.40949       -0.885689     -0.000631538    -9.88385e-05        -0.122138        0.150722
281700.2              -0.0381456       -0.150426     -0.000591722    -0.000167052         0.758082       -0.618753     -8.00271e-05     0.000210074
                    -0.000629893    -0.000161994        -0.194049     -0.00603688     -3.09695e-05    -0.000111073        -0.409328       -0.886013
                        0.758521       -0.618687     -2.95937e-05    -1.71371e-05        -0.142671      -0.0645994     -0.000683468    -7.70278e-05
                    -0.000100973     0.000246753        -0.409517       -0.885677     -0.000631561    -9.88214e-05        -0.122131        0.150722
281700.3              -0.0381541       -0.150428     -0.000591729    -0.000167051         0.758061       -0.618779     -8.00159e-05     0.000210077
                    -0.000629904    -0.000161989        -0.194045     -0.00603113     -3.09741e-05    -0.000111099        -0.409356       -0.886001
                        0.758499       -0.618713     -2.95902e-05    -1.71391e-05        -0.142676      -0.0645985     -0.000683478    -7.70066e-05
                    -0.000100962     0.000246766        -0.409545       -0.885665     -0.000631583    -9.88044e-05        -0.122123        0.150723
281700.4              -0.0381626       -0.150429     -0.000591735    -0.000167051         0.758039       -0.618804     -8.00046e-05     0.000210081
                    -0.000629916    -0.000161984        -0.194041     -0.00602539     -3.09787e-05    -0.000111125        -0.409383       -0.885989
                        0.758478       -0.618738     -2.95868e-05    -1.71411e-05         -0.14268      -0.0645976     -0.000683487    -7.69854e-05
                     -0.00010095     0.000246779        -0.409572       -0.885653     -0.000631605    -9.87873e-05        -0.122116        0.150723
281700.5              -0.0381711       -0.150431     -0.000591742     -0.00016705         0.758017        -0.61883     -7.99933e-05     0.000210085
                    -0.000629927    -0.000161979        -0.194037     -0.00601965     -3.09833e-05    -0.000111151        -0.409411       -0.885977
                        0.758456       -0.618764     -2.95833e-05    -1.71431e-05        -0.142685      -0.0645966     -0.000683496    -7.69641e-05
                    -0.000100938     0.000246793          -0.4096       -0.885641     -0.000631627    -9.87703e-05        -0.122108        0.150724
281700.6              -0.0381796       -0.150433     -0.000591749     -0.00016705         0.757996       -0.618855     -7.99821e-05     0.000210088
                    -0.000629938    -0.000161974        -0.194033     -0.00601391     -3.09878e-05    -0.000111177        -0.409439       -0.885966
                        0.758435       -0.618789     -2.95798e-05    -1.71452e-05        -0.142689      -0.0645957     -0.000683506    -7.69429e-05
                    -0.000100927     0.000246806        -0.409627        -0.88563     -0.000631649    -9.87532e-05        -0.122101        0.150725
281700.7              -0.0381881       -0.150435     -0.000591755    -0.000167049         0.757974       -0.618881     -7.99708e-05     0.000210092
                     -0.00062995    -0.000161969        -0.194029     -0.00600816     -3.09923e-05    -0.000111204        -0.409466       -0.885954
                        0.758413       -0.618815     -2.95764e-05    -1.71472e-05        -0.142694      -0.0645948     -0.000683515    -7.69217e-05
                    -0.000100915     0.000246819        -0.409655       -0.885618     -0.000631671    -9.87361e-05        -0.122093        0.150725
281700.8              -0.0381966       -0.150436     -0.000591762    -0.000167049         0.757952       -0.618907     -7.99595e-05     0.000210095
                    -0.000629961    -0.000161964        -0.194025     -0.00600242     -3.09969e-05     -0.00011123        -0.409494       -0.885942
                        0.758392        -0.61884     -2.95729e-05    -1.71492e-05        -0.142698      -0.0645938     -0.000683524    -7.69005e-05
                    -0.000100904     0.000246832        -0.409682       -0.885606     -0.000631693     -9.8719e-05        -0.122086        0.150726
281700.9              -0.0382051       -0.150438     -0.000591769    -0.000167048         0.757931       -0.618932     -7.99483e-05     0.000210099
                    -0.000629973    -0.000161959        -0.194021     -0.00599668     -3.10014e-05    -0.000111256        -0.409521        -0.88593
                         0.75837       -0.618866     -2.95694e-05    -1.71513e-05        -0.142702      -0.0645929     -0.000683534    -7.68793e-05
                    -0.000100892     0.000246846         -0.40971       -0.885594     -0.000631715    -9.87018e-05        -0.122078        0.150726
281701                -0.0382136        -0.15044     -0.000591775    -0.000167048         0.757909       -0.618958      -7.9937e-05     0.000210103
                    -0.000629984    -0.000161954        -0.194017     -0.00599094     -3.10059e-05    -0.000111282        -0.409549       -0.885918
                        0.758348       -0.618892     -2.95659e-05    -1.71533e-05        -0.142707       -0.064592     -0.000683543     -7.6858e-05
                     -0.00010088     0.000246859        -0.409738       -0.885583     -0.000631737    -9.86847e-05        -0.122071        0.150727
281701.1              -0.0382221       -0.150441     -0.000591782    -0.000167047         0.757887       -0.618983     -7.99258e-05     0.000210106
                    -0.000629995    -0.000161949        -0.194013      -0.0059852     -3.10103e-05    -0.000111309        -0.409576       -0.885907
                        0.758327       -0.618917     -2.95625e-05    -1.71554e-05        -0.142711      -0.0645911     -0.000683552    -7.68368e-05
                    -0.000100869     0.000246872        -0.409765       -0.885571     -0.000631759    -9.86676e-05        -0.122063        0.150728
281701.2              -0.0382306       -0.150443     -0.000591789    -0.000167047         0.757866       -0.619009     -7.99145e-05      0.00021011
                    -0.000630007    -0.000161944        -0.194009     -0.00597946     -3.10148e-05    -0.000111335        -0.409604       -0.885895
                        0.758305       -0.618943      -2.9559e-05    -1.71575e-05        -0.142716      -0.0645901     -0.000683562    -7.68156e-05
                    -0.000100857     0.000246885        -0.409793       -0.885559     -0.000631782    -9.86504e-05        -0.122056        0.150728
281701.3              -0.0382391       -0.150445     -0.000591795    -0.000167046         0.757844       -0.619034     -7.99032e-05     0.000210114
                    -0.000630018    -0.000161939        -0.194005     -0.00597372     -3.10193e-05    -0.000111362        -0.409631       -0.885883
                        0.758284       -0.618968     -2.95556e-05    -1.71595e-05         -0.14272      -0.0645892     -0.000683571    -7.67944e-05
                    -0.000100845     0.000246898         -0.40982       -0.885547     -0.000631804    -9.86332e-05        -0.122048        0.150729
281701.4              -0.0382476       -0.150446     -0.000591802    -0.000167046         0.757822        -0.61906      -7.9892e-05     0.000210117
                     -0.00063003    -0.000161934        -0.194001     -0.00596798     -3.10237e-05    -0.000111388        -0.409659       -0.885871
                        0.758262       -0.618994     -2.95521e-05    -1.71616e-05        -0.142725      -0.0645883      -0.00068358    -7.67731e-05
                    -0.000100834     0.000246912        -0.409848       -0.885535     -0.000631826    -9.86161e-05        -0.122041        0.150729
281701.5              -0.0382561       -0.150448     -0.000591809    -0.000167045         0.757801       -0.619086     -7.98807e-05     0.000210121
                    -0.000630041    -0.000161929        -0.193996     -0.00596224     -3.10282e-05    -0.000111414        -0.409686       -0.885859
                        0.758241        -0.61902     -2.95486e-05    -1.71637e-05        -0.142729      -0.0645873     -0.000683589    -7.67519e-05
                    -0.000100822     0.000246925        -0.409875       -0.885523     -0.000631848    -9.85989e-05        -0.122033         0.15073
281701.6              -0.0382646        -0.15045     -0.000591815    -0.000167045         0.757779       -0.619111     -7.98695e-05     0.000210124
                    -0.000630053    -0.000161924        -0.193992      -0.0059565     -3.10326e-05    -0.000111441        -0.409714       -0.885848
                        0.758219       -0.619045     -2.95452e-05    -1.71657e-05        -0.142733      -0.0645864     -0.000683599    -7.67307e-05
                     -0.00010081     0.000246938        -0.409903       -0.885512      -0.00063187    -9.85817e-05        -0.122025        0.150731
281701.7              -0.0382731       -0.150452     -0.000591822    -0.000167044         0.757757       -0.619137     -7.98582e-05     0.000210128
                    -0.000630064    -0.000161919        -0.193988     -0.00595076      -3.1037e-05    -0.000111468        -0.409741       -0.885836
                        0.758197       -0.619071     -2.95417e-05    -1.71678e-05        -0.142738      -0.0645855     -0.000683608    -7.67095e-05
                    -0.000100799     0.000246951         -0.40993         -0.8855     -0.000631892    -9.85645e-05        -0.122018        0.150731
281701.8              -0.0382816       -0.150453     -0.000591829    -0.000167044         0.757735       -0.619162     -7.98469e-05     0.000210132
                    -0.000630076    -0.000161914        -0.193984     -0.00594502     -3.10414e-05    -0.000111494        -0.409769       -0.885824
                        0.758176       -0.619096     -2.95383e-05    -1.71699e-05        -0.142742      -0.0645845     -0.000683617    -7.66882e-05
                    -0.000100787     0.000246965        -0.409958       -0.885488     -0.000631914    -9.85472e-05         -0.12201        0.150732
281701.9              -0.0382901       -0.150455     -0.000591835    -0.000167043         0.757714       -0.619188     -7.98357e-05     0.000210135
                    -0.000630087    -0.000161909         -0.19398     -0.00593928     -3.10458e-05    -0.000111521        -0.409797       -0.885812
                        0.758154       -0.619122     -2.95348e-05     -1.7172e-05        -0.142747      -0.0645836     -0.000683627     -7.6667e-05
                    -0.000100775     0.000246978        -0.409985       -0.885476     -0.000631936      -9.853e-05        -0.122003        0.150732
281702                -0.0382986       -0.150457     -0.000591842    -0.000167043         0.757692       -0.619213     -7.98244e-05     0.000210139
                    -0.000630099    -0.000161904        -0.193976     -0.00593355     -3.10502e-05    -0.000111547        -0.409824         -0.8858
                        0.758133       -0.619147     -2.95314e-05    -1.71741e-05        -0.142751      -0.0645827     -0.000683636    -7.66458e-05
                    -0.000100764     0.000246991        -0.410013       -0.885464     -0.000631958    -9.85127e-05        -0.121995        0.150733
281702.1              -0.0383071       -0.150458     -0.000591848    -0.000167042          0.75767       -0.619239     -7.98132e-05     0.000210143
                    -0.000630111    -0.000161899        -0.193972     -0.00592781     -3.10545e-05    -0.000111574        -0.409852       -0.885789
                        0.758111       -0.619173     -2.95279e-05    -1.71762e-05        -0.142755      -0.0645817     -0.000683645    -7.66245e-05
                    -0.000100752     0.000247004         -0.41004       -0.885453      -0.00063198    -9.84955e-05        -0.121988        0.150734
281702.2              -0.0383156        -0.15046     -0.000591855    -0.000167042         0.757649       -0.619264     -7.98019e-05     0.000210146
                    -0.000630122    -0.000161894        -0.193968     -0.00592207     -3.10589e-05    -0.000111601        -0.409879       -0.885777
                         0.75809       -0.619198     -2.95245e-05    -1.71783e-05         -0.14276      -0.0645808     -0.000683654    -7.66033e-05
                     -0.00010074     0.000247017        -0.410068       -0.885441     -0.000632002    -9.84782e-05         -0.12198        0.150734
281702.3              -0.0383241       -0.150462     -0.000591862    -0.000167042         0.757627        -0.61929     -7.97907e-05      0.00021015
                    -0.000630134    -0.000161889        -0.193964     -0.00591633     -3.10632e-05    -0.000111628        -0.409907       -0.885765
                        0.758068       -0.619224      -2.9521e-05    -1.71804e-05        -0.142764      -0.0645799     -0.000683664    -7.65821e-05
                    -0.000100729     0.000247031        -0.410095       -0.885429     -0.000632025    -9.84609e-05        -0.121973        0.150735
281702.4              -0.0383326       -0.150464     -0.000591868    -0.000167041         0.757605       -0.619316     -7.97794e-05     0.000210154
                    -0.000630145    -0.000161884         -0.19396      -0.0059106     -3.10675e-05    -0.000111654        -0.409934       -0.885753
                        0.758046        -0.61925     -2.95176e-05    -1.71825e-05        -0.142769      -0.0645789     -0.000683673    -7.65608e-05
                    -0.000100717     0.000247044        -0.410123       -0.885417     -0.000632047    -9.84436e-05        -0.121965        0.150735
281702.5              -0.0383411       -0.150465     -0.000591875    -0.000167041         0.757584       -0.619341     -7.97682e-05     0.000210158
                    -0.000630157    -0.000161879        -0.193956     -0.00590486     -3.10718e-05    -0.000111681        -0.409962       -0.885741
                        0.758025       -0.619275     -2.95141e-05    -1.71846e-05        -0.142773       -0.064578     -0.000683682    -7.65396e-05
                    -0.000100705     0.000247057         -0.41015       -0.885405     -0.000632069    -9.84263e-05        -0.121958        0.150736
281702.6              -0.0383496       -0.150467     -0.000591882     -0.00016704         0.757562       -0.619367     -7.97569e-05     0.000210161
                    -0.000630169    -0.000161874        -0.193952     -0.00589912     -3.10761e-05    -0.000111708        -0.409989        -0.88573
                        0.758003       -0.619301     -2.95107e-05    -1.71868e-05        -0.142778      -0.0645771     -0.000683692    -7.65184e-05
                    -0.000100694      0.00024707        -0.410178       -0.885394     -0.000632091     -9.8409e-05         -0.12195        0.150737
281702.7              -0.0383581       -0.150469     -0.000591888     -0.00016704          0.75754       -0.619392     -7.97456e-05     0.000210165
                     -0.00063018    -0.000161869        -0.193948     -0.00589339     -3.10804e-05    -0.000111735        -0.410017       -0.885718
                        0.757982       -0.619326     -2.95072e-05    -1.71889e-05        -0.142782      -0.0645761     -0.000683701    -7.64972e-05
                    -0.000100682     0.000247083        -0.410205       -0.885382     -0.000632113    -9.83916e-05        -0.121943        0.150737
281702.8              -0.0383666        -0.15047     -0.000591895     -0.00016704         0.757519       -0.619418     -7.97344e-05     0.000210169
                    -0.000630192    -0.000161864        -0.193944     -0.00588765     -3.10847e-05    -0.000111762        -0.410044       -0.885706
                         0.75796       -0.619352     -2.95038e-05     -1.7191e-05        -0.142786      -0.0645752      -0.00068371    -7.64759e-05
                     -0.00010067     0.000247096        -0.410233        -0.88537     -0.000632135    -9.83743e-05        -0.121935        0.150738
281702.9              -0.0383751       -0.150472     -0.000591902    -0.000167039         0.757497       -0.619443     -7.97231e-05     0.000210172
                    -0.000630204    -0.000161859         -0.19394     -0.00588191     -3.10889e-05    -0.000111789        -0.410072       -0.885694
                        0.757938       -0.619377     -2.95003e-05    -1.71932e-05        -0.142791      -0.0645743     -0.000683719    -7.64547e-05
                    -0.000100659      0.00024711        -0.410261       -0.885358     -0.000632157    -9.83569e-05        -0.121928        0.150738
281703                -0.0383836       -0.150474     -0.000591908    -0.000167039         0.757475       -0.619469     -7.97119e-05     0.000210176
                    -0.000630215    -0.000161854        -0.193936     -0.00587618     -3.10932e-05    -0.000111816        -0.410099       -0.885682
                        0.757917       -0.619403     -2.94969e-05    -1.71953e-05        -0.142795      -0.0645733     -0.000683729    -7.64335e-05
                    -0.000100647     0.000247123        -0.410288       -0.885346     -0.000632179    -9.83395e-05         -0.12192        0.150739
281703.1              -0.0383921       -0.150475     -0.000591915    -0.000167038         0.757453       -0.619495     -7.97006e-05      0.00021018
                    -0.000630227    -0.000161849        -0.193932     -0.00587044     -3.10974e-05    -0.000111843        -0.410127        -0.88567
                        0.757895       -0.619429     -2.94935e-05    -1.71975e-05          -0.1428      -0.0645724     -0.000683738    -7.64122e-05
