! TOUCHSTONE file generated by CST MICROWAVE STUDIO
! Date and time: Wed Oct  8 06:58:23 2025
! Project name: Teste_Macro_Metasurface_Nanopilar.cst
! Parameters = {H=600; L_x=135; L_y=85; Lambda=1064; Max_L=200; Min_L=70; PathPara=1; Phi=0; Step_L=10; Theta=0; p=520; phaseX=180; phaseY=0}
! Header version: 2018
! Port assignment regex: !\s*Touchstone port\s*([0-9]+)\s*=\s*(CST MWS port|CST DS port)\s*([0-9]+|Zmin|Zmax)\s*\(\"(.*)\"\)(\s*mode\s*([0-9]+))?.*
! Touchstone port assignment:
! Touchstone port 1 = CST MWS port Zmax ("") mode 1
! Touchstone port 2 = CST MWS port Zmax ("") mode 2
! Touchstone port 3 = CST MWS port Zmin ("") mode 1
! Touchstone port 4 = CST MWS port Zmin ("") mode 2
! S-Parameters are not renormalized. Each port impedance will be approximated by the real part at minimum frequency. The values are described via the [Reference] keyword.
! Default impedance is overridden by [Reference]
[Version] 2.0
# GHz S RI R 376.73
[Number of Ports] 4
[Reference]
376.73 376.73 376.73 376.73 
[Number of Frequencies] 1001
[Network Data]
281700                 0.0533089       -0.128296      -0.00016923     0.000241605        -0.762209        0.629014      7.86326e-06    -7.28828e-05
                     -0.00034281     8.55012e-05        0.0751966          0.1765     -0.000452717    -1.08909e-05         0.960384        0.143254
                       -0.762384        0.629513     -0.000387327     5.34455e-05        -0.136349       0.0284952     -0.000350248     0.000148613
                    -0.000243729     1.77019e-05         0.961011        0.143713     -0.000363788     0.000187604        -0.128693        0.147293
281700.1               0.0533026       -0.128298     -0.000169225     0.000241615        -0.762192        0.629035      7.84023e-06    -7.28942e-05
                    -0.000342808     8.55184e-05         0.075203        0.176492     -0.000452722    -1.08785e-05          0.96039        0.143221
                       -0.762367        0.629534     -0.000387324     5.34558e-05        -0.136348       0.0284961     -0.000350243     0.000148613
                     -0.00024373     1.77101e-05         0.961017        0.143679     -0.000363792     0.000187621        -0.128686        0.147293
281700.2               0.0532964         -0.1283      -0.00016922     0.000241625        -0.762175        0.629056       7.8172e-06    -7.29057e-05
                    -0.000342806     8.55356e-05        0.0752094        0.176484     -0.000452726    -1.08662e-05         0.960396        0.143187
                        -0.76235        0.629555     -0.000387321     5.34661e-05        -0.136348        0.028497     -0.000350239     0.000148614
                    -0.000243731     1.77184e-05         0.961023        0.143646     -0.000363796     0.000187638         -0.12868        0.147292
281700.3               0.0532902       -0.128303     -0.000169216     0.000241635        -0.762158        0.629077      7.79417e-06    -7.29172e-05
                    -0.000342804     8.55529e-05        0.0752158        0.176476     -0.000452731    -1.08538e-05         0.960402        0.143154
                       -0.762333        0.629576     -0.000387318     5.34763e-05        -0.136347       0.0284979     -0.000350234     0.000148614
                    -0.000243731     1.77267e-05         0.961029        0.143613       -0.0003638     0.000187655        -0.128673        0.147291
281700.4               0.0532839       -0.128305     -0.000169211     0.000241645        -0.762141        0.629098      7.77113e-06    -7.29286e-05
                    -0.000342802     8.55701e-05        0.0752222        0.176468     -0.000452736    -1.08415e-05         0.960408        0.143121
                       -0.762316        0.629596     -0.000387314     5.34866e-05        -0.136346       0.0284988      -0.00035023     0.000148615
                    -0.000243732      1.7735e-05         0.961035        0.143579     -0.000363804     0.000187672        -0.128667         0.14729
281700.5               0.0532777       -0.128307     -0.000169206     0.000241654        -0.762124        0.629119      7.74809e-06    -7.29401e-05
                      -0.0003428     8.55873e-05        0.0752286        0.176459      -0.00045274    -1.08291e-05         0.960414        0.143087
                       -0.762298        0.629617     -0.000387311     5.34968e-05        -0.136346       0.0284997     -0.000350225     0.000148615
                    -0.000243733     1.77432e-05         0.961041        0.143546     -0.000363808     0.000187689        -0.128661        0.147289
281700.6               0.0532714       -0.128309     -0.000169202     0.000241664        -0.762107         0.62914      7.72505e-06    -7.29515e-05
                    -0.000342798     8.56046e-05        0.0752351        0.176451     -0.000452745    -1.08168e-05          0.96042        0.143054
                       -0.762281        0.629638     -0.000387308     5.35071e-05        -0.136345       0.0285006      -0.00035022     0.000148616
                    -0.000243734     1.77515e-05         0.961047        0.143513     -0.000363812     0.000187706        -0.128654        0.147288
281700.7               0.0532652       -0.128311     -0.000169197     0.000241674         -0.76209        0.629161      7.70201e-06     -7.2963e-05
                    -0.000342796     8.56218e-05        0.0752415        0.176443      -0.00045275    -1.08044e-05         0.960426        0.143021
                       -0.762264        0.629659     -0.000387305     5.35173e-05        -0.136344       0.0285015     -0.000350216     0.000148617
                    -0.000243735     1.77598e-05         0.961053        0.143479     -0.000363816     0.000187723        -0.128648        0.147287
281700.8                0.053259       -0.128313     -0.000169193     0.000241684        -0.762072        0.629181      7.67896e-06    -7.29744e-05
                    -0.000342794     8.56391e-05        0.0752479        0.176435     -0.000452754     -1.0792e-05         0.960431        0.142987
                       -0.762247         0.62968     -0.000387301     5.35276e-05        -0.136344       0.0285024     -0.000350211     0.000148617
                    -0.000243736     1.77681e-05         0.961059        0.143446      -0.00036382      0.00018774        -0.128641        0.147286
281700.9               0.0532527       -0.128315     -0.000169188     0.000241693        -0.762055        0.629202      7.65591e-06    -7.29859e-05
                    -0.000342792     8.56563e-05        0.0752543        0.176427     -0.000452759    -1.07797e-05         0.960437        0.142954
                        -0.76223          0.6297     -0.000387298     5.35378e-05        -0.136343       0.0285033     -0.000350207     0.000148618
                    -0.000243737     1.77764e-05         0.961065        0.143412     -0.000363824     0.000187757        -0.128635        0.147285
281701                 0.0532465       -0.128317     -0.000169183     0.000241703        -0.762038        0.629223      7.63286e-06    -7.29973e-05
                     -0.00034279     8.56735e-05        0.0752607        0.176419     -0.000452764    -1.07673e-05         0.960443         0.14292
                       -0.762213        0.629721     -0.000387295     5.35481e-05        -0.136342       0.0285042     -0.000350202     0.000148618
                    -0.000243738     1.77847e-05         0.961071        0.143379     -0.000363828     0.000187774        -0.128628        0.147284
281701.1               0.0532402       -0.128319     -0.000169179     0.000241713        -0.762021        0.629244      7.60981e-06    -7.30088e-05
                    -0.000342788     8.56907e-05        0.0752671        0.176411     -0.000452768     -1.0755e-05         0.960449        0.142887
                       -0.762196        0.629742     -0.000387292     5.35583e-05        -0.136342       0.0285051     -0.000350197     0.000148619
                    -0.000243739      1.7793e-05         0.961077        0.143346     -0.000363832     0.000187791        -0.128622        0.147284
281701.2                0.053234       -0.128322     -0.000169174     0.000241723        -0.762004        0.629265      7.58675e-06    -7.30202e-05
                    -0.000342786      8.5708e-05        0.0752735        0.176402     -0.000452773    -1.07426e-05         0.960455        0.142854
                       -0.762179        0.629763     -0.000387288     5.35686e-05        -0.136341        0.028506     -0.000350193     0.000148619
                     -0.00024374     1.78012e-05         0.961083        0.143312     -0.000363836     0.000187808        -0.128615        0.147283
281701.3               0.0532278       -0.128324     -0.000169169     0.000241732        -0.761987        0.629286      7.56369e-06    -7.30317e-05
                    -0.000342784     8.57252e-05          0.07528        0.176394     -0.000452778    -1.07302e-05         0.960461         0.14282
                       -0.762162        0.629784     -0.000387285     5.35789e-05         -0.13634       0.0285069     -0.000350188      0.00014862
                    -0.000243741     1.78095e-05         0.961089        0.143279      -0.00036384     0.000187825        -0.128609        0.147282
281701.4               0.0532215       -0.128326     -0.000169165     0.000241742         -0.76197        0.629307      7.54063e-06    -7.30431e-05
                    -0.000342782     8.57424e-05        0.0752864        0.176386     -0.000452782    -1.07179e-05         0.960467        0.142787
                       -0.762144        0.629805     -0.000387282     5.35891e-05         -0.13634       0.0285078     -0.000350184      0.00014862
                    -0.000243742     1.78178e-05         0.961095        0.143245     -0.000363844     0.000187842        -0.128602        0.147281
281701.5               0.0532153       -0.128328      -0.00016916     0.000241752        -0.761953        0.629327      7.51757e-06    -7.30545e-05
                     -0.00034278     8.57597e-05        0.0752928        0.176378     -0.000452787    -1.07055e-05         0.960473        0.142753
                       -0.762127        0.629825     -0.000387279     5.35994e-05        -0.136339       0.0285087     -0.000350179     0.000148621
                    -0.000243743     1.78261e-05           0.9611        0.143212     -0.000363848     0.000187859        -0.128596         0.14728
281701.6                0.053209        -0.12833     -0.000169156     0.000241762        -0.761935        0.629348       7.4945e-06     -7.3066e-05
                    -0.000342778     8.57769e-05        0.0752992         0.17637     -0.000452792    -1.06931e-05         0.960479         0.14272
                        -0.76211        0.629846     -0.000387275     5.36096e-05        -0.136338       0.0285096     -0.000350174     0.000148622
                    -0.000243744     1.78344e-05         0.961106        0.143179     -0.000363851     0.000187876        -0.128589        0.147279
281701.7               0.0532028       -0.128332     -0.000169151     0.000241771        -0.761918        0.629369      7.47143e-06    -7.30774e-05
                    -0.000342776     8.57941e-05        0.0753056        0.176362     -0.000452796    -1.06807e-05         0.960485        0.142687
                       -0.762093        0.629867     -0.000387272     5.36199e-05        -0.136338       0.0285105      -0.00035017     0.000148622
                    -0.000243744     1.78427e-05         0.961112        0.143145     -0.000363855     0.000187893        -0.128583        0.147278
281701.8               0.0531966       -0.128334     -0.000169146     0.000241781        -0.761901         0.62939      7.44836e-06    -7.30888e-05
                    -0.000342774     8.58114e-05         0.075312        0.176354     -0.000452801    -1.06684e-05         0.960491        0.142653
                       -0.762076        0.629888     -0.000387269     5.36301e-05        -0.136337       0.0285114     -0.000350165     0.000148623
                    -0.000243745      1.7851e-05         0.961118        0.143112     -0.000363859      0.00018791        -0.128576        0.147277
281701.9               0.0531903       -0.128336     -0.000169142     0.000241791        -0.761884        0.629411      7.42529e-06    -7.31003e-05
                    -0.000342772     8.58286e-05        0.0753184        0.176345     -0.000452805     -1.0656e-05         0.960496         0.14262
                       -0.762059        0.629909     -0.000387266     5.36404e-05        -0.136336       0.0285123     -0.000350161     0.000148623
                    -0.000243746     1.78593e-05         0.961124        0.143078     -0.000363863     0.000187927         -0.12857        0.147276
281702                 0.0531841       -0.128338     -0.000169137     0.000241801        -0.761867        0.629432      7.40221e-06    -7.31117e-05
                     -0.00034277     8.58458e-05        0.0753248        0.176337      -0.00045281    -1.06436e-05         0.960502        0.142586
                       -0.762042        0.629929     -0.000387262     5.36506e-05        -0.136336       0.0285132     -0.000350156     0.000148624
                    -0.000243747     1.78676e-05          0.96113        0.143045     -0.000363867     0.000187944        -0.128563        0.147276
281702.1               0.0531778        -0.12834     -0.000169132      0.00024181         -0.76185        0.629453      7.37913e-06    -7.31231e-05
                    -0.000342768      8.5863e-05        0.0753312        0.176329     -0.000452815    -1.06312e-05         0.960508        0.142553
                       -0.762025         0.62995     -0.000387259     5.36609e-05        -0.136335       0.0285141     -0.000350151     0.000148624
                    -0.000243748     1.78759e-05         0.961136        0.143012     -0.000363871     0.000187961        -0.128557        0.147275
281702.2               0.0531716       -0.128343     -0.000169128      0.00024182        -0.761833        0.629473      7.35605e-06    -7.31345e-05
                    -0.000342766     8.58803e-05        0.0753376        0.176321     -0.000452819    -1.06189e-05         0.960514         0.14252
                       -0.762008        0.629971     -0.000387256     5.36711e-05        -0.136334        0.028515     -0.000350147     0.000148625
                    -0.000243749     1.78842e-05         0.961142        0.142978     -0.000363875     0.000187978         -0.12855        0.147274
281702.3               0.0531654       -0.128345     -0.000169123      0.00024183        -0.761816        0.629494      7.33297e-06     -7.3146e-05
                    -0.000342764     8.58975e-05         0.075344        0.176313     -0.000452824    -1.06065e-05          0.96052        0.142486
                        -0.76199        0.629992     -0.000387253     5.36813e-05        -0.136334       0.0285159     -0.000350142     0.000148625
                     -0.00024375     1.78925e-05         0.961148        0.142945     -0.000363879     0.000187995        -0.128544        0.147273
281702.4               0.0531591       -0.128347     -0.000169119     0.000241839        -0.761798        0.629515      7.30988e-06    -7.31574e-05
                    -0.000342762     8.59147e-05        0.0753505        0.176305     -0.000452828    -1.05941e-05         0.960526        0.142453
                       -0.761973        0.630013     -0.000387249     5.36916e-05        -0.136333       0.0285168     -0.000350138     0.000148626
                    -0.000243751     1.79008e-05         0.961154        0.142912     -0.000363883     0.000188012        -0.128537        0.147272
281702.5               0.0531529       -0.128349     -0.000169114     0.000241849        -0.761781        0.629536      7.28679e-06    -7.31688e-05
                     -0.00034276     8.59319e-05        0.0753569        0.176297     -0.000452833    -1.05817e-05         0.960532        0.142419
                       -0.761956        0.630033     -0.000387246     5.37018e-05        -0.136332       0.0285176     -0.000350133     0.000148626
                    -0.000243752     1.79091e-05          0.96116        0.142878     -0.000363887     0.000188029        -0.128531        0.147271
281702.6               0.0531466       -0.128351     -0.000169109     0.000241859        -0.761764        0.629557       7.2637e-06    -7.31802e-05
                    -0.000342758     8.59492e-05        0.0753633        0.176288     -0.000452838    -1.05693e-05         0.960538        0.142386
                       -0.761939        0.630054     -0.000387243     5.37121e-05        -0.136332       0.0285185     -0.000350129     0.000148627
                    -0.000243753     1.79174e-05         0.961166        0.142845     -0.000363891     0.000188046        -0.128524         0.14727
281702.7               0.0531404       -0.128353     -0.000169105     0.000241869        -0.761747        0.629578      7.24061e-06    -7.31916e-05
                    -0.000342756     8.59664e-05        0.0753697         0.17628     -0.000452842    -1.05569e-05         0.960544        0.142353
                       -0.761922        0.630075     -0.000387239     5.37223e-05        -0.136331       0.0285194     -0.000350124     0.000148628
                    -0.000243754     1.79257e-05         0.961172        0.142811     -0.000363895     0.000188063        -0.128518        0.147269
281702.8               0.0531342       -0.128355       -0.0001691     0.000241878         -0.76173        0.629599      7.21751e-06     -7.3203e-05
                    -0.000342754     8.59836e-05        0.0753761        0.176272     -0.000452847    -1.05445e-05         0.960549        0.142319
                       -0.761905        0.630096     -0.000387236     5.37326e-05         -0.13633       0.0285203     -0.000350119     0.000148628
                    -0.000243755      1.7934e-05         0.961178        0.142778     -0.000363899      0.00018808        -0.128512        0.147268
281702.9               0.0531279       -0.128357     -0.000169096     0.000241888        -0.761713         0.62962      7.19441e-06    -7.32145e-05
                    -0.000342752     8.60008e-05        0.0753825        0.176264     -0.000452851    -1.05321e-05         0.960555        0.142286
                       -0.761888        0.630117     -0.000387233     5.37428e-05         -0.13633       0.0285212     -0.000350115     0.000148629
                    -0.000243756     1.79423e-05         0.961184        0.142745     -0.000363903     0.000188096        -0.128505        0.147267
281703                 0.0531217       -0.128359     -0.000169091     0.000241898        -0.761696         0.62964      7.17131e-06    -7.32259e-05
                     -0.00034275      8.6018e-05        0.0753889        0.176256     -0.000452856    -1.05197e-05         0.960561        0.142252
                       -0.761871        0.630137      -0.00038723     5.37531e-05        -0.136329       0.0285221      -0.00035011     0.000148629
                    -0.000243757     1.79506e-05         0.961189        0.142711     -0.000363907     0.000188113        -0.128499        0.147267
281703.1               0.0531154       -0.128361     -0.000169086     0.000241908        -0.761679        0.629661       7.1482e-06    -7.32373e-05
                    -0.000342748     8.60353e-05        0.0753953        0.176248     -0.000452861    -1.05074e-05         0.960567        0.142219
                       -0.761853        0.630158     -0.000387226     5.37633e-05        -0.136328        0.028523     -0.000350106      0.00014863
