! TOUCHSTONE file generated by CST MICROWAVE STUDIO
! Date and time: Wed Oct  8 06:57:30 2025
! Project name: Teste_Macro_Metasurface_Nanopilar.cst
! Parameters = {H=600; L_x=125; L_y=155; Lambda=1064; Max_L=200; Min_L=70; PathPara=1; Phi=0; Step_L=10; Theta=0; p=520; phaseX=180; phaseY=0}
! Header version: 2018
! Port assignment regex: !\s*Touchstone port\s*([0-9]+)\s*=\s*(CST MWS port|CST DS port)\s*([0-9]+|Zmin|Zmax)\s*\(\"(.*)\"\)(\s*mode\s*([0-9]+))?.*
! Touchstone port assignment:
! Touchstone port 1 = CST MWS port Zmax ("") mode 1
! Touchstone port 2 = CST MWS port Zmax ("") mode 2
! Touchstone port 3 = CST MWS port Zmin ("") mode 1
! Touchstone port 4 = CST MWS port Zmin ("") mode 2
! S-Parameters are not renormalized. Each port impedance will be approximated by the real part at minimum frequency. The values are described via the [Reference] keyword.
! Default impedance is overridden by [Reference]
[Version] 2.0
# GHz S RI R 376.73
[Number of Ports] 4
[Reference]
376.73 376.73 376.73 376.73 
[Number of Frequencies] 1001
[Network Data]
281700                 -0.112334        -0.25981       0.00128558     0.000669994         -0.88361       -0.341862      0.000469436     0.000189646
                       0.0013164     0.000647628        -0.240988      -0.0358697     -0.000721995    -0.000290701        -0.160476       -0.951066
                       -0.884167       -0.341943     -0.000850445    -0.000392961          0.24354       -0.128517      -0.00068006     -0.00133714
                     0.000361382     7.61708e-05        -0.160632       -0.950991     -0.000460451     -0.00135576        -0.216386         0.11259
281700.1               -0.112339       -0.259821       0.00128561     0.000669947         -0.88362       -0.341823       0.00046943     0.000189665
                      0.00131643     0.000647577        -0.240986      -0.0358615     -0.000722014    -0.000290664        -0.160505       -0.951062
                       -0.884178       -0.341904     -0.000850474    -0.000392913          0.24354       -0.128544     -0.000680097     -0.00133716
                     0.000361388     7.61587e-05        -0.160661       -0.950987     -0.000460512     -0.00135575        -0.216381        0.112595
281700.2               -0.112344       -0.259833       0.00128564     0.000669901        -0.883631       -0.341785      0.000469425     0.000189684
                      0.00131645     0.000647526        -0.240985      -0.0358533     -0.000722034    -0.000290628        -0.160534       -0.951057
                       -0.884188       -0.341865     -0.000850502    -0.000392865          0.24354       -0.128571     -0.000680133     -0.00133718
                     0.000361393     7.61465e-05         -0.16069       -0.950983     -0.000460572     -0.00135574        -0.216375          0.1126
281700.3               -0.112349       -0.259845       0.00128567     0.000669854        -0.883641       -0.341746      0.000469419     0.000189703
                      0.00131648     0.000647475        -0.240984       -0.035845     -0.000722053    -0.000290591        -0.160563       -0.951053
                       -0.884199       -0.341826     -0.000850531    -0.000392818         0.243541       -0.128598     -0.000680169     -0.00133719
                     0.000361399     7.61344e-05        -0.160719       -0.950979     -0.000460632     -0.00135573         -0.21637        0.112605
281700.4               -0.112354       -0.259857        0.0012857     0.000669807        -0.883651       -0.341707      0.000469413     0.000189722
                      0.00131651     0.000647424        -0.240983      -0.0358368     -0.000722073    -0.000290555        -0.160592       -0.951049
                       -0.884209       -0.341787     -0.000850559     -0.00039277         0.243541       -0.128625     -0.000680205     -0.00133721
                     0.000361405     7.61223e-05        -0.160748       -0.950974     -0.000460692     -0.00135572        -0.216365         0.11261
281700.5               -0.112359       -0.259869       0.00128573      0.00066976        -0.883662       -0.341668      0.000469407     0.000189741
                      0.00131654     0.000647373        -0.240982      -0.0358285     -0.000722093    -0.000290518        -0.160621       -0.951045
                       -0.884219       -0.341749     -0.000850588    -0.000392722         0.243542       -0.128652     -0.000680241     -0.00133723
                     0.000361411     7.61101e-05        -0.160777        -0.95097     -0.000460753     -0.00135571         -0.21636        0.112615
281700.6               -0.112364        -0.25988       0.00128576     0.000669713        -0.883672       -0.341629      0.000469402      0.00018976
                      0.00131657     0.000647322        -0.240981      -0.0358203     -0.000722112    -0.000290482        -0.160649        -0.95104
                        -0.88423        -0.34171     -0.000850616    -0.000392674         0.243542       -0.128679     -0.000680278     -0.00133724
                     0.000361417      7.6098e-05        -0.160806       -0.950966     -0.000460813      -0.0013557        -0.216355         0.11262
281700.7               -0.112369       -0.259892       0.00128579     0.000669666        -0.883682       -0.341591      0.000469396     0.000189779
                      0.00131659     0.000647271         -0.24098      -0.0358121     -0.000722132    -0.000290445        -0.160678       -0.951036
                        -0.88424       -0.341671     -0.000850645    -0.000392626         0.243542       -0.128706     -0.000680314     -0.00133726
                     0.000361423     7.60859e-05        -0.160835       -0.950961     -0.000460873     -0.00135569        -0.216349        0.112625
281700.8               -0.112374       -0.259904       0.00128582      0.00066962        -0.883693       -0.341552       0.00046939     0.000189798
                      0.00131662      0.00064722        -0.240979      -0.0358038     -0.000722151    -0.000290409        -0.160707       -0.951032
                       -0.884251       -0.341632     -0.000850673    -0.000392579         0.243543       -0.128734      -0.00068035     -0.00133728
                     0.000361429     7.60737e-05        -0.160864       -0.950957     -0.000460933     -0.00135568        -0.216344         0.11263
281700.9               -0.112379       -0.259916       0.00128585     0.000669573        -0.883703       -0.341513      0.000469385     0.000189816
                      0.00131665     0.000647169        -0.240977      -0.0357956     -0.000722171    -0.000290372        -0.160736       -0.951027
                       -0.884261       -0.341594     -0.000850702    -0.000392531         0.243543       -0.128761     -0.000680387     -0.00133729
                     0.000361435     7.60616e-05        -0.160893       -0.950953     -0.000460994     -0.00135567        -0.216339        0.112634
281701                 -0.112384       -0.259927       0.00128588     0.000669526        -0.883714       -0.341474      0.000469379     0.000189835
                      0.00131668     0.000647118        -0.240976      -0.0357873      -0.00072219    -0.000290336        -0.160765       -0.951023
                       -0.884271       -0.341555      -0.00085073    -0.000392483         0.243543       -0.128788     -0.000680423     -0.00133731
                     0.000361441     7.60494e-05        -0.160922       -0.950949     -0.000461054     -0.00135567        -0.216334        0.112639
281701.1               -0.112389       -0.259939       0.00128591     0.000669479        -0.883724       -0.341436      0.000469373     0.000189853
                      0.00131671     0.000647067        -0.240975      -0.0357791      -0.00072221    -0.000290299        -0.160794       -0.951019
                       -0.884282       -0.341516     -0.000850759    -0.000392435         0.243544       -0.128815     -0.000680459     -0.00133732
                     0.000361447     7.60373e-05        -0.160951       -0.950944     -0.000461114     -0.00135566        -0.216329        0.112644
281701.2               -0.112394       -0.259951       0.00128594     0.000669432        -0.883734       -0.341397      0.000469368     0.000189872
                      0.00131673     0.000647016        -0.240974      -0.0357709     -0.000722229    -0.000290263        -0.160823       -0.951015
                       -0.884292       -0.341477     -0.000850787    -0.000392387         0.243544       -0.128842     -0.000680496     -0.00133734
                     0.000361453     7.60252e-05         -0.16098        -0.95094     -0.000461174     -0.00135565        -0.216323        0.112649
281701.3               -0.112399       -0.259963       0.00128597     0.000669385        -0.883745       -0.341358      0.000469362      0.00018989
                      0.00131676     0.000646965        -0.240973      -0.0357626     -0.000722249    -0.000290226        -0.160852        -0.95101
                       -0.884303       -0.341438     -0.000850816    -0.000392339         0.243545       -0.128869     -0.000680532     -0.00133736
                     0.000361459      7.6013e-05        -0.161009       -0.950936     -0.000461235     -0.00135564        -0.216318        0.112654
281701.4               -0.112404       -0.259974         0.001286     0.000669338        -0.883755       -0.341319      0.000469357     0.000189908
                      0.00131679     0.000646914        -0.240972      -0.0357544     -0.000722268     -0.00029019        -0.160881       -0.951006
                       -0.884313         -0.3414     -0.000850844    -0.000392292         0.243545       -0.128896     -0.000680568     -0.00133737
                     0.000361465     7.60009e-05        -0.161037       -0.950931     -0.000461295     -0.00135563        -0.216313        0.112659
281701.5               -0.112409       -0.259986       0.00128603     0.000669292        -0.883765       -0.341281      0.000469351     0.000189926
                      0.00131682     0.000646863        -0.240971      -0.0357462     -0.000722288    -0.000290153         -0.16091       -0.951002
                       -0.884323       -0.341361     -0.000850872    -0.000392244         0.243545       -0.128923     -0.000680605     -0.00133739
                     0.000361471     7.59888e-05        -0.161066       -0.950927     -0.000461355     -0.00135562        -0.216308        0.112664
281701.6               -0.112414       -0.259998       0.00128606     0.000669245        -0.883776       -0.341242      0.000469346     0.000189944
                      0.00131684     0.000646812        -0.240969      -0.0357379     -0.000722307    -0.000290117        -0.160939       -0.950997
                       -0.884334       -0.341322     -0.000850901    -0.000392196         0.243546        -0.12895     -0.000680641      -0.0013374
                     0.000361476     7.59767e-05        -0.161095       -0.950923     -0.000461415     -0.00135561        -0.216303        0.112669
281701.7               -0.112419        -0.26001       0.00128609     0.000669198        -0.883786       -0.341203       0.00046934     0.000189962
                      0.00131687     0.000646761        -0.240968      -0.0357297     -0.000722327     -0.00029008        -0.160968       -0.950993
                       -0.884344       -0.341283     -0.000850929    -0.000392148         0.243546       -0.128978     -0.000680678     -0.00133742
                     0.000361482     7.59645e-05        -0.161124       -0.950919     -0.000461476      -0.0013556        -0.216297        0.112674
281701.8               -0.112424       -0.260022       0.00128612     0.000669151        -0.883796       -0.341164      0.000469335      0.00018998
                       0.0013169      0.00064671        -0.240967      -0.0357214     -0.000722346    -0.000290043        -0.160997       -0.950989
                       -0.884354       -0.341244     -0.000850958      -0.0003921         0.243546       -0.129005     -0.000680714     -0.00133743
                     0.000361488     7.59524e-05        -0.161153       -0.950914     -0.000461536     -0.00135559        -0.216292        0.112679
281701.9               -0.112429       -0.260033       0.00128615     0.000669104        -0.883807       -0.341126      0.000469329     0.000189998
                      0.00131693     0.000646659        -0.240966      -0.0357132     -0.000722366    -0.000290007        -0.161026       -0.950985
                       -0.884365       -0.341206     -0.000850986    -0.000392052         0.243547       -0.129032     -0.000680751     -0.00133745
                     0.000361494     7.59403e-05        -0.161182        -0.95091     -0.000461596     -0.00135558        -0.216287        0.112683
281702                 -0.112434       -0.260045       0.00128618     0.000669057        -0.883817       -0.341087      0.000469324     0.000190016
                      0.00131696     0.000646608        -0.240965       -0.035705     -0.000722385     -0.00028997        -0.161054        -0.95098
                       -0.884375       -0.341167     -0.000851015    -0.000392005         0.243547       -0.129059     -0.000680787     -0.00133746
                       0.0003615     7.59281e-05        -0.161211       -0.950906     -0.000461656     -0.00135557        -0.216282        0.112688
281702.1               -0.112439       -0.260057       0.00128621      0.00066901        -0.883827       -0.341048      0.000469319     0.000190033
                      0.00131698     0.000646557        -0.240964      -0.0356967     -0.000722405    -0.000289934        -0.161083       -0.950976
                       -0.884385       -0.341128     -0.000851043    -0.000391957         0.243547       -0.129086     -0.000680824     -0.00133748
                     0.000361506      7.5916e-05         -0.16124       -0.950901     -0.000461717     -0.00135556        -0.216277        0.112693
281702.2               -0.112444       -0.260069       0.00128624     0.000668963        -0.883838       -0.341009      0.000469313     0.000190051
                      0.00131701     0.000646506        -0.240963      -0.0356885     -0.000722424    -0.000289897        -0.161112       -0.950972
                       -0.884396       -0.341089     -0.000851071    -0.000391909         0.243548       -0.129113     -0.000680861     -0.00133749
                     0.000361512     7.59039e-05        -0.161269       -0.950897     -0.000461777     -0.00135555        -0.216271        0.112698
281702.3               -0.112449       -0.260081       0.00128627     0.000668917        -0.883848        -0.34097      0.000469308     0.000190069
                      0.00131704     0.000646455        -0.240961      -0.0356803     -0.000722444    -0.000289861        -0.161141       -0.950967
                       -0.884406        -0.34105       -0.0008511    -0.000391861         0.243548        -0.12914     -0.000680897     -0.00133751
                     0.000361518     7.58917e-05        -0.161298       -0.950893     -0.000461837     -0.00135554        -0.216266        0.112703
281702.4               -0.112454       -0.260092        0.0012863      0.00066887        -0.883858       -0.340932      0.000469303     0.000190086
                      0.00131707     0.000646404         -0.24096       -0.035672     -0.000722463    -0.000289824         -0.16117       -0.950963
                       -0.884417       -0.341011     -0.000851128    -0.000391813         0.243549       -0.129167     -0.000680934     -0.00133752
                     0.000361524     7.58796e-05        -0.161327       -0.950888     -0.000461897     -0.00135554        -0.216261        0.112708
281702.5                -0.11246       -0.260104       0.00128633     0.000668823        -0.883869       -0.340893      0.000469298     0.000190103
                      0.00131709     0.000646353        -0.240959      -0.0356638     -0.000722483    -0.000289788        -0.161199       -0.950959
                       -0.884427       -0.340973     -0.000851156    -0.000391765         0.243549       -0.129195      -0.00068097     -0.00133754
                      0.00036153     7.58675e-05        -0.161356       -0.950884     -0.000461958     -0.00135553        -0.216256        0.112713
281702.6               -0.112465       -0.260116       0.00128636     0.000668776        -0.883879       -0.340854      0.000469292     0.000190121
                      0.00131712     0.000646302        -0.240958      -0.0356555     -0.000722502    -0.000289751        -0.161228       -0.950955
                       -0.884437       -0.340934     -0.000851185    -0.000391717         0.243549       -0.129222     -0.000681007     -0.00133755
                     0.000361536     7.58554e-05        -0.161385        -0.95088     -0.000462018     -0.00135552        -0.216251        0.112718
281702.7                -0.11247       -0.260128       0.00128639     0.000668729        -0.883889       -0.340815      0.000469287     0.000190138
                      0.00131715     0.000646251        -0.240957      -0.0356473     -0.000722522    -0.000289715        -0.161257        -0.95095
                       -0.884448       -0.340895     -0.000851213     -0.00039167          0.24355       -0.129249     -0.000681044     -0.00133757
                     0.000361542     7.58432e-05        -0.161414       -0.950876     -0.000462078     -0.00135551        -0.216245        0.112723
281702.8               -0.112475       -0.260139       0.00128642     0.000668682          -0.8839       -0.340777      0.000469282     0.000190155
                      0.00131718       0.0006462        -0.240956      -0.0356391     -0.000722541    -0.000289678        -0.161286       -0.950946
                       -0.884458       -0.340856     -0.000851242    -0.000391622          0.24355       -0.129276      -0.00068108     -0.00133758
                     0.000361548     7.58311e-05        -0.161443       -0.950871     -0.000462138      -0.0013555         -0.21624        0.112727
281702.9                -0.11248       -0.260151       0.00128645     0.000668635         -0.88391       -0.340738      0.000469277     0.000190172
                      0.00131721     0.000646149        -0.240955      -0.0356308     -0.000722561    -0.000289642        -0.161315       -0.950942
                       -0.884468       -0.340817      -0.00085127    -0.000391574          0.24355       -0.129303     -0.000681117      -0.0013376
                     0.000361553      7.5819e-05        -0.161471       -0.950867     -0.000462199     -0.00135549        -0.216235        0.112732
281703                 -0.112485       -0.260163       0.00128648     0.000668588         -0.88392       -0.340699      0.000469272     0.000190189
                      0.00131723     0.000646098        -0.240953      -0.0356226      -0.00072258    -0.000289605        -0.161344       -0.950937
                       -0.884479       -0.340779     -0.000851298    -0.000391526         0.243551        -0.12933     -0.000681154     -0.00133761
                     0.000361559     7.58068e-05          -0.1615       -0.950863     -0.000462259     -0.00135548         -0.21623        0.112737
281703.1                -0.11249       -0.260175       0.00128651     0.000668542        -0.883931        -0.34066      0.000469267     0.000190206
                      0.00131726     0.000646046        -0.240952      -0.0356144       -0.0007226    -0.000289569        -0.161373       -0.950933
                       -0.884489        -0.34074     -0.000851327    -0.000391478         0.243551       -0.129357     -0.000681191     -0.00133763
