! TOUCHSTONE file generated by CST MICROWAVE STUDIO
! Date and time: Wed Oct  8 06:51:41 2025
! Project name: Teste_Macro_Metasurface_Nanopilar.cst
! Parameters = {H=600; L_x=75; L_y=190; Lambda=1064; Max_L=200; Min_L=70; PathPara=1; Phi=0; Step_L=10; Theta=0; p=520; phaseX=180; phaseY=0}
! Header version: 2018
! Port assignment regex: !\s*Touchstone port\s*([0-9]+)\s*=\s*(CST MWS port|CST DS port)\s*([0-9]+|Zmin|Zmax)\s*\(\"(.*)\"\)(\s*mode\s*([0-9]+))?.*
! Touchstone port assignment:
! Touchstone port 1 = CST MWS port Zmax ("") mode 1
! Touchstone port 2 = CST MWS port Zmax ("") mode 2
! Touchstone port 3 = CST MWS port Zmin ("") mode 1
! Touchstone port 4 = CST MWS port Zmin ("") mode 2
! S-Parameters are not renormalized. Each port impedance will be approximated by the real part at minimum frequency. The values are described via the [Reference] keyword.
! Default impedance is overridden by [Reference]
[Version] 2.0
# GHz S RI R 376.73
[Number of Ports] 4
[Reference]
376.73 376.73 376.73 376.73 
[Number of Frequencies] 1001
[Network Data]
281700                 -0.133894        -0.11101      0.000108878     7.24184e-05        -0.515029       -0.831957      3.37593e-05     7.76672e-05
                     0.000153062     9.04213e-05        0.0625604       -0.117651      3.23698e-06    -6.32325e-05        -0.785365        0.603315
                       -0.515126       -0.831895      0.000108765     6.47083e-05        0.0381316        0.166341     -0.000182285     0.000114992
                    -4.98359e-05    -5.60016e-05        -0.785308        0.603265     -0.000162548     9.44616e-05         -0.12997       0.0303839
281700.1               -0.133891       -0.111008      0.000108881     7.24175e-05        -0.515057        -0.83194      3.37616e-05     7.76695e-05
                     0.000153069     9.04244e-05        0.0625545       -0.117653      3.22986e-06    -6.32332e-05        -0.785349        0.603336
                       -0.515154       -0.831879      0.000108763      6.4708e-05         0.038142        0.166334     -0.000182282     0.000115001
                    -4.98381e-05     -5.5998e-05        -0.785292        0.603286     -0.000162548     9.44667e-05        -0.129969       0.0303845
281700.2               -0.133888       -0.111006      0.000108884     7.24165e-05        -0.515086       -0.831923      3.37639e-05     7.76718e-05
                     0.000153077     9.04276e-05        0.0625485       -0.117656      3.22275e-06    -6.32339e-05        -0.785333        0.603358
                       -0.515182       -0.831862      0.000108761     6.47078e-05        0.0381524        0.166328     -0.000182279      0.00011501
                    -4.98403e-05    -5.59945e-05        -0.785276        0.603307     -0.000162547     9.44718e-05        -0.129968       0.0303851
281700.3               -0.133885       -0.111003      0.000108886     7.24155e-05        -0.515114       -0.831907      3.37663e-05     7.76741e-05
                     0.000153085     9.04308e-05        0.0625425       -0.117658      3.21563e-06    -6.32346e-05        -0.785317        0.603379
                        -0.51521       -0.831845      0.000108759     6.47075e-05        0.0381628        0.166321     -0.000182276     0.000115019
                    -4.98425e-05    -5.59909e-05        -0.785259        0.603328     -0.000162547     9.44769e-05        -0.129967       0.0303858
281700.4               -0.133881       -0.111001      0.000108889     7.24145e-05        -0.515142        -0.83189      3.37686e-05     7.76763e-05
                     0.000153092     9.04339e-05        0.0625366        -0.11766      3.20851e-06    -6.32354e-05          -0.7853          0.6034
                       -0.515239       -0.831829      0.000108757     6.47073e-05        0.0381732        0.166314     -0.000182273     0.000115028
                    -4.98447e-05    -5.59874e-05        -0.785243         0.60335     -0.000162547      9.4482e-05        -0.129967       0.0303864
281700.5               -0.133878       -0.110998      0.000108892     7.24136e-05         -0.51517       -0.831874       3.3771e-05     7.76786e-05
                       0.0001531     9.04371e-05        0.0625306       -0.117663       3.2014e-06    -6.32361e-05        -0.785284        0.603421
                       -0.515267       -0.831812      0.000108755      6.4707e-05        0.0381836        0.166308      -0.00018227     0.000115037
                    -4.98469e-05    -5.59838e-05        -0.785227        0.603371     -0.000162547     9.44871e-05        -0.129966        0.030387
281700.6               -0.133875       -0.110996      0.000108895     7.24126e-05        -0.515198       -0.831857      3.37733e-05     7.76809e-05
                     0.000153108     9.04403e-05        0.0625246       -0.117665      3.19428e-06    -6.32368e-05        -0.785268        0.603443
                       -0.515295       -0.831796      0.000108753     6.47068e-05        0.0381939        0.166301     -0.000182267     0.000115046
                    -4.98491e-05    -5.59803e-05        -0.785211        0.603392     -0.000162546     9.44922e-05        -0.129965       0.0303876
281700.7               -0.133872       -0.110993      0.000108897     7.24116e-05        -0.515226        -0.83184      3.37757e-05     7.76832e-05
                     0.000153115     9.04434e-05        0.0625187       -0.117668      3.18716e-06    -6.32375e-05        -0.785252        0.603464
                       -0.515323       -0.831779      0.000108751     6.47065e-05        0.0382043        0.166294     -0.000182264     0.000115055
                    -4.98513e-05    -5.59767e-05        -0.785194        0.603414     -0.000162546     9.44973e-05        -0.129964       0.0303883
281700.8               -0.133869       -0.110991        0.0001089     7.24106e-05        -0.515254       -0.831824       3.3778e-05     7.76855e-05
                     0.000153123     9.04466e-05        0.0625127        -0.11767      3.18005e-06    -6.32383e-05        -0.785235        0.603485
                       -0.515351       -0.831762       0.00010875     6.47063e-05        0.0382147        0.166288     -0.000182261     0.000115064
                    -4.98535e-05    -5.59732e-05        -0.785178        0.603435     -0.000162546     9.45024e-05        -0.129963       0.0303889
281700.9               -0.133865       -0.110988      0.000108903     7.24097e-05        -0.515282       -0.831807      3.37804e-05     7.76878e-05
                     0.000153131     9.04498e-05        0.0625067       -0.117673      3.17293e-06     -6.3239e-05        -0.785219        0.603506
                       -0.515379       -0.831746      0.000108748      6.4706e-05        0.0382251        0.166281     -0.000182258     0.000115073
                    -4.98557e-05    -5.59697e-05        -0.785162        0.603456     -0.000162545     9.45075e-05        -0.129962       0.0303895
281701                 -0.133862       -0.110986      0.000108905     7.24087e-05        -0.515311       -0.831791      3.37827e-05     7.76901e-05
                     0.000153138     9.04529e-05        0.0625008       -0.117675      3.16582e-06    -6.32397e-05        -0.785203        0.603528
                       -0.515407       -0.831729      0.000108746     6.47058e-05        0.0382355        0.166275     -0.000182255     0.000115082
                    -4.98579e-05    -5.59661e-05        -0.785146        0.603477     -0.000162545     9.45126e-05        -0.129962       0.0303901
281701.1               -0.133859       -0.110984      0.000108908     7.24077e-05        -0.515339       -0.831774      3.37851e-05     7.76924e-05
                     0.000153146     9.04561e-05        0.0624948       -0.117678       3.1587e-06    -6.32404e-05        -0.785187        0.603549
                       -0.515435       -0.831713      0.000108744     6.47055e-05        0.0382459        0.166268     -0.000182252     0.000115091
                    -4.98601e-05    -5.59626e-05         -0.78513        0.603499     -0.000162545     9.45177e-05        -0.129961       0.0303907
281701.2               -0.133856       -0.110981      0.000108911     7.24068e-05        -0.515367       -0.831757      3.37874e-05     7.76947e-05
                     0.000153154     9.04592e-05        0.0624889        -0.11768      3.15158e-06    -6.32411e-05         -0.78517         0.60357
                       -0.515464       -0.831696      0.000108742     6.47053e-05        0.0382562        0.166261     -0.000182249       0.0001151
                    -4.98623e-05     -5.5959e-05        -0.785113         0.60352     -0.000162545     9.45228e-05         -0.12996       0.0303914
281701.3               -0.133853       -0.110979      0.000108914     7.24058e-05        -0.515395       -0.831741      3.37898e-05      7.7697e-05
                     0.000153161     9.04624e-05        0.0624829       -0.117682      3.14447e-06    -6.32419e-05        -0.785154        0.603592
                       -0.515492       -0.831679       0.00010874      6.4705e-05        0.0382666        0.166255     -0.000182246     0.000115109
                    -4.98645e-05    -5.59555e-05        -0.785097        0.603541     -0.000162544     9.45279e-05        -0.129959        0.030392
281701.4               -0.133849       -0.110976      0.000108916     7.24048e-05        -0.515423       -0.831724      3.37921e-05     7.76993e-05
                     0.000153169     9.04656e-05        0.0624769       -0.117685      3.13735e-06    -6.32426e-05        -0.785138        0.603613
                        -0.51552       -0.831663      0.000108738     6.47047e-05         0.038277        0.166248     -0.000182243     0.000115118
                    -4.98667e-05    -5.59519e-05        -0.785081        0.603563     -0.000162544      9.4533e-05        -0.129958       0.0303926
281701.5               -0.133846       -0.110974      0.000108919     7.24038e-05        -0.515451       -0.831708      3.37944e-05     7.77016e-05
                     0.000153177     9.04687e-05         0.062471       -0.117687      3.13024e-06    -6.32433e-05        -0.785122        0.603634
                       -0.515548       -0.831646      0.000108736     6.47045e-05        0.0382874        0.166241      -0.00018224     0.000115127
                    -4.98689e-05    -5.59484e-05        -0.785065        0.603584     -0.000162544     9.45381e-05        -0.129958       0.0303932
281701.6               -0.133843       -0.110971      0.000108922     7.24029e-05        -0.515479       -0.831691      3.37968e-05     7.77039e-05
                     0.000153184     9.04719e-05         0.062465        -0.11769      3.12312e-06     -6.3244e-05        -0.785105        0.603655
                       -0.515576        -0.83163      0.000108734     6.47042e-05        0.0382978        0.166235     -0.000182237     0.000115136
                     -4.9871e-05    -5.59449e-05        -0.785048        0.603605     -0.000162543     9.45432e-05        -0.129957       0.0303939
281701.7                -0.13384       -0.110969      0.000108925     7.24019e-05        -0.515507       -0.831674      3.37991e-05     7.77062e-05
                     0.000153192      9.0475e-05         0.062459       -0.117692      3.11601e-06    -6.32447e-05        -0.785089        0.603677
                       -0.515604       -0.831613      0.000108732      6.4704e-05        0.0383081        0.166228     -0.000182234     0.000115145
                    -4.98732e-05    -5.59413e-05        -0.785032        0.603626     -0.000162543     9.45484e-05        -0.129956       0.0303945
281701.8               -0.133837       -0.110966      0.000108927     7.24009e-05        -0.515536       -0.831658      3.38015e-05     7.77085e-05
                       0.0001532     9.04782e-05        0.0624531       -0.117695      3.10889e-06    -6.32454e-05        -0.785073        0.603698
                       -0.515632       -0.831596       0.00010873     6.47037e-05        0.0383185        0.166221     -0.000182231     0.000115154
                    -4.98754e-05    -5.59378e-05        -0.785016        0.603648     -0.000162543     9.45535e-05        -0.129955       0.0303951
281701.9               -0.133833       -0.110964       0.00010893        7.24e-05        -0.515564       -0.831641      3.38038e-05     7.77108e-05
                     0.000153207     9.04813e-05        0.0624471       -0.117697      3.10177e-06    -6.32461e-05        -0.785057        0.603719
                        -0.51566        -0.83158      0.000108728     6.47035e-05        0.0383289        0.166215     -0.000182228     0.000115163
                    -4.98776e-05    -5.59343e-05           -0.785        0.603669     -0.000162543     9.45586e-05        -0.129954       0.0303957
281702                  -0.13383       -0.110962      0.000108933      7.2399e-05        -0.515592       -0.831625      3.38062e-05     7.77131e-05
                     0.000153215     9.04845e-05        0.0624411         -0.1177      3.09466e-06    -6.32468e-05         -0.78504         0.60374
                       -0.515689       -0.831563      0.000108726     6.47032e-05        0.0383393        0.166208     -0.000182225     0.000115172
                    -4.98798e-05    -5.59307e-05        -0.784983         0.60369     -0.000162542     9.45637e-05        -0.129954       0.0303964
281702.1               -0.133827       -0.110959      0.000108936      7.2398e-05         -0.51562       -0.831608      3.38085e-05     7.77154e-05
                     0.000153223     9.04877e-05        0.0624352       -0.117702      3.08754e-06    -6.32475e-05        -0.785024        0.603762
                       -0.515717       -0.831546      0.000108724     6.47029e-05        0.0383497        0.166201     -0.000182222     0.000115181
                     -4.9882e-05    -5.59272e-05        -0.784967        0.603711     -0.000162542     9.45688e-05        -0.129953        0.030397
281702.2               -0.133824       -0.110957      0.000108938     7.23971e-05        -0.515648       -0.831591      3.38108e-05     7.77177e-05
                      0.00015323     9.04908e-05        0.0624292       -0.117704      3.08043e-06    -6.32482e-05        -0.785008        0.603783
                       -0.515745        -0.83153      0.000108722     6.47027e-05          0.03836        0.166195     -0.000182219      0.00011519
                    -4.98842e-05    -5.59236e-05        -0.784951        0.603733     -0.000162542     9.45739e-05        -0.129952       0.0303976
281702.3               -0.133821       -0.110954      0.000108941     7.23961e-05        -0.515676       -0.831575      3.38132e-05       7.772e-05
                     0.000153238      9.0494e-05        0.0624232       -0.117707      3.07331e-06    -6.32489e-05        -0.784992        0.603804
                       -0.515773       -0.831513       0.00010872     6.47024e-05        0.0383704        0.166188     -0.000182216     0.000115199
                    -4.98864e-05    -5.59201e-05        -0.784935        0.603754     -0.000162541      9.4579e-05        -0.129951       0.0303982
281702.4               -0.133817       -0.110952      0.000108944     7.23951e-05        -0.515704       -0.831558      3.38155e-05     7.77223e-05
                     0.000153246     9.04971e-05        0.0624173       -0.117709       3.0662e-06    -6.32496e-05        -0.784975        0.603826
                       -0.515801       -0.831497      0.000108718     6.47022e-05        0.0383808        0.166181     -0.000182213     0.000115208
                    -4.98886e-05    -5.59166e-05        -0.784918        0.603775     -0.000162541     9.45841e-05         -0.12995       0.0303989
281702.5               -0.133814       -0.110949      0.000108947     7.23942e-05        -0.515732       -0.831542      3.38178e-05     7.77246e-05
                     0.000153253     9.05003e-05        0.0624113       -0.117712      3.05908e-06    -6.32503e-05        -0.784959        0.603847
                       -0.515829        -0.83148      0.000108716     6.47019e-05        0.0383912        0.166175      -0.00018221     0.000115217
                    -4.98908e-05     -5.5913e-05        -0.784902        0.603796     -0.000162541     9.45892e-05         -0.12995       0.0303995
281702.6               -0.133811       -0.110947      0.000108949     7.23932e-05         -0.51576       -0.831525      3.38202e-05     7.77269e-05
                     0.000153261     9.05034e-05        0.0624054       -0.117714      3.05196e-06     -6.3251e-05        -0.784943        0.603868
                       -0.515857       -0.831463      0.000108714     6.47016e-05        0.0384015        0.166168     -0.000182207     0.000115226
                     -4.9893e-05    -5.59095e-05        -0.784886        0.603818     -0.000162541     9.45943e-05        -0.129949       0.0304001
281702.7               -0.133808       -0.110945      0.000108952     7.23922e-05        -0.515789       -0.831508      3.38225e-05     7.77292e-05
                     0.000153269     9.05066e-05        0.0623994       -0.117717      3.04485e-06    -6.32517e-05        -0.784927        0.603889
                       -0.515885       -0.831447      0.000108712     6.47014e-05        0.0384119        0.166161     -0.000182204     0.000115235
                    -4.98952e-05     -5.5906e-05         -0.78487        0.603839      -0.00016254     9.45994e-05        -0.129948       0.0304007
281702.8               -0.133805       -0.110942      0.000108955     7.23913e-05        -0.515817       -0.831492      3.38249e-05     7.77315e-05
                     0.000153276     9.05097e-05        0.0623934       -0.117719      3.03773e-06    -6.32524e-05         -0.78491        0.603911
                       -0.515913        -0.83143       0.00010871     6.47011e-05        0.0384223        0.166155     -0.000182201     0.000115244
                    -4.98974e-05    -5.59025e-05        -0.784853         0.60386      -0.00016254     9.46045e-05        -0.129947       0.0304013
281702.9               -0.133801        -0.11094      0.000108957     7.23903e-05        -0.515845       -0.831475      3.38272e-05     7.77338e-05
                     0.000153284     9.05129e-05        0.0623875       -0.117722      3.03062e-06    -6.32531e-05        -0.784894        0.603932
                       -0.515942       -0.831414      0.000108708     6.47008e-05        0.0384327        0.166148     -0.000182198     0.000115253
                    -4.98996e-05    -5.58989e-05        -0.784837        0.603882      -0.00016254     9.46096e-05        -0.129946        0.030402
281703                 -0.133798       -0.110937       0.00010896     7.23893e-05        -0.515873       -0.831458      3.38295e-05     7.77361e-05
                     0.000153292      9.0516e-05        0.0623815       -0.117724       3.0235e-06    -6.32538e-05        -0.784878        0.603953
                        -0.51597       -0.831397      0.000108706     6.47006e-05         0.038443        0.166141     -0.000182195     0.000115262
                    -4.99018e-05    -5.58954e-05        -0.784821        0.603903     -0.000162539     9.46147e-05        -0.129945       0.0304026
281703.1               -0.133795       -0.110935      0.000108963     7.23884e-05        -0.515901       -0.831442      3.38319e-05     7.77384e-05
                     0.000153299     9.05192e-05        0.0623755       -0.117726      3.01639e-06    -6.32545e-05        -0.784862        0.603974
                       -0.515998        -0.83138      0.000108704     6.47003e-05        0.0384534        0.166135     -0.000182192     0.000115271
