! TOUCHSTONE file generated by CST MICROWAVE STUDIO
! Date and time: Wed Oct  8 07:05:12 2025
! Project name: Teste_Macro_Metasurface_Nanopilar.cst
! Parameters = {H=600; L_x=190; L_y=140; Lambda=1064; Max_L=200; Min_L=70; PathPara=1; Phi=0; Step_L=10; Theta=0; p=520; phaseX=180; phaseY=0}
! Header version: 2018
! Port assignment regex: !\s*Touchstone port\s*([0-9]+)\s*=\s*(CST MWS port|CST DS port)\s*([0-9]+|Zmin|Zmax)\s*\(\"(.*)\"\)(\s*mode\s*([0-9]+))?.*
! Touchstone port assignment:
! Touchstone port 1 = CST MWS port Zmax ("") mode 1
! Touchstone port 2 = CST MWS port Zmax ("") mode 2
! Touchstone port 3 = CST MWS port Zmin ("") mode 1
! Touchstone port 4 = CST MWS port Zmin ("") mode 2
! S-Parameters are not renormalized. Each port impedance will be approximated by the real part at minimum frequency. The values are described via the [Reference] keyword.
! Default impedance is overridden by [Reference]
[Version] 2.0
# GHz S RI R 376.73
[Number of Ports] 4
[Reference]
376.73 376.73 376.73 376.73 
[Number of Frequencies] 1001
[Network Data]
281700                 -0.194985        0.238326      0.000306304     0.000147969        -0.662548       -0.671511      2.51483e-05     0.000115841
                     0.000242219     0.000234572       -0.0112015       -0.017717      9.64389e-06    -0.000198042        -0.990814      -0.0951431
                        -0.66233        -0.67159      7.15728e-05     2.31012e-05        -0.246818        0.180803     -0.000274191    -6.23194e-05
                    -4.42997e-05     4.18571e-05         -0.99048      -0.0950894     -0.000249904     3.33504e-05       0.00939489      -0.0170021
281700.1               -0.194973        0.238326       0.00030629     0.000147976        -0.662571       -0.671491      2.51624e-05     0.000115832
                      0.00024222     0.000234565       -0.0112013      -0.0177235      9.67186e-06    -0.000198046        -0.990817      -0.0951133
                       -0.662354        -0.67157      7.15716e-05     2.30842e-05        -0.246806        0.180807     -0.000274192     -6.2296e-05
                     -4.4296e-05     4.18534e-05        -0.990482      -0.0950595     -0.000249915     3.33664e-05       0.00939498      -0.0170092
281700.2               -0.194961        0.238326      0.000306276     0.000147983        -0.662595       -0.671472      2.51764e-05     0.000115823
                     0.000242221     0.000234558       -0.0112011      -0.0177301      9.69982e-06    -0.000198049        -0.990819      -0.0950834
                       -0.662378       -0.671551      7.15704e-05     2.30672e-05        -0.246793        0.180812     -0.000274193    -6.22726e-05
                    -4.42923e-05     4.18498e-05        -0.990485      -0.0950297     -0.000249925     3.33824e-05       0.00939508      -0.0170164
281700.3               -0.194949        0.238325      0.000306262      0.00014799        -0.662619       -0.671452      2.51904e-05     0.000115815
                     0.000242222     0.000234552       -0.0112009      -0.0177366      9.72776e-06    -0.000198053        -0.990822      -0.0950535
                       -0.662401       -0.671531      7.15692e-05     2.30502e-05        -0.246781        0.180816     -0.000274194    -6.22492e-05
                    -4.42886e-05     4.18461e-05        -0.990488      -0.0949998     -0.000249935     3.33984e-05       0.00939517      -0.0170235
281700.4               -0.194938        0.238325      0.000306248     0.000147997        -0.662643       -0.671432      2.52044e-05     0.000115806
                     0.000242223     0.000234545       -0.0112008      -0.0177432      9.75569e-06    -0.000198057        -0.990825      -0.0950237
                       -0.662425       -0.671511      7.15679e-05     2.30331e-05        -0.246768        0.180821     -0.000274195    -6.22258e-05
                     -4.4285e-05     4.18424e-05        -0.990491        -0.09497     -0.000249945     3.34144e-05       0.00939527      -0.0170306
281700.5               -0.194926        0.238325      0.000306234     0.000148004        -0.662666       -0.671413      2.52183e-05     0.000115797
                     0.000242224     0.000234538       -0.0112006      -0.0177497       9.7836e-06    -0.000198061        -0.990828      -0.0949938
                       -0.662449       -0.671492      7.15667e-05     2.30161e-05        -0.246755        0.180825     -0.000274196    -6.22024e-05
                    -4.42813e-05     4.18388e-05        -0.990493      -0.0949401     -0.000249955     3.34304e-05       0.00939536      -0.0170378
281700.6               -0.194914        0.238325       0.00030622     0.000148012         -0.66269       -0.671393      2.52323e-05     0.000115788
                     0.000242225     0.000234531       -0.0112004      -0.0177563       9.8115e-06    -0.000198065         -0.99083      -0.0949639
                       -0.662473       -0.671472      7.15655e-05     2.29991e-05        -0.246743         0.18083     -0.000274197     -6.2179e-05
                    -4.42776e-05     4.18351e-05        -0.990496      -0.0949103     -0.000249965     3.34464e-05       0.00939545      -0.0170449
281700.7               -0.194902        0.238324      0.000306206     0.000148019        -0.662714       -0.671373      2.52462e-05     0.000115779
                     0.000242226     0.000234525       -0.0112003      -0.0177628      9.83938e-06    -0.000198069        -0.990833      -0.0949341
                       -0.662496       -0.671452      7.15642e-05     2.29821e-05         -0.24673        0.180834     -0.000274198    -6.21556e-05
                    -4.42739e-05     4.18315e-05        -0.990499      -0.0948804     -0.000249975     3.34623e-05       0.00939555      -0.0170521
281700.8                -0.19489        0.238324      0.000306192     0.000148026        -0.662738       -0.671353      2.52601e-05      0.00011577
                     0.000242227     0.000234518       -0.0112001      -0.0177693      9.86724e-06    -0.000198073        -0.990836      -0.0949042
                        -0.66252       -0.671433       7.1563e-05      2.2965e-05        -0.246717        0.180839     -0.000274199    -6.21322e-05
                    -4.42703e-05     4.18278e-05        -0.990502      -0.0948506     -0.000249985     3.34783e-05       0.00939564      -0.0170592
281700.9               -0.194879        0.238324      0.000306178     0.000148033        -0.662761       -0.671334       2.5274e-05     0.000115761
                     0.000242228     0.000234511       -0.0111999      -0.0177759      9.89509e-06    -0.000198077        -0.990838      -0.0948743
                       -0.662544       -0.671413      7.15618e-05      2.2948e-05        -0.246705        0.180843       -0.0002742    -6.21088e-05
                    -4.42666e-05     4.18241e-05        -0.990505      -0.0948207     -0.000249996     3.34942e-05       0.00939573      -0.0170664
281701                 -0.194867        0.238323      0.000306164      0.00014804        -0.662785       -0.671314      2.52878e-05     0.000115752
                     0.000242229     0.000234505       -0.0111997      -0.0177824      9.92293e-06    -0.000198081        -0.990841      -0.0948445
                       -0.662568       -0.671393      7.15605e-05      2.2931e-05        -0.246692        0.180848       -0.0002742    -6.20854e-05
                    -4.42629e-05     4.18205e-05        -0.990507      -0.0947909     -0.000250006     3.35102e-05       0.00939582      -0.0170735
281701.1               -0.194855        0.238323       0.00030615     0.000148047        -0.662809       -0.671294      2.53016e-05     0.000115743
                      0.00024223     0.000234498       -0.0111996       -0.017789      9.95074e-06    -0.000198085        -0.990844      -0.0948146
                       -0.662591       -0.671374      7.15593e-05     2.29139e-05         -0.24668        0.180852     -0.000274201     -6.2062e-05
                    -4.42592e-05     4.18168e-05         -0.99051       -0.094761     -0.000250016     3.35261e-05       0.00939591      -0.0170807
281701.2               -0.194843        0.238323      0.000306136     0.000148055        -0.662832       -0.671275      2.53154e-05     0.000115733
                     0.000242231     0.000234491       -0.0111994      -0.0177955      9.97855e-06    -0.000198089        -0.990847      -0.0947847
                       -0.662615       -0.671354       7.1558e-05     2.28969e-05        -0.246667        0.180857     -0.000274202    -6.20386e-05
                    -4.42555e-05     4.18131e-05        -0.990513      -0.0947312     -0.000250026      3.3542e-05         0.009396      -0.0170878
281701.3               -0.194832        0.238323      0.000306122     0.000148062        -0.662856       -0.671255      2.53292e-05     0.000115724
                     0.000242233     0.000234484       -0.0111992      -0.0178021      1.00063e-05    -0.000198093        -0.990849      -0.0947549
                       -0.662639       -0.671334      7.15568e-05     2.28799e-05        -0.246654        0.180861     -0.000274203    -6.20152e-05
                    -4.42519e-05     4.18095e-05        -0.990516      -0.0947013     -0.000250036     3.35579e-05       0.00939609      -0.0170949
281701.4                -0.19482        0.238322      0.000306108     0.000148069         -0.66288       -0.671235       2.5343e-05     0.000115715
                     0.000242234     0.000234478       -0.0111991      -0.0178086      1.00341e-05    -0.000198097        -0.990852       -0.094725
                       -0.662662       -0.671314      7.15555e-05     2.28629e-05        -0.246642        0.180866     -0.000274204    -6.19918e-05
                    -4.42482e-05     4.18058e-05        -0.990518      -0.0946715     -0.000250046     3.35739e-05       0.00939618      -0.0171021
281701.5               -0.194808        0.238322      0.000306094     0.000148076        -0.662904       -0.671216      2.53567e-05     0.000115706
                     0.000242235     0.000234471       -0.0111989      -0.0178152      1.00619e-05      -0.0001981        -0.990855      -0.0946951
                       -0.662686       -0.671295      7.15543e-05     2.28458e-05        -0.246629         0.18087     -0.000274205    -6.19684e-05
                    -4.42445e-05     4.18021e-05        -0.990521      -0.0946416     -0.000250056     3.35897e-05       0.00939627      -0.0171092
281701.6               -0.194796        0.238322       0.00030608     0.000148084        -0.662927       -0.671196      2.53704e-05     0.000115697
                     0.000242236     0.000234464       -0.0111987      -0.0178217      1.00896e-05    -0.000198104        -0.990858      -0.0946653
                        -0.66271       -0.671275       7.1553e-05     2.28288e-05        -0.246616        0.180875     -0.000274206     -6.1945e-05
                    -4.42408e-05     4.17984e-05        -0.990524      -0.0946118     -0.000250066     3.36056e-05       0.00939636      -0.0171164
281701.7               -0.194785        0.238322      0.000306066     0.000148091        -0.662951       -0.671176       2.5384e-05     0.000115688
                     0.000242237     0.000234457       -0.0111986      -0.0178283      1.01173e-05    -0.000198108         -0.99086      -0.0946354
                       -0.662734       -0.671255      7.15518e-05     2.28118e-05        -0.246604        0.180879     -0.000274207    -6.19216e-05
                    -4.42372e-05     4.17948e-05        -0.990527      -0.0945819     -0.000250076     3.36215e-05       0.00939644      -0.0171235
281701.8               -0.194773        0.238321      0.000306052     0.000148098        -0.662975       -0.671157      2.53977e-05     0.000115679
                     0.000242238     0.000234451       -0.0111984      -0.0178348       1.0145e-05    -0.000198112        -0.990863      -0.0946055
                       -0.662757       -0.671236      7.15505e-05     2.27948e-05        -0.246591        0.180884     -0.000274207    -6.18982e-05
                    -4.42335e-05     4.17911e-05         -0.99053      -0.0945521     -0.000250087     3.36374e-05       0.00939653      -0.0171307
281701.9               -0.194761        0.238321      0.000306038     0.000148105        -0.662999       -0.671137      2.54113e-05     0.000115669
                     0.000242239     0.000234444       -0.0111982      -0.0178414      1.01727e-05    -0.000198116        -0.990866      -0.0945757
                       -0.662781       -0.671216      7.15492e-05     2.27778e-05        -0.246579        0.180888     -0.000274208    -6.18748e-05
                    -4.42298e-05     4.17874e-05        -0.990532      -0.0945222     -0.000250097     3.36532e-05       0.00939662      -0.0171378
281702                 -0.194749        0.238321      0.000306024     0.000148112        -0.663022       -0.671117      2.54249e-05      0.00011566
                      0.00024224     0.000234437       -0.0111981      -0.0178479      1.02004e-05     -0.00019812        -0.990869      -0.0945458
                       -0.662805       -0.671196       7.1548e-05     2.27607e-05        -0.246566        0.180893     -0.000274209    -6.18514e-05
                    -4.42261e-05     4.17838e-05        -0.990535      -0.0944924     -0.000250107     3.36691e-05        0.0093967       -0.017145
281702.1               -0.194737         0.23832       0.00030601      0.00014812        -0.663046       -0.671098      2.54385e-05     0.000115651
                     0.000242241      0.00023443       -0.0111979      -0.0178545      1.02281e-05    -0.000198123        -0.990871      -0.0945159
                       -0.662829       -0.671176      7.15467e-05     2.27437e-05        -0.246553        0.180897      -0.00027421     -6.1828e-05
                    -4.42225e-05     4.17801e-05        -0.990538      -0.0944625     -0.000250117     3.36849e-05       0.00939679      -0.0171521
281702.2               -0.194726         0.23832      0.000305996     0.000148127         -0.66307       -0.671078       2.5452e-05     0.000115642
                     0.000242242     0.000234424       -0.0111977       -0.017861      1.02557e-05    -0.000198127        -0.990874      -0.0944861
                       -0.662852       -0.671157      7.15454e-05     2.27267e-05        -0.246541        0.180902     -0.000274211    -6.18046e-05
                    -4.42188e-05     4.17764e-05        -0.990541      -0.0944327     -0.000250127     3.37008e-05       0.00939687      -0.0171592
281702.3               -0.194714         0.23832      0.000305982     0.000148134        -0.663093       -0.671058      2.54655e-05     0.000115632
                     0.000242243     0.000234417       -0.0111976      -0.0178675      1.02833e-05    -0.000198131        -0.990877      -0.0944562
                       -0.662876       -0.671137      7.15442e-05     2.27097e-05        -0.246528        0.180906     -0.000274211    -6.17812e-05
                    -4.42151e-05     4.17727e-05        -0.990543      -0.0944028     -0.000250137     3.37166e-05       0.00939696      -0.0171664
281702.4               -0.194702         0.23832      0.000305968     0.000148141        -0.663117       -0.671039       2.5479e-05     0.000115623
                     0.000242244      0.00023441       -0.0111974      -0.0178741       1.0311e-05    -0.000198135         -0.99088      -0.0944263
                         -0.6629       -0.671117      7.15429e-05     2.26927e-05        -0.246515        0.180911     -0.000274212    -6.17578e-05
                    -4.42115e-05     4.17691e-05        -0.990546       -0.094373     -0.000250147     3.37324e-05       0.00939704      -0.0171735
281702.5                -0.19469        0.238319      0.000305955     0.000148149        -0.663141       -0.671019      2.54924e-05     0.000115614
                     0.000242245     0.000234403       -0.0111972      -0.0178806      1.03386e-05    -0.000198139        -0.990882      -0.0943965
                       -0.662924       -0.671098      7.15416e-05     2.26756e-05        -0.246503        0.180915     -0.000274213    -6.17344e-05
                    -4.42078e-05     4.17654e-05        -0.990549      -0.0943431     -0.000250157     3.37482e-05       0.00939713      -0.0171807
281702.6               -0.194679        0.238319      0.000305941     0.000148156        -0.663165       -0.670999      2.55058e-05     0.000115604
                     0.000242246     0.000234397       -0.0111971      -0.0178872      1.03661e-05    -0.000198142        -0.990885      -0.0943666
                       -0.662947       -0.671078      7.15403e-05     2.26586e-05         -0.24649         0.18092     -0.000274214    -6.17109e-05
                    -4.42041e-05     4.17617e-05        -0.990552      -0.0943133     -0.000250167      3.3764e-05       0.00939721      -0.0171878
281702.7               -0.194667        0.238319      0.000305927     0.000148163        -0.663188        -0.67098      2.55192e-05     0.000115595
                     0.000242247      0.00023439       -0.0111969      -0.0178937      1.03937e-05    -0.000198146        -0.990888      -0.0943367
                       -0.662971       -0.671058      7.15391e-05     2.26416e-05        -0.246478        0.180924     -0.000274215    -6.16875e-05
                    -4.42004e-05      4.1758e-05        -0.990554      -0.0942834     -0.000250177     3.37798e-05       0.00939729       -0.017195
281702.8               -0.194655        0.238318      0.000305913     0.000148171        -0.663212        -0.67096      2.55325e-05     0.000115586
                     0.000242248     0.000234383       -0.0111967      -0.0179003      1.04213e-05     -0.00019815         -0.99089      -0.0943069
                       -0.662995       -0.671039      7.15378e-05     2.26246e-05        -0.246465        0.180929     -0.000274215    -6.16641e-05
                    -4.41968e-05     4.17544e-05        -0.990557      -0.0942536     -0.000250188     3.37956e-05       0.00939738      -0.0172021
281702.9               -0.194643        0.238318      0.000305899     0.000148178        -0.663236        -0.67094      2.55459e-05     0.000115576
                     0.000242249     0.000234377       -0.0111966      -0.0179068      1.04488e-05    -0.000198154        -0.990893       -0.094277
                       -0.663019       -0.671019      7.15365e-05     2.26076e-05        -0.246452        0.180933     -0.000274216    -6.16407e-05
                    -4.41931e-05     4.17507e-05         -0.99056      -0.0942237     -0.000250198     3.38114e-05       0.00939746      -0.0172092
281703                 -0.194631        0.238318      0.000305885     0.000148185        -0.663259       -0.670921      2.55592e-05     0.000115567
                     0.000242251      0.00023437       -0.0111964      -0.0179134      1.04763e-05    -0.000198157        -0.990896      -0.0942471
                       -0.663042       -0.670999      7.15352e-05     2.25905e-05         -0.24644        0.180938     -0.000274217    -6.16173e-05
                    -4.41894e-05      4.1747e-05        -0.990563      -0.0941939     -0.000250208     3.38271e-05       0.00939754      -0.0172164
281703.1                -0.19462        0.238318      0.000305871     0.000148192        -0.663283       -0.670901      2.55724e-05     0.000115557
                     0.000242252     0.000234363       -0.0111962      -0.0179199      1.05038e-05    -0.000198161        -0.990899      -0.0942173
                       -0.663066       -0.670979      7.15339e-05     2.25735e-05        -0.246427        0.180942     -0.000274218    -6.15939e-05
