! TOUCHSTONE file generated by CST MICROWAVE STUDIO
! Date and time: Wed Oct  8 06:51:31 2025
! Project name: Teste_Macro_Metasurface_Nanopilar.cst
! Parameters = {H=600; L_x=75; L_y=150; Lambda=1064; Max_L=200; Min_L=70; PathPara=1; Phi=0; Step_L=10; Theta=0; p=520; phaseX=180; phaseY=0}
! Header version: 2018
! Port assignment regex: !\s*Touchstone port\s*([0-9]+)\s*=\s*(CST MWS port|CST DS port)\s*([0-9]+|Zmin|Zmax)\s*\(\"(.*)\"\)(\s*mode\s*([0-9]+))?.*
! Touchstone port assignment:
! Touchstone port 1 = CST MWS port Zmax ("") mode 1
! Touchstone port 2 = CST MWS port Zmax ("") mode 2
! Touchstone port 3 = CST MWS port Zmin ("") mode 1
! Touchstone port 4 = CST MWS port Zmin ("") mode 2
! S-Parameters are not renormalized. Each port impedance will be approximated by the real part at minimum frequency. The values are described via the [Reference] keyword.
! Default impedance is overridden by [Reference]
[Version] 2.0
# GHz S RI R 376.73
[Number of Ports] 4
[Reference]
376.73 376.73 376.73 376.73 
[Number of Frequencies] 1001
[Network Data]
281700                   0.16349       0.0355911     -1.97048e-07    -0.000329946         0.938458       -0.267358      0.000107723     0.000408108
                    -4.09449e-05    -0.000178002         0.101399       -0.054722     -0.000226079    -0.000268574        -0.891658        0.436252
                        0.938915       -0.267372     -0.000254278    -0.000220996        -0.125638        0.118446      0.000239434     5.62832e-05
                     0.000131582     0.000367784        -0.891783        0.435832      0.000165658     8.06208e-05        -0.105653       0.0466238
281700.1                0.163489       0.0355809     -2.15747e-07    -0.000329935         0.938449        -0.26739      0.000107737     0.000408105
                    -4.09672e-05    -0.000177997         0.101395      -0.0547266      -0.00022609    -0.000268569        -0.891647        0.436276
                        0.938906       -0.267405     -0.000254288     -0.00022098        -0.125633        0.118445      0.000239435     5.62789e-05
                     0.000131605     0.000367775        -0.891771        0.435856      0.000165664     8.06213e-05        -0.105651       0.0466233
281700.2                0.163487       0.0355706     -2.34444e-07    -0.000329924         0.938441       -0.267423      0.000107751     0.000408102
                    -4.09894e-05    -0.000177992         0.101391      -0.0547311       -0.0002261    -0.000268563        -0.891635          0.4363
                        0.938897       -0.267438     -0.000254297    -0.000220964        -0.125629        0.118444      0.000239436     5.62745e-05
                     0.000131627     0.000367766         -0.89176         0.43588      0.000165671     8.06218e-05         -0.10565       0.0466229
281700.3                0.163485       0.0355603      -2.5314e-07    -0.000329914         0.938432       -0.267456      0.000107765     0.000408099
                    -4.10117e-05    -0.000177987         0.101386      -0.0547357      -0.00022611    -0.000268558        -0.891624        0.436324
                        0.938889       -0.267471     -0.000254307    -0.000220948        -0.125625        0.118443      0.000239438     5.62702e-05
                     0.000131649     0.000367757        -0.891748        0.435904      0.000165677     8.06223e-05        -0.105648       0.0466225
281700.4                0.163483       0.0355501     -2.71835e-07    -0.000329903         0.938423       -0.267489       0.00010778     0.000408096
                     -4.1034e-05    -0.000177982         0.101382      -0.0547402     -0.000226121    -0.000268552        -0.891612        0.436348
                         0.93888       -0.267504     -0.000254317    -0.000220932         -0.12562        0.118442      0.000239439     5.62659e-05
                     0.000131672     0.000367748        -0.891737        0.435928      0.000165683     8.06228e-05        -0.105647       0.0466221
281700.5                0.163481       0.0355398     -2.90529e-07    -0.000329893         0.938415       -0.267522      0.000107794     0.000408093
                    -4.10563e-05    -0.000177977         0.101378      -0.0547448     -0.000226131    -0.000268547        -0.891601        0.436372
                        0.938871       -0.267537     -0.000254326    -0.000220917        -0.125616        0.118441      0.000239441     5.62615e-05
                     0.000131694     0.000367739        -0.891725        0.435952      0.000165689     8.06233e-05        -0.105645       0.0466216
281700.6                 0.16348       0.0355296     -3.09222e-07    -0.000329882         0.938406       -0.267555      0.000107808      0.00040809
                    -4.10786e-05    -0.000177973         0.101374      -0.0547494     -0.000226142    -0.000268542        -0.891589        0.436396
                        0.938863       -0.267569     -0.000254336    -0.000220901        -0.125612         0.11844      0.000239442     5.62572e-05
                     0.000131717     0.000367729        -0.891714        0.435976      0.000165695     8.06238e-05        -0.105644       0.0466212
281700.7                0.163478       0.0355193     -3.27914e-07    -0.000329871         0.938397       -0.267587      0.000107823     0.000408087
                    -4.11009e-05    -0.000177968          0.10137      -0.0547539     -0.000226152    -0.000268536        -0.891578         0.43642
                        0.938854       -0.267602     -0.000254346    -0.000220885        -0.125608        0.118438      0.000239443     5.62528e-05
                     0.000131739      0.00036772        -0.891702           0.436      0.000165702     8.06242e-05        -0.105642       0.0466208
281700.8                0.163476        0.035509     -3.46605e-07    -0.000329861         0.938389        -0.26762      0.000107837     0.000408084
                    -4.11232e-05    -0.000177963         0.101366      -0.0547585     -0.000226162    -0.000268531        -0.891566        0.436444
                        0.938845       -0.267635     -0.000254356    -0.000220869        -0.125603        0.118437      0.000239445     5.62485e-05
                     0.000131761     0.000367711        -0.891691        0.436024      0.000165708     8.06247e-05        -0.105641       0.0466204
281700.9                0.163474       0.0354988     -3.65295e-07     -0.00032985          0.93838       -0.267653      0.000107851     0.000408081
                    -4.11455e-05    -0.000177958         0.101362      -0.0547631     -0.000226173    -0.000268525        -0.891555        0.436468
                        0.938837       -0.267668     -0.000254365    -0.000220853        -0.125599        0.118436      0.000239446     5.62442e-05
                     0.000131784     0.000367702        -0.891679        0.436048      0.000165714     8.06252e-05         -0.10564       0.0466199
281701                  0.163473       0.0354885     -3.83984e-07     -0.00032984         0.938371       -0.267686      0.000107866     0.000408078
                    -4.11678e-05    -0.000177953         0.101357      -0.0547676     -0.000226183     -0.00026852        -0.891543        0.436492
                        0.938828       -0.267701     -0.000254375    -0.000220837        -0.125595        0.118435      0.000239448     5.62398e-05
                     0.000131806     0.000367693        -0.891667        0.436072       0.00016572     8.06257e-05        -0.105638       0.0466195
281701.1                0.163471       0.0354783     -4.02672e-07    -0.000329829         0.938363       -0.267719       0.00010788     0.000408075
                    -4.11901e-05    -0.000177948         0.101353      -0.0547722     -0.000226193    -0.000268515        -0.891531        0.436516
                        0.938819       -0.267734     -0.000254385    -0.000220821         -0.12559        0.118434      0.000239449     5.62355e-05
                     0.000131828     0.000367684        -0.891656        0.436096      0.000165726     8.06262e-05        -0.105637       0.0466191
281701.2                0.163469        0.035468     -4.21358e-07    -0.000329818         0.938354       -0.267752      0.000107894     0.000408072
                    -4.12124e-05    -0.000177943         0.101349      -0.0547767     -0.000226204    -0.000268509         -0.89152         0.43654
                        0.938811       -0.267766     -0.000254394    -0.000220805        -0.125586        0.118433       0.00023945     5.62311e-05
                     0.000131851     0.000367675        -0.891644         0.43612      0.000165733     8.06267e-05        -0.105635       0.0466186
281701.3                0.163467       0.0354577     -4.40044e-07    -0.000329808         0.938345       -0.267784      0.000107908     0.000408069
                    -4.12347e-05    -0.000177938         0.101345      -0.0547813     -0.000226214    -0.000268504        -0.891508        0.436564
                        0.938802       -0.267799     -0.000254404    -0.000220789        -0.125582        0.118432      0.000239452     5.62268e-05
                     0.000131873     0.000367666        -0.891633        0.436144      0.000165739     8.06272e-05        -0.105634       0.0466182
281701.4                0.163466       0.0354475     -4.58729e-07    -0.000329797         0.938337       -0.267817      0.000107923     0.000408066
                     -4.1257e-05    -0.000177933         0.101341      -0.0547859     -0.000226225    -0.000268498        -0.891497        0.436588
                        0.938793       -0.267832     -0.000254414    -0.000220774        -0.125578         0.11843      0.000239453     5.62224e-05
                     0.000131895     0.000367657        -0.891621        0.436168      0.000165745     8.06277e-05        -0.105632       0.0466178
281701.5                0.163464       0.0354372     -4.77413e-07    -0.000329787         0.938328        -0.26785      0.000107937     0.000408063
                    -4.12793e-05    -0.000177929         0.101337      -0.0547904     -0.000226235    -0.000268493        -0.891485        0.436612
                        0.938785       -0.267865     -0.000254424    -0.000220758        -0.125573        0.118429      0.000239454     5.62181e-05
                     0.000131918     0.000367648         -0.89161        0.436192      0.000165751     8.06282e-05        -0.105631       0.0466174
281701.6                0.163462        0.035427     -4.96095e-07    -0.000329776          0.93832       -0.267883      0.000107951      0.00040806
                    -4.13016e-05    -0.000177924         0.101332       -0.054795     -0.000226245    -0.000268487        -0.891474        0.436636
                        0.938776       -0.267898     -0.000254433    -0.000220742        -0.125569        0.118428      0.000239456     5.62137e-05
                      0.00013194     0.000367639        -0.891598        0.436216      0.000165757     8.06287e-05        -0.105629       0.0466169
281701.7                 0.16346       0.0354167     -5.14777e-07    -0.000329766         0.938311       -0.267916      0.000107966     0.000408057
                    -4.13239e-05    -0.000177919         0.101328      -0.0547996     -0.000226256    -0.000268482        -0.891462         0.43666
                        0.938767       -0.267931     -0.000254443    -0.000220726        -0.125565        0.118427      0.000239457     5.62094e-05
                     0.000131963      0.00036763        -0.891587         0.43624      0.000165763     8.06292e-05        -0.105628       0.0466165
281701.8                0.163458       0.0354064     -5.33458e-07    -0.000329755         0.938302       -0.267949       0.00010798     0.000408054
                    -4.13462e-05    -0.000177914         0.101324      -0.0548041     -0.000226266    -0.000268477        -0.891451        0.436684
                        0.938759       -0.267964     -0.000254453     -0.00022071         -0.12556        0.118426      0.000239459      5.6205e-05
                     0.000131985     0.000367621        -0.891575        0.436264       0.00016577     8.06297e-05        -0.105627       0.0466161
281701.9                0.163457       0.0353962     -5.52137e-07    -0.000329744         0.938294       -0.267981      0.000107994     0.000408051
                    -4.13685e-05    -0.000177909          0.10132      -0.0548087     -0.000226276    -0.000268471        -0.891439        0.436708
                         0.93875       -0.267996     -0.000254463    -0.000220694        -0.125556        0.118425       0.00023946     5.62007e-05
                     0.000132007     0.000367612        -0.891564        0.436288      0.000165776     8.06302e-05        -0.105625       0.0466156
281702                  0.163455       0.0353859     -5.70816e-07    -0.000329734         0.938285       -0.268014      0.000108008     0.000408048
                    -4.13908e-05    -0.000177904         0.101316      -0.0548132     -0.000226287    -0.000268466        -0.891428        0.436732
                        0.938741       -0.268029     -0.000254472    -0.000220678        -0.125552        0.118424      0.000239461     5.61964e-05
                      0.00013203     0.000367603        -0.891552        0.436312      0.000165782     8.06307e-05        -0.105624       0.0466152
281702.1                0.163453       0.0353757     -5.89493e-07    -0.000329723         0.938276       -0.268047      0.000108023     0.000408045
                    -4.14132e-05    -0.000177899         0.101312      -0.0548178     -0.000226297     -0.00026846        -0.891416        0.436756
                        0.938733       -0.268062     -0.000254482    -0.000220662        -0.125548        0.118422      0.000239463      5.6192e-05
                     0.000132052     0.000367594        -0.891541        0.436336      0.000165788     8.06312e-05        -0.105622       0.0466148
281702.2                0.163451       0.0353654      -6.0817e-07    -0.000329713         0.938268        -0.26808      0.000108037     0.000408042
                    -4.14355e-05    -0.000177894         0.101307      -0.0548224     -0.000226307    -0.000268455        -0.891404         0.43678
                        0.938724       -0.268095     -0.000254492    -0.000220647        -0.125543        0.118421      0.000239464     5.61877e-05
                     0.000132074     0.000367585        -0.891529         0.43636      0.000165794     8.06317e-05        -0.105621       0.0466144
281702.3                 0.16345       0.0353551     -6.26845e-07    -0.000329702         0.938259       -0.268113      0.000108051     0.000408039
                    -4.14578e-05    -0.000177889         0.101303      -0.0548269     -0.000226318    -0.000268449        -0.891393        0.436804
                        0.938715       -0.268128     -0.000254501    -0.000220631        -0.125539         0.11842      0.000239465     5.61833e-05
                     0.000132097     0.000367576        -0.891518        0.436384        0.0001658     8.06323e-05        -0.105619       0.0466139
281702.4                0.163448       0.0353449      -6.4552e-07    -0.000329691          0.93825       -0.268146      0.000108066     0.000408036
                    -4.14801e-05    -0.000177884         0.101299      -0.0548315     -0.000226328    -0.000268444        -0.891381        0.436827
                        0.938707       -0.268161     -0.000254511    -0.000220615        -0.125535        0.118419      0.000239467      5.6179e-05
                     0.000132119     0.000367567        -0.891506        0.436408      0.000165807     8.06328e-05        -0.105618       0.0466135
281702.5                0.163446       0.0353346     -6.64193e-07    -0.000329681         0.938242       -0.268179       0.00010808     0.000408033
                    -4.15024e-05    -0.000177879         0.101295       -0.054836     -0.000226338    -0.000268438         -0.89137        0.436851
                        0.938698       -0.268193     -0.000254521    -0.000220599         -0.12553        0.118418      0.000239468     5.61746e-05
                     0.000132141     0.000367558        -0.891495        0.436432      0.000165813     8.06333e-05        -0.105616       0.0466131
281702.6                0.163444       0.0353244     -6.82866e-07     -0.00032967         0.938233       -0.268211      0.000108094      0.00040803
                    -4.15247e-05    -0.000177875         0.101291      -0.0548406     -0.000226349    -0.000268433        -0.891358        0.436875
                        0.938689       -0.268226     -0.000254531    -0.000220583        -0.125526        0.118417       0.00023947     5.61703e-05
                     0.000132164     0.000367549        -0.891483        0.436456      0.000165819     8.06338e-05        -0.105615       0.0466126
281702.7                0.163442       0.0353141     -7.01537e-07     -0.00032966         0.938224       -0.268244      0.000108109     0.000408027
                    -4.15471e-05     -0.00017787         0.101287      -0.0548452     -0.000226359    -0.000268428        -0.891347        0.436899
                        0.938681       -0.268259      -0.00025454    -0.000220567        -0.125522        0.118416      0.000239471     5.61659e-05
                     0.000132186      0.00036754        -0.891471         0.43648      0.000165825     8.06343e-05        -0.105614       0.0466122
281702.8                0.163441       0.0353039     -7.20207e-07    -0.000329649         0.938216       -0.268277      0.000108123     0.000408024
                    -4.15694e-05    -0.000177865         0.101282      -0.0548497     -0.000226369    -0.000268422        -0.891335        0.436923
                        0.938672       -0.268292      -0.00025455    -0.000220551        -0.125518        0.118415      0.000239472     5.61616e-05
                     0.000132208     0.000367531         -0.89146        0.436503      0.000165831     8.06348e-05        -0.105612       0.0466118
281702.9                0.163439       0.0352936     -7.38877e-07    -0.000329638         0.938207        -0.26831      0.000108137     0.000408021
                    -4.15917e-05     -0.00017786         0.101278      -0.0548543      -0.00022638    -0.000268417        -0.891324        0.436947
                        0.938663       -0.268325      -0.00025456    -0.000220535        -0.125513        0.118413      0.000239474     5.61572e-05
                     0.000132231     0.000367522        -0.891448        0.436527      0.000165837     8.06353e-05        -0.105611       0.0466114
281703                  0.163437       0.0352833     -7.57545e-07    -0.000329628         0.938198       -0.268343      0.000108151     0.000408018
                     -4.1614e-05    -0.000177855         0.101274      -0.0548588      -0.00022639    -0.000268411        -0.891312        0.436971
                        0.938655       -0.268357     -0.000254569    -0.000220519        -0.125509        0.118412      0.000239475     5.61528e-05
                     0.000132253     0.000367513        -0.891437        0.436551      0.000165843     8.06359e-05        -0.105609       0.0466109
281703.1                0.163435       0.0352731     -7.76212e-07    -0.000329617         0.938189       -0.268376      0.000108166     0.000408015
                    -4.16364e-05     -0.00017785          0.10127      -0.0548634       -0.0002264    -0.000268406          -0.8913        0.436995
                        0.938646        -0.26839     -0.000254579    -0.000220504        -0.125505        0.118411      0.000239476     5.61485e-05
