! TOUCHSTONE file generated by CST MICROWAVE STUDIO
! Date and time: Wed Oct  8 06:55:33 2025
! Project name: Teste_Macro_Metasurface_Nanopilar.cst
! Parameters = {H=600; L_x=110; L_y=120; Lambda=1064; Max_L=200; Min_L=70; PathPara=1; Phi=0; Step_L=10; Theta=0; p=520; phaseX=180; phaseY=0}
! Header version: 2018
! Port assignment regex: !\s*Touchstone port\s*([0-9]+)\s*=\s*(CST MWS port|CST DS port)\s*([0-9]+|Zmin|Zmax)\s*\(\"(.*)\"\)(\s*mode\s*([0-9]+))?.*
! Touchstone port assignment:
! Touchstone port 1 = CST MWS port Zmax ("") mode 1
! Touchstone port 2 = CST MWS port Zmax ("") mode 2
! Touchstone port 3 = CST MWS port Zmin ("") mode 1
! Touchstone port 4 = CST MWS port Zmin ("") mode 2
! S-Parameters are not renormalized. Each port impedance will be approximated by the real part at minimum frequency. The values are described via the [Reference] keyword.
! Default impedance is overridden by [Reference]
[Version] 2.0
# GHz S RI R 376.73
[Number of Ports] 4
[Reference]
376.73 376.73 376.73 376.73 
[Number of Frequencies] 1001
[Network Data]
281700                   0.03145        0.121196     -9.23559e-05     0.000110859         0.967378        0.172168      0.000459364    -0.000321995
                     -0.00010943     0.000231155        -0.205802        0.103161       -0.0001633    -0.000362865         0.559735        0.786877
                        0.966898        0.172157      6.91238e-05    -0.000599777       -0.0766061        0.103253      0.000114287     0.000246188
                     0.000443051    -0.000341197         0.559745        0.786715      7.25209e-06    -8.99895e-05        -0.166905         0.15977
281700.1               0.0314555        0.121189     -9.23462e-05     0.000110859         0.967384        0.172134      0.000459356    -0.000322011
                    -0.000109396     0.000231136        -0.205795        0.103167     -0.000163295    -0.000362837         0.559761        0.786859
                        0.966905        0.172123       6.9106e-05    -0.000599783       -0.0766015         0.10325      0.000114291     0.000246177
                     0.000443031    -0.000341203         0.559771        0.786697       7.2217e-06    -8.99831e-05        -0.166897        0.159772
281700.2               0.0314609        0.121182     -9.23365e-05     0.000110859         0.967391          0.1721      0.000459348    -0.000322027
                    -0.000109361     0.000231117        -0.205788        0.103172      -0.00016329     -0.00036281         0.559787        0.786842
                        0.966911        0.172089      6.90882e-05    -0.000599788       -0.0765969        0.103247      0.000114294     0.000246165
                      0.00044301    -0.000341209         0.559797        0.786679      7.19132e-06    -8.99767e-05        -0.166889        0.159774
281700.3               0.0314664        0.121175     -9.23267e-05     0.000110859         0.967398        0.172066       0.00045934    -0.000322043
                    -0.000109326     0.000231097        -0.205781        0.103178     -0.000163285    -0.000362782         0.559813        0.786824
                        0.966918        0.172055      6.90704e-05    -0.000599793       -0.0765923        0.103243      0.000114298     0.000246154
                      0.00044299    -0.000341215         0.559823        0.786662      7.16094e-06    -8.99703e-05        -0.166882        0.159777
281700.4               0.0314719        0.121168      -9.2317e-05     0.000110858         0.967405        0.172032      0.000459332    -0.000322058
                    -0.000109292     0.000231078        -0.205774        0.103184      -0.00016328    -0.000362755          0.55984        0.786807
                        0.966925        0.172021      6.90526e-05    -0.000599799       -0.0765877         0.10324      0.000114302     0.000246143
                      0.00044297     -0.00034122          0.55985        0.786644      7.13056e-06    -8.99638e-05        -0.166874        0.159779
281700.5               0.0314773        0.121161     -9.23073e-05     0.000110858         0.967411        0.171997      0.000459324    -0.000322074
                    -0.000109257     0.000231059        -0.205767        0.103189     -0.000163275    -0.000362727         0.559866        0.786789
                        0.966932        0.171987      6.90348e-05    -0.000599804       -0.0765831        0.103237      0.000114305     0.000246131
                      0.00044295    -0.000341226         0.559876        0.786627      7.10019e-06    -8.99574e-05        -0.166867        0.159781
281700.6               0.0314828        0.121153     -9.22975e-05     0.000110858         0.967418        0.171963      0.000459316     -0.00032209
                    -0.000109222      0.00023104         -0.20576        0.103195      -0.00016327      -0.0003627         0.559892        0.786771
                        0.966938        0.171953       6.9017e-05    -0.000599809       -0.0765785        0.103233      0.000114309      0.00024612
                      0.00044293    -0.000341232         0.559902        0.786609      7.06982e-06     -8.9951e-05        -0.166859        0.159783
281700.7               0.0314882        0.121146     -9.22878e-05     0.000110858         0.967425        0.171929      0.000459308    -0.000322105
                    -0.000109188     0.000231021        -0.205752          0.1032     -0.000163266    -0.000362672         0.559919        0.786754
                        0.966945        0.171919      6.89991e-05    -0.000599815       -0.0765739         0.10323      0.000114312     0.000246108
                      0.00044291    -0.000341238         0.559929        0.786591      7.03946e-06    -8.99446e-05        -0.166852        0.159785
281700.8               0.0314937        0.121139     -9.22781e-05     0.000110858         0.967432        0.171895        0.0004593    -0.000322121
                    -0.000109153     0.000231001        -0.205745        0.103206     -0.000163261    -0.000362645         0.559945        0.786736
                        0.966952        0.171885      6.89813e-05     -0.00059982       -0.0765693        0.103226      0.000114316     0.000246097
                      0.00044289    -0.000341243         0.559955        0.786574       7.0091e-06    -8.99382e-05        -0.166844        0.159788
281700.9               0.0314992        0.121132     -9.22683e-05     0.000110858         0.967438        0.171861      0.000459292    -0.000322137
                    -0.000109118     0.000230982        -0.205738        0.103211     -0.000163256    -0.000362617         0.559971        0.786719
                        0.966959        0.171851      6.89635e-05    -0.000599826       -0.0765647        0.103223      0.000114319     0.000246086
                      0.00044287    -0.000341249         0.559981        0.786556      6.97874e-06    -8.99318e-05        -0.166837         0.15979
281701                 0.0315046        0.121125     -9.22586e-05     0.000110858         0.967445        0.171827      0.000459284    -0.000322153
                    -0.000109084     0.000230963        -0.205731        0.103217     -0.000163251     -0.00036259         0.559997        0.786701
                        0.966965        0.171817      6.89457e-05    -0.000599831       -0.0765601         0.10322      0.000114323     0.000246074
                      0.00044285    -0.000341255         0.560007        0.786538      6.94838e-06    -8.99253e-05        -0.166829        0.159792
281701.1               0.0315101        0.121118     -9.22489e-05     0.000110858         0.967452        0.171793      0.000459276    -0.000322168
                    -0.000109049     0.000230944        -0.205724        0.103223     -0.000163246    -0.000362562         0.560024        0.786683
                        0.966972        0.171783      6.89279e-05    -0.000599836       -0.0765555        0.103216      0.000114327     0.000246063
                      0.00044283    -0.000341261         0.560034        0.786521      6.91803e-06    -8.99189e-05        -0.166822        0.159794
281701.2               0.0315155        0.121111     -9.22391e-05     0.000110858         0.967459        0.171759      0.000459267    -0.000322184
                    -0.000109015     0.000230924        -0.205717        0.103228     -0.000163241    -0.000362535          0.56005        0.786666
                        0.966979        0.171749      6.89101e-05    -0.000599842       -0.0765509        0.103213       0.00011433     0.000246051
                      0.00044281    -0.000341266          0.56006        0.786503      6.88768e-06    -8.99125e-05        -0.166814        0.159796
281701.3                0.031521        0.121104     -9.22294e-05     0.000110858         0.967465        0.171725      0.000459259      -0.0003222
                     -0.00010898     0.000230905         -0.20571        0.103234     -0.000163236    -0.000362507         0.560076        0.786648
                        0.966986        0.171715      6.88923e-05    -0.000599847       -0.0765463         0.10321      0.000114334      0.00024604
                      0.00044279    -0.000341272         0.560086        0.786486      6.85734e-06    -8.99061e-05        -0.166807        0.159799
281701.4               0.0315264        0.121096     -9.22196e-05     0.000110858         0.967472        0.171691      0.000459251    -0.000322215
                    -0.000108945     0.000230886        -0.205702        0.103239     -0.000163231     -0.00036248         0.560102        0.786631
                        0.966992         0.17168      6.88745e-05    -0.000599852       -0.0765417        0.103206      0.000114337     0.000246029
                      0.00044277    -0.000341278         0.560112        0.786468      6.82699e-06    -8.98997e-05        -0.166799        0.159801
281701.5               0.0315319        0.121089     -9.22099e-05     0.000110858         0.967479        0.171657      0.000459243    -0.000322231
                    -0.000108911     0.000230867        -0.205695        0.103245     -0.000163226    -0.000362453         0.560129        0.786613
                        0.966999        0.171646      6.88567e-05    -0.000599858       -0.0765371        0.103203      0.000114341     0.000246017
                      0.00044275    -0.000341284         0.560139         0.78645      6.79666e-06    -8.98933e-05        -0.166792        0.159803
281701.6               0.0315373        0.121082     -9.22002e-05     0.000110858         0.967486        0.171623      0.000459235    -0.000322247
                    -0.000108876     0.000230847        -0.205688         0.10325     -0.000163221    -0.000362425         0.560155        0.786595
                        0.967006        0.171612      6.88389e-05    -0.000599863       -0.0765325        0.103199      0.000114344     0.000246006
                      0.00044273    -0.000341289         0.560165        0.786433      6.76632e-06    -8.98869e-05        -0.166784        0.159805
281701.7               0.0315428        0.121075     -9.21904e-05     0.000110857         0.967492        0.171589      0.000459227    -0.000322263
                    -0.000108842     0.000230828        -0.205681        0.103256     -0.000163217    -0.000362398         0.560181        0.786578
                        0.967013        0.171578      6.88211e-05    -0.000599868       -0.0765279        0.103196      0.000114348     0.000245994
                      0.00044271    -0.000341295         0.560191        0.786415      6.73599e-06    -8.98805e-05        -0.166776        0.159808
281701.8               0.0315482        0.121068     -9.21807e-05     0.000110857         0.967499        0.171555      0.000459219    -0.000322278
                    -0.000108807     0.000230808        -0.205674        0.103261     -0.000163212     -0.00036237         0.560208         0.78656
                        0.967019        0.171544      6.88033e-05    -0.000599874       -0.0765233        0.103193      0.000114352     0.000245983
                      0.00044269    -0.000341301         0.560217        0.786398      6.70566e-06     -8.9874e-05        -0.166769         0.15981
281701.9               0.0315537        0.121061     -9.21709e-05     0.000110857         0.967506        0.171521      0.000459211    -0.000322294
                    -0.000108773     0.000230789        -0.205667        0.103267     -0.000163207    -0.000362343         0.560234        0.786542
                        0.967026         0.17151      6.87855e-05    -0.000599879       -0.0765187        0.103189      0.000114355     0.000245971
                      0.00044267    -0.000341306         0.560244         0.78638      6.67534e-06    -8.98676e-05        -0.166761        0.159812
281702                 0.0315592        0.121054     -9.21612e-05     0.000110857         0.967512        0.171486      0.000459203     -0.00032231
                    -0.000108738      0.00023077        -0.205659        0.103273     -0.000163202    -0.000362315          0.56026        0.786525
                        0.967033        0.171476      6.87677e-05    -0.000599884       -0.0765141        0.103186      0.000114359      0.00024596
                      0.00044265    -0.000341312          0.56027        0.786362      6.64501e-06    -8.98612e-05        -0.166754        0.159814
281702.1               0.0315646        0.121047     -9.21514e-05     0.000110857         0.967519        0.171452      0.000459195    -0.000322325
                    -0.000108703      0.00023075        -0.205652        0.103278     -0.000163197    -0.000362288         0.560286        0.786507
                         0.96704        0.171442      6.87499e-05     -0.00059989       -0.0765095        0.103183      0.000114362     0.000245949
                      0.00044263    -0.000341318         0.560296        0.786345       6.6147e-06    -8.98548e-05        -0.166746        0.159816
281702.2               0.0315701        0.121039     -9.21417e-05     0.000110857         0.967526        0.171418      0.000459187    -0.000322341
                    -0.000108669     0.000230731        -0.205645        0.103284     -0.000163192     -0.00036226         0.560313         0.78649
                        0.967046        0.171408      6.87321e-05    -0.000599895       -0.0765049        0.103179      0.000114366     0.000245937
                     0.000442609    -0.000341323         0.560322        0.786327      6.58438e-06    -8.98484e-05        -0.166739        0.159819
281702.3               0.0315755        0.121032      -9.2132e-05     0.000110857         0.967533        0.171384      0.000459179    -0.000322357
                    -0.000108634     0.000230712        -0.205638        0.103289     -0.000163187    -0.000362233         0.560339        0.786472
                        0.967053        0.171374      6.87143e-05      -0.0005999       -0.0765003        0.103176      0.000114369     0.000245926
                     0.000442589    -0.000341329         0.560349        0.786309      6.55407e-06     -8.9842e-05        -0.166731        0.159821
281702.4                0.031581        0.121025     -9.21222e-05     0.000110857         0.967539         0.17135      0.000459171    -0.000322373
                      -0.0001086     0.000230692        -0.205631        0.103295     -0.000163182    -0.000362205         0.560365        0.786454
                         0.96706         0.17134      6.86964e-05    -0.000599906       -0.0764957        0.103172      0.000114373     0.000245914
                     0.000442569    -0.000341335         0.560375        0.786292      6.52376e-06    -8.98356e-05        -0.166724        0.159823
281702.5               0.0315864        0.121018     -9.21125e-05     0.000110857         0.967546        0.171316      0.000459163    -0.000322388
                    -0.000108565     0.000230673        -0.205624          0.1033     -0.000163177    -0.000362178         0.560391        0.786437
                        0.967066        0.171306      6.86786e-05    -0.000599911       -0.0764911        0.103169      0.000114377     0.000245903
                     0.000442549     -0.00034134         0.560401        0.786274      6.49346e-06    -8.98292e-05        -0.166716        0.159825
281702.6               0.0315919        0.121011     -9.21027e-05     0.000110857         0.967553        0.171282      0.000459155    -0.000322404
                    -0.000108531     0.000230653        -0.205617        0.103306     -0.000163172     -0.00036215         0.560418        0.786419
                        0.967073        0.171272      6.86608e-05    -0.000599916       -0.0764865        0.103166       0.00011438     0.000245892
                     0.000442529    -0.000341346         0.560428        0.786257      6.46316e-06    -8.98228e-05        -0.166709        0.159827
281702.7               0.0315973        0.121004     -9.20929e-05     0.000110857         0.967559        0.171248      0.000459147     -0.00032242
                    -0.000108496     0.000230634        -0.205609        0.103312     -0.000163167    -0.000362123         0.560444        0.786401
                         0.96708        0.171238       6.8643e-05    -0.000599922       -0.0764819        0.103162      0.000114384      0.00024588
                     0.000442509    -0.000341352         0.560454        0.786239      6.43286e-06    -8.98164e-05        -0.166701         0.15983
281702.8               0.0316028        0.120997     -9.20832e-05     0.000110857         0.967566        0.171214      0.000459139    -0.000322435
                    -0.000108462     0.000230614        -0.205602        0.103317     -0.000163162    -0.000362096          0.56047        0.786384
                        0.967087        0.171204      6.86252e-05    -0.000599927       -0.0764773        0.103159      0.000114387     0.000245869
                     0.000442489    -0.000341357          0.56048        0.786221      6.40256e-06      -8.981e-05        -0.166694        0.159832
281702.9               0.0316082         0.12099     -9.20734e-05     0.000110857         0.967573         0.17118      0.000459131    -0.000322451
                    -0.000108427     0.000230595        -0.205595        0.103323     -0.000163157    -0.000362068         0.560496        0.786366
                        0.967093         0.17117      6.86074e-05    -0.000599932       -0.0764727        0.103156      0.000114391     0.000245857
                     0.000442469    -0.000341363         0.560506        0.786204      6.37227e-06    -8.98036e-05        -0.166686        0.159834
281703                 0.0316137        0.120982     -9.20637e-05     0.000110856          0.96758        0.171146      0.000459123    -0.000322467
                    -0.000108393     0.000230575        -0.205588        0.103328     -0.000163152    -0.000362041         0.560523        0.786349
                          0.9671        0.171136      6.85896e-05    -0.000599938       -0.0764681        0.103152      0.000114394     0.000245846
                     0.000442449    -0.000341369         0.560533        0.786186      6.34199e-06    -8.97972e-05        -0.166678        0.159836
281703.1               0.0316191        0.120975     -9.20539e-05     0.000110856         0.967586        0.171112      0.000459114    -0.000322483
                    -0.000108358     0.000230556        -0.205581        0.103334     -0.000163147    -0.000362013         0.560549        0.786331
                        0.967107        0.171101      6.85718e-05    -0.000599943       -0.0764635        0.103149      0.000114398     0.000245834
