! TOUCHSTONE file generated by CST MICROWAVE STUDIO
! Date and time: Wed Oct  8 06:52:24 2025
! Project name: Teste_Macro_Metasurface_Nanopilar.cst
! Parameters = {H=600; L_x=85; L_y=80; Lambda=1064; Max_L=200; Min_L=70; PathPara=1; Phi=0; Step_L=10; Theta=0; p=520; phaseX=180; phaseY=0}
! Header version: 2018
! Port assignment regex: !\s*Touchstone port\s*([0-9]+)\s*=\s*(CST MWS port|CST DS port)\s*([0-9]+|Zmin|Zmax)\s*\(\"(.*)\"\)(\s*mode\s*([0-9]+))?.*
! Touchstone port assignment:
! Touchstone port 1 = CST MWS port Zmax ("") mode 1
! Touchstone port 2 = CST MWS port Zmax ("") mode 2
! Touchstone port 3 = CST MWS port Zmin ("") mode 1
! Touchstone port 4 = CST MWS port Zmin ("") mode 2
! S-Parameters are not renormalized. Each port impedance will be approximated by the real part at minimum frequency. The values are described via the [Reference] keyword.
! Default impedance is overridden by [Reference]
[Version] 2.0
# GHz S RI R 376.73
[Number of Ports] 4
[Reference]
376.73 376.73 376.73 376.73 
[Number of Frequencies] 1001
[Network Data]
281700                  0.120175       0.0319094     -0.000238152    -8.14513e-05        -0.965961          0.2256      7.59543e-05    -0.000125141
                     -0.00035963    -4.72555e-05         0.117467       0.0104777     -9.59645e-05     -5.5387e-05        -0.954109         0.27396
                       -0.965947        0.225592     -9.82313e-05    -5.71947e-05       -0.0938172       0.0819299      0.000150714    -0.000157583
                     0.000125779    -0.000110761        -0.954037        0.273653      0.000230814    -0.000217301       -0.0942847       0.0712001
281700.1                0.120174       0.0319035     -0.000238152    -8.14392e-05        -0.965956        0.225626      7.59539e-05    -0.000125143
                    -0.000359627     -4.7245e-05         0.117465       0.0104719     -9.59642e-05    -5.53849e-05        -0.954102        0.273985
                       -0.965942        0.225617     -9.82352e-05     -5.7196e-05       -0.0938143        0.081929      0.000150706     -0.00015758
                     0.000125776     -0.00011077         -0.95403        0.273679      0.000230802    -0.000217306       -0.0942823       0.0711993
281700.2                0.120172       0.0318976     -0.000238152    -8.14271e-05         -0.96595        0.225652      7.59536e-05    -0.000125146
                    -0.000359624    -4.72345e-05         0.117463       0.0104662     -9.59639e-05    -5.53828e-05        -0.954095        0.274011
                       -0.965936        0.225643     -9.82391e-05    -5.71972e-05       -0.0938115       0.0819281      0.000150698    -0.000157577
                     0.000125772    -0.000110779        -0.954023        0.273704      0.000230789    -0.000217311       -0.0942799       0.0711984
281700.3                0.120171       0.0318916     -0.000238152     -8.1415e-05        -0.965944        0.225677      7.59532e-05    -0.000125148
                    -0.000359621     -4.7224e-05         0.117461       0.0104605     -9.59636e-05    -5.53808e-05        -0.954088        0.274036
                        -0.96593        0.225669      -9.8243e-05    -5.71985e-05       -0.0938087       0.0819272       0.00015069    -0.000157574
                     0.000125768    -0.000110788        -0.954016        0.273729      0.000230777    -0.000217316       -0.0942775       0.0711975
281700.4                 0.12017       0.0318857     -0.000238152    -8.14029e-05        -0.965939        0.225703      7.59528e-05     -0.00012515
                    -0.000359618    -4.72134e-05         0.117459       0.0104548     -9.59632e-05    -5.53787e-05        -0.954081        0.274062
                       -0.965925        0.225695      -9.8247e-05    -5.71997e-05       -0.0938058       0.0819263      0.000150682    -0.000157571
                     0.000125765    -0.000110797        -0.954009        0.273755      0.000230765     -0.00021732       -0.0942751       0.0711966
281700.5                0.120169       0.0318798     -0.000238152    -8.13908e-05        -0.965933        0.225729      7.59524e-05    -0.000125152
                    -0.000359615    -4.72029e-05         0.117458        0.010449     -9.59629e-05    -5.53766e-05        -0.954074        0.274087
                       -0.965919         0.22572     -9.82509e-05     -5.7201e-05        -0.093803       0.0819254      0.000150675    -0.000157568
                     0.000125761    -0.000110806        -0.954002         0.27378      0.000230752    -0.000217325       -0.0942727       0.0711957
281700.6                0.120168       0.0318739     -0.000238152    -8.13787e-05        -0.965927        0.225754      7.59521e-05    -0.000125154
                    -0.000359611    -4.71924e-05         0.117456       0.0104433     -9.59626e-05    -5.53745e-05        -0.954067        0.274113
                       -0.965913        0.225746     -9.82548e-05    -5.72023e-05       -0.0938001       0.0819245      0.000150667    -0.000157566
                     0.000125757    -0.000110816        -0.953995        0.273806       0.00023074     -0.00021733       -0.0942703       0.0711948
281700.7                0.120166       0.0318679     -0.000238152    -8.13666e-05        -0.965922         0.22578      7.59517e-05    -0.000125157
                    -0.000359608    -4.71819e-05         0.117454       0.0104376     -9.59623e-05    -5.53725e-05         -0.95406        0.274138
                       -0.965908        0.225772     -9.82587e-05    -5.72035e-05       -0.0937973       0.0819236      0.000150659    -0.000157563
                     0.000125754    -0.000110825        -0.953988        0.273831      0.000230727    -0.000217335       -0.0942678        0.071194
281700.8                0.120165        0.031862     -0.000238152    -8.13545e-05        -0.965916        0.225806      7.59513e-05    -0.000125159
                    -0.000359605    -4.71714e-05         0.117452       0.0104319      -9.5962e-05    -5.53704e-05        -0.954053        0.274163
                       -0.965902        0.225797     -9.82626e-05    -5.72048e-05       -0.0937945       0.0819227      0.000150651     -0.00015756
                      0.00012575    -0.000110834        -0.953981        0.273857      0.000230715     -0.00021734       -0.0942654       0.0711931
281700.9                0.120164       0.0318561     -0.000238152    -8.13424e-05         -0.96591        0.225831      7.59509e-05    -0.000125161
                    -0.000359602    -4.71609e-05          0.11745       0.0104261     -9.59617e-05    -5.53683e-05        -0.954046        0.274189
                       -0.965896        0.225823     -9.82665e-05     -5.7206e-05       -0.0937916       0.0819218      0.000150643    -0.000157557
                     0.000125746    -0.000110843        -0.953974        0.273882      0.000230703    -0.000217345        -0.094263       0.0711922
281701                  0.120163       0.0318501     -0.000238152    -8.13303e-05        -0.965905        0.225857      7.59506e-05    -0.000125163
                    -0.000359599    -4.71504e-05         0.117448       0.0104204     -9.59614e-05    -5.53662e-05        -0.954039        0.274214
                       -0.965891        0.225849     -9.82704e-05    -5.72073e-05       -0.0937888       0.0819209      0.000150636    -0.000157554
                     0.000125743    -0.000110852        -0.953967        0.273908       0.00023069     -0.00021735       -0.0942606       0.0711913
281701.1                0.120161       0.0318442     -0.000238152    -8.13182e-05        -0.965899        0.225883      7.59502e-05    -0.000125166
                    -0.000359596    -4.71399e-05         0.117446       0.0104147     -9.59611e-05    -5.53642e-05        -0.954032         0.27424
                       -0.965885        0.225874     -9.82744e-05    -5.72085e-05        -0.093786         0.08192      0.000150628    -0.000157551
                     0.000125739    -0.000110861         -0.95396        0.273933      0.000230678    -0.000217354       -0.0942582       0.0711904
281701.2                 0.12016       0.0318383     -0.000238152    -8.13061e-05        -0.965893        0.225909      7.59498e-05    -0.000125168
                    -0.000359592    -4.71294e-05         0.117444        0.010409     -9.59608e-05    -5.53621e-05        -0.954025        0.274265
                       -0.965879          0.2259     -9.82783e-05    -5.72098e-05       -0.0937831       0.0819191       0.00015062    -0.000157549
                     0.000125735     -0.00011087        -0.953953        0.273959      0.000230666    -0.000217359       -0.0942558       0.0711896
281701.3                0.120159       0.0318323     -0.000238152     -8.1294e-05        -0.965888        0.225934      7.59494e-05     -0.00012517
                    -0.000359589    -4.71189e-05         0.117442       0.0104032     -9.59605e-05      -5.536e-05        -0.954018        0.274291
                       -0.965874        0.225926     -9.82822e-05    -5.72111e-05       -0.0937803       0.0819182      0.000150612    -0.000157546
                     0.000125731    -0.000110879        -0.953946        0.273984      0.000230653    -0.000217364       -0.0942534       0.0711887
281701.4                0.120158       0.0318264     -0.000238152    -8.12818e-05        -0.965882         0.22596      7.59491e-05    -0.000125172
                    -0.000359586    -4.71084e-05          0.11744       0.0103975     -9.59602e-05     -5.5358e-05        -0.954011        0.274316
                       -0.965868        0.225951     -9.82861e-05    -5.72123e-05       -0.0937775       0.0819173      0.000150604    -0.000157543
                     0.000125728    -0.000110888        -0.953939         0.27401      0.000230641    -0.000217369        -0.094251       0.0711878
281701.5                0.120156       0.0318205     -0.000238152    -8.12697e-05        -0.965876        0.225986      7.59487e-05    -0.000125174
                    -0.000359583    -4.70979e-05         0.117438       0.0103918     -9.59599e-05    -5.53559e-05        -0.954004        0.274342
                       -0.965862        0.225977       -9.829e-05    -5.72136e-05       -0.0937746       0.0819164      0.000150597     -0.00015754
                     0.000125724    -0.000110897        -0.953932        0.274035      0.000230629    -0.000217374       -0.0942486       0.0711869
281701.6                0.120155       0.0318146     -0.000238152    -8.12576e-05        -0.965871        0.226011      7.59483e-05    -0.000125177
                     -0.00035958    -4.70874e-05         0.117436       0.0103861     -9.59596e-05    -5.53538e-05        -0.953997        0.274367
                       -0.965857        0.226003      -9.8294e-05    -5.72148e-05       -0.0937718       0.0819155      0.000150589    -0.000157537
                      0.00012572    -0.000110906        -0.953925         0.27406      0.000230616    -0.000217379       -0.0942462        0.071186
281701.7                0.120154       0.0318086     -0.000238153    -8.12455e-05        -0.965865        0.226037      7.59479e-05    -0.000125179
                    -0.000359577    -4.70769e-05         0.117434       0.0103803     -9.59593e-05    -5.53517e-05         -0.95399        0.274393
                       -0.965851        0.226028     -9.82979e-05    -5.72161e-05        -0.093769       0.0819146      0.000150581    -0.000157534
                     0.000125717    -0.000110915        -0.953918        0.274086      0.000230604    -0.000217384       -0.0942438       0.0711852
281701.8                0.120153       0.0318027     -0.000238153    -8.12334e-05        -0.965859        0.226063      7.59475e-05    -0.000125181
                    -0.000359573    -4.70664e-05         0.117432       0.0103746     -9.59589e-05    -5.53497e-05        -0.953983        0.274418
                       -0.965845        0.226054     -9.83018e-05    -5.72173e-05       -0.0937661       0.0819137      0.000150573    -0.000157532
                     0.000125713    -0.000110925        -0.953911        0.274111      0.000230592    -0.000217389       -0.0942414       0.0711843
281701.9                0.120151       0.0317968     -0.000238153    -8.12213e-05        -0.965854        0.226088      7.59471e-05    -0.000125183
                     -0.00035957    -4.70559e-05          0.11743       0.0103689     -9.59586e-05    -5.53476e-05        -0.953976        0.274443
                        -0.96584         0.22608     -9.83057e-05    -5.72186e-05       -0.0937633       0.0819128      0.000150566    -0.000157529
                     0.000125709    -0.000110934        -0.953904        0.274137      0.000230579    -0.000217393        -0.094239       0.0711834
281702                   0.12015       0.0317908     -0.000238153    -8.12092e-05        -0.965848        0.226114      7.59468e-05    -0.000125185
                    -0.000359567    -4.70454e-05         0.117428       0.0103632     -9.59583e-05    -5.53455e-05        -0.953969        0.274469
                       -0.965834        0.226106     -9.83096e-05    -5.72198e-05       -0.0937605       0.0819119      0.000150558    -0.000157526
                     0.000125706    -0.000110943        -0.953897        0.274162      0.000230567    -0.000217398       -0.0942365       0.0711825
281702.1                0.120149       0.0317849     -0.000238153    -8.11971e-05        -0.965842         0.22614      7.59464e-05    -0.000125188
                    -0.000359564    -4.70349e-05         0.117426       0.0103574      -9.5958e-05    -5.53434e-05        -0.953962        0.274494
                       -0.965828        0.226131     -9.83136e-05    -5.72211e-05       -0.0937576        0.081911       0.00015055    -0.000157523
                     0.000125702    -0.000110952         -0.95389        0.274188      0.000230554    -0.000217403       -0.0942341       0.0711816
281702.2                0.120148        0.031779     -0.000238153     -8.1185e-05        -0.965837        0.226165       7.5946e-05     -0.00012519
                    -0.000359561    -4.70244e-05         0.117424       0.0103517     -9.59577e-05    -5.53414e-05        -0.953954         0.27452
                       -0.965823        0.226157     -9.83175e-05    -5.72224e-05       -0.0937548       0.0819101      0.000150542     -0.00015752
                     0.000125698    -0.000110961        -0.953883        0.274213      0.000230542    -0.000217408       -0.0942317       0.0711808
281702.3                0.120146       0.0317731     -0.000238153    -8.11728e-05        -0.965831        0.226191      7.59456e-05    -0.000125192
                    -0.000359558    -4.70139e-05         0.117422        0.010346     -9.59574e-05    -5.53393e-05        -0.953947        0.274545
                       -0.965817        0.226183     -9.83214e-05    -5.72236e-05        -0.093752       0.0819092      0.000150534    -0.000157518
                     0.000125695     -0.00011097        -0.953876        0.274239       0.00023053    -0.000217413       -0.0942293       0.0711799
281702.4                0.120145       0.0317671     -0.000238153    -8.11607e-05        -0.965825        0.226217      7.59452e-05    -0.000125194
                    -0.000359555    -4.70034e-05          0.11742       0.0103403     -9.59571e-05    -5.53372e-05         -0.95394        0.274571
                       -0.965811        0.226208     -9.83253e-05    -5.72249e-05       -0.0937491       0.0819083      0.000150527    -0.000157515
                     0.000125691    -0.000110979        -0.953869        0.274264      0.000230517    -0.000217418       -0.0942269        0.071179
281702.5                0.120144       0.0317612     -0.000238153    -8.11486e-05         -0.96582        0.226243      7.59448e-05    -0.000125197
                    -0.000359551     -4.6993e-05         0.117418       0.0103346     -9.59568e-05    -5.53351e-05        -0.953933        0.274596
                       -0.965806        0.226234     -9.83293e-05    -5.72261e-05       -0.0937463       0.0819074      0.000150519    -0.000157512
                     0.000125687    -0.000110988        -0.953862         0.27429      0.000230505    -0.000217423       -0.0942245       0.0711781
281702.6                0.120143       0.0317553     -0.000238153    -8.11365e-05        -0.965814        0.226268      7.59444e-05    -0.000125199
                    -0.000359548    -4.69825e-05         0.117416       0.0103288     -9.59565e-05    -5.53331e-05        -0.953926        0.274622
                         -0.9658         0.22626     -9.83332e-05    -5.72274e-05       -0.0937435       0.0819065      0.000150511    -0.000157509
                     0.000125683    -0.000110997        -0.953855        0.274315      0.000230493    -0.000217427       -0.0942221       0.0711772
281702.7                0.120141       0.0317494     -0.000238153    -8.11244e-05        -0.965808        0.226294       7.5944e-05    -0.000125201
                    -0.000359545     -4.6972e-05         0.117415       0.0103231     -9.59562e-05     -5.5331e-05        -0.953919        0.274647
                       -0.965794        0.226285     -9.83371e-05    -5.72286e-05       -0.0937406       0.0819056      0.000150503    -0.000157507
                      0.00012568    -0.000111006        -0.953848        0.274341       0.00023048    -0.000217432       -0.0942197       0.0711763
281702.8                 0.12014       0.0317434     -0.000238153    -8.11123e-05        -0.965803         0.22632      7.59437e-05    -0.000125203
                    -0.000359542    -4.69615e-05         0.117413       0.0103174     -9.59559e-05    -5.53289e-05        -0.953912        0.274672
                       -0.965789        0.226311     -9.83411e-05    -5.72299e-05       -0.0937378       0.0819047      0.000150496    -0.000157504
                     0.000125676    -0.000111015        -0.953841        0.274366      0.000230468    -0.000217437       -0.0942173       0.0711755
281702.9                0.120139       0.0317375     -0.000238153    -8.11001e-05        -0.965797        0.226345      7.59433e-05    -0.000125205
                    -0.000359539     -4.6951e-05         0.117411       0.0103117     -9.59556e-05    -5.53268e-05        -0.953905        0.274698
                       -0.965783        0.226337      -9.8345e-05    -5.72311e-05        -0.093735       0.0819038      0.000150488    -0.000157501
                     0.000125672    -0.000111025        -0.953834        0.274391      0.000230456    -0.000217442       -0.0942149       0.0711746
281703                  0.120138       0.0317316     -0.000238153     -8.1088e-05        -0.965791        0.226371      7.59429e-05    -0.000125208
                    -0.000359536    -4.69405e-05         0.117409       0.0103059     -9.59553e-05    -5.53248e-05        -0.953898        0.274723
                       -0.965777        0.226362     -9.83489e-05    -5.72324e-05       -0.0937321       0.0819029       0.00015048    -0.000157498
                     0.000125669    -0.000111034        -0.953827        0.274417      0.000230443    -0.000217447       -0.0942125       0.0711737
281703.1                0.120136       0.0317256     -0.000238153    -8.10759e-05        -0.965786        0.226397      7.59425e-05     -0.00012521
                    -0.000359532      -4.693e-05         0.117407       0.0103002     -9.59549e-05    -5.53227e-05        -0.953891        0.274749
                       -0.965772        0.226388     -9.83528e-05    -5.72337e-05       -0.0937293        0.081902      0.000150472    -0.000157495
