! TOUCHSTONE file generated by CST MICROWAVE STUDIO
! Date and time: Wed Oct  8 06:52:25 2025
! Project name: Teste_Macro_Metasurface_Nanopilar.cst
! Parameters = {H=600; L_x=85; L_y=85; Lambda=1064; Max_L=200; Min_L=70; PathPara=1; Phi=0; Step_L=10; Theta=0; p=520; phaseX=180; phaseY=0}
! Header version: 2018
! Port assignment regex: !\s*Touchstone port\s*([0-9]+)\s*=\s*(CST MWS port|CST DS port)\s*([0-9]+|Zmin|Zmax)\s*\(\"(.*)\"\)(\s*mode\s*([0-9]+))?.*
! Touchstone port assignment:
! Touchstone port 1 = CST MWS port Zmax ("") mode 1
! Touchstone port 2 = CST MWS port Zmax ("") mode 2
! Touchstone port 3 = CST MWS port Zmin ("") mode 1
! Touchstone port 4 = CST MWS port Zmin ("") mode 2
! S-Parameters are not renormalized. Each port impedance will be approximated by the real part at minimum frequency. The values are described via the [Reference] keyword.
! Default impedance is overridden by [Reference]
[Version] 2.0
# GHz S RI R 376.73
[Number of Ports] 4
[Reference]
376.73 376.73 376.73 376.73 
[Number of Frequencies] 1001
[Network Data]
281700                  0.120076     -0.00560559      0.000122857     5.43091e-05         -0.94392        0.307589     -0.000125827    -0.000132457
                     0.000272988    -8.65116e-06         0.120385     -0.00664997      2.03306e-05    -0.000227306        -0.943805        0.306806
                       -0.943029        0.307529     -0.000135047    -0.000306624        -0.100522       0.0663452      0.000154549     9.16144e-06
                    -0.000178795    -9.04634e-05        -0.942639        0.307827     -4.55424e-05     0.000248667        -0.101385       0.0656914
281700.1                0.120074     -0.00561123      0.000122869     5.43047e-05        -0.943912        0.307615     -0.000125841    -0.000132458
                     0.000272986    -8.66116e-06         0.120382     -0.00665561      2.03227e-05    -0.000227312        -0.943797        0.306831
                       -0.943021        0.307555     -0.000135071    -0.000306616         -0.10052       0.0663445      0.000154572      9.1655e-06
                    -0.000178801    -9.04533e-05        -0.942631        0.307853     -4.55289e-05      0.00024867        -0.101383       0.0656908
281700.2                0.120071     -0.00561688       0.00012288     5.43002e-05        -0.943904         0.30764     -0.000125856     -0.00013246
                     0.000272984    -8.67117e-06          0.12038     -0.00666125      2.03147e-05    -0.000227319        -0.943789        0.306856
                       -0.943013         0.30758     -0.000135095    -0.000306608        -0.100517       0.0663439      0.000154595     9.16955e-06
                    -0.000178806    -9.04432e-05        -0.942623        0.307878     -4.55153e-05     0.000248673        -0.101381       0.0656901
281700.3                0.120069     -0.00562252      0.000122891     5.42958e-05        -0.943896        0.307665      -0.00012587    -0.000132462
                     0.000272982    -8.68118e-06         0.120377     -0.00666689      2.03068e-05    -0.000227325        -0.943781        0.306881
                       -0.943005        0.307605      -0.00013512      -0.0003066        -0.100515       0.0663432      0.000154619     9.17361e-06
                    -0.000178812     -9.0433e-05        -0.942615        0.307903     -4.55018e-05     0.000248677        -0.101379       0.0656895
281700.4                0.120066     -0.00562817      0.000122902     5.42914e-05        -0.943888         0.30769     -0.000125885    -0.000132463
                      0.00027298    -8.69118e-06         0.120375     -0.00667253      2.02989e-05    -0.000227331        -0.943773        0.306907
                       -0.942997         0.30763     -0.000135144    -0.000306592        -0.100513       0.0663425      0.000154642     9.17767e-06
                    -0.000178817    -9.04229e-05        -0.942607        0.307928     -4.54882e-05      0.00024868        -0.101377       0.0656889
281700.5                0.120064     -0.00563381      0.000122913     5.42869e-05         -0.94388        0.307715       -0.0001259    -0.000132465
                     0.000272978    -8.70119e-06         0.120372     -0.00667817       2.0291e-05    -0.000227338        -0.943765        0.306932
                       -0.942989        0.307656     -0.000135168    -0.000306583        -0.100511       0.0663418      0.000154666     9.18173e-06
                    -0.000178822    -9.04128e-05        -0.942599        0.307953     -4.54746e-05     0.000248683        -0.101374       0.0656882
281700.6                0.120061     -0.00563945      0.000122924     5.42825e-05        -0.943872        0.307741     -0.000125914    -0.000132467
                     0.000272976    -8.71119e-06          0.12037     -0.00668381      2.02831e-05    -0.000227344        -0.943757        0.306957
                       -0.942981        0.307681     -0.000135192    -0.000306575        -0.100508       0.0663412      0.000154689      9.1858e-06
                    -0.000178828    -9.04027e-05        -0.942591        0.307978     -4.54611e-05     0.000248686        -0.101372       0.0656876
281700.7                0.120059      -0.0056451      0.000122935      5.4278e-05        -0.943864        0.307766     -0.000125929    -0.000132468
                     0.000272974     -8.7212e-06         0.120367     -0.00668945      2.02752e-05     -0.00022735         -0.94375        0.306983
                       -0.942973        0.307706     -0.000135217    -0.000306567        -0.100506       0.0663405      0.000154712     9.18986e-06
                    -0.000178833    -9.03926e-05        -0.942583        0.308004     -4.54475e-05      0.00024869         -0.10137        0.065687
281700.8                0.120056     -0.00565074      0.000122946     5.42736e-05        -0.943856        0.307791     -0.000125943     -0.00013247
                     0.000272972     -8.7312e-06         0.120365     -0.00669509      2.02672e-05    -0.000227356        -0.943742        0.307008
                       -0.942965        0.307731     -0.000135241    -0.000306559        -0.100504       0.0663398      0.000154736     9.19392e-06
                    -0.000178838    -9.03825e-05        -0.942575        0.308029      -4.5434e-05     0.000248693        -0.101368       0.0656864
281700.9                0.120054     -0.00565639      0.000122957     5.42692e-05        -0.943848        0.307816     -0.000125958    -0.000132472
                      0.00027297     -8.7412e-06         0.120362     -0.00670073      2.02593e-05    -0.000227363        -0.943734        0.307033
                       -0.942957        0.307756     -0.000135265    -0.000306551        -0.100502       0.0663391      0.000154759     9.19798e-06
                    -0.000178844    -9.03724e-05        -0.942567        0.308054     -4.54204e-05     0.000248696        -0.101366       0.0656857
281701                  0.120051     -0.00566203      0.000122968     5.42647e-05         -0.94384        0.307842     -0.000125973    -0.000132473
                     0.000272968    -8.75121e-06          0.12036     -0.00670637      2.02514e-05    -0.000227369        -0.943726        0.307058
                       -0.942949        0.307782     -0.000135289    -0.000306542          -0.1005       0.0663384      0.000154782     9.20205e-06
                    -0.000178849    -9.03623e-05        -0.942559        0.308079     -4.54069e-05     0.000248699        -0.101363       0.0656851
281701.1                0.120049     -0.00566767      0.000122979     5.42603e-05        -0.943832        0.307867     -0.000125987    -0.000132475
                     0.000272966    -8.76121e-06         0.120357     -0.00671201      2.02435e-05    -0.000227375        -0.943718        0.307084
                       -0.942941        0.307807     -0.000135313    -0.000306534        -0.100497       0.0663378      0.000154806     9.20611e-06
                    -0.000178855    -9.03521e-05        -0.942551        0.308104     -4.53933e-05     0.000248702        -0.101361       0.0656845
281701.2                0.120046     -0.00567332       0.00012299     5.42559e-05        -0.943824        0.307892     -0.000126002    -0.000132476
                     0.000272965    -8.77122e-06         0.120355     -0.00671765      2.02356e-05    -0.000227382         -0.94371        0.307109
                       -0.942933        0.307832     -0.000135338    -0.000306526        -0.100495       0.0663371      0.000154829     9.21017e-06
                     -0.00017886     -9.0342e-05        -0.942543         0.30813     -4.53797e-05     0.000248706        -0.101359       0.0656838
281701.3                0.120044     -0.00567896      0.000123002     5.42514e-05        -0.943816        0.307917     -0.000126016    -0.000132478
                     0.000272963    -8.78122e-06         0.120352     -0.00672329      2.02276e-05    -0.000227388        -0.943702        0.307134
                       -0.942925        0.307857     -0.000135362    -0.000306518        -0.100493       0.0663364      0.000154853     9.21424e-06
                    -0.000178865    -9.03319e-05        -0.942535        0.308155     -4.53662e-05     0.000248709        -0.101357       0.0656832
281701.4                0.120041      -0.0056846      0.000123013      5.4247e-05        -0.943808        0.307942     -0.000126031     -0.00013248
                     0.000272961    -8.79122e-06          0.12035     -0.00672893      2.02197e-05    -0.000227394        -0.943694        0.307159
                       -0.942917        0.307883     -0.000135386    -0.000306509        -0.100491       0.0663357      0.000154876     9.21831e-06
                    -0.000178871    -9.03218e-05        -0.942527         0.30818     -4.53526e-05     0.000248712        -0.101355       0.0656826
281701.5                0.120039     -0.00569025      0.000123024     5.42426e-05          -0.9438        0.307968     -0.000126045    -0.000132481
                     0.000272959    -8.80123e-06         0.120347     -0.00673457      2.02118e-05      -0.0002274        -0.943686        0.307185
                       -0.942909        0.307908      -0.00013541    -0.000306501        -0.100489       0.0663351      0.000154899     9.22237e-06
                    -0.000178876    -9.03117e-05        -0.942519        0.308205     -4.53391e-05     0.000248715        -0.101352       0.0656819
281701.6                0.120036     -0.00569589      0.000123035     5.42382e-05        -0.943792        0.307993      -0.00012606    -0.000132483
                     0.000272957    -8.81123e-06         0.120345     -0.00674021      2.02039e-05    -0.000227407        -0.943678         0.30721
                       -0.942902        0.307933     -0.000135435    -0.000306493        -0.100486       0.0663344      0.000154923     9.22644e-06
                    -0.000178881    -9.03015e-05        -0.942511         0.30823     -4.53255e-05     0.000248719         -0.10135       0.0656813
281701.7                0.120034     -0.00570153      0.000123046     5.42337e-05        -0.943784        0.308018     -0.000126075    -0.000132485
                     0.000272955    -8.82123e-06         0.120342     -0.00674585       2.0196e-05    -0.000227413         -0.94367        0.307235
                       -0.942894        0.307958     -0.000135459    -0.000306485        -0.100484       0.0663337      0.000154946     9.23051e-06
                    -0.000178887    -9.02914e-05        -0.942503        0.308255     -4.53119e-05     0.000248722        -0.101348       0.0656807
281701.8                0.120031     -0.00570717      0.000123057     5.42293e-05        -0.943776        0.308043     -0.000126089    -0.000132486
                     0.000272953    -8.83123e-06          0.12034     -0.00675148       2.0188e-05    -0.000227419        -0.943662        0.307261
                       -0.942886        0.307984     -0.000135483    -0.000306477        -0.100482        0.066333      0.000154969     9.23458e-06
                    -0.000178892    -9.02813e-05        -0.942495        0.308281     -4.52984e-05     0.000248725        -0.101346         0.06568
281701.9                0.120029     -0.00571282      0.000123068     5.42249e-05        -0.943768        0.308069     -0.000126104    -0.000132488
                     0.000272951    -8.84124e-06         0.120337     -0.00675712      2.01801e-05    -0.000227426        -0.943654        0.307286
                       -0.942878        0.308009     -0.000135507    -0.000306468         -0.10048       0.0663323      0.000154993     9.23865e-06
                    -0.000178898    -9.02711e-05        -0.942487        0.308306     -4.52848e-05     0.000248728        -0.101344       0.0656794
281702                  0.120026     -0.00571846      0.000123079     5.42204e-05         -0.94376        0.308094     -0.000126118     -0.00013249
                     0.000272949    -8.85124e-06         0.120335     -0.00676276      2.01722e-05    -0.000227432        -0.943646        0.307311
                        -0.94287        0.308034     -0.000135531     -0.00030646        -0.100477       0.0663317      0.000155016     9.24272e-06
                    -0.000178903     -9.0261e-05        -0.942479        0.308331     -4.52713e-05     0.000248731        -0.101341       0.0656788
281702.1                0.120024      -0.0057241       0.00012309      5.4216e-05        -0.943752        0.308119     -0.000126133    -0.000132491
                     0.000272947    -8.86124e-06         0.120332      -0.0067684      2.01643e-05    -0.000227438        -0.943638        0.307336
                       -0.942862        0.308059     -0.000135556    -0.000306452        -0.100475        0.066331      0.000155039     9.24679e-06
                    -0.000178908    -9.02509e-05        -0.942471        0.308356     -4.52577e-05     0.000248735        -0.101339       0.0656781
281702.2                0.120021     -0.00572974      0.000123101     5.42116e-05        -0.943744        0.308144     -0.000126148    -0.000132493
                     0.000272945    -8.87124e-06          0.12033     -0.00677404      2.01564e-05    -0.000227444         -0.94363        0.307362
                       -0.942854        0.308084      -0.00013558    -0.000306444        -0.100473       0.0663303      0.000155063     9.25086e-06
                    -0.000178914    -9.02407e-05        -0.942463        0.308381     -4.52441e-05     0.000248738        -0.101337       0.0656775
281702.3                0.120019     -0.00573538      0.000123112     5.42072e-05        -0.943736        0.308169     -0.000126162    -0.000132495
                     0.000272943    -8.88124e-06         0.120327     -0.00677967      2.01484e-05    -0.000227451        -0.943622        0.307387
                       -0.942846         0.30811     -0.000135604    -0.000306435        -0.100471       0.0663296      0.000155086     9.25493e-06
                    -0.000178919    -9.02306e-05        -0.942455        0.308407     -4.52306e-05     0.000248741        -0.101335       0.0656769
281702.4                0.120016     -0.00574102      0.000123123     5.42027e-05        -0.943728        0.308195     -0.000126177    -0.000132496
                     0.000272941    -8.89125e-06         0.120325     -0.00678531      2.01405e-05    -0.000227457        -0.943614        0.307412
                       -0.942838        0.308135     -0.000135628    -0.000306427        -0.100469        0.066329       0.00015511       9.259e-06
                    -0.000178924    -9.02205e-05        -0.942447        0.308432      -4.5217e-05     0.000248744        -0.101333       0.0656762
281702.5                0.120014     -0.00574667      0.000123134     5.41983e-05         -0.94372         0.30822     -0.000126191    -0.000132498
                     0.000272939    -8.90125e-06         0.120322     -0.00679095      2.01326e-05    -0.000227463        -0.943607        0.307438
                        -0.94283         0.30816     -0.000135652    -0.000306419        -0.100466       0.0663283      0.000155133     9.26307e-06
                     -0.00017893    -9.02103e-05        -0.942439        0.308457     -4.52035e-05     0.000248747        -0.101331       0.0656756
281702.6                0.120011     -0.00575231      0.000123145     5.41939e-05        -0.943712        0.308245     -0.000126206      -0.0001325
                     0.000272937    -8.91125e-06          0.12032     -0.00679659      2.01247e-05     -0.00022747        -0.943599        0.307463
                       -0.942822        0.308185     -0.000135677    -0.000306411        -0.100464       0.0663276      0.000155156     9.26715e-06
                    -0.000178935    -9.02002e-05        -0.942431        0.308482     -4.51899e-05     0.000248751        -0.101328        0.065675
281702.7                0.120009     -0.00575795      0.000123157     5.41895e-05        -0.943704         0.30827     -0.000126221    -0.000132501
                     0.000272936    -8.92125e-06         0.120317     -0.00680223      2.01167e-05    -0.000227476        -0.943591        0.307488
                       -0.942814        0.308211     -0.000135701    -0.000306402        -0.100462       0.0663269       0.00015518     9.27122e-06
                    -0.000178941    -9.01901e-05        -0.942424        0.308507     -4.51763e-05     0.000248754        -0.101326       0.0656743
281702.8                0.120006     -0.00576359      0.000123168      5.4185e-05        -0.943696        0.308296     -0.000126235    -0.000132503
                     0.000272934    -8.93125e-06         0.120315     -0.00680786      2.01088e-05    -0.000227482        -0.943583        0.307513
                       -0.942806        0.308236     -0.000135725    -0.000306394         -0.10046       0.0663262      0.000155203     9.27529e-06
                    -0.000178946    -9.01799e-05        -0.942416        0.308532     -4.51628e-05     0.000248757        -0.101324       0.0656737
281702.9                0.120004     -0.00576923      0.000123179     5.41806e-05        -0.943688        0.308321      -0.00012625    -0.000132505
                     0.000272932    -8.94125e-06         0.120312      -0.0068135      2.01009e-05    -0.000227488        -0.943575        0.307539
                       -0.942798        0.308261     -0.000135749    -0.000306386        -0.100457       0.0663256      0.000155226     9.27937e-06
                    -0.000178951    -9.01698e-05        -0.942408        0.308558     -4.51492e-05      0.00024876        -0.101322       0.0656731
281703                  0.120001     -0.00577487       0.00012319     5.41762e-05         -0.94368        0.308346     -0.000126264    -0.000132506
                      0.00027293    -8.95125e-06          0.12031     -0.00681914       2.0093e-05    -0.000227495        -0.943567        0.307564
                        -0.94279        0.308286     -0.000135773    -0.000306378        -0.100455       0.0663249       0.00015525     9.28345e-06
                    -0.000178957    -9.01596e-05          -0.9424        0.308583     -4.51356e-05     0.000248763         -0.10132       0.0656724
281703.1                0.119999     -0.00578051      0.000123201     5.41718e-05        -0.943672        0.308371     -0.000126279    -0.000132508
                     0.000272928    -8.96125e-06         0.120307     -0.00682477       2.0085e-05    -0.000227501        -0.943559        0.307589
                       -0.942782        0.308311     -0.000135798     -0.00030637        -0.100453       0.0663242      0.000155273     9.28752e-06
