! TOUCHSTONE file generated by CST MICROWAVE STUDIO
! Date and time: Wed Oct  8 07:01:56 2025
! Project name: Teste_Macro_Metasurface_Nanopilar.cst
! Parameters = {H=600; L_x=165; L_y=75; Lambda=1064; Max_L=200; Min_L=70; PathPara=1; Phi=0; Step_L=10; Theta=0; p=520; phaseX=180; phaseY=0}
! Header version: 2018
! Port assignment regex: !\s*Touchstone port\s*([0-9]+)\s*=\s*(CST MWS port|CST DS port)\s*([0-9]+|Zmin|Zmax)\s*\(\"(.*)\"\)(\s*mode\s*([0-9]+))?.*
! Touchstone port assignment:
! Touchstone port 1 = CST MWS port Zmax ("") mode 1
! Touchstone port 2 = CST MWS port Zmax ("") mode 2
! Touchstone port 3 = CST MWS port Zmin ("") mode 1
! Touchstone port 4 = CST MWS port Zmin ("") mode 2
! S-Parameters are not renormalized. Each port impedance will be approximated by the real part at minimum frequency. The values are described via the [Reference] keyword.
! Default impedance is overridden by [Reference]
[Version] 2.0
# GHz S RI R 376.73
[Number of Ports] 4
[Reference]
376.73 376.73 376.73 376.73 
[Number of Frequencies] 1001
[Network Data]
281700                  0.087821      -0.0825925     -0.000202447     0.000177642        -0.852788        0.507288      0.000113627    -0.000291584
                    -0.000255317      0.00027707       -0.0791161        -0.18761      0.000248548    -0.000116136         0.339226       -0.909963
                       -0.852397        0.507207      0.000188064    -2.58158e-05        -0.114696       0.0379638     -0.000218709     0.000281995
                     0.000133132    -0.000264267         0.339198       -0.909892     -0.000216433     0.000223318        -0.184299       0.0921851
281700.1               0.0878161      -0.0825963     -0.000202449     0.000177647        -0.852774        0.507311      0.000113616     -0.00029159
                    -0.000255309     0.000277085       -0.0791238       -0.187606      0.000248547    -0.000116146         0.339196       -0.909974
                       -0.852383         0.50723      0.000188068    -2.58225e-05        -0.114695       0.0379638     -0.000218698     0.000282007
                     0.000133128    -0.000264274         0.339168       -0.909903     -0.000216429     0.000223331        -0.184296       0.0921886
281700.2               0.0878111         -0.0826     -0.000202451     0.000177653        -0.852761        0.507334      0.000113605    -0.000291595
                    -0.000255302     0.000277101       -0.0791314       -0.187601      0.000248546    -0.000116156         0.339166       -0.909985
                        -0.85237        0.507253      0.000188072    -2.58293e-05        -0.114694       0.0379637     -0.000218688     0.000282018
                     0.000133125    -0.000264281         0.339139       -0.909915     -0.000216424     0.000223345        -0.184293        0.092192
281700.3               0.0878061      -0.0826037     -0.000202453     0.000177658        -0.852747        0.507357      0.000113595    -0.000291601
                    -0.000255294     0.000277116       -0.0791391       -0.187597      0.000248546    -0.000116166         0.339137       -0.909997
                       -0.852356        0.507276      0.000188076     -2.5836e-05        -0.114693       0.0379637     -0.000218678     0.000282029
                     0.000133122    -0.000264288         0.339109       -0.909926     -0.000216419     0.000223358        -0.184289       0.0921955
281700.4               0.0878011      -0.0826075     -0.000202456     0.000177664        -0.852734         0.50738      0.000113584    -0.000291607
                    -0.000255286     0.000277132       -0.0791467       -0.187592      0.000248545    -0.000116176         0.339107       -0.910008
                       -0.852343        0.507299       0.00018808    -2.58427e-05        -0.114692       0.0379637     -0.000218667     0.000282041
                     0.000133119    -0.000264296          0.33908       -0.909937     -0.000216414     0.000223372        -0.184286        0.092199
281700.5               0.0877961      -0.0826112     -0.000202458     0.000177669         -0.85272        0.507403      0.000113574    -0.000291613
                    -0.000255278     0.000277147       -0.0791544       -0.187588      0.000248544    -0.000116186         0.339078       -0.910019
                       -0.852329        0.507322      0.000188084    -2.58494e-05        -0.114691       0.0379637     -0.000218657     0.000282052
                     0.000133116    -0.000264303          0.33905       -0.909948     -0.000216409     0.000223386        -0.184283       0.0922024
281700.6               0.0877911       -0.082615      -0.00020246     0.000177675        -0.852706        0.507426      0.000113563    -0.000291618
                    -0.000255271     0.000277163        -0.079162       -0.187583      0.000248544    -0.000116196         0.339048       -0.910031
                       -0.852316        0.507345      0.000188088    -2.58561e-05         -0.11469       0.0379637     -0.000218647     0.000282063
                     0.000133112     -0.00026431         0.339021        -0.90996     -0.000216404     0.000223399         -0.18428       0.0922059
281700.7               0.0877861      -0.0826187     -0.000202463      0.00017768        -0.852693        0.507449      0.000113552    -0.000291624
                    -0.000255263     0.000277178       -0.0791697       -0.187579      0.000248543    -0.000116206         0.339019       -0.910042
                       -0.852302        0.507368      0.000188092    -2.58628e-05        -0.114688       0.0379637     -0.000218636     0.000282075
                     0.000133109    -0.000264318         0.338991       -0.909971       -0.0002164     0.000223413        -0.184277       0.0922094
281700.8               0.0877811      -0.0826224     -0.000202465     0.000177685        -0.852679        0.507472      0.000113542     -0.00029163
                    -0.000255255     0.000277193       -0.0791773       -0.187574      0.000248542    -0.000116216         0.338989       -0.910053
                       -0.852289        0.507391      0.000188096    -2.58696e-05        -0.114687       0.0379636     -0.000218626     0.000282086
                     0.000133106    -0.000264325         0.338961       -0.909982     -0.000216395     0.000223426        -0.184274       0.0922129
281700.9               0.0877761      -0.0826262     -0.000202467     0.000177691        -0.852666        0.507495      0.000113531    -0.000291636
                    -0.000255247     0.000277209        -0.079185        -0.18757      0.000248541    -0.000116226         0.338959       -0.910065
                       -0.852275        0.507414        0.0001881    -2.58763e-05        -0.114686       0.0379636     -0.000218615     0.000282097
                     0.000133103    -0.000264332         0.338932       -0.909994      -0.00021639      0.00022344        -0.184271       0.0922163
281701                 0.0877711      -0.0826299     -0.000202469     0.000177696        -0.852652        0.507518       0.00011352    -0.000291641
                     -0.00025524     0.000277224       -0.0791926       -0.187565      0.000248541    -0.000116236          0.33893       -0.910076
                       -0.852261        0.507437      0.000188104     -2.5883e-05        -0.114685       0.0379636     -0.000218605     0.000282108
                       0.0001331    -0.000264339         0.338902       -0.910005     -0.000216385     0.000223453        -0.184267       0.0922198
281701.1               0.0877661      -0.0826337     -0.000202472     0.000177702        -0.852639        0.507541       0.00011351    -0.000291647
                    -0.000255232      0.00027724       -0.0792003       -0.187561       0.00024854    -0.000116246           0.3389       -0.910087
                       -0.852248         0.50746      0.000188108    -2.58897e-05        -0.114684       0.0379636     -0.000218595      0.00028212
                     0.000133096    -0.000264347         0.338873       -0.910016      -0.00021638     0.000223467        -0.184264       0.0922233
281701.2               0.0877611      -0.0826374     -0.000202474     0.000177707        -0.852625        0.507564      0.000113499    -0.000291653
                    -0.000255224     0.000277255       -0.0792079       -0.187556      0.000248539    -0.000116256         0.338871       -0.910099
                       -0.852234        0.507483      0.000188112    -2.58965e-05        -0.114683       0.0379636     -0.000218584     0.000282131
                     0.000133093    -0.000264354         0.338843       -0.910028     -0.000216375      0.00022348        -0.184261       0.0922267
281701.3               0.0877561      -0.0826411     -0.000202476     0.000177713        -0.852612        0.507587      0.000113488    -0.000291659
                    -0.000255216     0.000277271       -0.0792156       -0.187552      0.000248539    -0.000116266         0.338841        -0.91011
                       -0.852221        0.507506      0.000188116    -2.59032e-05        -0.114682       0.0379636     -0.000218574     0.000282142
                      0.00013309    -0.000264361         0.338814       -0.910039     -0.000216371     0.000223494        -0.184258       0.0922302
281701.4               0.0877511      -0.0826449     -0.000202478     0.000177718        -0.852598         0.50761      0.000113478    -0.000291665
                    -0.000255209     0.000277286       -0.0792232       -0.187547      0.000248538    -0.000116276         0.338811       -0.910121
                       -0.852207        0.507529       0.00018812    -2.59099e-05        -0.114681       0.0379635     -0.000218564     0.000282154
                     0.000133087    -0.000264368         0.338784        -0.91005     -0.000216366     0.000223508        -0.184255       0.0922337
281701.5               0.0877461      -0.0826486     -0.000202481     0.000177724        -0.852585        0.507633      0.000113467     -0.00029167
                    -0.000255201     0.000277302       -0.0792309       -0.187543      0.000248537    -0.000116286         0.338782       -0.910133
                       -0.852194        0.507552      0.000188124    -2.59167e-05        -0.114679       0.0379635     -0.000218553     0.000282165
                     0.000133084    -0.000264376         0.338755       -0.910061     -0.000216361     0.000223521        -0.184252       0.0922372
281701.6               0.0877411      -0.0826523     -0.000202483     0.000177729        -0.852571        0.507656      0.000113456    -0.000291676
                    -0.000255193     0.000277317       -0.0792385       -0.187538      0.000248537    -0.000116296         0.338752       -0.910144
                        -0.85218        0.507575      0.000188128    -2.59234e-05        -0.114678       0.0379635     -0.000218543     0.000282176
                      0.00013308    -0.000264383         0.338725       -0.910073     -0.000216356     0.000223535        -0.184249       0.0922406
281701.7               0.0877362      -0.0826561     -0.000202485     0.000177735        -0.852557        0.507679      0.000113446    -0.000291682
                    -0.000255185     0.000277332       -0.0792462       -0.187534      0.000248536    -0.000116306         0.338723       -0.910155
                       -0.852167        0.507598      0.000188132    -2.59301e-05        -0.114677       0.0379635     -0.000218532     0.000282187
                     0.000133077     -0.00026439         0.338695       -0.910084     -0.000216351     0.000223548        -0.184246       0.0922441
281701.8               0.0877312      -0.0826598     -0.000202487      0.00017774        -0.852544        0.507702      0.000113435    -0.000291688
                    -0.000255177     0.000277348       -0.0792538       -0.187529      0.000248535    -0.000116316         0.338693       -0.910166
                       -0.852153        0.507621      0.000188136    -2.59369e-05        -0.114676       0.0379635     -0.000218522     0.000282199
                     0.000133074    -0.000264398         0.338666       -0.910095     -0.000216346     0.000223562        -0.184242       0.0922476
281701.9               0.0877262      -0.0826636      -0.00020249     0.000177746         -0.85253        0.507725      0.000113425    -0.000291693
                     -0.00025517     0.000277363       -0.0792615       -0.187525      0.000248534    -0.000116326         0.338664       -0.910178
                        -0.85214        0.507644       0.00018814    -2.59436e-05        -0.114675       0.0379635     -0.000218512      0.00028221
                     0.000133071    -0.000264405         0.338636       -0.910107     -0.000216341     0.000223575        -0.184239        0.092251
281702                 0.0877212      -0.0826673     -0.000202492     0.000177751        -0.852517        0.507748      0.000113414    -0.000291699
                    -0.000255162     0.000277379       -0.0792691        -0.18752      0.000248534    -0.000116336         0.338634       -0.910189
                       -0.852126        0.507667      0.000188144    -2.59504e-05        -0.114674       0.0379634     -0.000218501     0.000282221
                     0.000133067    -0.000264412         0.338607       -0.910118     -0.000216337     0.000223589        -0.184236       0.0922545
281702.1               0.0877162       -0.082671     -0.000202494     0.000177757        -0.852503        0.507771      0.000113403    -0.000291705
                    -0.000255154     0.000277394       -0.0792767       -0.187516      0.000248533    -0.000116346         0.338604         -0.9102
                       -0.852112         0.50769      0.000188148    -2.59571e-05        -0.114673       0.0379634     -0.000218491     0.000282233
                     0.000133064    -0.000264419         0.338577       -0.910129     -0.000216332     0.000223603        -0.184233        0.092258
281702.2               0.0877112      -0.0826748     -0.000202496     0.000177762         -0.85249        0.507794      0.000113393    -0.000291711
                    -0.000255146      0.00027741       -0.0792844       -0.187511      0.000248532    -0.000116356         0.338575       -0.910212
                       -0.852099        0.507713      0.000188152    -2.59638e-05        -0.114672       0.0379634      -0.00021848     0.000282244
                     0.000133061    -0.000264427         0.338547        -0.91014     -0.000216327     0.000223616         -0.18423       0.0922615
281702.3               0.0877062      -0.0826785     -0.000202499     0.000177768        -0.852476        0.507817      0.000113382    -0.000291717
                    -0.000255139     0.000277425        -0.079292       -0.187507      0.000248532    -0.000116366         0.338545       -0.910223
                       -0.852085        0.507736      0.000188156    -2.59706e-05         -0.11467       0.0379634      -0.00021847     0.000282255
                     0.000133058    -0.000264434         0.338518       -0.910152     -0.000216322      0.00022363        -0.184227       0.0922649
281702.4               0.0877012      -0.0826822     -0.000202501     0.000177774        -0.852463         0.50784      0.000113371    -0.000291722
                    -0.000255131      0.00027744       -0.0792997       -0.187502      0.000248531    -0.000116376         0.338516       -0.910234
                       -0.852072        0.507759       0.00018816    -2.59773e-05        -0.114669       0.0379634      -0.00021846     0.000282266
                     0.000133055    -0.000264441         0.338488       -0.910163     -0.000216317     0.000223643        -0.184224       0.0922684
281702.5               0.0876962       -0.082686     -0.000202503     0.000177779        -0.852449        0.507863      0.000113361    -0.000291728
                    -0.000255123     0.000277456       -0.0793073       -0.187498       0.00024853    -0.000116386         0.338486       -0.910246
                       -0.852058        0.507782      0.000188163    -2.59841e-05        -0.114668       0.0379633     -0.000218449     0.000282278
                     0.000133051    -0.000264448         0.338459       -0.910174     -0.000216312     0.000223657         -0.18422       0.0922719
281702.6               0.0876912      -0.0826897     -0.000202506     0.000177785        -0.852435        0.507886       0.00011335    -0.000291734
                    -0.000255115     0.000277471        -0.079315       -0.187493       0.00024853    -0.000116396         0.338456       -0.910257
                       -0.852045        0.507805      0.000188167    -2.59908e-05        -0.114667       0.0379633     -0.000218439     0.000282289
                     0.000133048    -0.000264456         0.338429       -0.910186     -0.000216308      0.00022367        -0.184217       0.0922753
281702.7               0.0876862      -0.0826934     -0.000202508      0.00017779        -0.852422        0.507909      0.000113339     -0.00029174
                    -0.000255108     0.000277487       -0.0793226       -0.187489      0.000248529    -0.000116405         0.338427       -0.910268
                       -0.852031        0.507828      0.000188171    -2.59976e-05        -0.114666       0.0379633     -0.000218429       0.0002823
                     0.000133045    -0.000264463           0.3384       -0.910197     -0.000216303     0.000223684        -0.184214       0.0922788
281702.8               0.0876812      -0.0826972      -0.00020251     0.000177796        -0.852408        0.507932      0.000113329    -0.000291745
                      -0.0002551     0.000277502       -0.0793302       -0.187484      0.000248528    -0.000116415         0.338397       -0.910279
                       -0.852018        0.507851      0.000188175    -2.60044e-05        -0.114665       0.0379633     -0.000218418     0.000282311
                     0.000133042     -0.00026447          0.33837       -0.910208     -0.000216298     0.000223697        -0.184211       0.0922823
281702.9               0.0876762      -0.0827009     -0.000202512     0.000177801        -0.852395        0.507955      0.000113318    -0.000291751
                    -0.000255092     0.000277518       -0.0793379        -0.18748      0.000248527    -0.000116425         0.338368       -0.910291
                       -0.852004        0.507874      0.000188179    -2.60111e-05        -0.114664       0.0379633     -0.000218408     0.000282323
                     0.000133038    -0.000264477          0.33834       -0.910219     -0.000216293     0.000223711        -0.184208       0.0922857
281703                 0.0876712      -0.0827046     -0.000202515     0.000177807        -0.852381        0.507978      0.000113308    -0.000291757
                    -0.000255084     0.000277533       -0.0793455       -0.187475      0.000248527    -0.000116435         0.338338       -0.910302
                        -0.85199        0.507897      0.000188183    -2.60179e-05        -0.114662       0.0379633     -0.000218397     0.000282334
                     0.000133035    -0.000264485         0.338311       -0.910231     -0.000216288     0.000223725        -0.184205       0.0922892
281703.1               0.0876662      -0.0827084     -0.000202517     0.000177812        -0.852368        0.508001      0.000113297    -0.000291763
                    -0.000255077     0.000277548       -0.0793532       -0.187471      0.000248526    -0.000116445         0.338308       -0.910313
                       -0.851977         0.50792      0.000188187    -2.60246e-05        -0.114661       0.0379632     -0.000218387     0.000282345
