! TOUCHSTONE file generated by CST MICROWAVE STUDIO
! Date and time: Wed Oct  8 06:51:11 2025
! Project name: Teste_Macro_Metasurface_Nanopilar.cst
! Parameters = {H=600; L_x=75; L_y=75; Lambda=1064; Max_L=200; Min_L=70; PathPara=1; Phi=0; Step_L=10; Theta=0; p=520; phaseX=180; phaseY=0}
! Header version: 2018
! Port assignment regex: !\s*Touchstone port\s*([0-9]+)\s*=\s*(CST MWS port|CST DS port)\s*([0-9]+|Zmin|Zmax)\s*\(\"(.*)\"\)(\s*mode\s*([0-9]+))?.*
! Touchstone port assignment:
! Touchstone port 1 = CST MWS port Zmax ("") mode 1
! Touchstone port 2 = CST MWS port Zmax ("") mode 2
! Touchstone port 3 = CST MWS port Zmin ("") mode 1
! Touchstone port 4 = CST MWS port Zmin ("") mode 2
! S-Parameters are not renormalized. Each port impedance will be approximated by the real part at minimum frequency. The values are described via the [Reference] keyword.
! Default impedance is overridden by [Reference]
[Version] 2.0
# GHz S RI R 376.73
[Number of Ports] 4
[Reference]
376.73 376.73 376.73 376.73 
[Number of Frequencies] 1001
[Network Data]
281700                   0.11705       0.0842461      2.58164e-05    -0.000220492        -0.982535        0.113911     -0.000145369     0.000139115
                     7.98264e-06    -0.000228796         0.117199       0.0834532       0.00016964     9.50334e-05        -0.982529        0.114387
                       -0.983028        0.113535      0.000143889     8.46005e-05       -0.0947902        0.108796     -9.94341e-05    -0.000158422
                    -0.000132926     0.000112958        -0.982705        0.114019     -9.86186e-06    -9.63558e-05       -0.0950881        0.108096
281700.1                 0.11705         0.08424      2.58094e-05    -0.000220492        -0.982532        0.113937     -0.000145367     0.000139118
                     7.98049e-06    -0.000228792         0.117199       0.0834471      0.000169644     9.50267e-05        -0.982527        0.114413
                       -0.983026        0.113561      0.000143894     8.45928e-05       -0.0947864        0.108795     -9.94369e-05    -0.000158426
                    -0.000132927      0.00011297        -0.982702        0.114045     -9.85933e-06    -9.63559e-05       -0.0950842        0.108095
281700.2                0.117051       0.0842339      2.58023e-05    -0.000220491        -0.982529        0.113963     -0.000145365     0.000139121
                     7.97834e-06    -0.000228789           0.1172        0.083441      0.000169648       9.502e-05        -0.982524        0.114439
                       -0.983023        0.113587        0.0001439     8.45851e-05       -0.0947825        0.108794     -9.94396e-05    -0.000158429
                    -0.000132928     0.000112983          -0.9827        0.114071      -9.8568e-06     -9.6356e-05       -0.0950804        0.108094
281700.3                0.117051       0.0842278      2.57953e-05     -0.00022049        -0.982527        0.113989     -0.000145363     0.000139125
                     7.97619e-06    -0.000228786           0.1172       0.0834348      0.000169651     9.50133e-05        -0.982522        0.114465
                       -0.983021        0.113613      0.000143905     8.45774e-05       -0.0947786        0.108794     -9.94423e-05    -0.000158433
                     -0.00013293     0.000112995        -0.982697        0.114097     -9.85427e-06     -9.6356e-05       -0.0950766        0.108093
281700.4                0.117052       0.0842216      2.57883e-05     -0.00022049        -0.982524        0.114015     -0.000145361     0.000139128
                     7.97403e-06    -0.000228782         0.117201       0.0834287      0.000169655     9.50066e-05        -0.982519        0.114491
                       -0.983018        0.113639      0.000143911     8.45697e-05       -0.0947748        0.108793     -9.94451e-05    -0.000158436
                    -0.000132931     0.000113007        -0.982695        0.114123     -9.85174e-06    -9.63561e-05       -0.0950727        0.108092
281700.5                0.117052       0.0842155      2.57813e-05    -0.000220489        -0.982522        0.114041     -0.000145359     0.000139132
                     7.97188e-06    -0.000228779         0.117201       0.0834226      0.000169659     9.49999e-05        -0.982517        0.114517
                       -0.983016        0.113665      0.000143916      8.4562e-05       -0.0947709        0.108792     -9.94478e-05     -0.00015844
                    -0.000132932     0.000113019        -0.982692        0.114149     -9.84921e-06    -9.63562e-05       -0.0950689        0.108091
281700.6                0.117053       0.0842094      2.57743e-05    -0.000220488        -0.982519        0.114067     -0.000145357     0.000139135
                     7.96973e-06    -0.000228776         0.117202       0.0834164      0.000169662     9.49932e-05        -0.982514        0.114543
                       -0.983013        0.113691      0.000143922     8.45544e-05       -0.0947671        0.108791     -9.94505e-05    -0.000158443
                    -0.000132933     0.000113031        -0.982689        0.114175     -9.84668e-06    -9.63563e-05        -0.095065        0.108091
281700.7                0.117053       0.0842033      2.57673e-05    -0.000220488        -0.982517        0.114093     -0.000145356     0.000139139
                     7.96758e-06    -0.000228772         0.117202       0.0834103      0.000169666     9.49865e-05        -0.982511        0.114569
                        -0.98301        0.113717      0.000143928     8.45467e-05       -0.0947632         0.10879     -9.94533e-05    -0.000158446
                    -0.000132934     0.000113043        -0.982687        0.114201     -9.84415e-06    -9.63564e-05       -0.0950612         0.10809
281700.8                0.117054       0.0841972      2.57603e-05    -0.000220487        -0.982514        0.114119     -0.000145354     0.000139142
                     7.96543e-06    -0.000228769         0.117203       0.0834042       0.00016967     9.49798e-05        -0.982509        0.114595
                       -0.983008        0.113743      0.000143933      8.4539e-05       -0.0947593        0.108789      -9.9456e-05     -0.00015845
                    -0.000132935     0.000113055        -0.982684        0.114227     -9.84162e-06    -9.63565e-05       -0.0950574        0.108089
281700.9                0.117054        0.084191      2.57532e-05    -0.000220487        -0.982512        0.114145     -0.000145352     0.000139145
                     7.96328e-06    -0.000228766         0.117203        0.083398      0.000169673     9.49731e-05        -0.982506        0.114621
                       -0.983005        0.113769      0.000143939     8.45313e-05       -0.0947555        0.108788     -9.94587e-05    -0.000158453
                    -0.000132936     0.000113068        -0.982682        0.114253      -9.8391e-06    -9.63566e-05       -0.0950535        0.108088
281701                  0.117055       0.0841849      2.57462e-05    -0.000220486        -0.982509        0.114171      -0.00014535     0.000139149
                     7.96113e-06    -0.000228762         0.117204       0.0833919      0.000169677     9.49664e-05        -0.982504        0.114647
                       -0.983003        0.113795      0.000143944     8.45236e-05       -0.0947516        0.108788     -9.94615e-05    -0.000158457
                    -0.000132937      0.00011308        -0.982679        0.114279     -9.83657e-06    -9.63567e-05       -0.0950497        0.108087
281701.1                0.117055       0.0841788      2.57392e-05    -0.000220485        -0.982507        0.114197     -0.000145348     0.000139152
                     7.95898e-06    -0.000228759         0.117204       0.0833858      0.000169681     9.49597e-05        -0.982501        0.114673
                          -0.983        0.113821       0.00014395     8.45159e-05       -0.0947478        0.108787     -9.94642e-05     -0.00015846
                    -0.000132938     0.000113092        -0.982677        0.114305     -9.83404e-06    -9.63568e-05       -0.0950458        0.108086
281701.2                0.117056       0.0841727      2.57322e-05    -0.000220485        -0.982504        0.114223     -0.000145346     0.000139156
                     7.95682e-06    -0.000228756         0.117205       0.0833796      0.000169684      9.4953e-05        -0.982499        0.114699
                       -0.982997        0.113847      0.000143955     8.45082e-05       -0.0947439        0.108786     -9.94669e-05    -0.000158464
                    -0.000132939     0.000113104        -0.982674        0.114331     -9.83151e-06    -9.63569e-05        -0.095042        0.108085
281701.3                0.117056       0.0841666      2.57252e-05    -0.000220484        -0.982501        0.114249     -0.000145344     0.000139159
                     7.95467e-06    -0.000228752         0.117205       0.0833735      0.000169688     9.49463e-05        -0.982496        0.114725
                       -0.982995        0.113873      0.000143961     8.45005e-05       -0.0947401        0.108785     -9.94697e-05    -0.000158467
                     -0.00013294     0.000113116        -0.982672        0.114356     -9.82899e-06     -9.6357e-05       -0.0950382        0.108085
281701.4                0.117057       0.0841604      2.57182e-05    -0.000220483        -0.982499        0.114275     -0.000145342     0.000139163
                     7.95252e-06    -0.000228749         0.117206       0.0833674      0.000169691     9.49396e-05        -0.982494        0.114751
                       -0.982992        0.113899      0.000143967     8.44928e-05       -0.0947362        0.108784     -9.94724e-05     -0.00015847
                    -0.000132941     0.000113128        -0.982669        0.114382     -9.82646e-06    -9.63571e-05       -0.0950343        0.108084
281701.5                0.117057       0.0841543      2.57112e-05    -0.000220483        -0.982496        0.114301      -0.00014534     0.000139166
                     7.95037e-06    -0.000228746         0.117206       0.0833612      0.000169695     9.49329e-05        -0.982491        0.114777
                        -0.98299        0.113925      0.000143972     8.44851e-05       -0.0947323        0.108783     -9.94751e-05    -0.000158474
                    -0.000132942      0.00011314        -0.982666        0.114408     -9.82394e-06    -9.63572e-05       -0.0950305        0.108083
281701.6                0.117058       0.0841482      2.57042e-05    -0.000220482        -0.982494        0.114327     -0.000145338     0.000139169
                     7.94823e-06    -0.000228743         0.117206       0.0833551      0.000169699     9.49262e-05        -0.982488        0.114803
                       -0.982987        0.113951      0.000143978     8.44774e-05       -0.0947285        0.108782     -9.94779e-05    -0.000158477
                    -0.000132943     0.000113152        -0.982664        0.114434     -9.82141e-06    -9.63573e-05       -0.0950267        0.108082
281701.7                0.117058       0.0841421      2.56971e-05    -0.000220481        -0.982491        0.114353     -0.000145336     0.000139173
                     7.94608e-06    -0.000228739         0.117207        0.083349      0.000169702     9.49195e-05        -0.982486        0.114829
                       -0.982985        0.113977      0.000143983     8.44697e-05       -0.0947246        0.108782     -9.94806e-05    -0.000158481
                    -0.000132944     0.000113165        -0.982661         0.11446     -9.81889e-06    -9.63574e-05       -0.0950228        0.108081
281701.8                0.117059        0.084136      2.56901e-05    -0.000220481        -0.982489        0.114379     -0.000145334     0.000139176
                     7.94393e-06    -0.000228736         0.117207       0.0833429      0.000169706     9.49128e-05        -0.982483        0.114855
                       -0.982982        0.114003      0.000143989      8.4462e-05       -0.0947208        0.108781     -9.94833e-05    -0.000158484
                    -0.000132945     0.000113177        -0.982659        0.114486     -9.81636e-06    -9.63575e-05        -0.095019         0.10808
281701.9                0.117059       0.0841298      2.56831e-05     -0.00022048        -0.982486        0.114405     -0.000145332      0.00013918
                     7.94178e-06    -0.000228733         0.117208       0.0833367       0.00016971     9.49061e-05        -0.982481        0.114881
                       -0.982979        0.114029      0.000143994     8.44543e-05       -0.0947169         0.10878      -9.9486e-05    -0.000158488
                    -0.000132946     0.000113189        -0.982656        0.114512     -9.81384e-06    -9.63576e-05       -0.0950152        0.108079
281702                   0.11706       0.0841237      2.56761e-05    -0.000220479        -0.982484        0.114431      -0.00014533     0.000139183
                     7.93963e-06    -0.000228729         0.117208       0.0833306      0.000169713     9.48994e-05        -0.982478        0.114907
                       -0.982977        0.114055         0.000144     8.44466e-05       -0.0947131        0.108779     -9.94888e-05    -0.000158491
                    -0.000132947     0.000113201        -0.982654        0.114538     -9.81131e-06    -9.63578e-05       -0.0950113        0.108079
281702.1                 0.11706       0.0841176      2.56691e-05    -0.000220479        -0.982481        0.114457     -0.000145328     0.000139187
                     7.93748e-06    -0.000228726         0.117209       0.0833245      0.000169717     9.48927e-05        -0.982476        0.114934
                       -0.982974        0.114081      0.000144005      8.4439e-05       -0.0947092        0.108778     -9.94915e-05    -0.000158494
                    -0.000132948     0.000113213        -0.982651        0.114564     -9.80879e-06    -9.63579e-05       -0.0950075        0.108078
281702.2                0.117061       0.0841115      2.56621e-05    -0.000220478        -0.982479        0.114483     -0.000145326      0.00013919
                     7.93533e-06    -0.000228723         0.117209       0.0833183      0.000169721      9.4886e-05        -0.982473         0.11496
                       -0.982972        0.114107      0.000144011     8.44313e-05       -0.0947053        0.108777     -9.94942e-05    -0.000158498
                    -0.000132949     0.000113225        -0.982649         0.11459     -9.80627e-06     -9.6358e-05       -0.0950036        0.108077
281702.3                0.117061       0.0841054      2.56551e-05    -0.000220477        -0.982476        0.114509     -0.000145324     0.000139193
                     7.93318e-06    -0.000228719          0.11721       0.0833122      0.000169724     9.48793e-05        -0.982471        0.114986
                       -0.982969        0.114133      0.000144016     8.44236e-05       -0.0947015        0.108776      -9.9497e-05    -0.000158501
                     -0.00013295     0.000113237        -0.982646        0.114616     -9.80375e-06    -9.63581e-05       -0.0949998        0.108076
281702.4                0.117062       0.0840993      2.56481e-05    -0.000220477        -0.982473        0.114535     -0.000145322     0.000139197
                     7.93104e-06    -0.000228716          0.11721       0.0833061      0.000169728     9.48726e-05        -0.982468        0.115012
                       -0.982966        0.114159      0.000144022     8.44159e-05       -0.0946976        0.108776     -9.94997e-05    -0.000158505
                    -0.000132951     0.000113249        -0.982643        0.114642     -9.80122e-06    -9.63582e-05        -0.094996        0.108075
281702.5                0.117062       0.0840931      2.56411e-05    -0.000220476        -0.982471         0.11456      -0.00014532       0.0001392
                     7.92889e-06    -0.000228713         0.117211       0.0832999      0.000169732     9.48659e-05        -0.982465        0.115038
                       -0.982964        0.114185      0.000144028     8.44082e-05       -0.0946938        0.108775     -9.95024e-05    -0.000158508
                    -0.000132952     0.000113261        -0.982641        0.114668      -9.7987e-06    -9.63583e-05       -0.0949921        0.108074
281702.6                0.117063        0.084087      2.56341e-05    -0.000220475        -0.982468        0.114586     -0.000145318     0.000139204
                     7.92674e-06    -0.000228709         0.117211       0.0832938      0.000169735     9.48592e-05        -0.982463        0.115064
                       -0.982961        0.114211      0.000144033     8.44005e-05       -0.0946899        0.108774     -9.95051e-05    -0.000158512
                    -0.000132953     0.000113274        -0.982638        0.114694     -9.79618e-06    -9.63585e-05       -0.0949883        0.108073
281702.7                0.117063       0.0840809      2.56271e-05    -0.000220475        -0.982466        0.114612     -0.000145316     0.000139207
                      7.9246e-06    -0.000228706         0.117212       0.0832877      0.000169739     9.48525e-05         -0.98246         0.11509
                       -0.982959        0.114237      0.000144039     8.43928e-05       -0.0946861        0.108773     -9.95079e-05    -0.000158515
                    -0.000132954     0.000113286        -0.982636         0.11472     -9.79366e-06    -9.63586e-05       -0.0949845        0.108073
281702.8                0.117064       0.0840748      2.56201e-05    -0.000220474        -0.982463        0.114638     -0.000145315     0.000139211
                     7.92245e-06    -0.000228703         0.117212       0.0832815      0.000169743     9.48458e-05        -0.982458        0.115116
                       -0.982956        0.114263      0.000144044     8.43851e-05       -0.0946822        0.108772     -9.95106e-05    -0.000158518
                    -0.000132956     0.000113298        -0.982633        0.114746     -9.79114e-06    -9.63587e-05       -0.0949806        0.108072
281702.9                0.117064       0.0840687      2.56131e-05    -0.000220473        -0.982461        0.114664     -0.000145313     0.000139214
                      7.9203e-06      -0.0002287         0.117212       0.0832754      0.000169746     9.48391e-05        -0.982455        0.115142
                       -0.982953        0.114289       0.00014405     8.43774e-05       -0.0946783        0.108771     -9.95133e-05    -0.000158522
                    -0.000132957      0.00011331        -0.982631        0.114772     -9.78862e-06    -9.63588e-05       -0.0949768        0.108071
281703                  0.117064       0.0840625      2.56061e-05    -0.000220473        -0.982458         0.11469     -0.000145311     0.000139217
                     7.91816e-06    -0.000228696         0.117213       0.0832693       0.00016975     9.48324e-05        -0.982453        0.115168
                       -0.982951        0.114315      0.000144055     8.43697e-05       -0.0946745         0.10877      -9.9516e-05    -0.000158525
                    -0.000132958     0.000113322        -0.982628        0.114798      -9.7861e-06    -9.63589e-05        -0.094973         0.10807
281703.1                0.117065       0.0840564      2.55991e-05    -0.000220472        -0.982456        0.114716     -0.000145309     0.000139221
                     7.91601e-06    -0.000228693         0.117213       0.0832631      0.000169754     9.48257e-05         -0.98245        0.115194
                       -0.982948        0.114341      0.000144061      8.4362e-05       -0.0946706         0.10877     -9.95188e-05    -0.000158529
