! TOUCHSTONE file generated by CST MICROWAVE STUDIO
! Date and time: Wed Oct  8 06:56:11 2025
! Project name: Teste_Macro_Metasurface_Nanopilar.cst
! Parameters = {H=600; L_x=115; L_y=130; Lambda=1064; Max_L=200; Min_L=70; PathPara=1; Phi=0; Step_L=10; Theta=0; p=520; phaseX=180; phaseY=0}
! Header version: 2018
! Port assignment regex: !\s*Touchstone port\s*([0-9]+)\s*=\s*(CST MWS port|CST DS port)\s*([0-9]+|Zmin|Zmax)\s*\(\"(.*)\"\)(\s*mode\s*([0-9]+))?.*
! Touchstone port assignment:
! Touchstone port 1 = CST MWS port Zmax ("") mode 1
! Touchstone port 2 = CST MWS port Zmax ("") mode 2
! Touchstone port 3 = CST MWS port Zmin ("") mode 1
! Touchstone port 4 = CST MWS port Zmin ("") mode 2
! S-Parameters are not renormalized. Each port impedance will be approximated by the real part at minimum frequency. The values are described via the [Reference] keyword.
! Default impedance is overridden by [Reference]
[Version] 2.0
# GHz S RI R 376.73
[Number of Ports] 4
[Reference]
376.73 376.73 376.73 376.73 
[Number of Frequencies] 1001
[Network Data]
281700                 -0.127879       -0.176532       -1.381e-05    -8.41501e-05         0.403204       -0.879762      0.000144951     0.000250143
                     3.50008e-07    -4.22959e-05         0.052171      0.00148401      0.000233035     0.000202686         0.980876       -0.120718
                        0.403313       -0.879734      0.000266654     7.18482e-05        -0.218711       0.0205431     -8.36563e-06     0.000116261
                     0.000129764     0.000286226         0.980932        -0.12104     -2.98846e-05     1.55831e-05       -0.0555245       0.0159034
281700.1               -0.127887       -0.176527     -1.38093e-05    -8.41415e-05         0.403175       -0.879775      0.000144977     0.000250133
                     1.14487e-07    -4.24621e-05        0.0521703      0.00147578      0.000233043     0.000202665         0.980872       -0.120753
                        0.403284       -0.879747      0.000266648     7.18524e-05        -0.218711        0.020548     -8.33991e-06     0.000116257
                     0.000129834     0.000286355         0.980928       -0.121075     -2.98828e-05     1.55745e-05       -0.0555247        0.015899
281700.2               -0.127895       -0.176522     -1.38087e-05    -8.41328e-05         0.403147       -0.879788      0.000145003     0.000250124
                    -3.00546e-08    -4.25648e-05        0.0521696      0.00146755      0.000233051     0.000202645         0.980868       -0.120788
                        0.403255        -0.87976      0.000266643     7.18565e-05        -0.218711       0.0205529      -8.3143e-06     0.000116252
                     0.000129889     0.000286429         0.980924        -0.12111     -2.98807e-05     1.55664e-05        -0.055525       0.0158946
281700.3               -0.127903       -0.176517      -1.3808e-05    -8.41242e-05         0.403118       -0.879801      0.000145028     0.000250115
                    -8.04689e-08    -4.26027e-05        0.0521689      0.00145932       0.00023306     0.000202625         0.980864       -0.120823
                        0.403227       -0.879773      0.000266637     7.18607e-05        -0.218711       0.0205577      -8.2888e-06     0.000116248
                     0.000129927     0.000286445         0.980919       -0.121145     -2.98783e-05     1.55587e-05       -0.0555252       0.0158901
281700.4               -0.127911       -0.176512     -1.38073e-05    -8.41156e-05         0.403089       -0.879814      0.000145054     0.000250106
                    -3.45586e-08    -4.25749e-05        0.0521682      0.00145109       0.00023307     0.000202605         0.980859       -0.120858
                        0.403198       -0.879786      0.000266632     7.18648e-05        -0.218712       0.0205626     -8.26342e-06     0.000116243
                      0.00012995     0.000286404         0.980915        -0.12118     -2.98758e-05     1.55514e-05       -0.0555254       0.0158857
281700.5               -0.127918       -0.176508     -1.38067e-05    -8.41069e-05         0.403061       -0.879827      0.000145079     0.000250098
                     1.08855e-07    -4.24807e-05        0.0521675      0.00144286       0.00023308     0.000202586         0.980855       -0.120893
                        0.403169       -0.879799      0.000266626      7.1869e-05        -0.218712       0.0205675     -8.23815e-06     0.000116239
                     0.000129955     0.000286303         0.980911       -0.121215     -2.98732e-05     1.55444e-05       -0.0555257       0.0158813
281700.6               -0.127926       -0.176503      -1.3806e-05    -8.40983e-05         0.403032        -0.87984      0.000145103      0.00025009
                     3.49884e-07    -4.23198e-05        0.0521668      0.00143463       0.00023309     0.000202567         0.980851       -0.120928
                        0.403141       -0.879812      0.000266621     7.18732e-05        -0.218712       0.0205724       -8.213e-06     0.000116234
                     0.000129945     0.000286142         0.980907        -0.12125     -2.98705e-05     1.55376e-05       -0.0555259       0.0158769
281700.7               -0.127934       -0.176498     -1.38054e-05    -8.40897e-05         0.403003       -0.879853      0.000145128     0.000250082
                     6.87561e-07    -4.20921e-05        0.0521661       0.0014264        0.0002331     0.000202548         0.980847       -0.120962
                        0.403112       -0.879825      0.000266615     7.18773e-05        -0.218712       0.0205772     -8.18796e-06      0.00011623
                     0.000129918     0.000285921         0.980902       -0.121284     -2.98676e-05      1.5531e-05       -0.0555261       0.0158724
281700.8               -0.127942       -0.176493     -1.38047e-05     -8.4081e-05         0.402975       -0.879866      0.000145153     0.000250074
                     1.11984e-06    -4.17979e-05        0.0521654      0.00141817      0.000233111     0.000202529         0.980842       -0.120997
                        0.403083       -0.879838       0.00026661     7.18815e-05        -0.218712       0.0205821     -8.16305e-06     0.000116225
                     0.000129875     0.000285637         0.980898       -0.121319     -2.98647e-05     1.55246e-05       -0.0555263        0.015868
281700.9                -0.12795       -0.176488     -1.38041e-05    -8.40724e-05         0.402946       -0.879879      0.000145177     0.000250067
                     1.64363e-06    -4.14379e-05        0.0521647      0.00140994      0.000233122     0.000202511         0.980838       -0.121032
                        0.403054       -0.879851      0.000266604     7.18857e-05        -0.218712        0.020587     -8.13825e-06     0.000116221
                     0.000129816     0.000285292         0.980894       -0.121354     -2.98616e-05     1.55183e-05       -0.0555266       0.0158636
281701                 -0.127958       -0.176483     -1.38034e-05    -8.40637e-05         0.402917       -0.879892      0.000145202      0.00025006
                     2.25485e-06    -4.10132e-05         0.052164      0.00140171      0.000233133     0.000202492         0.980834       -0.121067
                        0.403026       -0.879864      0.000266599     7.18898e-05        -0.218712       0.0205918     -8.11357e-06     0.000116216
                     0.000129743     0.000284883          0.98089       -0.121389     -2.98586e-05     1.55122e-05       -0.0555268       0.0158592
281701.1               -0.127966       -0.176478     -1.38028e-05    -8.40551e-05         0.402889       -0.879905      0.000145227     0.000250053
                     2.94854e-06     -4.0525e-05        0.0521633      0.00139348      0.000233144     0.000202474          0.98083       -0.121102
                        0.402997       -0.879877      0.000266593      7.1894e-05        -0.218713       0.0205967       -8.089e-06     0.000116212
                     0.000129655     0.000284412         0.980885       -0.121424     -2.98554e-05     1.55062e-05       -0.0555271       0.0158547
281701.2               -0.127974       -0.176473     -1.38021e-05    -8.40464e-05          0.40286       -0.879918      0.000145252     0.000250046
                     3.71894e-06    -3.99751e-05        0.0521626      0.00138525      0.000233156     0.000202456         0.980825       -0.121137
                        0.402968        -0.87989      0.000266588     7.18982e-05        -0.218713       0.0206016     -8.06453e-06     0.000116207
                     0.000129553     0.000283877         0.980881       -0.121459     -2.98522e-05     1.55003e-05       -0.0555273       0.0158503
281701.3               -0.127982       -0.176468     -1.38015e-05    -8.40377e-05         0.402831       -0.879931      0.000145277      0.00025004
                     4.55961e-06    -3.93656e-05        0.0521619      0.00137702      0.000233167     0.000202437         0.980821       -0.121172
                         0.40294       -0.879903      0.000266582     7.19023e-05        -0.218713       0.0206064     -8.04017e-06     0.000116203
                      0.00012944     0.000283278         0.980877       -0.121494      -2.9849e-05     1.54944e-05       -0.0555275       0.0158459
281701.4                -0.12799       -0.176463     -1.38008e-05    -8.40291e-05         0.402802       -0.879944      0.000145302     0.000250033
                     5.46356e-06    -3.86991e-05        0.0521612      0.00136879      0.000233179     0.000202419         0.980817       -0.121207
                        0.402911       -0.879916      0.000266577     7.19065e-05        -0.218713       0.0206113      -8.0159e-06     0.000116199
                     0.000129314     0.000282616         0.980873       -0.121528     -2.98457e-05     1.54887e-05       -0.0555278       0.0158415
281701.5               -0.127998       -0.176458     -1.38002e-05    -8.40204e-05         0.402774       -0.879957      0.000145328     0.000250027
                     6.42343e-06    -3.79781e-05        0.0521605      0.00136056       0.00023319     0.000202401         0.980813       -0.121241
                        0.402883       -0.879929      0.000266571     7.19107e-05        -0.218713       0.0206162     -7.99173e-06     0.000116194
                     0.000129179     0.000281891         0.980868       -0.121563     -2.98424e-05      1.5483e-05        -0.055528        0.015837
281701.6               -0.128006       -0.176453     -1.37996e-05    -8.40117e-05         0.402745        -0.87997      0.000145353     0.000250021
                      7.4316e-06     -3.7206e-05        0.0521598      0.00135233      0.000233202     0.000202383         0.980808       -0.121276
                        0.402854       -0.879942      0.000266566     7.19149e-05        -0.218713        0.020621     -7.96763e-06      0.00011619
                     0.000129036     0.000281102         0.980864       -0.121598      -2.9839e-05     1.54774e-05       -0.0555282       0.0158326
281701.7               -0.128014       -0.176448     -1.37989e-05    -8.40031e-05         0.402716       -0.879983      0.000145379     0.000250015
                     8.48033e-06    -3.63862e-05        0.0521591       0.0013441      0.000233214     0.000202365         0.980804       -0.121311
                        0.402825       -0.879955       0.00026656      7.1919e-05        -0.218714       0.0206259     -7.94361e-06     0.000116186
                     0.000128885     0.000280251          0.98086       -0.121633     -2.98357e-05     1.54718e-05       -0.0555285       0.0158282
281701.8               -0.128021       -0.176444     -1.37983e-05    -8.39944e-05         0.402688       -0.879996      0.000145404     0.000250009
                      9.5619e-06    -3.55222e-05        0.0521584      0.00133587      0.000233225     0.000202347           0.9808       -0.121346
                        0.402797       -0.879968      0.000266555     7.19232e-05        -0.218714       0.0206308     -7.91966e-06     0.000116182
                     0.000128729     0.000279338         0.980855       -0.121668     -2.98322e-05     1.54663e-05       -0.0555287       0.0158238
281701.9               -0.128029       -0.176439     -1.37976e-05    -8.39857e-05         0.402659       -0.880009       0.00014543     0.000250002
                     1.06688e-05    -3.46181e-05        0.0521577      0.00132765      0.000233237     0.000202329         0.980796       -0.121381
                        0.402768       -0.879981      0.000266549     7.19274e-05        -0.218714       0.0206357     -7.89576e-06     0.000116178
                      0.00012857     0.000278365         0.980851       -0.121703     -2.98288e-05     1.54608e-05       -0.0555289       0.0158193
281702                 -0.128037       -0.176434      -1.3797e-05    -8.39771e-05          0.40263       -0.880022      0.000145456     0.000249996
                     1.17936e-05     -3.3678e-05         0.052157      0.00131942      0.000233249     0.000202311         0.980791       -0.121416
                        0.402739       -0.879994      0.000266544     7.19315e-05        -0.218714       0.0206405     -7.87192e-06     0.000116174
                     0.000128409     0.000277331         0.980847       -0.121738     -2.98254e-05     1.54553e-05       -0.0555292       0.0158149
281702.1               -0.128045       -0.176429     -1.37964e-05    -8.39684e-05         0.402602       -0.880035      0.000145482      0.00024999
                     1.29294e-05     -3.2706e-05        0.0521563      0.00131119      0.000233261     0.000202294         0.980787       -0.121451
                        0.402711       -0.880007      0.000266538     7.19357e-05        -0.218714       0.0206454     -7.84813e-06      0.00011617
                     0.000128248     0.000276238         0.980843       -0.121772     -2.98219e-05     1.54499e-05       -0.0555294       0.0158105
281702.2               -0.128053       -0.176424     -1.37957e-05    -8.39597e-05         0.402573       -0.880048      0.000145508     0.000249984
                     1.40698e-05    -3.17065e-05        0.0521556      0.00130296      0.000233273     0.000202276         0.980783       -0.121485
                        0.402682        -0.88002      0.000266533     7.19399e-05        -0.218714       0.0206503     -7.82437e-06     0.000116167
                      0.00012809     0.000275088         0.980838       -0.121807     -2.98184e-05     1.54446e-05       -0.0555296       0.0158061
281702.3               -0.128061       -0.176419     -1.37951e-05     -8.3951e-05         0.402544       -0.880061      0.000145534     0.000249978
                     1.52086e-05    -3.06837e-05        0.0521549      0.00129473      0.000233285     0.000202258         0.980779        -0.12152
                        0.402653       -0.880033      0.000266527     7.19441e-05        -0.218715       0.0206551     -7.80064e-06     0.000116163
                     0.000127936     0.000273882         0.980834       -0.121842     -2.98149e-05     1.54392e-05       -0.0555299       0.0158017
281702.4               -0.128069       -0.176414     -1.37945e-05    -8.39423e-05         0.402516       -0.880074       0.00014556     0.000249971
                     1.63404e-05     -2.9642e-05        0.0521542       0.0012865      0.000233297      0.00020224         0.980774       -0.121555
                        0.402625       -0.880045      0.000266522     7.19483e-05        -0.218715         0.02066     -7.77694e-06     0.000116159
                     0.000127789     0.000272622          0.98083       -0.121877     -2.98114e-05     1.54339e-05       -0.0555301       0.0157972
281702.5               -0.128077       -0.176409     -1.37939e-05    -8.39336e-05         0.402487       -0.880087      0.000145586     0.000249965
                     1.74602e-05    -2.85856e-05        0.0521534      0.00127827      0.000233309     0.000202223          0.98077        -0.12159
                        0.402596       -0.880058      0.000266516     7.19524e-05        -0.218715       0.0206649     -7.75325e-06     0.000116156
                     0.000127649     0.000271309         0.980826       -0.121912     -2.98078e-05     1.54286e-05       -0.0555304       0.0157928
281702.6               -0.128085       -0.176404     -1.37932e-05    -8.39249e-05         0.402458         -0.8801      0.000145613     0.000249959
                     1.85637e-05    -2.75185e-05        0.0521527      0.00127005      0.000233322     0.000202205         0.980766       -0.121625
                        0.402567       -0.880071       0.00026651     7.19566e-05        -0.218715       0.0206697     -7.72957e-06     0.000116152
                     0.000127521     0.000269947         0.980821       -0.121947     -2.98043e-05     1.54233e-05       -0.0555306       0.0157884
281702.7               -0.128093       -0.176399     -1.37926e-05    -8.39162e-05         0.402429       -0.880113      0.000145639     0.000249952
                      1.9647e-05    -2.64447e-05         0.052152      0.00126182      0.000233334     0.000202187         0.980762        -0.12166
                        0.402539       -0.880084      0.000266505     7.19608e-05        -0.218715       0.0206746     -7.70589e-06     0.000116149
                     0.000127405     0.000268537         0.980817       -0.121982     -2.98007e-05     1.54181e-05       -0.0555308        0.015784
281702.8                 -0.1281       -0.176394      -1.3792e-05    -8.39075e-05         0.402401       -0.880126      0.000145665     0.000249946
                      2.0707e-05    -2.53679e-05        0.0521513      0.00125359      0.000233346      0.00020217         0.980757       -0.121695
                         0.40251       -0.880097      0.000266499      7.1965e-05        -0.218715       0.0206795     -7.68222e-06     0.000116146
                     0.000127303     0.000267081         0.980813       -0.122016     -2.97971e-05     1.54129e-05       -0.0555311       0.0157795
281702.9               -0.128108       -0.176389     -1.37914e-05    -8.38988e-05         0.402372       -0.880139      0.000145692      0.00024994
                     2.17409e-05    -2.42917e-05        0.0521506      0.00124536      0.000233358     0.000202152         0.980753        -0.12173
                        0.402482        -0.88011      0.000266494     7.19692e-05        -0.218715       0.0206843     -7.65854e-06     0.000116142
                     0.000127218     0.000265583         0.980808       -0.122051     -2.97936e-05     1.54077e-05       -0.0555313       0.0157751
281703                 -0.128116       -0.176384     -1.37907e-05    -8.38901e-05         0.402343       -0.880152      0.000145718     0.000249933
                     2.27466e-05    -2.32192e-05        0.0521499      0.00123713       0.00023337     0.000202134         0.980749       -0.121764
                        0.402453       -0.880123      0.000266488     7.19734e-05        -0.218716       0.0206892     -7.63485e-06     0.000116139
                     0.000127151     0.000264044         0.980804       -0.122086       -2.979e-05     1.54025e-05       -0.0555316       0.0157707
281703.1               -0.128124       -0.176379     -1.37901e-05    -8.38814e-05         0.402315       -0.880165      0.000145744     0.000249927
                     2.37223e-05    -2.21535e-05        0.0521492       0.0012289      0.000233383     0.000202117         0.980744       -0.121799
                        0.402424       -0.880136      0.000266482     7.19775e-05        -0.218716       0.0206941     -7.61115e-06     0.000116136
