! TOUCHSTONE file generated by CST MICROWAVE STUDIO
! Date and time: Wed Oct  8 06:52:38 2025
! Project name: Teste_Macro_Metasurface_Nanopilar.cst
! Parameters = {H=600; L_x=85; L_y=135; Lambda=1064; Max_L=200; Min_L=70; PathPara=1; Phi=0; Step_L=10; Theta=0; p=520; phaseX=180; phaseY=0}
! Header version: 2018
! Port assignment regex: !\s*Touchstone port\s*([0-9]+)\s*=\s*(CST MWS port|CST DS port)\s*([0-9]+|Zmin|Zmax)\s*\(\"(.*)\"\)(\s*mode\s*([0-9]+))?.*
! Touchstone port assignment:
! Touchstone port 1 = CST MWS port Zmax ("") mode 1
! Touchstone port 2 = CST MWS port Zmax ("") mode 2
! Touchstone port 3 = CST MWS port Zmin ("") mode 1
! Touchstone port 4 = CST MWS port Zmin ("") mode 2
! S-Parameters are not renormalized. Each port impedance will be approximated by the real part at minimum frequency. The values are described via the [Reference] keyword.
! Default impedance is overridden by [Reference]
[Version] 2.0
# GHz S RI R 376.73
[Number of Ports] 4
[Reference]
376.73 376.73 376.73 376.73 
[Number of Frequencies] 1001
[Network Data]
281700                 0.0757891        0.169218     -0.000475451    -0.000161684         0.962789        0.133673      3.18098e-05     6.00718e-05
                    -0.000701861     0.000243287        0.0471799       -0.129383      1.94609e-05    -0.000440266        -0.759042        0.633954
                        0.963289        0.134054      5.36144e-05    -0.000476697        -0.124392        0.142467     -0.000512325     0.000336679
                     0.000176379     0.000151519         -0.75932        0.634089     -0.000397094     0.000258117        -0.135987       0.0237447
281700.1               0.0757952         0.16921     -0.000475462    -0.000161669         0.962795        0.133639      3.18051e-05     6.00726e-05
                    -0.000701833     0.000243316        0.0471736       -0.129385      1.94461e-05    -0.000440273        -0.759025        0.633975
                        0.963295         0.13402      5.35969e-05    -0.000476698        -0.124386        0.142466     -0.000512312     0.000336704
                     0.000176376     0.000151516        -0.759303        0.634109     -0.000397089     0.000258131        -0.135986       0.0237456
281700.2               0.0758013        0.169201     -0.000475473    -0.000161653           0.9628        0.133606      3.18003e-05     6.00733e-05
                    -0.000701805     0.000243345        0.0471673       -0.129387      1.94314e-05     -0.00044028        -0.759007        0.633996
                          0.9633        0.133987      5.35794e-05    -0.000476699         -0.12438        0.142465     -0.000512299     0.000336729
                     0.000176373     0.000151514        -0.759286         0.63413     -0.000397083     0.000258144        -0.135986       0.0237464
281700.3               0.0758073        0.169193     -0.000475484    -0.000161638         0.962806        0.133572      3.17955e-05      6.0074e-05
                    -0.000701776     0.000243374         0.047161       -0.129388      1.94166e-05    -0.000440287         -0.75899        0.634016
                        0.963306        0.133953      5.35619e-05      -0.0004767        -0.124373        0.142464     -0.000512286     0.000336754
                     0.000176371     0.000151512        -0.759269        0.634151     -0.000397077     0.000258158        -0.135985       0.0237473
281700.4               0.0758134        0.169185     -0.000475494    -0.000161623         0.962812        0.133539      3.17907e-05     6.00748e-05
                    -0.000701748     0.000243404        0.0471547        -0.12939      1.94018e-05    -0.000440294        -0.758973        0.634037
                        0.963311         0.13392      5.35444e-05    -0.000476702        -0.124367        0.142463     -0.000512273     0.000336779
                     0.000176368      0.00015151        -0.759251        0.634172     -0.000397072     0.000258172        -0.135985       0.0237481
281700.5               0.0758195        0.169177     -0.000475505    -0.000161607         0.962817        0.133505       3.1786e-05     6.00755e-05
                     -0.00070172     0.000243433        0.0471484       -0.129392       1.9387e-05    -0.000440301        -0.758956        0.634058
                        0.963317        0.133886      5.35269e-05    -0.000476703        -0.124361        0.142462      -0.00051226     0.000336804
                     0.000176365     0.000151508        -0.759234        0.634192     -0.000397066     0.000258186        -0.135984        0.023749
281700.6               0.0758256        0.169168     -0.000475516    -0.000161592         0.962823        0.133472      3.17812e-05     6.00763e-05
                    -0.000701692     0.000243462        0.0471421       -0.129394      1.93722e-05    -0.000440308        -0.758938        0.634079
                        0.963323        0.133853      5.35094e-05    -0.000476704        -0.124354         0.14246     -0.000512247     0.000336829
                     0.000176363     0.000151506        -0.759217        0.634213      -0.00039706       0.0002582        -0.135984       0.0237499
281700.7               0.0758317         0.16916     -0.000475526    -0.000161576         0.962828        0.133438      3.17764e-05      6.0077e-05
                    -0.000701663     0.000243491        0.0471357       -0.129396      1.93574e-05    -0.000440315        -0.758921        0.634099
                        0.963328        0.133819      5.34919e-05    -0.000476705        -0.124348        0.142459     -0.000512235     0.000336854
                      0.00017636     0.000151504          -0.7592        0.634234     -0.000397055     0.000258214        -0.135983       0.0237507
281700.8               0.0758378        0.169152     -0.000475537    -0.000161561         0.962834        0.133405      3.17717e-05     6.00778e-05
                    -0.000701635      0.00024352        0.0471294       -0.129398      1.93426e-05    -0.000440322        -0.758904         0.63412
                        0.963334        0.133786      5.34744e-05    -0.000476706        -0.124342        0.142458     -0.000512222     0.000336879
                     0.000176357     0.000151502        -0.759182        0.634255     -0.000397049     0.000258228        -0.135983       0.0237516
281700.9               0.0758439        0.169143     -0.000475548    -0.000161546          0.96284        0.133371      3.17669e-05     6.00785e-05
                    -0.000701607     0.000243549        0.0471231         -0.1294      1.93278e-05    -0.000440329        -0.758886        0.634141
                         0.96334        0.133752      5.34568e-05    -0.000476708        -0.124335        0.142457     -0.000512209     0.000336905
                     0.000176354       0.0001515        -0.759165        0.634275     -0.000397043     0.000258242        -0.135982       0.0237524
281701                 0.0758499        0.169135     -0.000475559     -0.00016153         0.962845        0.133337      3.17621e-05     6.00793e-05
                    -0.000701578     0.000243578        0.0471168       -0.129402      1.93129e-05    -0.000440336        -0.758869        0.634161
                        0.963345        0.133719      5.34393e-05    -0.000476709        -0.124329        0.142456     -0.000512196      0.00033693
                     0.000176352     0.000151498        -0.759148        0.634296     -0.000397038     0.000258256        -0.135982       0.0237533
281701.1                0.075856        0.169127     -0.000475569    -0.000161515         0.962851        0.133304      3.17574e-05     6.00801e-05
                     -0.00070155     0.000243607        0.0471105       -0.129404      1.92981e-05    -0.000440343        -0.758852        0.634182
                        0.963351        0.133685      5.34218e-05     -0.00047671        -0.124323        0.142455     -0.000512183     0.000336955
                     0.000176349     0.000151495        -0.759131        0.634317     -0.000397032     0.000258269        -0.135981       0.0237542
281701.2               0.0758621        0.169119      -0.00047558      -0.0001615         0.962856         0.13327      3.17526e-05     6.00808e-05
                    -0.000701522     0.000243636        0.0471042       -0.129406      1.92833e-05     -0.00044035        -0.758835        0.634203
                        0.963356        0.133652      5.34043e-05    -0.000476711        -0.124316        0.142454      -0.00051217      0.00033698
                     0.000176346     0.000151493        -0.759113        0.634337     -0.000397026     0.000258283        -0.135981        0.023755
281701.3               0.0758682         0.16911     -0.000475591    -0.000161484         0.962862        0.133237      3.17479e-05     6.00816e-05
                    -0.000701493     0.000243666        0.0470979       -0.129408      1.92685e-05    -0.000440357        -0.758817        0.634224
                        0.963362        0.133618      5.33868e-05    -0.000476712         -0.12431        0.142453     -0.000512157     0.000337005
                     0.000176343     0.000151491        -0.759096        0.634358     -0.000397021     0.000258297         -0.13598       0.0237559
281701.4               0.0758743        0.169102     -0.000475601    -0.000161469         0.962868        0.133203      3.17431e-05     6.00824e-05
                    -0.000701465     0.000243695        0.0470916        -0.12941      1.92537e-05    -0.000440364          -0.7588        0.634244
                        0.963368        0.133585      5.33693e-05    -0.000476713        -0.124304        0.142451     -0.000512144      0.00033703
                     0.000176341     0.000151489        -0.759079        0.634379     -0.000397015     0.000258311        -0.135979       0.0237567
281701.5               0.0758804        0.169094     -0.000475612    -0.000161453         0.962873         0.13317      3.17384e-05     6.00831e-05
                    -0.000701437     0.000243724        0.0470853       -0.129411      1.92389e-05    -0.000440371        -0.758783        0.634265
                        0.963373        0.133551      5.33518e-05    -0.000476715        -0.124297         0.14245     -0.000512131     0.000337055
                     0.000176338     0.000151487        -0.759062          0.6344     -0.000397009     0.000258325        -0.135979       0.0237576
281701.6               0.0758864        0.169086     -0.000475623    -0.000161438         0.962879        0.133136      3.17336e-05     6.00839e-05
                    -0.000701409     0.000243753         0.047079       -0.129413      1.92241e-05    -0.000440378        -0.758766        0.634286
                        0.963379        0.133518      5.33343e-05    -0.000476716        -0.124291        0.142449     -0.000512118      0.00033708
                     0.000176335     0.000151485        -0.759044         0.63442     -0.000397004     0.000258339        -0.135978       0.0237584
281701.7               0.0758925        0.169077     -0.000475634    -0.000161423         0.962884        0.133103      3.17289e-05     6.00847e-05
                     -0.00070138     0.000243782        0.0470727       -0.129415      1.92093e-05    -0.000440384        -0.758748        0.634307
                        0.963384        0.133484      5.33168e-05    -0.000476717        -0.124285        0.142448     -0.000512105     0.000337105
                     0.000176333     0.000151483        -0.759027        0.634441     -0.000396998     0.000258353        -0.135978       0.0237593
281701.8               0.0758986        0.169069     -0.000475644    -0.000161407          0.96289        0.133069      3.17241e-05     6.00855e-05
                    -0.000701352     0.000243811        0.0470664       -0.129417      1.91945e-05    -0.000440391        -0.758731        0.634327
                         0.96339         0.13345      5.32993e-05    -0.000476718        -0.124278        0.142447     -0.000512093      0.00033713
                      0.00017633     0.000151481         -0.75901        0.634462     -0.000396992     0.000258367        -0.135977       0.0237602
281701.9               0.0759047        0.169061     -0.000475655    -0.000161392         0.962896        0.133036      3.17194e-05     6.00863e-05
                    -0.000701324      0.00024384        0.0470601       -0.129419      1.91797e-05    -0.000440398        -0.758714        0.634348
                        0.963396        0.133417      5.32817e-05    -0.000476719        -0.124272        0.142446      -0.00051208     0.000337155
                     0.000176327     0.000151479        -0.758993        0.634482     -0.000396987      0.00025838        -0.135977        0.023761
281702                 0.0759108        0.169053     -0.000475666    -0.000161376         0.962901        0.133002      3.17146e-05     6.00871e-05
                    -0.000701295     0.000243869        0.0470538       -0.129421      1.91649e-05    -0.000440405        -0.758697        0.634369
                        0.963401        0.133383      5.32642e-05     -0.00047672        -0.124266        0.142445     -0.000512067      0.00033718
                     0.000176324     0.000151477        -0.758975        0.634503     -0.000396981     0.000258394        -0.135976       0.0237619
281702.1               0.0759168        0.169044     -0.000475676    -0.000161361         0.962907        0.132969      3.17099e-05     6.00878e-05
                    -0.000701267     0.000243898        0.0470475       -0.129423      1.91501e-05    -0.000440412        -0.758679         0.63439
                        0.963407         0.13335      5.32467e-05    -0.000476722         -0.12426        0.142443     -0.000512054     0.000337205
                     0.000176322     0.000151475        -0.758958        0.634524     -0.000396975     0.000258408        -0.135976       0.0237627
281702.2               0.0759229        0.169036     -0.000475687    -0.000161346         0.962912        0.132935      3.17051e-05     6.00886e-05
                    -0.000701239     0.000243927        0.0470412       -0.129425      1.91353e-05    -0.000440419        -0.758662         0.63441
                        0.963413        0.133316      5.32292e-05    -0.000476723        -0.124253        0.142442     -0.000512041      0.00033723
                     0.000176319     0.000151473        -0.758941        0.634545      -0.00039697     0.000258422        -0.135975       0.0237636
281702.3                0.075929        0.169028     -0.000475698     -0.00016133         0.962918        0.132901      3.17004e-05     6.00894e-05
                     -0.00070121     0.000243956        0.0470349       -0.129427      1.91205e-05    -0.000440426        -0.758645        0.634431
                        0.963418        0.133283      5.32117e-05    -0.000476724        -0.124247        0.142441     -0.000512028     0.000337255
                     0.000176316      0.00015147        -0.758924        0.634565     -0.000396964     0.000258436        -0.135975       0.0237645
281702.4               0.0759351        0.169019     -0.000475709    -0.000161315         0.962923        0.132868      3.16957e-05     6.00902e-05
                    -0.000701182     0.000243985        0.0470286       -0.129429      1.91057e-05    -0.000440433        -0.758627        0.634452
                        0.963424        0.133249      5.31942e-05    -0.000476725        -0.124241         0.14244     -0.000512015      0.00033728
                     0.000176314     0.000151468        -0.758906        0.634586     -0.000396958      0.00025845        -0.135974       0.0237653
281702.5               0.0759412        0.169011     -0.000475719      -0.0001613         0.962929        0.132834      3.16909e-05      6.0091e-05
                    -0.000701154     0.000244014        0.0470223       -0.129431      1.90908e-05     -0.00044044         -0.75861        0.634472
                        0.963429        0.133216      5.31767e-05    -0.000476726        -0.124234        0.142439     -0.000512002     0.000337305
                     0.000176311     0.000151466        -0.758889        0.634607     -0.000396953     0.000258464        -0.135974       0.0237662
281702.6               0.0759472        0.169003      -0.00047573    -0.000161284         0.962935        0.132801      3.16862e-05     6.00918e-05
                    -0.000701125     0.000244043         0.047016       -0.129432       1.9076e-05    -0.000440447        -0.758593        0.634493
                        0.963435        0.133182      5.31591e-05    -0.000476727        -0.124228        0.142438     -0.000511989     0.000337331
                     0.000176308     0.000151464        -0.758872        0.634627     -0.000396947     0.000258478        -0.135973        0.023767
281702.7               0.0759533        0.168995     -0.000475741    -0.000161269          0.96294        0.132767      3.16815e-05     6.00926e-05
                    -0.000701097     0.000244072        0.0470097       -0.129434      1.90612e-05    -0.000440454        -0.758576        0.634514
                        0.963441        0.133149      5.31416e-05    -0.000476729        -0.124222        0.142437     -0.000511976     0.000337356
                     0.000176305     0.000151462        -0.758855        0.634648     -0.000396941     0.000258491        -0.135973       0.0237679
281702.8               0.0759594        0.168986     -0.000475751    -0.000161253         0.962946        0.132734      3.16767e-05     6.00934e-05
                    -0.000701069     0.000244101        0.0470034       -0.129436      1.90464e-05    -0.000440461        -0.758558        0.634535
                        0.963446        0.133115      5.31241e-05     -0.00047673        -0.124215        0.142436     -0.000511963     0.000337381
                     0.000176303      0.00015146        -0.758837        0.634669     -0.000396936     0.000258505        -0.135972       0.0237687
281702.9               0.0759655        0.168978     -0.000475762    -0.000161238         0.962951          0.1327       3.1672e-05     6.00943e-05
                    -0.000701041      0.00024413        0.0469971       -0.129438      1.90316e-05    -0.000440468        -0.758541        0.634555
                        0.963452        0.133082      5.31066e-05    -0.000476731        -0.124209        0.142434      -0.00051195     0.000337406
                       0.0001763     0.000151458         -0.75882         0.63469      -0.00039693     0.000258519        -0.135972       0.0237696
281703                 0.0759715         0.16897     -0.000475773    -0.000161223         0.962957        0.132667      3.16673e-05     6.00951e-05
                    -0.000701012     0.000244159        0.0469908        -0.12944      1.90168e-05    -0.000440475        -0.758524        0.634576
                        0.963457        0.133048      5.30891e-05    -0.000476732        -0.124203        0.142433     -0.000511938     0.000337431
                     0.000176297     0.000151456        -0.758803         0.63471     -0.000396924     0.000258533        -0.135971       0.0237705
281703.1               0.0759776        0.168962     -0.000475784    -0.000161207         0.962962        0.132633      3.16626e-05     6.00959e-05
                    -0.000700984     0.000244188        0.0469845       -0.129442       1.9002e-05    -0.000440482        -0.758507        0.634597
                        0.963463        0.133015      5.30716e-05    -0.000476733        -0.124196        0.142432     -0.000511925     0.000337456
