! TOUCHSTONE file generated by CST MICROWAVE STUDIO
! Date and time: Wed Oct  8 06:59:36 2025
! Project name: Teste_Macro_Metasurface_Nanopilar.cst
! Parameters = {H=600; L_x=145; L_y=90; Lambda=1064; Max_L=200; Min_L=70; PathPara=1; Phi=0; Step_L=10; Theta=0; p=520; phaseX=180; phaseY=0}
! Header version: 2018
! Port assignment regex: !\s*Touchstone port\s*([0-9]+)\s*=\s*(CST MWS port|CST DS port)\s*([0-9]+|Zmin|Zmax)\s*\(\"(.*)\"\)(\s*mode\s*([0-9]+))?.*
! Touchstone port assignment:
! Touchstone port 1 = CST MWS port Zmax ("") mode 1
! Touchstone port 2 = CST MWS port Zmax ("") mode 2
! Touchstone port 3 = CST MWS port Zmin ("") mode 1
! Touchstone port 4 = CST MWS port Zmin ("") mode 2
! S-Parameters are not renormalized. Each port impedance will be approximated by the real part at minimum frequency. The values are described via the [Reference] keyword.
! Default impedance is overridden by [Reference]
[Version] 2.0
# GHz S RI R 376.73
[Number of Ports] 4
[Reference]
376.73 376.73 376.73 376.73 
[Number of Frequencies] 1001
[Network Data]
281700                -0.0583998       -0.173809      0.000521711     0.000214676        -0.511524        0.836977      -4.0072e-05     0.000320971
                      0.00043532     0.000193031       -0.0632673       -0.182127     -0.000446009     0.000432438         0.464236       -0.854848
                       -0.511697        0.836259     -0.000302512     0.000365775        -0.181552       0.0278576     -0.000461158       -0.000306
                     -0.00012055     0.000397256         0.464153       -0.854747     -0.000526691    -0.000245817        -0.189342       0.0486728
281700.1              -0.0584067       -0.173806      0.000521712     0.000214661        -0.511501        0.836992     -4.00628e-05     0.000320975
                     0.000435323     0.000193012        -0.063276       -0.182124     -0.000445995     0.000432462         0.464208       -0.854863
                       -0.511674        0.836274     -0.000302497     0.000365786        -0.181551       0.0278605     -0.000461171    -0.000305987
                     -0.00012054     0.000397256         0.464124       -0.854762     -0.000526695    -0.000245783        -0.189341       0.0486762
281700.2              -0.0584136       -0.173804      0.000521714     0.000214646        -0.511477        0.837006     -4.00536e-05     0.000320979
                     0.000435326     0.000192993       -0.0632847       -0.182121     -0.000445981     0.000432485          0.46418       -0.854878
                        -0.51165        0.836288     -0.000302481     0.000365797        -0.181551       0.0278634     -0.000461184    -0.000305973
                     -0.00012053     0.000397257         0.464096       -0.854777     -0.000526699    -0.000245748         -0.18934       0.0486796
281700.3              -0.0584204       -0.173801      0.000521715     0.000214631        -0.511454         0.83702     -4.00444e-05     0.000320983
                     0.000435329     0.000192975       -0.0632935       -0.182118     -0.000445967     0.000432509         0.464151       -0.854894
                       -0.511627        0.836302     -0.000302466     0.000365809         -0.18155       0.0278663     -0.000461197    -0.000305959
                     -0.00012052     0.000397257         0.464068       -0.854793     -0.000526703    -0.000245713        -0.189339        0.048683
281700.4              -0.0584273       -0.173799      0.000521717     0.000214616         -0.51143        0.837035     -4.00352e-05     0.000320987
                     0.000435332     0.000192956       -0.0633022       -0.182115     -0.000445953     0.000432532         0.464123       -0.854909
                       -0.511604        0.836317      -0.00030245      0.00036582        -0.181549       0.0278692      -0.00046121    -0.000305945
                    -0.000120509     0.000397258          0.46404       -0.854808     -0.000526707    -0.000245679        -0.189338       0.0486865
281700.5              -0.0584341       -0.173796      0.000521719     0.000214601        -0.511407        0.837049      -4.0026e-05     0.000320991
                     0.000435335     0.000192937        -0.063311       -0.182112     -0.000445939     0.000432556         0.464095       -0.854924
                        -0.51158        0.836331     -0.000302434     0.000365831        -0.181549       0.0278721     -0.000461223    -0.000305931
                    -0.000120499     0.000397258         0.464012       -0.854823     -0.000526711    -0.000245644        -0.189337       0.0486899
281700.6               -0.058441       -0.173794       0.00052172     0.000214586        -0.511384        0.837063     -4.00168e-05     0.000320996
                     0.000435338     0.000192919       -0.0633197       -0.182109     -0.000445924     0.000432579         0.464067        -0.85494
                       -0.511557        0.836345     -0.000302419     0.000365842        -0.181548        0.027875     -0.000461236    -0.000305917
                    -0.000120489     0.000397258         0.463983       -0.854839     -0.000526715     -0.00024561        -0.189336       0.0486933
281700.7              -0.0584478       -0.173791      0.000521722     0.000214571         -0.51136        0.837078     -4.00076e-05        0.000321
                     0.000435342       0.0001929       -0.0633284       -0.182106      -0.00044591     0.000432602         0.464038       -0.854955
                       -0.511533         0.83636     -0.000302403     0.000365853        -0.181547       0.0278779     -0.000461249    -0.000305904
                    -0.000120479     0.000397259         0.463955       -0.854854     -0.000526719    -0.000245575        -0.189336       0.0486967
281700.8              -0.0584547       -0.173789      0.000521723     0.000214555        -0.511337        0.837092     -3.99984e-05     0.000321004
                     0.000435345     0.000192881       -0.0633372       -0.182103     -0.000445896     0.000432626          0.46401        -0.85497
                        -0.51151        0.836374     -0.000302388     0.000365864        -0.181547       0.0278808     -0.000461262     -0.00030589
                    -0.000120469     0.000397259         0.463927       -0.854869     -0.000526724     -0.00024554        -0.189335       0.0487001
281700.9              -0.0584616       -0.173786      0.000521725      0.00021454        -0.511313        0.837106     -3.99892e-05     0.000321008
                     0.000435348     0.000192863       -0.0633459       -0.182101     -0.000445882     0.000432649         0.463982       -0.854986
                       -0.511486        0.836389     -0.000302372     0.000365875        -0.181546       0.0278837     -0.000461275    -0.000305876
                    -0.000120458      0.00039726         0.463899       -0.854885     -0.000526728    -0.000245506        -0.189334       0.0487036
281701                -0.0584684       -0.173784      0.000521726     0.000214525         -0.51129        0.837121       -3.998e-05     0.000321012
                     0.000435351     0.000192844       -0.0633546       -0.182098     -0.000445868     0.000432673         0.463954       -0.855001
                       -0.511463        0.836403     -0.000302356     0.000365886        -0.181545       0.0278866     -0.000461288    -0.000305862
                    -0.000120448      0.00039726          0.46387         -0.8549     -0.000526732    -0.000245471        -0.189333        0.048707
281701.1              -0.0584753       -0.173781      0.000521728      0.00021451        -0.511266        0.837135     -3.99708e-05     0.000321016
                     0.000435354     0.000192825       -0.0633634       -0.182095     -0.000445854     0.000432696         0.463926       -0.855016
                        -0.51144        0.836417     -0.000302341     0.000365897        -0.181545       0.0278895     -0.000461301    -0.000305848
                    -0.000120438     0.000397261         0.463842       -0.854915     -0.000526736    -0.000245437        -0.189332       0.0487104
281701.2              -0.0584821       -0.173779      0.000521729     0.000214495        -0.511243        0.837149     -3.99616e-05      0.00032102
                     0.000435357     0.000192807       -0.0633721       -0.182092      -0.00044584      0.00043272         0.463897       -0.855032
                       -0.511416        0.836432     -0.000302325     0.000365908        -0.181544       0.0278924     -0.000461314    -0.000305835
                    -0.000120428     0.000397261         0.463814       -0.854931      -0.00052674    -0.000245402        -0.189331       0.0487138
281701.3               -0.058489       -0.173776      0.000521731      0.00021448         -0.51122        0.837164     -3.99524e-05     0.000321024
                      0.00043536     0.000192788       -0.0633808       -0.182089     -0.000445826     0.000432743         0.463869       -0.855047
                       -0.511393        0.836446      -0.00030231     0.000365919        -0.181543       0.0278953     -0.000461327    -0.000305821
                    -0.000120417     0.000397262         0.463786       -0.854946     -0.000526744    -0.000245367         -0.18933       0.0487172
281701.4              -0.0584958       -0.173774      0.000521732     0.000214465        -0.511196        0.837178     -3.99432e-05     0.000321029
                     0.000435363     0.000192769       -0.0633896       -0.182086     -0.000445811     0.000432766         0.463841       -0.855062
                       -0.511369         0.83646     -0.000302294      0.00036593        -0.181543       0.0278982      -0.00046134    -0.000305807
                    -0.000120407     0.000397262         0.463758       -0.854961     -0.000526748    -0.000245333        -0.189329       0.0487206
281701.5              -0.0585027       -0.173771      0.000521734      0.00021445        -0.511173        0.837192      -3.9934e-05     0.000321033
                     0.000435366     0.000192751       -0.0633983       -0.182083     -0.000445797      0.00043279         0.463813       -0.855078
                       -0.511346        0.836475     -0.000302278     0.000365941        -0.181542       0.0279011     -0.000461353    -0.000305793
                    -0.000120397     0.000397262         0.463729       -0.854977     -0.000526752    -0.000245298        -0.189329       0.0487241
281701.6              -0.0585095       -0.173769      0.000521736     0.000214435        -0.511149        0.837206     -3.99248e-05     0.000321037
                     0.000435369     0.000192732        -0.063407        -0.18208     -0.000445783     0.000432813         0.463785       -0.855093
                       -0.511322        0.836489     -0.000302263     0.000365952        -0.181542        0.027904     -0.000461366    -0.000305779
                    -0.000120387     0.000397263         0.463701       -0.854992     -0.000526756    -0.000245264        -0.189328       0.0487275
281701.7              -0.0585164       -0.173766      0.000521737      0.00021442        -0.511126        0.837221     -3.99156e-05     0.000321041
                     0.000435372     0.000192713       -0.0634158       -0.182077     -0.000445769     0.000432837         0.463756       -0.855108
                       -0.511299        0.836503     -0.000302247     0.000365963        -0.181541       0.0279069     -0.000461379    -0.000305765
                    -0.000120376     0.000397263         0.463673       -0.855007      -0.00052676    -0.000245229        -0.189327       0.0487309
281701.8              -0.0585233       -0.173764      0.000521739     0.000214405        -0.511102        0.837235     -3.99064e-05     0.000321045
                     0.000435375     0.000192695       -0.0634245       -0.182074     -0.000445755      0.00043286         0.463728       -0.855124
                       -0.511275        0.836518     -0.000302232     0.000365974         -0.18154       0.0279098     -0.000461392    -0.000305752
                    -0.000120366     0.000397264         0.463645       -0.855023     -0.000526764    -0.000245194        -0.189326       0.0487343
281701.9              -0.0585301       -0.173761       0.00052174      0.00021439        -0.511079        0.837249     -3.98972e-05     0.000321049
                     0.000435378     0.000192676       -0.0634332       -0.182071     -0.000445741     0.000432884           0.4637       -0.855139
                       -0.511252        0.836532     -0.000302216     0.000365985         -0.18154       0.0279127     -0.000461405    -0.000305738
                    -0.000120356     0.000397264         0.463616       -0.855038     -0.000526768     -0.00024516        -0.189325       0.0487377
281702                 -0.058537       -0.173759      0.000521742     0.000214375        -0.511056        0.837264      -3.9888e-05     0.000321053
                     0.000435381     0.000192657        -0.063442       -0.182068     -0.000445726     0.000432907         0.463672       -0.855154
                       -0.511229        0.836546       -0.0003022     0.000365996        -0.181539       0.0279156     -0.000461418    -0.000305724
                    -0.000120346     0.000397265         0.463588       -0.855053     -0.000526772    -0.000245125        -0.189324       0.0487412
281702.1              -0.0585438       -0.173756      0.000521743      0.00021436        -0.511032        0.837278     -3.98788e-05     0.000321058
                     0.000435384     0.000192639       -0.0634507       -0.182065     -0.000445712      0.00043293         0.463643        -0.85517
                       -0.511205        0.836561     -0.000302185     0.000366007        -0.181538       0.0279185     -0.000461431     -0.00030571
                    -0.000120336     0.000397265          0.46356       -0.855069     -0.000526776    -0.000245091        -0.189323       0.0487446
281702.2              -0.0585507       -0.173754      0.000521745     0.000214344        -0.511009        0.837292     -3.98696e-05     0.000321062
                     0.000435387      0.00019262       -0.0634594       -0.182062     -0.000445698     0.000432954         0.463615       -0.855185
                       -0.511182        0.836575     -0.000302169     0.000366018        -0.181538       0.0279214     -0.000461444    -0.000305696
                    -0.000120325     0.000397266         0.463532       -0.855084      -0.00052678    -0.000245056        -0.189322        0.048748
281702.3              -0.0585575       -0.173751      0.000521746     0.000214329        -0.510985        0.837307     -3.98604e-05     0.000321066
                      0.00043539     0.000192602       -0.0634682       -0.182059     -0.000445684     0.000432977         0.463587         -0.8552
                       -0.511158        0.836589     -0.000302154     0.000366029        -0.181537       0.0279243     -0.000461457    -0.000305683
                    -0.000120315     0.000397266         0.463504       -0.855099     -0.000526784    -0.000245021        -0.189321       0.0487514
281702.4              -0.0585644       -0.173749      0.000521748     0.000214314        -0.510962        0.837321     -3.98512e-05      0.00032107
                     0.000435393     0.000192583       -0.0634769       -0.182056      -0.00044567     0.000433001         0.463559       -0.855216
                       -0.511135        0.836604     -0.000302138      0.00036604        -0.181536       0.0279272      -0.00046147    -0.000305669
                    -0.000120305     0.000397266         0.463475       -0.855115     -0.000526788    -0.000244987        -0.189321       0.0487548
281702.5              -0.0585712       -0.173746      0.000521749     0.000214299        -0.510938        0.837335      -3.9842e-05     0.000321074
                     0.000435396     0.000192564       -0.0634856       -0.182053     -0.000445656     0.000433024         0.463531       -0.855231
                       -0.511111        0.836618     -0.000302122     0.000366051        -0.181536       0.0279301     -0.000461483    -0.000305655
                    -0.000120295     0.000397267         0.463447        -0.85513     -0.000526792    -0.000244952         -0.18932       0.0487583
281702.6              -0.0585781       -0.173744      0.000521751     0.000214284        -0.510915         0.83735     -3.98328e-05     0.000321078
                     0.000435399     0.000192546       -0.0634944        -0.18205     -0.000445642     0.000433047         0.463502       -0.855246
                       -0.511088        0.836632     -0.000302107     0.000366062        -0.181535        0.027933     -0.000461496    -0.000305641
                    -0.000120284     0.000397267         0.463419       -0.855145     -0.000526796    -0.000244918        -0.189319       0.0487617
281702.7              -0.0585849       -0.173741      0.000521752     0.000214269        -0.510891        0.837364     -3.98236e-05     0.000321082
                     0.000435402     0.000192527       -0.0635031       -0.182048     -0.000445627     0.000433071         0.463474       -0.855262
                       -0.511065        0.836647     -0.000302091     0.000366073        -0.181534       0.0279359     -0.000461509    -0.000305627
                    -0.000120274     0.000397268         0.463391       -0.855161       -0.0005268    -0.000244883        -0.189318       0.0487651
281702.8              -0.0585918       -0.173739      0.000521754     0.000214254        -0.510868        0.837378     -3.98144e-05     0.000321087
                     0.000435405     0.000192508       -0.0635118       -0.182045     -0.000445613     0.000433094         0.463446       -0.855277
                       -0.511041        0.836661     -0.000302076     0.000366084        -0.181534       0.0279388     -0.000461522    -0.000305614
                    -0.000120264     0.000397268         0.463362       -0.855176     -0.000526804    -0.000244848        -0.189317       0.0487685
281702.9              -0.0585987       -0.173736      0.000521755     0.000214239        -0.510845        0.837393     -3.98052e-05     0.000321091
                     0.000435408      0.00019249       -0.0635206       -0.182042     -0.000445599     0.000433118         0.463418       -0.855292
                       -0.511018        0.836675      -0.00030206     0.000366095        -0.181533       0.0279417     -0.000461535      -0.0003056
                    -0.000120254     0.000397269         0.463334       -0.855191     -0.000526808    -0.000244814        -0.189316       0.0487719
281703                -0.0586055       -0.173734      0.000521757     0.000214224        -0.510821        0.837407      -3.9796e-05     0.000321095
                     0.000435411     0.000192471       -0.0635293       -0.182039     -0.000445585     0.000433141         0.463389       -0.855307
                       -0.510994         0.83669     -0.000302044     0.000366106        -0.181532       0.0279446     -0.000461548    -0.000305586
                    -0.000120244     0.000397269         0.463306       -0.855206     -0.000526811    -0.000244779        -0.189315       0.0487753
281703.1              -0.0586124       -0.173731      0.000521759     0.000214209        -0.510798        0.837421     -3.97868e-05     0.000321099
                     0.000435414     0.000192453        -0.063538       -0.182036     -0.000445571     0.000433165         0.463361       -0.855323
                       -0.510971        0.836704     -0.000302029     0.000366117        -0.181532       0.0279475     -0.000461561    -0.000305572
