! TOUCHSTONE file generated by CST MICROWAVE STUDIO
! Date and time: Wed Oct  8 07:01:25 2025
! Project name: Teste_Macro_Metasurface_Nanopilar.cst
! Parameters = {H=600; L_x=160; L_y=95; Lambda=1064; Max_L=200; Min_L=70; PathPara=1; Phi=0; Step_L=10; Theta=0; p=520; phaseX=180; phaseY=0}
! Header version: 2018
! Port assignment regex: !\s*Touchstone port\s*([0-9]+)\s*=\s*(CST MWS port|CST DS port)\s*([0-9]+|Zmin|Zmax)\s*\(\"(.*)\"\)(\s*mode\s*([0-9]+))?.*
! Touchstone port assignment:
! Touchstone port 1 = CST MWS port Zmax ("") mode 1
! Touchstone port 2 = CST MWS port Zmax ("") mode 2
! Touchstone port 3 = CST MWS port Zmin ("") mode 1
! Touchstone port 4 = CST MWS port Zmin ("") mode 2
! S-Parameters are not renormalized. Each port impedance will be approximated by the real part at minimum frequency. The values are described via the [Reference] keyword.
! Default impedance is overridden by [Reference]
[Version] 2.0
# GHz S RI R 376.73
[Number of Ports] 4
[Reference]
376.73 376.73 376.73 376.73 
[Number of Frequencies] 1001
[Network Data]
281700                 -0.210311       -0.101424     -0.000248716    -0.000231944        0.0237796        0.967815     -0.000131897    -0.000579384
                     -0.00019399    -0.000243673        -0.185912        -0.03519     -0.000157334    -0.000803021        -0.412561        -0.88541
                       0.0238258        0.967366     -8.65903e-05    -0.000905849        -0.205297        0.111627      3.48138e-05    -0.000499906
                    -0.000156305     -0.00080276        -0.412279       -0.885404      0.000137834    -0.000521224        -0.093785        0.163736
281700.1               -0.210313       -0.101415     -0.000248721    -0.000231936        0.0238085        0.967815     -0.000131922    -0.000579395
                    -0.000193991     -0.00024366        -0.185909      -0.0351845     -0.000157357    -0.000803011        -0.412589       -0.885398
                       0.0238548        0.967366     -8.66274e-05    -0.000905837        -0.205293        0.111631      3.48056e-05    -0.000499901
                    -0.000156333    -0.000802765        -0.412307       -0.885392      0.000137818    -0.000521221       -0.0937766        0.163736
281700.2               -0.210315       -0.101407     -0.000248725    -0.000231929        0.0238375        0.967815     -0.000131947    -0.000579406
                    -0.000193993    -0.000243647        -0.185905      -0.0351791     -0.000157381       -0.000803        -0.412617       -0.885386
                       0.0238837        0.967366     -8.66646e-05    -0.000905826        -0.205288        0.111636      3.47974e-05    -0.000499897
                     -0.00015636     -0.00080277        -0.412335        -0.88538      0.000137801    -0.000521218       -0.0937681        0.163735
281700.3               -0.210316       -0.101399      -0.00024873    -0.000231921        0.0238665        0.967814     -0.000131973    -0.000579417
                    -0.000193995    -0.000243634        -0.185901      -0.0351736     -0.000157405     -0.00080299        -0.412645       -0.885374
                       0.0239127        0.967366     -8.67018e-05    -0.000905814        -0.205283         0.11164      3.47892e-05    -0.000499892
                    -0.000156388    -0.000802775        -0.412363       -0.885368      0.000137785    -0.000521215       -0.0937597        0.163734
281700.4               -0.210318       -0.101391     -0.000248734    -0.000231913        0.0238954        0.967814     -0.000131998    -0.000579428
                    -0.000193996    -0.000243622        -0.185897      -0.0351681     -0.000157429     -0.00080298        -0.412673       -0.885362
                       0.0239416        0.967365      -8.6739e-05    -0.000905802        -0.205279        0.111644      3.47809e-05    -0.000499887
                    -0.000156415     -0.00080278        -0.412391       -0.885356      0.000137769    -0.000521212       -0.0937513        0.163734
281700.5               -0.210319       -0.101383     -0.000248739    -0.000231905        0.0239244        0.967814     -0.000132023     -0.00057944
                    -0.000193998    -0.000243609        -0.185894      -0.0351627     -0.000157453    -0.000802969        -0.412701        -0.88535
                       0.0239706        0.967365     -8.67762e-05     -0.00090579        -0.205274        0.111648      3.47727e-05    -0.000499883
                    -0.000156443    -0.000802785        -0.412419       -0.885343      0.000137752     -0.00052121       -0.0937428        0.163733
281700.6               -0.210321       -0.101375     -0.000248743    -0.000231897        0.0239534        0.967814     -0.000132049    -0.000579451
                       -0.000194    -0.000243596         -0.18589      -0.0351572     -0.000157477    -0.000802959        -0.412729       -0.885337
                       0.0239995        0.967365     -8.68134e-05    -0.000905779        -0.205269        0.111652      3.47645e-05    -0.000499878
                    -0.000156471     -0.00080279        -0.412447       -0.885331      0.000137736    -0.000521207       -0.0937344        0.163733
281700.7               -0.210323       -0.101367     -0.000248747    -0.000231889        0.0239824        0.967813     -0.000132074    -0.000579462
                    -0.000194002    -0.000243584        -0.185886      -0.0351517     -0.000157501    -0.000802948        -0.412757       -0.885325
                       0.0240285        0.967365     -8.68506e-05    -0.000905767        -0.205265        0.111657      3.47563e-05    -0.000499873
                    -0.000156498    -0.000802795        -0.412475       -0.885319       0.00013772    -0.000521204        -0.093726        0.163732
281700.8               -0.210324       -0.101359     -0.000248752    -0.000231882        0.0240113        0.967813     -0.000132099    -0.000579473
                    -0.000194003    -0.000243571        -0.185883      -0.0351463     -0.000157525    -0.000802938        -0.412785       -0.885313
                       0.0240574        0.967364     -8.68877e-05    -0.000905755         -0.20526        0.111661      3.47481e-05    -0.000499869
                    -0.000156526    -0.000802801        -0.412503       -0.885307      0.000137704    -0.000521201       -0.0937175        0.163732
281700.9               -0.210326       -0.101351     -0.000248756    -0.000231874        0.0240403        0.967813     -0.000132125    -0.000579484
                    -0.000194005    -0.000243558        -0.185879      -0.0351408     -0.000157549    -0.000802927        -0.412813       -0.885301
                       0.0240864        0.967364     -8.69249e-05    -0.000905743        -0.205255        0.111665      3.47399e-05    -0.000499864
                    -0.000156553    -0.000802806        -0.412531       -0.885295      0.000137687    -0.000521198       -0.0937091        0.163731
281701                 -0.210328       -0.101343     -0.000248761    -0.000231866        0.0240693        0.967813      -0.00013215    -0.000579495
                    -0.000194007    -0.000243546        -0.185875      -0.0351354     -0.000157573    -0.000802917        -0.412841       -0.885289
                       0.0241153        0.967364     -8.69621e-05    -0.000905732        -0.205251        0.111669      3.47317e-05    -0.000499859
                    -0.000156581    -0.000802811        -0.412559       -0.885283      0.000137671    -0.000521195       -0.0937007         0.16373
281701.1               -0.210329       -0.101335     -0.000248765    -0.000231858        0.0240982        0.967812     -0.000132175    -0.000579506
                    -0.000194008    -0.000243533        -0.185872      -0.0351299     -0.000157596    -0.000802906        -0.412869       -0.885277
                       0.0241443        0.967364     -8.69993e-05     -0.00090572        -0.205246        0.111674      3.47235e-05    -0.000499855
                    -0.000156609    -0.000802816        -0.412587       -0.885271      0.000137655    -0.000521192       -0.0936923         0.16373
281701.2               -0.210331       -0.101327      -0.00024877     -0.00023185        0.0241272        0.967812     -0.000132201    -0.000579518
                     -0.00019401     -0.00024352        -0.185868      -0.0351244      -0.00015762    -0.000802896        -0.412897       -0.885265
                       0.0241732        0.967363     -8.70365e-05    -0.000905708        -0.205241        0.111678      3.47153e-05     -0.00049985
                    -0.000156636    -0.000802821        -0.412615       -0.885259      0.000137639    -0.000521189       -0.0936838        0.163729
281701.3               -0.210332       -0.101318     -0.000248774    -0.000231842        0.0241562        0.967812     -0.000132226    -0.000579529
                    -0.000194012    -0.000243508        -0.185864       -0.035119     -0.000157644    -0.000802886        -0.412925       -0.885253
                       0.0242022        0.967363     -8.70736e-05    -0.000905696        -0.205237        0.111682      3.47071e-05    -0.000499845
                    -0.000156664    -0.000802826        -0.412643       -0.885247      0.000137622    -0.000521186       -0.0936754        0.163729
281701.4               -0.210334        -0.10131     -0.000248779    -0.000231834        0.0241851        0.967812     -0.000132251     -0.00057954
                    -0.000194014    -0.000243495        -0.185861      -0.0351135     -0.000157668    -0.000802875        -0.412953       -0.885241
                       0.0242312        0.967363     -8.71108e-05    -0.000905685        -0.205232        0.111686      3.46989e-05    -0.000499841
                    -0.000156691    -0.000802831        -0.412671       -0.885235      0.000137606    -0.000521183        -0.093667        0.163728
281701.5               -0.210336       -0.101302     -0.000248783    -0.000231827        0.0242141        0.967811     -0.000132276    -0.000579551
                    -0.000194015    -0.000243482        -0.185857      -0.0351081     -0.000157692    -0.000802865        -0.412981       -0.885229
                       0.0242601        0.967362      -8.7148e-05    -0.000905673        -0.205227        0.111691      3.46907e-05    -0.000499836
                    -0.000156719    -0.000802836        -0.412699       -0.885223       0.00013759     -0.00052118       -0.0936585        0.163727
281701.6               -0.210337       -0.101294     -0.000248788    -0.000231819        0.0242431        0.967811     -0.000132302    -0.000579562
                    -0.000194017    -0.000243469        -0.185853      -0.0351026     -0.000157716    -0.000802854        -0.413009       -0.885217
                       0.0242891        0.967362     -8.71852e-05    -0.000905661        -0.205223        0.111695      3.46825e-05    -0.000499831
                    -0.000156747    -0.000802841        -0.412727       -0.885211      0.000137574    -0.000521178       -0.0936501        0.163727
281701.7               -0.210339       -0.101286     -0.000248792    -0.000231811         0.024272        0.967811     -0.000132327    -0.000579573
                    -0.000194019    -0.000243457        -0.185849      -0.0350971      -0.00015774    -0.000802844        -0.413037       -0.885205
                        0.024318        0.967362     -8.72223e-05    -0.000905649        -0.205218        0.111699      3.46744e-05    -0.000499827
                    -0.000156774    -0.000802846        -0.412755       -0.885199      0.000137557    -0.000521175       -0.0936417        0.163726
281701.8               -0.210341       -0.101278     -0.000248796    -0.000231803         0.024301        0.967811     -0.000132352    -0.000579584
                    -0.000194021    -0.000243444        -0.185846      -0.0350917     -0.000157764    -0.000802833        -0.413065       -0.885193
                        0.024347        0.967362     -8.72595e-05    -0.000905638        -0.205213        0.111703      3.46662e-05    -0.000499822
                    -0.000156802    -0.000802851        -0.412783       -0.885187      0.000137541    -0.000521172       -0.0936332        0.163726
281701.9               -0.210342        -0.10127     -0.000248801    -0.000231795          0.02433         0.96781     -0.000132378    -0.000579596
                    -0.000194022    -0.000243431        -0.185842      -0.0350862     -0.000157788    -0.000802823        -0.413093        -0.88518
                       0.0243759        0.967361     -8.72967e-05    -0.000905626        -0.205209        0.111707       3.4658e-05    -0.000499817
                    -0.000156829    -0.000802856        -0.412811       -0.885175      0.000137525    -0.000521169       -0.0936248        0.163725
281702                 -0.210344       -0.101262     -0.000248805    -0.000231787        0.0243589         0.96781     -0.000132403    -0.000579607
                    -0.000194024    -0.000243419        -0.185838      -0.0350808     -0.000157812    -0.000802812        -0.413121       -0.885168
                       0.0244049        0.967361     -8.73338e-05    -0.000905614        -0.205204        0.111712      3.46498e-05    -0.000499813
                    -0.000156857    -0.000802861        -0.412839       -0.885163      0.000137509    -0.000521166       -0.0936164        0.163724
281702.1               -0.210345       -0.101254      -0.00024881    -0.000231779        0.0243879         0.96781     -0.000132428    -0.000579618
                    -0.000194026    -0.000243406        -0.185835      -0.0350753     -0.000157835    -0.000802802        -0.413149       -0.885156
                       0.0244338        0.967361      -8.7371e-05    -0.000905602        -0.205199        0.111716      3.46417e-05    -0.000499808
                    -0.000156885    -0.000802866        -0.412867       -0.885151      0.000137492    -0.000521163        -0.093608        0.163724
281702.2               -0.210347       -0.101246     -0.000248814    -0.000231772        0.0244169         0.96781     -0.000132453    -0.000579629
                    -0.000194028    -0.000243393        -0.185831      -0.0350698     -0.000157859    -0.000802792        -0.413177       -0.885144
                       0.0244628        0.967361     -8.74082e-05     -0.00090559        -0.205195         0.11172      3.46335e-05    -0.000499804
                    -0.000156912    -0.000802872        -0.412895       -0.885139      0.000137476     -0.00052116       -0.0935995        0.163723
281702.3               -0.210349       -0.101238     -0.000248819    -0.000231764        0.0244459        0.967809     -0.000132479     -0.00057964
                    -0.000194029    -0.000243381        -0.185827      -0.0350644     -0.000157883    -0.000802781        -0.413205       -0.885132
                       0.0244917         0.96736     -8.74453e-05    -0.000905579         -0.20519        0.111724      3.46253e-05    -0.000499799
                     -0.00015694    -0.000802877        -0.412923       -0.885127       0.00013746    -0.000521157       -0.0935911        0.163723
281702.4                -0.21035       -0.101229     -0.000248823    -0.000231756        0.0244748        0.967809     -0.000132504    -0.000579651
                    -0.000194031    -0.000243368        -0.185824      -0.0350589     -0.000157907    -0.000802771        -0.413233        -0.88512
                       0.0245207         0.96736     -8.74825e-05    -0.000905567        -0.205185        0.111729      3.46172e-05    -0.000499794
                    -0.000156967    -0.000802882        -0.412951       -0.885115      0.000137444    -0.000521154       -0.0935827        0.163722
281702.5               -0.210352       -0.101221     -0.000248828    -0.000231748        0.0245038        0.967809     -0.000132529    -0.000579662
                    -0.000194033    -0.000243355         -0.18582      -0.0350535     -0.000157931     -0.00080276        -0.413261       -0.885108
                       0.0245496         0.96736     -8.75197e-05    -0.000905555        -0.205181        0.111733       3.4609e-05     -0.00049979
                    -0.000156995    -0.000802887        -0.412979       -0.885103      0.000137427    -0.000521151       -0.0935742        0.163721
281702.6               -0.210354       -0.101213     -0.000248832     -0.00023174        0.0245328        0.967809     -0.000132554    -0.000579674
                    -0.000194035    -0.000243342        -0.185816       -0.035048     -0.000157955     -0.00080275        -0.413289       -0.885096
                       0.0245786         0.96736     -8.75568e-05    -0.000905543        -0.205176        0.111737      3.46009e-05    -0.000499785
                    -0.000157023    -0.000802892        -0.413007       -0.885091      0.000137411    -0.000521148       -0.0935658        0.163721
281702.7               -0.210355       -0.101205     -0.000248837    -0.000231732        0.0245617        0.967808      -0.00013258    -0.000579685
                    -0.000194036     -0.00024333        -0.185813      -0.0350426     -0.000157979    -0.000802739        -0.413317       -0.885084
                       0.0246075        0.967359      -8.7594e-05    -0.000905531        -0.205171        0.111741      3.45927e-05     -0.00049978
                     -0.00015705    -0.000802897        -0.413035       -0.885078      0.000137395    -0.000521145       -0.0935574         0.16372
281702.8               -0.210357       -0.101197     -0.000248841    -0.000231724        0.0245907        0.967808     -0.000132605    -0.000579696
                    -0.000194038    -0.000243317        -0.185809      -0.0350371     -0.000158003    -0.000802729        -0.413345       -0.885072
                       0.0246365        0.967359     -8.76312e-05     -0.00090552        -0.205167        0.111745      3.45845e-05    -0.000499776
                    -0.000157078    -0.000802902        -0.413063       -0.885066      0.000137379    -0.000521142       -0.0935489         0.16372
281702.9               -0.210358       -0.101189     -0.000248846    -0.000231717        0.0246197        0.967808      -0.00013263    -0.000579707
                     -0.00019404    -0.000243304        -0.185805      -0.0350316     -0.000158027    -0.000802718        -0.413373        -0.88506
                       0.0246654        0.967359     -8.76683e-05    -0.000905508        -0.205162         0.11175      3.45764e-05    -0.000499771
                    -0.000157105    -0.000802907        -0.413091       -0.885054      0.000137362     -0.00052114       -0.0935405        0.163719
281703                  -0.21036       -0.101181      -0.00024885    -0.000231709        0.0246486        0.967808     -0.000132655    -0.000579718
                    -0.000194042    -0.000243292        -0.185801      -0.0350262      -0.00015805    -0.000802708        -0.413401       -0.885047
                       0.0246944        0.967359     -8.77055e-05    -0.000905496        -0.205157        0.111754      3.45683e-05    -0.000499766
                    -0.000157133    -0.000802912        -0.413119       -0.885042      0.000137346    -0.000521137       -0.0935321        0.163718
281703.1               -0.210362       -0.101173     -0.000248855    -0.000231701        0.0246776        0.967807     -0.000132681    -0.000579729
                    -0.000194043    -0.000243279        -0.185798      -0.0350207     -0.000158074    -0.000802698        -0.413429       -0.885035
                       0.0247233        0.967358     -8.77426e-05    -0.000905484        -0.205153        0.111758      3.45601e-05    -0.000499762
