! TOUCHSTONE file generated by CST MICROWAVE STUDIO
! Date and time: Wed Oct  8 06:55:04 2025
! Project name: Teste_Macro_Metasurface_Nanopilar.cst
! Parameters = {H=600; L_x=105; L_y=145; Lambda=1064; Max_L=200; Min_L=70; PathPara=1; Phi=0; Step_L=10; Theta=0; p=520; phaseX=180; phaseY=0}
! Header version: 2018
! Port assignment regex: !\s*Touchstone port\s*([0-9]+)\s*=\s*(CST MWS port|CST DS port)\s*([0-9]+|Zmin|Zmax)\s*\(\"(.*)\"\)(\s*mode\s*([0-9]+))?.*
! Touchstone port assignment:
! Touchstone port 1 = CST MWS port Zmax ("") mode 1
! Touchstone port 2 = CST MWS port Zmax ("") mode 2
! Touchstone port 3 = CST MWS port Zmin ("") mode 1
! Touchstone port 4 = CST MWS port Zmin ("") mode 2
! S-Parameters are not renormalized. Each port impedance will be approximated by the real part at minimum frequency. The values are described via the [Reference] keyword.
! Default impedance is overridden by [Reference]
[Version] 2.0
# GHz S RI R 376.73
[Number of Ports] 4
[Reference]
376.73 376.73 376.73 376.73 
[Number of Frequencies] 1001
[Network Data]
281700                 -0.219291       -0.066452       0.00024772    -0.000705082        -0.143988       -0.956044      0.000127933     0.000767648
                     0.000317964    -0.000624542        -0.138469        0.106537      0.000297176     0.000272769         0.729588        0.648832
                       -0.143575       -0.956856      0.000205761     0.000319585        -0.190952         0.12782     -0.000699625     2.97815e-05
                     0.000111677     0.000728636         0.729488        0.649094     -0.000633346    -0.000189417       -0.0926206        0.148844
281700.1               -0.219291      -0.0664437      0.000248347    -0.000705982        -0.144017        -0.95604      0.000127956      0.00076763
                      0.00031795    -0.000624555        -0.138461        0.106539      0.000297168     0.000272752          0.72961        0.648808
                       -0.143605       -0.956852      0.000210395     0.000316209        -0.190946        0.127824     -0.000699624     2.98044e-05
                       0.0001117     0.000728627         0.729511         0.64907     -0.000633347    -0.000189398       -0.0926131        0.148843
281700.2               -0.219291      -0.0664355      0.000248971    -0.000706844        -0.144047       -0.956037      0.000127979     0.000767612
                     0.000317937    -0.000624568        -0.138453         0.10654      0.000297159     0.000272735         0.729633        0.648784
                       -0.143635       -0.956849      0.000215134     0.000313487         -0.19094        0.127827     -0.000699624     2.98274e-05
                     0.000111724     0.000728618         0.729533        0.649046     -0.000633348    -0.000189379       -0.0926057        0.148841
281700.3               -0.219291      -0.0664272       0.00024959    -0.000707667        -0.144077       -0.956033      0.000128002     0.000767594
                     0.000317923    -0.000624581        -0.138444        0.106542       0.00029715     0.000272718         0.729655         0.64876
                       -0.143665       -0.956845      0.000219871     0.000311382        -0.190935        0.127831     -0.000699624     2.98503e-05
                     0.000111748     0.000728608         0.729556        0.649022     -0.000633349     -0.00018936       -0.0925983        0.148839
281700.4                -0.21929       -0.066419      0.000250204    -0.000708453        -0.144106       -0.956029      0.000128025     0.000767575
                      0.00031791    -0.000624594        -0.138436        0.106544      0.000297141     0.000272701         0.729678        0.648736
                       -0.143694       -0.956841      0.000224517     0.000309837        -0.190929        0.127835     -0.000699623     2.98733e-05
                     0.000111771     0.000728599         0.729579        0.648998      -0.00063335    -0.000189341       -0.0925908        0.148838
281700.5                -0.21929      -0.0664107       0.00025081    -0.000709205        -0.144136       -0.956025      0.000128048     0.000767557
                     0.000317896    -0.000624607        -0.138428        0.106545      0.000297133     0.000272684         0.729701        0.648712
                       -0.143724       -0.956837      0.000229006     0.000308792        -0.190923        0.127839     -0.000699623     2.98962e-05
                     0.000111795      0.00072859         0.729602        0.648974     -0.000633351    -0.000189322       -0.0925834        0.148836
281700.6                -0.21929      -0.0664025      0.000251409    -0.000709922        -0.144166       -0.956021      0.000128071     0.000767539
                     0.000317883     -0.00062462         -0.13842        0.106547      0.000297124     0.000272667         0.729723        0.648688
                       -0.143754       -0.956833      0.000233288     0.000308177        -0.190917        0.127842     -0.000699622     2.99192e-05
                     0.000111819      0.00072858         0.729624         0.64895     -0.000633352    -0.000189303       -0.0925759        0.148834
281700.7               -0.219289      -0.0663942         0.000252    -0.000710607        -0.144195       -0.956018      0.000128094     0.000767521
                     0.000317869    -0.000624633        -0.138412        0.106549      0.000297115      0.00027265         0.729746        0.648664
                       -0.143783        -0.95683      0.000237331     0.000307928        -0.190911        0.127846     -0.000699622     2.99421e-05
                     0.000111842     0.000728571         0.729647        0.648926     -0.000633353    -0.000189284       -0.0925685        0.148833
281700.8               -0.219289      -0.0663859       0.00025258    -0.000711261        -0.144225       -0.956014      0.000128117     0.000767503
                     0.000317855    -0.000624646        -0.138404         0.10655      0.000297106     0.000272633         0.729768         0.64864
                       -0.143813       -0.956826      0.000241117     0.000307982        -0.190906         0.12785     -0.000699621     2.99651e-05
                     0.000111866     0.000728562          0.72967        0.648902     -0.000633354    -0.000189265        -0.092561        0.148831
281700.9               -0.219289      -0.0663777      0.000253151    -0.000711884        -0.144255        -0.95601       0.00012814     0.000767485
                     0.000317842    -0.000624659        -0.138396        0.106552      0.000297098     0.000272615         0.729791        0.648616
                       -0.143843       -0.956822       0.00024464     0.000308283          -0.1909        0.127853     -0.000699621      2.9988e-05
                      0.00011189     0.000728552         0.729692        0.648877     -0.000633355    -0.000189246       -0.0925536        0.148829
281701                 -0.219288      -0.0663694       0.00025371    -0.000712478        -0.144285       -0.956006      0.000128163     0.000767467
                     0.000317828    -0.000624672        -0.138388        0.106554      0.000297089     0.000272598         0.729814        0.648592
                       -0.143872       -0.956818      0.000247901      0.00030878        -0.190894        0.127857     -0.000699621     3.00109e-05
                     0.000111913     0.000728543         0.729715        0.648853     -0.000633356    -0.000189227       -0.0925462        0.148827
281701.1               -0.219288      -0.0663612      0.000254258    -0.000713044        -0.144314       -0.956002      0.000128186     0.000767449
                     0.000317815    -0.000624685         -0.13838        0.106556       0.00029708     0.000272581         0.729836        0.648568
                       -0.143902       -0.956814      0.000250906      0.00030943        -0.190888        0.127861      -0.00069962     3.00339e-05
                     0.000111937     0.000728534         0.729738        0.648829     -0.000633357    -0.000189208       -0.0925387        0.148826
281701.2               -0.219288      -0.0663529      0.000254795    -0.000713583        -0.144344       -0.955999      0.000128209      0.00076743
                     0.000317801    -0.000624698        -0.138372        0.106557      0.000297071     0.000272564         0.729859        0.648544
                       -0.143932       -0.956811      0.000253667     0.000310196        -0.190883        0.127865      -0.00069962     3.00568e-05
                     0.000111961     0.000728524          0.72976        0.648805     -0.000633358    -0.000189189       -0.0925313        0.148824
281701.3               -0.219287      -0.0663447      0.000255318    -0.000714096        -0.144374       -0.955995      0.000128232     0.000767412
                     0.000317788    -0.000624711        -0.138364        0.106559      0.000297063     0.000272547         0.729881         0.64852
                       -0.143961       -0.956807      0.000256197     0.000311047        -0.190877        0.127868     -0.000699619     3.00798e-05
                     0.000111984     0.000728515         0.729783        0.648781     -0.000633359     -0.00018917       -0.0925238        0.148822
281701.4               -0.219287      -0.0663364      0.000255829    -0.000714584        -0.144403       -0.955991      0.000128255     0.000767394
                     0.000317774    -0.000624724        -0.138356        0.106561      0.000297054      0.00027253         0.729904        0.648496
                       -0.143991       -0.956803      0.000258512     0.000311956        -0.190871        0.127872     -0.000699619     3.01027e-05
                     0.000112008     0.000728506         0.729806        0.648757      -0.00063336    -0.000189151       -0.0925164        0.148821
281701.5               -0.219287      -0.0663282      0.000256326    -0.000715048        -0.144433       -0.955987      0.000128278     0.000767376
                      0.00031776    -0.000624737        -0.138348        0.106562      0.000297045     0.000272513         0.729927        0.648472
                       -0.144021       -0.956799      0.000260626     0.000312902        -0.190865        0.127876     -0.000699618     3.01257e-05
                     0.000112031     0.000728496         0.729829        0.648733     -0.000633361    -0.000189132        -0.092509        0.148819
281701.6               -0.219286      -0.0663199       0.00025681     -0.00071549        -0.144463       -0.955983      0.000128301     0.000767358
                     0.000317747     -0.00062475         -0.13834        0.106564      0.000297036     0.000272496         0.729949        0.648448
                       -0.144051       -0.956795      0.000262557     0.000313869        -0.190859         0.12788     -0.000699618     3.01486e-05
                     0.000112055     0.000728487         0.729851        0.648709     -0.000633362    -0.000189113       -0.0925015        0.148817
281701.7               -0.219286      -0.0663117      0.000257279    -0.000715909        -0.144492        -0.95598      0.000128324      0.00076734
                     0.000317733    -0.000624763        -0.138332        0.106566      0.000297028     0.000272479         0.729972        0.648424
                        -0.14408       -0.956792      0.000264317     0.000314843        -0.190854        0.127883     -0.000699618     3.01716e-05
                     0.000112079     0.000728478         0.729874        0.648685     -0.000633363    -0.000189094       -0.0924941        0.148816
281701.8               -0.219286      -0.0663034      0.000257734    -0.000716306        -0.144522       -0.955976      0.000128347     0.000767322
                      0.00031772    -0.000624776        -0.138324        0.106567      0.000297019     0.000272461         0.729994          0.6484
                        -0.14411       -0.956788      0.000265923     0.000315811        -0.190848        0.127887     -0.000699617     3.01945e-05
                     0.000112102     0.000728468         0.729897        0.648661     -0.000633364    -0.000189075       -0.0924866        0.148814
281701.9               -0.219285      -0.0662952      0.000258175    -0.000716684        -0.144552       -0.955972       0.00012837     0.000767304
                     0.000317706    -0.000624789        -0.138316        0.106569       0.00029701     0.000272444         0.730017        0.648376
                        -0.14414       -0.956784      0.000267386     0.000316766        -0.190842        0.127891     -0.000699617     3.02174e-05
                     0.000112126     0.000728459         0.729919        0.648637     -0.000633365    -0.000189056       -0.0924792        0.148812
281702                 -0.219285      -0.0662869        0.0002586    -0.000717041        -0.144581       -0.955968      0.000128393     0.000767286
                     0.000317692    -0.000624802        -0.138308        0.106571      0.000297001     0.000272427          0.73004        0.648352
                       -0.144169        -0.95678       0.00026872     0.000317701        -0.190836        0.127894     -0.000699616     3.02404e-05
                      0.00011215     0.000728449         0.729942        0.648613     -0.000633366    -0.000189037       -0.0924718        0.148811
281702.1               -0.219285      -0.0662787      0.000259011    -0.000717379        -0.144611       -0.955964      0.000128416     0.000767267
                     0.000317679    -0.000624815          -0.1383        0.106572      0.000296993      0.00027241         0.730062        0.648327
                       -0.144199       -0.956776      0.000269936     0.000318611         -0.19083        0.127898     -0.000699616     3.02633e-05
                     0.000112173      0.00072844         0.729964        0.648589     -0.000633367    -0.000189018       -0.0924643        0.148809
281702.2               -0.219285      -0.0662704      0.000259406    -0.000717699        -0.144641       -0.955961      0.000128439     0.000767249
                     0.000317665    -0.000624828        -0.138292        0.106574      0.000296984     0.000272393         0.730085        0.648303
                       -0.144229       -0.956773      0.000271045     0.000319491        -0.190825        0.127902     -0.000699616     3.02863e-05
                     0.000112197     0.000728431         0.729987        0.648565     -0.000633368    -0.000188999       -0.0924569        0.148807
281702.3               -0.219284      -0.0662621      0.000259786       -0.000718         -0.14467       -0.955957      0.000128462     0.000767231
                     0.000317652    -0.000624841        -0.138284        0.106576      0.000296975     0.000272376         0.730107        0.648279
                       -0.144258       -0.956769      0.000272055     0.000320338        -0.190819        0.127906     -0.000699615     3.03092e-05
                      0.00011222     0.000728421          0.73001        0.648541     -0.000633368    -0.000188981       -0.0924494        0.148805
281702.4               -0.219284      -0.0662539      0.000260149    -0.000718285          -0.1447       -0.955953      0.000128485     0.000767213
                     0.000317638    -0.000624854        -0.138276        0.106577      0.000296966     0.000272359          0.73013        0.648255
                       -0.144288       -0.956765      0.000272975     0.000321151        -0.190813        0.127909     -0.000699615     3.03322e-05
                     0.000112244     0.000728412         0.730032        0.648517     -0.000633369    -0.000188962        -0.092442        0.148804
281702.5               -0.219284      -0.0662456      0.000260497    -0.000718553         -0.14473       -0.955949      0.000128508     0.000767195
                     0.000317624    -0.000624867        -0.138268        0.106579      0.000296958     0.000272342         0.730152        0.648231
                       -0.144318       -0.956761      0.000273813     0.000321927        -0.190807        0.127913     -0.000699614     3.03551e-05
                     0.000112268     0.000728403         0.730055        0.648493      -0.00063337    -0.000188943       -0.0924346        0.148802
281702.6               -0.219283      -0.0662374      0.000260829    -0.000718805        -0.144759       -0.955945      0.000128531     0.000767177
                     0.000317611     -0.00062488         -0.13826        0.106581      0.000296949     0.000272325         0.730175        0.648207
                       -0.144347       -0.956757      0.000274577     0.000322666        -0.190802        0.127917     -0.000699614      3.0378e-05
                     0.000112291     0.000728393         0.730078        0.648469     -0.000633371    -0.000188924       -0.0924271          0.1488
281702.7               -0.219283      -0.0662291      0.000261145    -0.000719041        -0.144789       -0.955942      0.000128554     0.000767159
                     0.000317597    -0.000624893        -0.138252        0.106582       0.00029694     0.000272307         0.730198        0.648183
                       -0.144377       -0.956754      0.000275271     0.000323368        -0.190796        0.127921     -0.000699613      3.0401e-05
                     0.000112315     0.000728384           0.7301        0.648445     -0.000633372    -0.000188905       -0.0924197        0.148799
281702.8               -0.219283      -0.0662209      0.000261444    -0.000719262        -0.144819       -0.955938      0.000128576     0.000767141
                     0.000317584    -0.000624906        -0.138244        0.106584      0.000296931      0.00027229          0.73022        0.648159
                       -0.144407        -0.95675      0.000275903     0.000324031         -0.19079        0.127924     -0.000699613     3.04239e-05
                     0.000112338     0.000728375         0.730123        0.648421     -0.000633373    -0.000188886       -0.0924122        0.148797
281702.9               -0.219282      -0.0662126      0.000261726    -0.000719468        -0.144848       -0.955934      0.000128599     0.000767122
                      0.00031757    -0.000624919        -0.138236        0.106586      0.000296923     0.000272273         0.730243        0.648135
                       -0.144436       -0.956746      0.000276476     0.000324656        -0.190784        0.127928     -0.000699613     3.04469e-05
                     0.000112362     0.000728365         0.730146        0.648397     -0.000633374    -0.000188867       -0.0924048        0.148795
281703                 -0.219282      -0.0662044      0.000261992    -0.000719659        -0.144878        -0.95593      0.000128622     0.000767104
                     0.000317556    -0.000624932        -0.138228        0.106587      0.000296914     0.000272256         0.730265        0.648111
                       -0.144466       -0.956742      0.000276996     0.000325242        -0.190778        0.127932     -0.000699612     3.04698e-05
                     0.000112386     0.000728356         0.730168        0.648373     -0.000633375    -0.000188848       -0.0923974        0.148794
281703.1               -0.219282      -0.0661961       0.00026224    -0.000719836        -0.144908       -0.955926      0.000128645     0.000767086
                     0.000317543    -0.000624945         -0.13822        0.106589      0.000296905     0.000272239         0.730288        0.648087
                       -0.144496       -0.956738      0.000277466     0.000325791        -0.190773        0.127935     -0.000699612     3.04928e-05
