! TOUCHSTONE file generated by CST MICROWAVE STUDIO
! Date and time: Wed Oct  8 07:00:00 2025
! Project name: Teste_Macro_Metasurface_Nanopilar.cst
! Parameters = {H=600; L_x=145; L_y=180; Lambda=1064; Max_L=200; Min_L=70; PathPara=1; Phi=0; Step_L=10; Theta=0; p=520; phaseX=180; phaseY=0}
! Header version: 2018
! Port assignment regex: !\s*Touchstone port\s*([0-9]+)\s*=\s*(CST MWS port|CST DS port)\s*([0-9]+|Zmin|Zmax)\s*\(\"(.*)\"\)(\s*mode\s*([0-9]+))?.*
! Touchstone port assignment:
! Touchstone port 1 = CST MWS port Zmax ("") mode 1
! Touchstone port 2 = CST MWS port Zmax ("") mode 2
! Touchstone port 3 = CST MWS port Zmin ("") mode 1
! Touchstone port 4 = CST MWS port Zmin ("") mode 2
! S-Parameters are not renormalized. Each port impedance will be approximated by the real part at minimum frequency. The values are described via the [Reference] keyword.
! Default impedance is overridden by [Reference]
[Version] 2.0
# GHz S RI R 376.73
[Number of Ports] 4
[Reference]
376.73 376.73 376.73 376.73 
[Number of Frequencies] 1001
[Network Data]
281700                  -0.01177       0.0409753     -0.000358518     0.000491022        -0.970904       -0.216841      0.000294363     -0.00081052
                    -0.000662955     0.000342994        -0.149788         0.21517      0.000762689    -0.000688877        -0.732812       -0.617714
                       -0.970357       -0.216768      0.000620639    -0.000712466        -0.011389       0.0398811     -0.000136791     0.000412541
                     0.000294931    -0.000702109        -0.732519       -0.617396      -0.00028421     1.17064e-05        -0.191863          0.1766
281700.1              -0.0117678        0.040969     -0.000358586     0.000491108        -0.970911       -0.216812      0.000294344    -0.000810437
                    -0.000662901     0.000343007        -0.149778        0.215168      0.000762431    -0.000689097        -0.732833       -0.617692
                       -0.970364       -0.216738      0.000620651     -0.00071248       -0.0113862       0.0398746     -0.000136749     0.000412487
                     0.000294609    -0.000702224         -0.73254       -0.617374     -0.000284694     1.17887e-05        -0.191852        0.176602
281700.2              -0.0117656       0.0409628     -0.000358656     0.000491194        -0.970918       -0.216783      0.000294324    -0.000810352
                    -0.000662847      0.00034302        -0.149768        0.215167      0.000762171     -0.00068932        -0.732854        -0.61767
                       -0.970371       -0.216708      0.000620664    -0.000712494       -0.0113833       0.0398682     -0.000136707     0.000412434
                      0.00029429    -0.000702338        -0.732561       -0.617353     -0.000285177     1.18729e-05        -0.191841        0.176604
281700.3              -0.0117634       0.0409566     -0.000358726     0.000491279        -0.970925       -0.216754      0.000294305    -0.000810267
                    -0.000662793     0.000343033        -0.149758        0.215166      0.000761908    -0.000689547        -0.732875       -0.617649
                       -0.970378       -0.216678      0.000620678    -0.000712507       -0.0113805       0.0398618     -0.000136665      0.00041238
                     0.000293973     -0.00070245        -0.732581       -0.617331     -0.000285659      1.1959e-05         -0.19183        0.176606
281700.4              -0.0117612       0.0409504     -0.000358798     0.000491365        -0.970931       -0.216725      0.000294287    -0.000810182
                    -0.000662739     0.000343047        -0.149748        0.215165      0.000761644    -0.000689776        -0.732896       -0.617627
                       -0.970384       -0.216648      0.000620693    -0.000712521       -0.0113777       0.0398553     -0.000136623     0.000412325
                     0.000293659    -0.000702562        -0.732602       -0.617309      -0.00028614      1.2047e-05        -0.191819        0.176608
281700.5               -0.011759       0.0409441      -0.00035887      0.00049145        -0.970938       -0.216696      0.000294268    -0.000810095
                    -0.000662684     0.000343061        -0.149738        0.215164      0.000761377    -0.000690007        -0.732917       -0.617605
                       -0.970391       -0.216618      0.000620708    -0.000712534       -0.0113749       0.0398489      -0.00013658     0.000412271
                     0.000293349    -0.000702672        -0.732623       -0.617287     -0.000286621     1.21369e-05        -0.191808         0.17661
281700.6              -0.0117568       0.0409379     -0.000358944     0.000491535        -0.970945       -0.216667       0.00029425    -0.000810008
                     -0.00066263     0.000343074        -0.149728        0.215163      0.000761108    -0.000690242        -0.732937       -0.617583
                       -0.970398       -0.216588      0.000620725    -0.000712547        -0.011372       0.0398425     -0.000136538     0.000412217
                      0.00029304    -0.000702781        -0.732643       -0.617265       -0.0002871     1.22287e-05        -0.191798        0.176612
281700.7              -0.0117546       0.0409317     -0.000359018     0.000491619        -0.970952       -0.216638      0.000294233    -0.000809921
                    -0.000662575     0.000343088        -0.149718        0.215161      0.000760837     -0.00069048        -0.732958       -0.617561
                       -0.970405       -0.216558      0.000620742     -0.00071256       -0.0113692       0.0398361     -0.000136496     0.000412163
                     0.000292735     -0.00070289        -0.732664       -0.617243     -0.000287579     1.23224e-05        -0.191787        0.176614
281700.8              -0.0117524       0.0409255     -0.000359093     0.000491704        -0.970958       -0.216609      0.000294216    -0.000809832
                     -0.00066252     0.000343103        -0.149708         0.21516      0.000760564    -0.000690721        -0.732979        -0.61754
                       -0.970412       -0.216528       0.00062076    -0.000712572       -0.0113664       0.0398296     -0.000136454     0.000412108
                     0.000292432    -0.000702997        -0.732685       -0.617221     -0.000288057     1.24179e-05        -0.191776        0.176615
281700.9              -0.0117502       0.0409192      -0.00035917     0.000491788        -0.970965        -0.21658      0.000294199    -0.000809743
                    -0.000662466     0.000343117        -0.149698        0.215159      0.000760288    -0.000690966           -0.733       -0.617518
                       -0.970418       -0.216498       0.00062078    -0.000712584       -0.0113636       0.0398232     -0.000136412     0.000412053
                     0.000292131    -0.000703102        -0.732705       -0.617199     -0.000288534     1.25154e-05        -0.191765        0.176617
281701                 -0.011748        0.040913     -0.000359247     0.000491872        -0.970972       -0.216551      0.000294183    -0.000809654
                    -0.000662411     0.000343132        -0.149688        0.215158       0.00076001    -0.000691213        -0.733021       -0.617496
                       -0.970425       -0.216468        0.0006208    -0.000712596       -0.0113608       0.0398168      -0.00013637     0.000411999
                     0.000291834    -0.000703207        -0.732726       -0.617178     -0.000289009     1.26147e-05        -0.191754        0.176619
281701.1              -0.0117457       0.0409068     -0.000359325     0.000491955        -0.970978       -0.216522      0.000294167    -0.000809563
                    -0.000662356     0.000343146        -0.149678        0.215157       0.00075973    -0.000691464        -0.733041       -0.617474
                       -0.970432       -0.216439      0.000620821    -0.000712608       -0.0113579       0.0398104     -0.000136328     0.000411944
                     0.000291538    -0.000703311        -0.732747       -0.617156     -0.000289484      1.2716e-05        -0.191744        0.176621
281701.2              -0.0117435       0.0409006     -0.000359405     0.000492038        -0.970985       -0.216493      0.000294152    -0.000809472
                    -0.000662301     0.000343161        -0.149668        0.215156      0.000759447    -0.000691718        -0.733062       -0.617452
                       -0.970439       -0.216409      0.000620844    -0.000712619       -0.0113551        0.039804     -0.000136286     0.000411889
                     0.000291246    -0.000703414        -0.732767       -0.617134     -0.000289959     1.28191e-05        -0.191733        0.176623
281701.3              -0.0117413       0.0408944     -0.000359485     0.000492121        -0.970992       -0.216464      0.000294137     -0.00080938
                    -0.000662245     0.000343176        -0.149658        0.215154      0.000759162    -0.000691975        -0.733083        -0.61743
                       -0.970445       -0.216379      0.000620867     -0.00071263       -0.0113523       0.0397975     -0.000136244     0.000411834
                     0.000290955    -0.000703516        -0.732788       -0.617112     -0.000290432     1.29241e-05        -0.191722        0.176625
281701.4              -0.0117391       0.0408881     -0.000359566     0.000492203        -0.970999       -0.216435      0.000294123    -0.000809288
                     -0.00066219     0.000343191        -0.149648        0.215153      0.000758875    -0.000692236        -0.733104       -0.617409
                       -0.970452       -0.216349      0.000620892     -0.00071264       -0.0113495       0.0397911     -0.000136202     0.000411778
                     0.000290668    -0.000703616        -0.732809        -0.61709     -0.000290904     1.30311e-05        -0.191711        0.176627
281701.5              -0.0117369       0.0408819     -0.000359649     0.000492285        -0.971005       -0.216406      0.000294109    -0.000809194
                    -0.000662134     0.000343207        -0.149638        0.215152      0.000758585      -0.0006925        -0.733125       -0.617387
                       -0.970459       -0.216319      0.000620917    -0.000712651       -0.0113467       0.0397847      -0.00013616     0.000411723
                     0.000290382    -0.000703716         -0.73283       -0.617068     -0.000291375     1.31399e-05          -0.1917        0.176629
281701.6              -0.0117346       0.0408757     -0.000359732     0.000492367        -0.971012       -0.216377      0.000294095      -0.0008091
                    -0.000662079     0.000343222        -0.149628        0.215151      0.000758292    -0.000692768        -0.733146       -0.617365
                       -0.970466       -0.216289      0.000620944     -0.00071266       -0.0113439       0.0397783     -0.000136118     0.000411667
                     0.000290099    -0.000703815         -0.73285       -0.617046     -0.000291845     1.32505e-05         -0.19169        0.176631
281701.7              -0.0117324       0.0408695     -0.000359817     0.000492448        -0.971019       -0.216348      0.000294083    -0.000809005
                    -0.000662023     0.000343238        -0.149618         0.21515      0.000757997     -0.00069304        -0.733166       -0.617343
                       -0.970473       -0.216259      0.000620972     -0.00071267       -0.0113411       0.0397719     -0.000136076     0.000411612
                     0.000289818    -0.000703913        -0.732871       -0.617024     -0.000292314     1.33631e-05        -0.191679        0.176633
281701.8              -0.0117302       0.0408633     -0.000359902     0.000492529        -0.971025       -0.216319       0.00029407     -0.00080891
                    -0.000661967     0.000343254        -0.149608        0.215149        0.0007577    -0.000693315        -0.733187       -0.617321
                       -0.970479       -0.216229      0.000621002    -0.000712679       -0.0113383       0.0397655     -0.000136034     0.000411556
                      0.00028954    -0.000704009        -0.732892       -0.617003     -0.000292782     1.34776e-05        -0.191668        0.176634
281701.9              -0.0117279        0.040857     -0.000359989      0.00049261        -0.971032        -0.21629      0.000294059    -0.000808813
                    -0.000661911      0.00034327        -0.149598        0.215147        0.0007574    -0.000693594        -0.733208       -0.617299
                       -0.970486       -0.216199      0.000621032    -0.000712688       -0.0113355       0.0397591     -0.000135992       0.0004115
                     0.000289264    -0.000704105        -0.732912       -0.616981     -0.000293249     1.35939e-05        -0.191657        0.176636
281702                -0.0117257       0.0408508     -0.000360076      0.00049269        -0.971038       -0.216261      0.000294047    -0.000808716
                    -0.000661855     0.000343287        -0.149588        0.215146      0.000757097    -0.000693877        -0.733229       -0.617278
                       -0.970493        -0.21617      0.000621064    -0.000712696       -0.0113327       0.0397527      -0.00013595     0.000411444
                      0.00028899      -0.0007042        -0.732933       -0.616959     -0.000293714     1.37121e-05        -0.191646        0.176638
281702.1              -0.0117234       0.0408446     -0.000360165     0.000492769        -0.971045       -0.216232      0.000294037    -0.000808618
                    -0.000661799     0.000343303        -0.149578        0.215145      0.000756792    -0.000694164         -0.73325       -0.617256
                         -0.9705        -0.21614      0.000621097    -0.000712704       -0.0113299       0.0397462     -0.000135908     0.000411388
                     0.000288719    -0.000704294        -0.732954       -0.616937     -0.000294179     1.38322e-05        -0.191636         0.17664
281702.2              -0.0117212       0.0408384     -0.000360254     0.000492848        -0.971052       -0.216203      0.000294027    -0.000808518
                    -0.000661743      0.00034332        -0.149568        0.215144      0.000756484    -0.000694455         -0.73327       -0.617234
                       -0.970506        -0.21611      0.000621132    -0.000712711       -0.0113271       0.0397398     -0.000135866     0.000411332
                      0.00028845    -0.000704387        -0.732974       -0.616915     -0.000294642     1.39542e-05        -0.191625        0.176642
281702.3               -0.011719       0.0408322     -0.000360345     0.000492927        -0.971058       -0.216174      0.000294017    -0.000808419
                    -0.000661687     0.000343337        -0.149558        0.215143      0.000756173     -0.00069475        -0.733291       -0.617212
                       -0.970513        -0.21608      0.000621168    -0.000712718       -0.0113243       0.0397334     -0.000135824     0.000411275
                     0.000288183    -0.000704479        -0.732995       -0.616893     -0.000295105      1.4078e-05        -0.191614        0.176644
281702.4              -0.0117167        0.040826     -0.000360436     0.000493005        -0.971065       -0.216145      0.000294008    -0.000808318
                     -0.00066163     0.000343354        -0.149548        0.215141       0.00075586     -0.00069505        -0.733312        -0.61719
                        -0.97052        -0.21605      0.000621205    -0.000712724       -0.0113215        0.039727     -0.000135782     0.000411219
                     0.000287918     -0.00070457        -0.733016       -0.616872     -0.000295566     1.42037e-05        -0.191603        0.176646
281702.5              -0.0117145       0.0408198     -0.000360529     0.000493082        -0.971071       -0.216116         0.000294    -0.000808216
                    -0.000661574     0.000343372        -0.149538         0.21514      0.000755543    -0.000695353        -0.733333       -0.617168
                       -0.970527        -0.21602      0.000621244     -0.00071273       -0.0113187       0.0397206      -0.00013574     0.000411162
                     0.000287655     -0.00070466        -0.733037        -0.61685     -0.000296026     1.43313e-05        -0.191592        0.176648
281702.6              -0.0117122       0.0408135     -0.000360623     0.000493159        -0.971078       -0.216087      0.000293993    -0.000808113
                    -0.000661517     0.000343389        -0.149528        0.215139      0.000755224    -0.000695661        -0.733353       -0.617146
                       -0.970533        -0.21599      0.000621285    -0.000712735       -0.0113159       0.0397142     -0.000135699     0.000411105
                     0.000287394     -0.00070475        -0.733057       -0.616828     -0.000296485     1.44607e-05        -0.191582         0.17665
281702.7                -0.01171       0.0408073     -0.000360717     0.000493236        -0.971085       -0.216058      0.000293986     -0.00080801
                     -0.00066146     0.000343407        -0.149518        0.215138      0.000754903    -0.000695973        -0.733374       -0.617125
                        -0.97054        -0.21596      0.000621327     -0.00071274       -0.0113131       0.0397078     -0.000135657     0.000411048
                     0.000287136    -0.000704838        -0.733078       -0.616806     -0.000296942     1.45921e-05        -0.191571        0.176652
281702.8              -0.0117077       0.0408011     -0.000360813     0.000493312        -0.971091       -0.216029       0.00029398    -0.000807905
                    -0.000661403     0.000343425        -0.149508        0.215137      0.000754578     -0.00069629        -0.733395       -0.617103
                       -0.970547       -0.215931       0.00062137    -0.000712744       -0.0113103       0.0397014     -0.000135615     0.000410991
                      0.00028688    -0.000704926        -0.733099       -0.616784     -0.000297398     1.47252e-05         -0.19156        0.176653
281702.9              -0.0117054       0.0407949      -0.00036091     0.000493387        -0.971098          -0.216      0.000293974      -0.0008078
                    -0.000661346     0.000343443        -0.149498        0.215136       0.00075425    -0.000696612        -0.733416       -0.617081
                       -0.970554       -0.215901      0.000621416    -0.000712748       -0.0113075        0.039695     -0.000135573     0.000410934
                     0.000286625    -0.000705012        -0.733119       -0.616762     -0.000297853     1.48603e-05        -0.191549        0.176655
281703                -0.0117032       0.0407887     -0.000361008     0.000493462        -0.971104       -0.215971      0.000293969    -0.000807694
                    -0.000661289     0.000343462        -0.149488        0.215134      0.000753919    -0.000696938        -0.733437       -0.617059
                        -0.97056       -0.215871      0.000621463    -0.000712751       -0.0113047       0.0396886     -0.000135531     0.000410876
                     0.000286373    -0.000705098         -0.73314        -0.61674     -0.000298307     1.49972e-05        -0.191538        0.176657
281703.1              -0.0117009       0.0407825     -0.000361107     0.000493536        -0.971111       -0.215942      0.000293965    -0.000807586
                    -0.000661232      0.00034348        -0.149478        0.215133      0.000753586    -0.000697269        -0.733457       -0.617037
                       -0.970567       -0.215841      0.000621512    -0.000712753       -0.0113019       0.0396822      -0.00013549     0.000410819
