! TOUCHSTONE file generated by CST MICROWAVE STUDIO
! Date and time: Wed Oct  8 06:51:12 2025
! Project name: Teste_Macro_Metasurface_Nanopilar.cst
! Parameters = {H=600; L_x=75; L_y=80; Lambda=1064; Max_L=200; Min_L=70; PathPara=1; Phi=0; Step_L=10; Theta=0; p=520; phaseX=180; phaseY=0}
! Header version: 2018
! Port assignment regex: !\s*Touchstone port\s*([0-9]+)\s*=\s*(CST MWS port|CST DS port)\s*([0-9]+|Zmin|Zmax)\s*\(\"(.*)\"\)(\s*mode\s*([0-9]+))?.*
! Touchstone port assignment:
! Touchstone port 1 = CST MWS port Zmax ("") mode 1
! Touchstone port 2 = CST MWS port Zmax ("") mode 2
! Touchstone port 3 = CST MWS port Zmin ("") mode 1
! Touchstone port 4 = CST MWS port Zmin ("") mode 2
! S-Parameters are not renormalized. Each port impedance will be approximated by the real part at minimum frequency. The values are described via the [Reference] keyword.
! Default impedance is overridden by [Reference]
[Version] 2.0
# GHz S RI R 376.73
[Number of Ports] 4
[Reference]
376.73 376.73 376.73 376.73 
[Number of Frequencies] 1001
[Network Data]
281700                  0.119746       0.0567696      0.000206515     0.000150505        -0.975462        0.174163      0.000146376    -0.000167448
                     0.000190302    -2.07943e-05         0.117924       0.0746852     -1.84631e-06     -0.00025984        -0.980789        0.135024
                       -0.975625        0.174349      -0.00013442    -0.000269774       -0.0928396       0.0947811     -0.000342019    -4.07377e-06
                     -4.4416e-05    -0.000102056        -0.980674        0.135094      -0.00022147     0.000128481       -0.0934167        0.103838
281700.1                0.119745       0.0567635      0.000206512     0.000150503        -0.975458        0.174188      0.000146372    -0.000167454
                     0.000190287    -2.08071e-05         0.117924       0.0746791     -1.84978e-06    -0.000259838        -0.980786         0.13505
                        -0.97562        0.174375     -0.000134427    -0.000269774       -0.0928362       0.0947801     -0.000342012    -4.06416e-06
                    -4.44108e-05    -0.000102049        -0.980671         0.13512      -0.00022147     0.000128481       -0.0934129        0.103838
281700.2                0.119745       0.0567575      0.000206509       0.0001505        -0.975453        0.174214      0.000146367     -0.00016746
                     0.000190271    -2.08198e-05         0.117924        0.074673     -1.85326e-06    -0.000259837        -0.980782        0.135076
                       -0.975616        0.174401     -0.000134433    -0.000269774       -0.0928329       0.0947792     -0.000342005    -4.05456e-06
                    -4.44055e-05    -0.000102041        -0.980668        0.135146      -0.00022147      0.00012848       -0.0934092        0.103837
281700.3                0.119744       0.0567514      0.000206506     0.000150498        -0.975449         0.17424      0.000146363    -0.000167465
                     0.000190256    -2.08325e-05         0.117925       0.0746669     -1.85673e-06    -0.000259835        -0.980779        0.135101
                       -0.975612        0.174427      -0.00013444    -0.000269774       -0.0928295       0.0947783     -0.000341997    -4.04495e-06
                    -4.44002e-05    -0.000102034        -0.980665        0.135172      -0.00022147      0.00012848       -0.0934055        0.103836
281700.4                0.119744       0.0567454      0.000206504     0.000150495        -0.975445        0.174266      0.000146359    -0.000167471
                      0.00019024    -2.08453e-05         0.117925       0.0746608     -1.86021e-06    -0.000259834        -0.980776        0.135127
                       -0.975608        0.174453     -0.000134447    -0.000269774       -0.0928262       0.0947773      -0.00034199    -4.03534e-06
                     -4.4395e-05    -0.000102027        -0.980662        0.135198      -0.00022147     0.000128479       -0.0934018        0.103835
281700.5                0.119744       0.0567393      0.000206501     0.000150492        -0.975441        0.174292      0.000146355    -0.000167476
                     0.000190225     -2.0858e-05         0.117925       0.0746547     -1.86369e-06    -0.000259833        -0.980773        0.135153
                       -0.975604        0.174479     -0.000134454    -0.000269774       -0.0928228       0.0947764     -0.000341982    -4.02573e-06
                    -4.43897e-05     -0.00010202        -0.980658        0.135223      -0.00022147     0.000128479       -0.0933981        0.103834
281700.6                0.119743       0.0567333      0.000206498      0.00015049        -0.975436        0.174318       0.00014635    -0.000167482
                      0.00019021    -2.08707e-05         0.117925       0.0746486     -1.86716e-06    -0.000259831         -0.98077        0.135179
                       -0.975599        0.174505     -0.000134461    -0.000269774       -0.0928195       0.0947755     -0.000341975    -4.01612e-06
                    -4.43844e-05    -0.000102013        -0.980655        0.135249      -0.00022147     0.000128479       -0.0933944        0.103833
281700.7                0.119743       0.0567272      0.000206495     0.000150487        -0.975432        0.174344      0.000146346    -0.000167487
                     0.000190194    -2.08834e-05         0.117925       0.0746425     -1.87064e-06     -0.00025983        -0.980767        0.135205
                       -0.975595        0.174531     -0.000134467    -0.000269774       -0.0928161       0.0947745     -0.000341967    -4.00651e-06
                    -4.43792e-05    -0.000102006        -0.980652        0.135275      -0.00022147     0.000128478       -0.0933907        0.103832
281700.8                0.119742       0.0567212      0.000206493     0.000150484        -0.975428        0.174369      0.000146342    -0.000167493
                     0.000190179    -2.08962e-05         0.117925       0.0746364     -1.87412e-06    -0.000259828        -0.980764        0.135231
                       -0.975591        0.174557     -0.000134474    -0.000269774       -0.0928128       0.0947736      -0.00034196     -3.9969e-06
                    -4.43739e-05    -0.000101999        -0.980649        0.135301      -0.00022147     0.000128478        -0.093387        0.103831
281700.9                0.119742       0.0567151       0.00020649     0.000150482        -0.975424        0.174395      0.000146338    -0.000167499
                     0.000190163    -2.09089e-05         0.117925       0.0746303      -1.8776e-06    -0.000259827        -0.980761        0.135257
                       -0.975587        0.174583     -0.000134481    -0.000269774       -0.0928094       0.0947727     -0.000341952    -3.98729e-06
                    -4.43686e-05    -0.000101991        -0.980646        0.135327      -0.00022147     0.000128477       -0.0933833         0.10383
281701                  0.119741       0.0567091      0.000206487     0.000150479         -0.97542        0.174421      0.000146333    -0.000167504
                     0.000190148    -2.09216e-05         0.117925       0.0746242     -1.88107e-06    -0.000259826        -0.980757        0.135283
                       -0.975582        0.174608     -0.000134488    -0.000269774       -0.0928061       0.0947717     -0.000341945    -3.97768e-06
                    -4.43633e-05    -0.000101984        -0.980643        0.135353      -0.00022147     0.000128477       -0.0933796        0.103829
281701.1                0.119741        0.056703      0.000206484     0.000150476        -0.975415        0.174447      0.000146329     -0.00016751
                     0.000190132    -2.09344e-05         0.117926       0.0746181     -1.88455e-06    -0.000259824        -0.980754        0.135309
                       -0.975578        0.174634     -0.000134494    -0.000269774       -0.0928027       0.0947708     -0.000341938    -3.96806e-06
                    -4.43581e-05    -0.000101977         -0.98064        0.135379      -0.00022147     0.000128476       -0.0933759        0.103829
281701.2                 0.11974        0.056697      0.000206481     0.000150474        -0.975411        0.174473      0.000146325    -0.000167515
                     0.000190117    -2.09471e-05         0.117926        0.074612     -1.88803e-06    -0.000259823        -0.980751        0.135335
                       -0.975574         0.17466     -0.000134501    -0.000269774       -0.0927994       0.0947699      -0.00034193    -3.95845e-06
                    -4.43528e-05     -0.00010197        -0.980636        0.135405      -0.00022147     0.000128476       -0.0933721        0.103828
281701.3                 0.11974       0.0566909      0.000206479     0.000150471        -0.975407        0.174499      0.000146321    -0.000167521
                     0.000190101    -2.09598e-05         0.117926       0.0746059     -1.89151e-06    -0.000259822        -0.980748        0.135361
                        -0.97557        0.174686     -0.000134508    -0.000269774        -0.092796       0.0947689     -0.000341923    -3.94883e-06
                    -4.43475e-05    -0.000101963        -0.980633        0.135431      -0.00022147     0.000128476       -0.0933684        0.103827
281701.4                0.119739       0.0566849      0.000206476     0.000150468        -0.975403        0.174525      0.000146316    -0.000167527
                     0.000190086    -2.09726e-05         0.117926       0.0745999     -1.89499e-06     -0.00025982        -0.980745        0.135387
                       -0.975566        0.174712     -0.000134515    -0.000269774       -0.0927927        0.094768     -0.000341915    -3.93922e-06
                    -4.43422e-05    -0.000101956         -0.98063        0.135457      -0.00022147     0.000128475       -0.0933647        0.103826
281701.5                0.119739       0.0566788      0.000206473     0.000150466        -0.975398        0.174551      0.000146312    -0.000167532
                      0.00019007    -2.09853e-05         0.117926       0.0745938     -1.89847e-06    -0.000259819        -0.980742        0.135413
                       -0.975561        0.174738     -0.000134522    -0.000269774       -0.0927893       0.0947671     -0.000341908     -3.9296e-06
                     -4.4337e-05    -0.000101949        -0.980627        0.135483     -0.000221469     0.000128475        -0.093361        0.103825
281701.6                0.119738       0.0566728       0.00020647     0.000150463        -0.975394        0.174576      0.000146308    -0.000167538
                     0.000190055     -2.0998e-05         0.117926       0.0745877     -1.90195e-06    -0.000259817        -0.980739        0.135439
                       -0.975557        0.174764     -0.000134528    -0.000269774        -0.092786       0.0947661       -0.0003419    -3.91998e-06
                    -4.43317e-05    -0.000101941        -0.980624        0.135509     -0.000221469     0.000128474       -0.0933573        0.103824
281701.7                0.119738       0.0566667      0.000206468      0.00015046         -0.97539        0.174602      0.000146304    -0.000167543
                     0.000190039    -2.10107e-05         0.117926       0.0745816     -1.90542e-06    -0.000259816        -0.980735        0.135465
                       -0.975553         0.17479     -0.000134535    -0.000269774       -0.0927826       0.0947652     -0.000341893    -3.91036e-06
                    -4.43264e-05    -0.000101934        -0.980621        0.135535     -0.000221469     0.000128474       -0.0933536        0.103823
281701.8                0.119737       0.0566607      0.000206465     0.000150458        -0.975386        0.174628      0.000146299    -0.000167549
                     0.000190024    -2.10235e-05         0.117926       0.0745755      -1.9089e-06    -0.000259815        -0.980732        0.135491
                       -0.975549        0.174816     -0.000134542    -0.000269774       -0.0927793       0.0947643     -0.000341885    -3.90074e-06
                    -4.43211e-05    -0.000101927        -0.980618        0.135561     -0.000221469     0.000128474       -0.0933499        0.103822
281701.9                0.119737       0.0566546      0.000206462     0.000150455        -0.975382        0.174654      0.000146295    -0.000167555
                     0.000190008    -2.10362e-05         0.117927       0.0745694     -1.91238e-06    -0.000259813        -0.980729        0.135517
                       -0.975545        0.174842     -0.000134549    -0.000269774       -0.0927759       0.0947633     -0.000341878    -3.89112e-06
                    -4.43158e-05     -0.00010192        -0.980614        0.135587     -0.000221469     0.000128473       -0.0933462        0.103821
281702                  0.119737       0.0566485      0.000206459     0.000150452        -0.975377         0.17468      0.000146291     -0.00016756
                     0.000189993    -2.10489e-05         0.117927       0.0745633     -1.91586e-06    -0.000259812        -0.980726        0.135543
                        -0.97554        0.174867     -0.000134555    -0.000269774       -0.0927726       0.0947624      -0.00034187     -3.8815e-06
                    -4.43105e-05    -0.000101913        -0.980611        0.135613     -0.000221469     0.000128473       -0.0933425         0.10382
281702.1                0.119736       0.0566425      0.000206456      0.00015045        -0.975373        0.174706      0.000146286    -0.000167566
                     0.000189977    -2.10616e-05         0.117927       0.0745572     -1.91935e-06     -0.00025981        -0.980723        0.135568
                       -0.975536        0.174893     -0.000134562    -0.000269774       -0.0927692       0.0947615     -0.000341863    -3.87188e-06
                    -4.43052e-05    -0.000101906        -0.980608        0.135638     -0.000221469     0.000128472       -0.0933388        0.103819
281702.2                0.119736       0.0566364      0.000206454     0.000150447        -0.975369        0.174732      0.000146282    -0.000167571
                     0.000189962    -2.10744e-05         0.117927       0.0745511     -1.92283e-06    -0.000259809         -0.98072        0.135594
                       -0.975532        0.174919     -0.000134569    -0.000269774       -0.0927659       0.0947605     -0.000341855    -3.86226e-06
                    -4.42999e-05    -0.000101899        -0.980605        0.135664     -0.000221469     0.000128472       -0.0933351        0.103819
281702.3                0.119735       0.0566304      0.000206451     0.000150444        -0.975365        0.174758      0.000146278    -0.000167577
                     0.000189946    -2.10871e-05         0.117927        0.074545     -1.92631e-06    -0.000259808        -0.980717         0.13562
                       -0.975528        0.174945     -0.000134576    -0.000269774       -0.0927625       0.0947596     -0.000341848    -3.85264e-06
                    -4.42946e-05    -0.000101891        -0.980602         0.13569     -0.000221469     0.000128472       -0.0933314        0.103818
281702.4                0.119735       0.0566243      0.000206448     0.000150442         -0.97536        0.174783      0.000146274    -0.000167582
                     0.000189931    -2.10998e-05         0.117927       0.0745389     -1.92979e-06    -0.000259806        -0.980713        0.135646
                       -0.975523        0.174971     -0.000134582    -0.000269774       -0.0927592       0.0947587      -0.00034184    -3.84301e-06
                    -4.42894e-05    -0.000101884        -0.980599        0.135716     -0.000221469     0.000128471       -0.0933277        0.103817
281702.5                0.119734       0.0566183      0.000206445     0.000150439        -0.975356        0.174809      0.000146269    -0.000167588
                     0.000189915    -2.11125e-05         0.117927       0.0745328     -1.93327e-06    -0.000259805         -0.98071        0.135672
                       -0.975519        0.174997     -0.000134589    -0.000269774       -0.0927558       0.0947577     -0.000341833    -3.83339e-06
                    -4.42841e-05    -0.000101877        -0.980596        0.135742     -0.000221469     0.000128471       -0.0933239        0.103816
281702.6                0.119734       0.0566122      0.000206443     0.000150436        -0.975352        0.174835      0.000146265    -0.000167594
                       0.0001899    -2.11252e-05         0.117927       0.0745267     -1.93675e-06    -0.000259803        -0.980707        0.135698
                       -0.975515        0.175023     -0.000134596    -0.000269774       -0.0927525       0.0947568     -0.000341825    -3.82376e-06
                    -4.42788e-05     -0.00010187        -0.980592        0.135768     -0.000221469      0.00012847       -0.0933202        0.103815
281702.7                0.119733       0.0566062       0.00020644     0.000150434        -0.975348        0.174861      0.000146261    -0.000167599
                     0.000189884     -2.1138e-05         0.117928       0.0745206     -1.94023e-06    -0.000259802        -0.980704        0.135724
                       -0.975511        0.175049     -0.000134603    -0.000269774       -0.0927491       0.0947559     -0.000341818    -3.81414e-06
                    -4.42735e-05    -0.000101863        -0.980589        0.135794     -0.000221469      0.00012847       -0.0933165        0.103814
281702.8                0.119733       0.0566001      0.000206437     0.000150431        -0.975343        0.174887      0.000146257    -0.000167605
                     0.000189869    -2.11507e-05         0.117928       0.0745145     -1.94372e-06    -0.000259801        -0.980701         0.13575
                       -0.975507        0.175075     -0.000134609    -0.000269774       -0.0927458       0.0947549      -0.00034181    -3.80451e-06
                    -4.42682e-05    -0.000101856        -0.980586         0.13582     -0.000221469     0.000128469       -0.0933128        0.103813
281702.9                0.119732       0.0565941      0.000206434     0.000150428        -0.975339        0.174913      0.000146252     -0.00016761
                     0.000189853    -2.11634e-05         0.117928       0.0745084      -1.9472e-06    -0.000259799        -0.980698        0.135776
                       -0.975502        0.175101     -0.000134616    -0.000269774       -0.0927424        0.094754     -0.000341803    -3.79488e-06
                    -4.42629e-05    -0.000101849        -0.980583        0.135846     -0.000221469     0.000128469       -0.0933091        0.103812
281703                  0.119732        0.056588      0.000206431     0.000150426        -0.975335        0.174939      0.000146248    -0.000167616
                     0.000189838    -2.11761e-05         0.117928       0.0745023     -1.95068e-06    -0.000259798        -0.980695        0.135802
                       -0.975498        0.175126     -0.000134623    -0.000269774       -0.0927391       0.0947531     -0.000341795    -3.78526e-06
                    -4.42576e-05    -0.000101842         -0.98058        0.135872     -0.000221469     0.000128469       -0.0933054        0.103811
281703.1                0.119731        0.056582      0.000206429     0.000150423        -0.975331        0.174964      0.000146244    -0.000167622
                     0.000189822    -2.11889e-05         0.117928       0.0744962     -1.95416e-06    -0.000259797        -0.980691        0.135828
                       -0.975494        0.175152      -0.00013463    -0.000269774       -0.0927357       0.0947521     -0.000341788    -3.77563e-06
