! TOUCHSTONE file generated by CST MICROWAVE STUDIO
! Date and time: Wed Oct  8 06:55:22 2025
! Project name: Teste_Macro_Metasurface_Nanopilar.cst
! Parameters = {H=600; L_x=110; L_y=80; Lambda=1064; Max_L=200; Min_L=70; PathPara=1; Phi=0; Step_L=10; Theta=0; p=520; phaseX=180; phaseY=0}
! Header version: 2018
! Port assignment regex: !\s*Touchstone port\s*([0-9]+)\s*=\s*(CST MWS port|CST DS port)\s*([0-9]+|Zmin|Zmax)\s*\(\"(.*)\"\)(\s*mode\s*([0-9]+))?.*
! Touchstone port assignment:
! Touchstone port 1 = CST MWS port Zmax ("") mode 1
! Touchstone port 2 = CST MWS port Zmax ("") mode 2
! Touchstone port 3 = CST MWS port Zmin ("") mode 1
! Touchstone port 4 = CST MWS port Zmin ("") mode 2
! S-Parameters are not renormalized. Each port impedance will be approximated by the real part at minimum frequency. The values are described via the [Reference] keyword.
! Default impedance is overridden by [Reference]
[Version] 2.0
# GHz S RI R 376.73
[Number of Ports] 4
[Reference]
376.73 376.73 376.73 376.73 
[Number of Frequencies] 1001
[Network Data]
281700                  0.112972      -0.0248231      0.000147916    -0.000101777        -0.925681        0.359081     -6.09054e-05    -3.70455e-05
                     0.000292568     0.000106069       -0.0715627       -0.175382      -8.7388e-05    -4.35598e-05        -0.572459        0.794782
                       -0.925456        0.359283     -3.48733e-05    -0.000179949        -0.100396       0.0579792     -5.25895e-05     0.000152289
                     -0.00021422    -0.000155525        -0.572364         0.79482      7.37587e-06     0.000111501        -0.189613      -0.0115924
281700.1                0.112969      -0.0248283      0.000147913    -0.000101782        -0.925672        0.359105     -6.09029e-05    -3.70471e-05
                     0.000292572      0.00010606       -0.0715699        -0.17538     -8.73897e-05    -4.35523e-05        -0.572437        0.794798
                       -0.925447        0.359308     -3.48844e-05    -0.000179938        -0.100395       0.0579786     -5.25935e-05     0.000152269
                    -0.000214229    -0.000155518        -0.572341        0.794836      7.38099e-06     0.000111496        -0.189614      -0.0115894
281700.2                0.112965      -0.0248335      0.000147911    -0.000101787        -0.925663         0.35913     -6.09004e-05    -3.70487e-05
                     0.000292576     0.000106052       -0.0715772       -0.175378     -8.73914e-05    -4.35448e-05        -0.572415        0.794814
                       -0.925437        0.359333     -3.48955e-05    -0.000179926        -0.100393        0.057978     -5.25974e-05      0.00015225
                    -0.000214237     -0.00015551        -0.572319        0.794852      7.38611e-06      0.00011149        -0.189615      -0.0115864
281700.3                0.112962      -0.0248388      0.000147908    -0.000101792        -0.925653        0.359155     -6.08978e-05    -3.70503e-05
                      0.00029258     0.000106043       -0.0715844       -0.175375      -8.7393e-05    -4.35373e-05        -0.572392         0.79483
                       -0.925428        0.359357     -3.49065e-05    -0.000179914        -0.100391       0.0579773     -5.26014e-05     0.000152231
                    -0.000214245    -0.000155503        -0.572297        0.794868      7.39123e-06     0.000111485        -0.189616      -0.0115834
281700.4                0.112959       -0.024844      0.000147906    -0.000101797        -0.925644         0.35918     -6.08953e-05    -3.70518e-05
                     0.000292584     0.000106034       -0.0715917       -0.175373     -8.73947e-05    -4.35298e-05         -0.57237        0.794845
                       -0.925419        0.359382     -3.49176e-05    -0.000179903        -0.100389       0.0579767     -5.26053e-05     0.000152211
                    -0.000214253    -0.000155496        -0.572275        0.794884      7.39634e-06      0.00011148        -0.189617      -0.0115805
281700.5                0.112956      -0.0248492      0.000147903    -0.000101803        -0.925635        0.359205     -6.08928e-05    -3.70534e-05
                     0.000292588     0.000106026       -0.0715989       -0.175371     -8.73964e-05    -4.35223e-05        -0.572348        0.794861
                       -0.925409        0.359407     -3.49286e-05    -0.000179891        -0.100387       0.0579761     -5.26093e-05     0.000152192
                    -0.000214261    -0.000155489        -0.572253        0.794899      7.40145e-06     0.000111474        -0.189618      -0.0115775
281700.6                0.112953      -0.0248544        0.0001479    -0.000101808        -0.925625        0.359229     -6.08902e-05     -3.7055e-05
                     0.000292592     0.000106017       -0.0716062       -0.175369      -8.7398e-05    -4.35148e-05        -0.572326        0.794877
                         -0.9254        0.359432     -3.49397e-05    -0.000179879        -0.100385       0.0579754     -5.26132e-05     0.000152173
                    -0.000214269    -0.000155482         -0.57223        0.794915      7.40656e-06     0.000111469        -0.189619      -0.0115745
281700.7                 0.11295      -0.0248596      0.000147898    -0.000101813        -0.925616        0.359254     -6.08877e-05    -3.70566e-05
                     0.000292596     0.000106008       -0.0716134       -0.175367     -8.73997e-05    -4.35073e-05        -0.572304        0.794893
                        -0.92539        0.359457     -3.49508e-05    -0.000179868        -0.100383       0.0579748     -5.26171e-05     0.000152153
                    -0.000214277    -0.000155475        -0.572208        0.794931      7.41167e-06     0.000111463         -0.18962      -0.0115715
281700.8                0.112946      -0.0248648      0.000147895    -0.000101818        -0.925606        0.359279     -6.08852e-05    -3.70582e-05
                       0.0002926     0.000105999       -0.0716207       -0.175365     -8.74013e-05    -4.34997e-05        -0.572281        0.794909
                       -0.925381        0.359481     -3.49618e-05    -0.000179856        -0.100381       0.0579742     -5.26211e-05     0.000152134
                    -0.000214286    -0.000155467        -0.572186        0.794947      7.41678e-06     0.000111458        -0.189621      -0.0115686
281700.9                0.112943        -0.02487      0.000147893    -0.000101823        -0.925597        0.359304     -6.08826e-05    -3.70597e-05
                     0.000292604     0.000105991       -0.0716279       -0.175363      -8.7403e-05    -4.34922e-05        -0.572259        0.794924
                       -0.925372        0.359506     -3.49729e-05    -0.000179845        -0.100379       0.0579735      -5.2625e-05     0.000152115
                    -0.000214294     -0.00015546        -0.572164        0.794962      7.42188e-06     0.000111453        -0.189622      -0.0115656
281701                   0.11294      -0.0248752       0.00014789    -0.000101828        -0.925588        0.359329     -6.08801e-05    -3.70613e-05
                     0.000292608     0.000105982       -0.0716352       -0.175361     -8.74046e-05    -4.34847e-05        -0.572237         0.79494
                       -0.925362        0.359531     -3.49839e-05    -0.000179833        -0.100377       0.0579729     -5.26289e-05     0.000152095
                    -0.000214302    -0.000155453        -0.572141        0.794978      7.42698e-06     0.000111447        -0.189623      -0.0115626
281701.1                0.112937      -0.0248805      0.000147888    -0.000101833        -0.925578        0.359353     -6.08776e-05    -3.70629e-05
                     0.000292612     0.000105973       -0.0716424       -0.175358     -8.74063e-05    -4.34772e-05        -0.572215        0.794956
                       -0.925353        0.359556      -3.4995e-05    -0.000179821        -0.100375       0.0579723     -5.26329e-05     0.000152076
                     -0.00021431    -0.000155446        -0.572119        0.794994      7.43208e-06     0.000111442        -0.189624      -0.0115596
281701.2                0.112934      -0.0248857      0.000147885    -0.000101838        -0.925569        0.359378      -6.0875e-05    -3.70645e-05
                     0.000292616     0.000105964       -0.0716497       -0.175356      -8.7408e-05    -4.34697e-05        -0.572193        0.794972
                       -0.925343        0.359581      -3.5006e-05     -0.00017981        -0.100373       0.0579716     -5.26368e-05     0.000152057
                    -0.000214318    -0.000155439        -0.572097         0.79501      7.43718e-06     0.000111436        -0.189625      -0.0115567
281701.3                0.112931      -0.0248909      0.000147883    -0.000101843         -0.92556        0.359403     -6.08725e-05    -3.70661e-05
                      0.00029262     0.000105956       -0.0716569       -0.175354     -8.74096e-05    -4.34622e-05         -0.57217        0.794988
                       -0.925334        0.359605     -3.50171e-05    -0.000179798        -0.100372        0.057971     -5.26408e-05     0.000152037
                    -0.000214326    -0.000155432        -0.572075        0.795026      7.44228e-06     0.000111431        -0.189626      -0.0115537
281701.4                0.112927      -0.0248961       0.00014788    -0.000101848         -0.92555        0.359428       -6.087e-05    -3.70676e-05
                     0.000292624     0.000105947       -0.0716641       -0.175352     -8.74113e-05    -4.34547e-05        -0.572148        0.795003
                       -0.925325         0.35963     -3.50281e-05    -0.000179787         -0.10037       0.0579704     -5.26447e-05     0.000152018
                    -0.000214335    -0.000155424        -0.572053        0.795041      7.44737e-06     0.000111426        -0.189627      -0.0115507
281701.5                0.112924      -0.0249013      0.000147877    -0.000101853        -0.925541        0.359453     -6.08674e-05    -3.70692e-05
                     0.000292628     0.000105938       -0.0716714        -0.17535     -8.74129e-05    -4.34472e-05        -0.572126        0.795019
                       -0.925315        0.359655     -3.50392e-05    -0.000179775        -0.100368       0.0579698     -5.26486e-05     0.000151999
                    -0.000214343    -0.000155417         -0.57203        0.795057      7.45246e-06      0.00011142        -0.189628      -0.0115477
281701.6                0.112921      -0.0249065      0.000147875    -0.000101858        -0.925531        0.359478     -6.08649e-05    -3.70708e-05
                     0.000292632     0.000105929       -0.0716786       -0.175348     -8.74146e-05    -4.34397e-05        -0.572104        0.795035
                       -0.925306         0.35968     -3.50502e-05    -0.000179763        -0.100366       0.0579691     -5.26525e-05      0.00015198
                    -0.000214351     -0.00015541        -0.572008        0.795073      7.45755e-06     0.000111415        -0.189629      -0.0115447
281701.7                0.112918      -0.0249117      0.000147872    -0.000101863        -0.925522        0.359502     -6.08624e-05    -3.70724e-05
                     0.000292636     0.000105921       -0.0716859       -0.175346     -8.74162e-05    -4.34322e-05        -0.572082        0.795051
                       -0.925296        0.359705     -3.50613e-05    -0.000179752        -0.100364       0.0579685     -5.26565e-05      0.00015196
                    -0.000214359    -0.000155403        -0.571986        0.795089      7.46264e-06     0.000111409        -0.189629      -0.0115418
281701.8                0.112915      -0.0249169       0.00014787    -0.000101868        -0.925513        0.359527     -6.08598e-05     -3.7074e-05
                      0.00029264     0.000105912       -0.0716931       -0.175344     -8.74179e-05    -4.34247e-05        -0.572059        0.795067
                       -0.925287        0.359729     -3.50723e-05     -0.00017974        -0.100362       0.0579679     -5.26604e-05     0.000151941
                    -0.000214367    -0.000155396        -0.571964        0.795104      7.46773e-06     0.000111404         -0.18963      -0.0115388
281701.9                0.112912      -0.0249222      0.000147867    -0.000101873        -0.925503        0.359552     -6.08573e-05    -3.70755e-05
                     0.000292644     0.000105903       -0.0717004       -0.175342     -8.74195e-05    -4.34172e-05        -0.572037        0.795082
                       -0.925278        0.359754     -3.50834e-05    -0.000179728         -0.10036       0.0579672     -5.26643e-05     0.000151922
                    -0.000214375    -0.000155388        -0.571942         0.79512      7.47281e-06     0.000111399        -0.189631      -0.0115358
281702                  0.112908      -0.0249274      0.000147865    -0.000101878        -0.925494        0.359577     -6.08547e-05    -3.70771e-05
                     0.000292648     0.000105894       -0.0717076       -0.175339     -8.74211e-05    -4.34097e-05        -0.572015        0.795098
                       -0.925268        0.359779     -3.50944e-05    -0.000179717        -0.100358       0.0579666     -5.26683e-05     0.000151902
                    -0.000214383    -0.000155381        -0.571919        0.795136      7.47789e-06     0.000111393        -0.189632      -0.0115328
281702.1                0.112905      -0.0249326      0.000147862    -0.000101883        -0.925484        0.359602     -6.08522e-05    -3.70787e-05
                     0.000292652     0.000105886       -0.0717149       -0.175337     -8.74228e-05    -4.34022e-05        -0.571993        0.795114
                       -0.925259        0.359804     -3.51055e-05    -0.000179705        -0.100356        0.057966     -5.26722e-05     0.000151883
                    -0.000214392    -0.000155374        -0.571897        0.795152      7.48297e-06     0.000111388        -0.189633      -0.0115299
281702.2                0.112902      -0.0249378       0.00014786    -0.000101888        -0.925475        0.359626     -6.08497e-05    -3.70803e-05
                     0.000292656     0.000105877       -0.0717221       -0.175335     -8.74244e-05    -4.33947e-05         -0.57197         0.79513
                       -0.925249        0.359829     -3.51165e-05    -0.000179694        -0.100354       0.0579653     -5.26761e-05     0.000151864
                      -0.0002144    -0.000155367        -0.571875        0.795168      7.48805e-06     0.000111382        -0.189634      -0.0115269
281702.3                0.112899       -0.024943      0.000147857    -0.000101893        -0.925466        0.359651     -6.08471e-05    -3.70819e-05
                      0.00029266     0.000105868       -0.0717294       -0.175333     -8.74261e-05    -4.33872e-05        -0.571948        0.795146
                        -0.92524        0.359854     -3.51275e-05    -0.000179682        -0.100352       0.0579647     -5.26801e-05     0.000151845
                    -0.000214408     -0.00015536        -0.571853        0.795183      7.49313e-06     0.000111377        -0.189635      -0.0115239
281702.4                0.112896      -0.0249482      0.000147854    -0.000101898        -0.925456        0.359676     -6.08446e-05    -3.70834e-05
                     0.000292664     0.000105859       -0.0717366       -0.175331     -8.74277e-05    -4.33797e-05        -0.571926        0.795161
                       -0.925231        0.359878     -3.51386e-05     -0.00017967         -0.10035       0.0579641      -5.2684e-05     0.000151825
                    -0.000214416    -0.000155353         -0.57183        0.795199       7.4982e-06     0.000111372        -0.189636      -0.0115209
281702.5                0.112892      -0.0249534      0.000147852    -0.000101903        -0.925447        0.359701     -6.08421e-05     -3.7085e-05
                     0.000292668     0.000105851       -0.0717439       -0.175329     -8.74294e-05    -4.33721e-05        -0.571904        0.795177
                       -0.925221        0.359903     -3.51496e-05    -0.000179659        -0.100348       0.0579634     -5.26879e-05     0.000151806
                    -0.000214424    -0.000155345        -0.571808        0.795215      7.50327e-06     0.000111366        -0.189637       -0.011518
281702.6                0.112889      -0.0249586      0.000147849    -0.000101909        -0.925437        0.359726     -6.08395e-05    -3.70866e-05
                     0.000292672     0.000105842       -0.0717511       -0.175327      -8.7431e-05    -4.33646e-05        -0.571882        0.795193
                       -0.925212        0.359928     -3.51607e-05    -0.000179647        -0.100347       0.0579628     -5.26918e-05     0.000151787
                    -0.000214432    -0.000155338        -0.571786        0.795231      7.50834e-06     0.000111361        -0.189638       -0.011515
281702.7                0.112886      -0.0249638      0.000147847    -0.000101914        -0.925428         0.35975      -6.0837e-05    -3.70882e-05
                     0.000292676     0.000105833       -0.0717584       -0.175325     -8.74326e-05    -4.33571e-05        -0.571859        0.795209
                       -0.925202        0.359953     -3.51717e-05    -0.000179636        -0.100345       0.0579622     -5.26957e-05     0.000151767
                    -0.000214441    -0.000155331        -0.571764        0.795246      7.51341e-06     0.000111355        -0.189639       -0.011512
281702.8                0.112883       -0.024969      0.000147844    -0.000101919        -0.925419        0.359775     -6.08344e-05    -3.70898e-05
                      0.00029268     0.000105824       -0.0717656       -0.175322     -8.74343e-05    -4.33496e-05        -0.571837        0.795225
                       -0.925193        0.359978     -3.51827e-05    -0.000179624        -0.100343       0.0579615     -5.26997e-05     0.000151748
                    -0.000214449    -0.000155324        -0.571742        0.795262      7.51847e-06      0.00011135         -0.18964       -0.011509
281702.9                 0.11288      -0.0249743      0.000147842    -0.000101924        -0.925409          0.3598     -6.08319e-05    -3.70913e-05
                     0.000292684     0.000105815       -0.0717729        -0.17532     -8.74359e-05    -4.33421e-05        -0.571815         0.79524
                       -0.925184        0.360002     -3.51938e-05    -0.000179612        -0.100341       0.0579609     -5.27036e-05     0.000151729
                    -0.000214457    -0.000155317        -0.571719        0.795278      7.52354e-06     0.000111344        -0.189641       -0.011506
281703                  0.112877      -0.0249795      0.000147839    -0.000101929          -0.9254        0.359825     -6.08294e-05    -3.70929e-05
                     0.000292688     0.000105807       -0.0717801       -0.175318     -8.74375e-05    -4.33346e-05        -0.571793        0.795256
                       -0.925174        0.360027     -3.52048e-05    -0.000179601        -0.100339       0.0579603     -5.27075e-05      0.00015171
                    -0.000214465    -0.000155309        -0.571697        0.795294       7.5286e-06     0.000111339        -0.189642      -0.0115031
281703.1                0.112873      -0.0249847      0.000147837    -0.000101934         -0.92539         0.35985     -6.08268e-05    -3.70945e-05
                     0.000292692     0.000105798       -0.0717873       -0.175316     -8.74392e-05    -4.33271e-05        -0.571771        0.795272
                       -0.925165        0.360052     -3.52158e-05    -0.000179589        -0.100337       0.0579596     -5.27114e-05      0.00015169
