! TOUCHSTONE file generated by CST MICROWAVE STUDIO
! Date and time: Wed Oct  8 06:59:40 2025
! Project name: Teste_Macro_Metasurface_Nanopilar.cst
! Parameters = {H=600; L_x=145; L_y=105; Lambda=1064; Max_L=200; Min_L=70; PathPara=1; Phi=0; Step_L=10; Theta=0; p=520; phaseX=180; phaseY=0}
! Header version: 2018
! Port assignment regex: !\s*Touchstone port\s*([0-9]+)\s*=\s*(CST MWS port|CST DS port)\s*([0-9]+|Zmin|Zmax)\s*\(\"(.*)\"\)(\s*mode\s*([0-9]+))?.*
! Touchstone port assignment:
! Touchstone port 1 = CST MWS port Zmax ("") mode 1
! Touchstone port 2 = CST MWS port Zmax ("") mode 2
! Touchstone port 3 = CST MWS port Zmin ("") mode 1
! Touchstone port 4 = CST MWS port Zmin ("") mode 2
! S-Parameters are not renormalized. Each port impedance will be approximated by the real part at minimum frequency. The values are described via the [Reference] keyword.
! Default impedance is overridden by [Reference]
[Version] 2.0
# GHz S RI R 376.73
[Number of Ports] 4
[Reference]
376.73 376.73 376.73 376.73 
[Number of Frequencies] 1001
[Network Data]
281700                 -0.142286        0.101987      0.000190131     -0.00120775         0.725003        0.654471     -0.000334777      -0.0010879
                     0.000239856     -0.00134614        -0.216511      -0.0742698     -0.000877911    -0.000706202        -0.139671       -0.957092
                        0.724895        0.654026     -0.000794151    -0.000762772       -0.0899327        0.150843      -0.00103976    -0.000363317
                    -0.000277778     -0.00111135        -0.139619       -0.957427      -0.00102336    -0.000383855        -0.186968        0.132972
281700.1               -0.142278        0.101989      0.000190648     -0.00120732         0.725026        0.654448     -0.000334811     -0.00108789
                     0.000239799     -0.00134615        -0.216511      -0.0742617     -0.000877933    -0.000706177          -0.1397       -0.957089
                        0.724918        0.654002     -0.000776614    -0.000761664       -0.0899252        0.150842      -0.00103977    -0.000363289
                    -0.000277819     -0.00111134        -0.139648       -0.957423      -0.00102337    -0.000383823        -0.186962        0.132976
281700.2                -0.14227         0.10199      0.000191146     -0.00120691         0.725049        0.654424     -0.000334845     -0.00108788
                     0.000239743     -0.00134615        -0.216511      -0.0742535     -0.000877955    -0.000706152         -0.13973       -0.957085
                         0.72494        0.653978     -0.000762867    -0.000759255       -0.0899178         0.15084      -0.00103978    -0.000363262
                     -0.00027786     -0.00111133        -0.139678        -0.95742      -0.00102338    -0.000383791        -0.186956         0.13298
281700.3               -0.142262        0.101992      0.000191623     -0.00120652         0.725071          0.6544     -0.000334879     -0.00108786
                     0.000239686     -0.00134616        -0.216511      -0.0742454     -0.000877977    -0.000706127         -0.13976       -0.957081
                        0.724963        0.653954     -0.000751977    -0.000756353       -0.0899103        0.150838       -0.0010398    -0.000363235
                      -0.0002779     -0.00111132        -0.139708       -0.957416      -0.00102339    -0.000383759         -0.18695        0.132983
281700.4               -0.142255        0.101994      0.000192076     -0.00120616         0.725094        0.654376     -0.000334913     -0.00108785
                     0.000239629     -0.00134617        -0.216511      -0.0742373     -0.000877999    -0.000706102         -0.13979       -0.957078
                        0.724986        0.653931     -0.000743242    -0.000753366       -0.0899028        0.150837      -0.00103981    -0.000363208
                    -0.000277941     -0.00111131        -0.139738       -0.957412       -0.0010234    -0.000383728        -0.186944        0.132987
281700.5               -0.142247        0.101996      0.000192505     -0.00120583         0.725117        0.654352     -0.000334947     -0.00108784
                     0.000239572     -0.00134618         -0.21651      -0.0742291     -0.000878021    -0.000706078        -0.139819       -0.957074
                        0.725008        0.653907     -0.000736144    -0.000750494       -0.0898954        0.150835      -0.00103982    -0.000363181
                    -0.000277982      -0.0011113        -0.139767       -0.957409      -0.00102342    -0.000383696        -0.186938        0.132991
281700.6               -0.142239        0.101998      0.000192905     -0.00120552          0.72514        0.654328     -0.000334981     -0.00108782
                     0.000239515     -0.00134618         -0.21651       -0.074221     -0.000878043    -0.000706053        -0.139849        -0.95707
                        0.725031        0.653883     -0.000730307    -0.000747831       -0.0898879        0.150833      -0.00103983    -0.000363153
                    -0.000278023     -0.00111129        -0.139797       -0.957405      -0.00102343    -0.000383664        -0.186932        0.132994
281700.7               -0.142231           0.102      0.000193276     -0.00120524         0.725162        0.654305     -0.000335015     -0.00108781
                     0.000239458     -0.00134619         -0.21651      -0.0742129     -0.000878065    -0.000706028        -0.139879       -0.957067
                        0.725054        0.653859     -0.000725455    -0.000745414       -0.0898805        0.150831      -0.00103984    -0.000363126
                    -0.000278064     -0.00111128        -0.139827       -0.957401      -0.00102344    -0.000383632        -0.186926        0.132998
281700.8               -0.142223        0.102002      0.000193615     -0.00120498         0.725185        0.654281     -0.000335049      -0.0010878
                     0.000239402      -0.0013462         -0.21651      -0.0742048     -0.000878087    -0.000706003        -0.139908       -0.957063
                        0.725077        0.653835     -0.000721385    -0.000743256        -0.089873         0.15083      -0.00103985    -0.000363099
                    -0.000278104     -0.00111127        -0.139857       -0.957397      -0.00102345      -0.0003836         -0.18692        0.133002
281700.9               -0.142215        0.102004       0.00019392     -0.00120476         0.725208        0.654257     -0.000335083     -0.00108778
                     0.000239345      -0.0013462         -0.21651      -0.0741966     -0.000878109    -0.000705978        -0.139938       -0.957059
                        0.725099        0.653811     -0.000717943    -0.000741353       -0.0898655        0.150828      -0.00103987    -0.000363072
                    -0.000278145     -0.00111126        -0.139886       -0.957394      -0.00102346    -0.000383568        -0.186914        0.133005
281701                 -0.142207        0.102006      0.000194188     -0.00120456         0.725231        0.654233     -0.000335118     -0.00108777
                     0.000239288     -0.00134621         -0.21651      -0.0741885     -0.000878131    -0.000705953        -0.139968       -0.957056
                        0.725122        0.653788     -0.000715016    -0.000739698       -0.0898581        0.150826      -0.00103988    -0.000363045
                    -0.000278186     -0.00111125        -0.139916        -0.95739      -0.00102347    -0.000383536        -0.186908        0.133009
281701.1               -0.142199        0.102008      0.000194418     -0.00120439         0.725253        0.654209     -0.000335152     -0.00108775
                     0.000239231     -0.00134622         -0.21651      -0.0741804     -0.000878153    -0.000705929        -0.139997       -0.957052
                        0.725145        0.653764     -0.000712516    -0.000738279       -0.0898506        0.150825      -0.00103989    -0.000363017
                    -0.000278227     -0.00111124        -0.139946       -0.957386      -0.00102348    -0.000383504        -0.186902        0.133013
281701.2               -0.142192         0.10201      0.000194608     -0.00120425         0.725276        0.654185     -0.000335186     -0.00108774
                     0.000239174     -0.00134622         -0.21651      -0.0741723     -0.000878175    -0.000705904        -0.140027       -0.957048
                        0.725168         0.65374     -0.000710377    -0.000737089       -0.0898431        0.150823       -0.0010399     -0.00036299
                    -0.000278268     -0.00111122        -0.139976       -0.957383       -0.0010235    -0.000383472        -0.186896        0.133016
281701.3               -0.142184        0.102011      0.000194756     -0.00120414         0.725299        0.654162      -0.00033522     -0.00108773
                     0.000239117     -0.00134623         -0.21651      -0.0741641     -0.000878198    -0.000705879        -0.140057       -0.957045
                         0.72519        0.653716     -0.000708547    -0.000736118       -0.0898357        0.150821      -0.00103991    -0.000362963
                    -0.000278309     -0.00111121        -0.140005       -0.957379      -0.00102351     -0.00038344         -0.18689         0.13302
281701.4               -0.142176        0.102013      0.000194861     -0.00120405         0.725322        0.654138     -0.000335254     -0.00108771
                      0.00023906     -0.00134624        -0.216509       -0.074156      -0.00087822    -0.000705854        -0.140086       -0.957041
                        0.725213        0.653692     -0.000706988    -0.000735363       -0.0898282        0.150819      -0.00103992    -0.000362936
                     -0.00027835      -0.0011112        -0.140035       -0.957375      -0.00102352    -0.000383409        -0.186884        0.133024
281701.5               -0.142168        0.102015      0.000194921       -0.001204         0.725344        0.654114     -0.000335288      -0.0010877
                     0.000239004     -0.00134624        -0.216509      -0.0741479     -0.000878242    -0.000705829        -0.140116       -0.957037
                        0.725236        0.653668     -0.000705672    -0.000734821       -0.0898207        0.150818      -0.00103993    -0.000362908
                    -0.000278391     -0.00111119        -0.140065       -0.957372      -0.00102353    -0.000383377        -0.186878        0.133027
281701.6                -0.14216        0.102017      0.000194935     -0.00120398         0.725367         0.65409     -0.000335322     -0.00108769
                     0.000238947     -0.00134625        -0.216509      -0.0741398     -0.000878264    -0.000705804        -0.140146       -0.957034
                        0.725258        0.653645      -0.00070458    -0.000734495       -0.0898133        0.150816      -0.00103995    -0.000362881
                    -0.000278431     -0.00111118        -0.140094       -0.957368      -0.00102354    -0.000383345        -0.186872        0.133031
281701.7               -0.142152        0.102019      0.000194901     -0.00120399          0.72539        0.654066     -0.000335356     -0.00108767
                      0.00023889     -0.00134626        -0.216509      -0.0741317     -0.000878286    -0.000705779        -0.140175        -0.95703
                        0.725281        0.653621       -0.0007037     -0.00073439       -0.0898058        0.150814      -0.00103996    -0.000362854
                    -0.000278472     -0.00111117        -0.140124       -0.957364      -0.00102355    -0.000383313        -0.186866        0.133035
281701.8               -0.142144        0.102021       0.00019482     -0.00120402         0.725412        0.654042      -0.00033539     -0.00108766
                     0.000238833     -0.00134626        -0.216509      -0.0741236     -0.000878308    -0.000705755        -0.140205       -0.957026
                        0.725304        0.653597     -0.000703029    -0.000734517       -0.0897984        0.150813      -0.00103997    -0.000362827
                    -0.000278513     -0.00111116        -0.140154       -0.957361      -0.00102356    -0.000383281         -0.18686        0.133038
281701.9               -0.142137        0.102023      0.000194689     -0.00120409         0.725435        0.654018     -0.000335424     -0.00108765
                     0.000238776     -0.00134627        -0.216509      -0.0741154      -0.00087833     -0.00070573        -0.140235       -0.957023
                        0.725327        0.653573     -0.000702571    -0.000734892       -0.0897909        0.150811      -0.00103998      -0.0003628
                    -0.000278554     -0.00111115        -0.140184       -0.957357      -0.00102358    -0.000383249        -0.186854        0.133042
281702                 -0.142129        0.102025       0.00019451     -0.00120419         0.725458        0.653995     -0.000335458     -0.00108763
                     0.000238719     -0.00134628        -0.216509      -0.0741073     -0.000878352    -0.000705705        -0.140264       -0.957019
                        0.725349        0.653549     -0.000702341    -0.000735539       -0.0897834        0.150809      -0.00103999    -0.000362772
                    -0.000278595     -0.00111114        -0.140213       -0.957353      -0.00102359    -0.000383217        -0.186848        0.133046
281702.1               -0.142121        0.102027       0.00019428     -0.00120432         0.725481        0.653971     -0.000335492     -0.00108762
                     0.000238662     -0.00134628        -0.216509      -0.0740992     -0.000878374     -0.00070568        -0.140294       -0.957015
                        0.725372        0.653525     -0.000702367    -0.000736489        -0.089776        0.150807         -0.00104    -0.000362745
                    -0.000278636     -0.00111113        -0.140243        -0.95735       -0.0010236    -0.000383185        -0.186842        0.133049
281702.2               -0.142113        0.102028      0.000194001     -0.00120449         0.725503        0.653947     -0.000335526      -0.0010876
                     0.000238605     -0.00134629        -0.216509      -0.0740911     -0.000878396    -0.000705655        -0.140324       -0.957012
                        0.725395        0.653502     -0.000702692    -0.000737784       -0.0897685        0.150806      -0.00104002    -0.000362718
                    -0.000278677     -0.00111112        -0.140273       -0.957346      -0.00102361    -0.000383153        -0.186836        0.133053
281702.3               -0.142105         0.10203      0.000193672     -0.00120469         0.725526        0.653923      -0.00033556     -0.00108759
                     0.000238548      -0.0013463        -0.216509       -0.074083     -0.000878418     -0.00070563        -0.140354       -0.957008
                        0.725417        0.653478     -0.000703387    -0.000739477       -0.0897611        0.150804      -0.00104003    -0.000362691
                    -0.000278718      -0.0011111        -0.140302       -0.957342      -0.00102362    -0.000383121         -0.18683        0.133057
281702.4               -0.142097        0.102032      0.000193294     -0.00120492         0.725549        0.653899     -0.000335595     -0.00108758
                     0.000238491      -0.0013463        -0.216508      -0.0740749      -0.00087844    -0.000705605        -0.140383       -0.957004
                         0.72544        0.653454     -0.000704557    -0.000741639       -0.0897536        0.150802      -0.00104004    -0.000362664
                    -0.000278759     -0.00111109        -0.140332       -0.957339      -0.00102363     -0.00038309        -0.186824         0.13306
281702.5               -0.142089        0.102034      0.000192868     -0.00120518         0.725572        0.653875     -0.000335629     -0.00108756
                     0.000238434     -0.00134631        -0.216508      -0.0740668     -0.000878462     -0.00070558        -0.140413       -0.957001
                        0.725463         0.65343     -0.000706366    -0.000744354       -0.0897461          0.1508      -0.00104005    -0.000362636
                      -0.0002788     -0.00111108        -0.140362       -0.957335      -0.00102364    -0.000383058        -0.186818        0.133064
281702.6               -0.142082        0.102036      0.000192394     -0.00120548         0.725594        0.653852     -0.000335663     -0.00108755
                     0.000238378     -0.00134631        -0.216508      -0.0740587     -0.000878484    -0.000705555        -0.140443       -0.956997
                        0.725486        0.653406     -0.000709071    -0.000747725       -0.0897387        0.150799      -0.00104006    -0.000362609
                    -0.000278841     -0.00111107        -0.140391       -0.957331      -0.00102366    -0.000383026        -0.186812        0.133068
281702.7               -0.142074        0.102038      0.000191874     -0.00120581         0.725617        0.653828     -0.000335697     -0.00108754
                     0.000238321     -0.00134632        -0.216508      -0.0740506     -0.000878506    -0.000705531        -0.140472       -0.956993
                        0.725508        0.653382     -0.000713087    -0.000751854       -0.0897312        0.150797      -0.00104007    -0.000362582
                    -0.000278883     -0.00111106        -0.140421       -0.957328      -0.00102367    -0.000382994        -0.186806        0.133071
281702.8               -0.142066         0.10204      0.000191309     -0.00120618          0.72564        0.653804     -0.000335731     -0.00108752
                     0.000238264     -0.00134633        -0.216508      -0.0740425     -0.000878528    -0.000705506        -0.140502       -0.956989
                        0.725531        0.653359     -0.000719093     -0.00075679       -0.0897238        0.150795      -0.00104008    -0.000362555
                    -0.000278924     -0.00111105         -0.14045       -0.957324      -0.00102368    -0.000382962          -0.1868        0.133075
281702.9               -0.142058        0.102042        0.0001907     -0.00120658         0.725662         0.65378     -0.000335765     -0.00108751
                     0.000238207     -0.00134633        -0.216508      -0.0740344      -0.00087855    -0.000705481        -0.140532       -0.956986
                        0.725554        0.653335     -0.000728227    -0.000762375       -0.0897163        0.150794       -0.0010401    -0.000362527
                    -0.000278965     -0.00111104         -0.14048        -0.95732      -0.00102369     -0.00038293        -0.186794        0.133079
281703                  -0.14205        0.102044       0.00019005     -0.00120702         0.725685        0.653756     -0.000335799      -0.0010875
                      0.00023815     -0.00134634        -0.216508      -0.0740263     -0.000878572    -0.000705456        -0.140561       -0.956982
                        0.725576        0.653311     -0.000742352    -0.000767764       -0.0897088        0.150792      -0.00104011      -0.0003625
                    -0.000279006     -0.00111103         -0.14051       -0.957317       -0.0010237    -0.000382898        -0.186788        0.133082
281703.1               -0.142042        0.102046       0.00018936      -0.0012075         0.725708        0.653732     -0.000335833     -0.00108748
                     0.000238093     -0.00134635        -0.216508      -0.0740182     -0.000878594    -0.000705431        -0.140591       -0.956978
                        0.725599        0.653287      -0.00076411    -0.000770136       -0.0897014         0.15079      -0.00104012    -0.000362473
