! TOUCHSTONE file generated by CST MICROWAVE STUDIO
! Date and time: Wed Oct  8 07:02:33 2025
! Project name: Teste_Macro_Metasurface_Nanopilar.cst
! Parameters = {H=600; L_x=170; L_y=80; Lambda=1064; Max_L=200; Min_L=70; PathPara=1; Phi=0; Step_L=10; Theta=0; p=520; phaseX=180; phaseY=0}
! Header version: 2018
! Port assignment regex: !\s*Touchstone port\s*([0-9]+)\s*=\s*(CST MWS port|CST DS port)\s*([0-9]+|Zmin|Zmax)\s*\(\"(.*)\"\)(\s*mode\s*([0-9]+))?.*
! Touchstone port assignment:
! Touchstone port 1 = CST MWS port Zmax ("") mode 1
! Touchstone port 2 = CST MWS port Zmax ("") mode 2
! Touchstone port 3 = CST MWS port Zmin ("") mode 1
! Touchstone port 4 = CST MWS port Zmin ("") mode 2
! S-Parameters are not renormalized. Each port impedance will be approximated by the real part at minimum frequency. The values are described via the [Reference] keyword.
! Default impedance is overridden by [Reference]
[Version] 2.0
# GHz S RI R 376.73
[Number of Ports] 4
[Reference]
376.73 376.73 376.73 376.73 
[Number of Frequencies] 1001
[Network Data]
281700                  0.035061       -0.141929      0.000170812     0.000174711        -0.729807        0.666017      0.000349852    -0.000202429
                     0.000387604     0.000136108        -0.188535       -0.100771      -0.00013062    -0.000350503        -0.148555       -0.959315
                        -0.72986        0.665735     -0.000113273    -0.000302803         -0.14476       0.0223309     -0.000238399     7.19674e-05
                     0.000367462    -0.000346706        -0.148378       -0.959058     -0.000191212     0.000165835        -0.150023        0.152767
281700.1               0.0350544        -0.14193      0.000170817     0.000174707        -0.729789        0.666037       0.00034985     -0.00020245
                     0.000387588     0.000136128        -0.188535       -0.100764     -0.000130631    -0.000350504        -0.148585       -0.959311
                       -0.729842        0.665755     -0.000113275    -0.000302798         -0.14476        0.022332     -0.000238385     7.19772e-05
                     0.000367465    -0.000346761        -0.148409       -0.959054     -0.000191199     0.000165839        -0.150015         0.15277
281700.2               0.0350478       -0.141932      0.000170821     0.000174702        -0.729771        0.666057      0.000349848    -0.000202471
                     0.000387573     0.000136149        -0.188536       -0.100756     -0.000130642    -0.000350506        -0.148616       -0.959307
                       -0.729824        0.665775     -0.000113277    -0.000302794        -0.144759       0.0223332     -0.000238371     7.19869e-05
                     0.000367468    -0.000346815        -0.148439        -0.95905     -0.000191185     0.000165843        -0.150008        0.152772
281700.3               0.0350411       -0.141933      0.000170826     0.000174697        -0.729753        0.666077      0.000349845    -0.000202493
                     0.000387557     0.000136169        -0.188536       -0.100749     -0.000130653    -0.000350507        -0.148646       -0.959304
                       -0.729806        0.665795     -0.000113279    -0.000302789        -0.144759       0.0223343     -0.000238356     7.19967e-05
                     0.000367471     -0.00034687        -0.148469       -0.959046     -0.000191171     0.000165847        -0.150001        0.152774
281700.4               0.0350345       -0.141934       0.00017083     0.000174692        -0.729734        0.666096      0.000349843    -0.000202514
                     0.000387542      0.00013619        -0.188536       -0.100741     -0.000130663    -0.000350509        -0.148677         -0.9593
                       -0.729788        0.665815      -0.00011328    -0.000302784        -0.144758       0.0223355     -0.000238342     7.20064e-05
                     0.000367473    -0.000346925          -0.1485       -0.959043     -0.000191157     0.000165851        -0.149994        0.152776
281700.5               0.0350279       -0.141936      0.000170835     0.000174688        -0.729716        0.666116      0.000349841    -0.000202535
                     0.000387526      0.00013621        -0.188536       -0.100734     -0.000130674     -0.00035051        -0.148707       -0.959296
                        -0.72977        0.665835     -0.000113282     -0.00030278        -0.144758       0.0223366     -0.000238328     7.20161e-05
                     0.000367476     -0.00034698         -0.14853       -0.959039     -0.000191144     0.000165855        -0.149986        0.152779
281700.6               0.0350212       -0.141937       0.00017084     0.000174683        -0.729698        0.666136      0.000349838    -0.000202556
                     0.000387511     0.000136231        -0.188536       -0.100726     -0.000130685    -0.000350511        -0.148737       -0.959292
                       -0.729752        0.665854     -0.000113284    -0.000302775        -0.144758       0.0223378     -0.000238313     7.20259e-05
                     0.000367479    -0.000347035        -0.148561       -0.959035      -0.00019113      0.00016586        -0.149979        0.152781
281700.7               0.0350146       -0.141938      0.000170844     0.000174678         -0.72968        0.666156      0.000349836    -0.000202578
                     0.000387495     0.000136251        -0.188536       -0.100719     -0.000130696    -0.000350513        -0.148768       -0.959288
                       -0.729734        0.665874     -0.000113286     -0.00030277        -0.144757       0.0223389     -0.000238299     7.20356e-05
                     0.000367482     -0.00034709        -0.148591       -0.959031     -0.000191116     0.000165864        -0.149972        0.152783
281700.8                0.035008        -0.14194      0.000170849     0.000174673        -0.729662        0.666176      0.000349834    -0.000202599
                      0.00038748     0.000136272        -0.188536       -0.100711     -0.000130707    -0.000350514        -0.148798       -0.959284
                       -0.729715        0.665894     -0.000113288    -0.000302766        -0.144757       0.0223401     -0.000238285     7.20454e-05
                     0.000367485    -0.000347144        -0.148622       -0.959027     -0.000191102     0.000165868        -0.149965        0.152785
281700.9               0.0350013       -0.141941      0.000170853     0.000174669        -0.729644        0.666196      0.000349831     -0.00020262
                     0.000387465     0.000136292        -0.188537       -0.100704     -0.000130717    -0.000350516        -0.148829        -0.95928
                       -0.729697        0.665914      -0.00011329    -0.000302761        -0.144756       0.0223412     -0.000238271     7.20551e-05
                     0.000367487    -0.000347199        -0.148652       -0.959023     -0.000191089     0.000165872        -0.149957        0.152788
281701                 0.0349947       -0.141942      0.000170858     0.000174664        -0.729626        0.666216      0.000349829    -0.000202641
                     0.000387449     0.000136313        -0.188537       -0.100696     -0.000130728    -0.000350517        -0.148859       -0.959276
                       -0.729679        0.665934     -0.000113292    -0.000302756        -0.144756       0.0223424     -0.000238256     7.20649e-05
                      0.00036749    -0.000347254        -0.148682       -0.959019     -0.000191075     0.000165876         -0.14995         0.15279
281701.1               0.0349881       -0.141944      0.000170863     0.000174659        -0.729608        0.666236      0.000349827    -0.000202662
                     0.000387434     0.000136333        -0.188537       -0.100689     -0.000130739    -0.000350519         -0.14889       -0.959272
                       -0.729661        0.665954     -0.000113293    -0.000302752        -0.144755       0.0223435     -0.000238242     7.20746e-05
                     0.000367493    -0.000347309        -0.148713       -0.959015     -0.000191061      0.00016588        -0.149943        0.152792
281701.2               0.0349814       -0.141945      0.000170867     0.000174655        -0.729589        0.666256      0.000349824    -0.000202684
                     0.000387418     0.000136354        -0.188537       -0.100681      -0.00013075     -0.00035052         -0.14892       -0.959268
                       -0.729643        0.665974     -0.000113295    -0.000302747        -0.144755       0.0223447     -0.000238228     7.20843e-05
                     0.000367496    -0.000347364        -0.148743       -0.959011     -0.000191047     0.000165884        -0.149936        0.152794
281701.3               0.0349748       -0.141946      0.000170872      0.00017465        -0.729571        0.666276      0.000349822    -0.000202705
                     0.000387403     0.000136374        -0.188537       -0.100674     -0.000130761    -0.000350522        -0.148951       -0.959264
                       -0.729625        0.665994     -0.000113297    -0.000302742        -0.144754       0.0223458     -0.000238214     7.20941e-05
                     0.000367499    -0.000347419        -0.148774       -0.959007     -0.000191034     0.000165888        -0.149928        0.152797
281701.4               0.0349681       -0.141948      0.000170876     0.000174645        -0.729553        0.666295       0.00034982    -0.000202726
                     0.000387387     0.000136395        -0.188537       -0.100666     -0.000130771    -0.000350523        -0.148981        -0.95926
                       -0.729607        0.666014     -0.000113299    -0.000302738        -0.144754        0.022347     -0.000238199     7.21038e-05
                     0.000367501    -0.000347474        -0.148804       -0.959003      -0.00019102     0.000165892        -0.149921        0.152799
281701.5               0.0349615       -0.141949      0.000170881      0.00017464        -0.729535        0.666315      0.000349817    -0.000202747
                     0.000387372     0.000136415        -0.188537       -0.100659     -0.000130782    -0.000350525        -0.149011       -0.959256
                       -0.729589        0.666034     -0.000113301    -0.000302733        -0.144753       0.0223481     -0.000238185     7.21136e-05
                     0.000367504    -0.000347529        -0.148835       -0.958999     -0.000191006     0.000165896        -0.149914        0.152801
281701.6               0.0349549        -0.14195      0.000170885     0.000174636        -0.729517        0.666335      0.000349815    -0.000202769
                     0.000387356     0.000136436        -0.188538       -0.100651     -0.000130793    -0.000350526        -0.149042       -0.959252
                       -0.729571        0.666054     -0.000113303    -0.000302728        -0.144753       0.0223492     -0.000238171     7.21233e-05
                     0.000367507    -0.000347584        -0.148865       -0.958995     -0.000190992       0.0001659        -0.149907        0.152803
281701.7               0.0349482       -0.141952       0.00017089     0.000174631        -0.729499        0.666355      0.000349813     -0.00020279
                     0.000387341     0.000136456        -0.188538       -0.100644     -0.000130804    -0.000350528        -0.149072       -0.959248
                       -0.729552        0.666073     -0.000113305    -0.000302724        -0.144752       0.0223504     -0.000238156     7.21331e-05
                      0.00036751    -0.000347639        -0.148895       -0.958991     -0.000190979     0.000165904        -0.149899        0.152806
281701.8               0.0349416       -0.141953      0.000170895     0.000174626        -0.729481        0.666375       0.00034981    -0.000202811
                     0.000387326     0.000136477        -0.188538       -0.100636     -0.000130814    -0.000350529        -0.149103       -0.959244
                       -0.729534        0.666093     -0.000113307    -0.000302719        -0.144752       0.0223515     -0.000238142     7.21428e-05
                     0.000367513    -0.000347693        -0.148926       -0.958987     -0.000190965     0.000165909        -0.149892        0.152808
281701.9                0.034935       -0.141955      0.000170899     0.000174621        -0.729463        0.666395      0.000349808    -0.000202832
                      0.00038731     0.000136497        -0.188538       -0.100629     -0.000130825    -0.000350531        -0.149133        -0.95924
                       -0.729516        0.666113     -0.000113308    -0.000302714        -0.144751       0.0223527     -0.000238128     7.21526e-05
                     0.000367515    -0.000347748        -0.148956       -0.958983     -0.000190951     0.000165913        -0.149885         0.15281
281702                 0.0349283       -0.141956      0.000170904     0.000174617        -0.729444        0.666415      0.000349806    -0.000202853
                     0.000387295     0.000136518        -0.188538       -0.100621     -0.000130836    -0.000350532        -0.149164       -0.959236
                       -0.729498        0.666133      -0.00011331     -0.00030271        -0.144751       0.0223538     -0.000238114     7.21623e-05
                     0.000367518    -0.000347803        -0.148987        -0.95898     -0.000190937     0.000165917        -0.149878        0.152812
281702.1               0.0349217       -0.141957      0.000170908     0.000174612        -0.729426        0.666435      0.000349803    -0.000202875
                     0.000387279     0.000136539        -0.188538       -0.100614     -0.000130847    -0.000350533        -0.149194       -0.959232
                        -0.72948        0.666153     -0.000113312    -0.000302705         -0.14475        0.022355     -0.000238099     7.21721e-05
                     0.000367521    -0.000347858        -0.149017       -0.958976     -0.000190924     0.000165921         -0.14987        0.152815
281702.2               0.0349151       -0.141959      0.000170913     0.000174607        -0.729408        0.666455      0.000349801    -0.000202896
                     0.000387264     0.000136559        -0.188538       -0.100606     -0.000130858    -0.000350535        -0.149224       -0.959229
                       -0.729462        0.666173     -0.000113314      -0.0003027         -0.14475       0.0223561     -0.000238085     7.21818e-05
                     0.000367524    -0.000347913        -0.149048       -0.958972      -0.00019091     0.000165925        -0.149863        0.152817
281702.3               0.0349084        -0.14196      0.000170918     0.000174603         -0.72939        0.666475      0.000349799    -0.000202917
                     0.000387248      0.00013658        -0.188539       -0.100599     -0.000130868    -0.000350536        -0.149255       -0.959225
                       -0.729444        0.666193     -0.000113316    -0.000302696        -0.144749       0.0223573     -0.000238071     7.21916e-05
                     0.000367527    -0.000347968        -0.149078       -0.958968     -0.000190896     0.000165929        -0.149856        0.152819
281702.4               0.0349018       -0.141961      0.000170922     0.000174598        -0.729372        0.666494      0.000349796    -0.000202938
                     0.000387233       0.0001366        -0.188539       -0.100591     -0.000130879    -0.000350538        -0.149285       -0.959221
                       -0.729426        0.666213     -0.000113318    -0.000302691        -0.144749       0.0223584     -0.000238057     7.22013e-05
                     0.000367529    -0.000348023        -0.149108       -0.958964     -0.000190882     0.000165933        -0.149849        0.152821
281702.5               0.0348952       -0.141963      0.000170927     0.000174593        -0.729354        0.666514      0.000349794    -0.000202959
                     0.000387218     0.000136621        -0.188539       -0.100583      -0.00013089    -0.000350539        -0.149316       -0.959217
                       -0.729408        0.666233      -0.00011332    -0.000302686        -0.144748       0.0223596     -0.000238042     7.22111e-05
                     0.000367532    -0.000348078        -0.149139        -0.95896     -0.000190869     0.000165937        -0.149841        0.152824
281702.6               0.0348885       -0.141964      0.000170931     0.000174588        -0.729336        0.666534      0.000349792    -0.000202981
                     0.000387202     0.000136641        -0.188539       -0.100576     -0.000130901    -0.000350541        -0.149346       -0.959213
                       -0.729389        0.666253     -0.000113321    -0.000302682        -0.144748       0.0223607     -0.000238028     7.22208e-05
                     0.000367535    -0.000348133        -0.149169       -0.958956     -0.000190855     0.000165941        -0.149834        0.152826
281702.7               0.0348819       -0.141965      0.000170936     0.000174584        -0.729317        0.666554      0.000349789    -0.000203002
                     0.000387187     0.000136662        -0.188539       -0.100568     -0.000130911    -0.000350542        -0.149377       -0.959209
                       -0.729371        0.666272     -0.000113323    -0.000302677        -0.144747       0.0223619     -0.000238014     7.22306e-05
                     0.000367538    -0.000348189          -0.1492       -0.958952     -0.000190841     0.000165945        -0.149827        0.152828
281702.8               0.0348753       -0.141967      0.000170941     0.000174579        -0.729299        0.666574      0.000349787    -0.000203023
                     0.000387171     0.000136683        -0.188539       -0.100561     -0.000130922    -0.000350544        -0.149407       -0.959205
                       -0.729353        0.666292     -0.000113325    -0.000302672        -0.144747        0.022363        -0.000238     7.22403e-05
                      0.00036754    -0.000348244         -0.14923       -0.958948     -0.000190827     0.000165949        -0.149819         0.15283
281702.9               0.0348686       -0.141968      0.000170945     0.000174574        -0.729281        0.666594      0.000349784    -0.000203044
                     0.000387156     0.000136703        -0.188539       -0.100553     -0.000130933    -0.000350545        -0.149438       -0.959201
                       -0.729335        0.666312     -0.000113327    -0.000302668        -0.144747       0.0223642     -0.000237985     7.22501e-05
                     0.000367543    -0.000348299        -0.149261       -0.958944     -0.000190814     0.000165953        -0.149812        0.152833
281703                  0.034862       -0.141969       0.00017095     0.000174569        -0.729263        0.666614      0.000349782    -0.000203065
                      0.00038714     0.000136724         -0.18854       -0.100546     -0.000130944    -0.000350547        -0.149468       -0.959197
                       -0.729317        0.666332     -0.000113329    -0.000302663        -0.144746       0.0223653     -0.000237971     7.22598e-05
                     0.000367546    -0.000348354        -0.149291        -0.95894       -0.0001908     0.000165958        -0.149805        0.152835
281703.1               0.0348554       -0.141971      0.000170954     0.000174565        -0.729245        0.666634       0.00034978    -0.000203086
                     0.000387125     0.000136744         -0.18854       -0.100538     -0.000130955    -0.000350548        -0.149498       -0.959193
                       -0.729299        0.666352     -0.000113331    -0.000302658        -0.144746       0.0223665     -0.000237957     7.22696e-05
