! TOUCHSTONE file generated by CST MICROWAVE STUDIO
! Date and time: Wed Oct  8 07:00:56 2025
! Project name: Teste_Macro_Metasurface_Nanopilar.cst
! Parameters = {H=600; L_x=155; L_y=120; Lambda=1064; Max_L=200; Min_L=70; PathPara=1; Phi=0; Step_L=10; Theta=0; p=520; phaseX=180; phaseY=0}
! Header version: 2018
! Port assignment regex: !\s*Touchstone port\s*([0-9]+)\s*=\s*(CST MWS port|CST DS port)\s*([0-9]+|Zmin|Zmax)\s*\(\"(.*)\"\)(\s*mode\s*([0-9]+))?.*
! Touchstone port assignment:
! Touchstone port 1 = CST MWS port Zmax ("") mode 1
! Touchstone port 2 = CST MWS port Zmax ("") mode 2
! Touchstone port 3 = CST MWS port Zmin ("") mode 1
! Touchstone port 4 = CST MWS port Zmin ("") mode 2
! S-Parameters are not renormalized. Each port impedance will be approximated by the real part at minimum frequency. The values are described via the [Reference] keyword.
! Default impedance is overridden by [Reference]
[Version] 2.0
# GHz S RI R 376.73
[Number of Ports] 4
[Reference]
376.73 376.73 376.73 376.73 
[Number of Frequencies] 1001
[Network Data]
281700                 -0.223859       -0.116894      6.81451e-05    -0.000468394         0.159815       -0.947532      0.000224386    -7.43693e-05
                     0.000151128    -0.000464359       -0.0935229       -0.140483     -0.000245239    -6.43919e-05         -0.82562       -0.525352
                         0.15953       -0.947447     -0.000304861    -0.000103144        -0.250249       0.0379432      0.000468213     1.58302e-05
                     5.32033e-05     0.000246674        -0.826039       -0.525294      0.000625605      0.00030511         0.161005       0.0187763
281700.1               -0.223863       -0.116886      6.81149e-05    -0.000468376         0.159785       -0.947537      0.000224355    -7.43772e-05
                     0.000151104    -0.000464358        -0.093521       -0.140489      -0.00024524     -6.4375e-05        -0.825638       -0.525322
                        0.159501       -0.947452     -0.000304868     -0.00010312        -0.250248       0.0379497      0.000468172     1.58249e-05
                     5.32132e-05     0.000246671        -0.826057       -0.525264      0.000625609     0.000305088         0.161011         0.01876
281700.2               -0.223867       -0.116878      6.80847e-05    -0.000468358         0.159755       -0.947542      0.000224324    -7.43851e-05
                      0.00015108    -0.000464358       -0.0935191       -0.140495      -0.00024524     -6.4358e-05        -0.825656       -0.525292
                        0.159471       -0.947458     -0.000304876    -0.000103097        -0.250247       0.0379561      0.000468132     1.58196e-05
                     5.32232e-05     0.000246668        -0.826075       -0.525234      0.000625613     0.000305066         0.161017       0.0187438
281700.3               -0.223871       -0.116869      6.80544e-05    -0.000468341         0.159726       -0.947547      0.000224293    -7.43929e-05
                     0.000151056    -0.000464357       -0.0935172       -0.140501     -0.000245241    -6.43411e-05        -0.825674       -0.525262
                        0.159442       -0.947463     -0.000304883    -0.000103073        -0.250245       0.0379626      0.000468091     1.58143e-05
                     5.32331e-05     0.000246665        -0.826093       -0.525204      0.000625618     0.000305044         0.161023       0.0187275
281700.4               -0.223875       -0.116861      6.80242e-05    -0.000468323         0.159696       -0.947552      0.000224261    -7.44008e-05
                     0.000151032    -0.000464356       -0.0935153       -0.140507     -0.000245242    -6.43242e-05        -0.825692       -0.525232
                        0.159412       -0.947468     -0.000304891     -0.00010305        -0.250244       0.0379691      0.000468051      1.5809e-05
                      5.3243e-05     0.000246662        -0.826111       -0.525174      0.000625622     0.000305021         0.161029       0.0187112
281700.5               -0.223879       -0.116853       6.7994e-05    -0.000468305         0.159667       -0.947557       0.00022423    -7.44086e-05
                     0.000151008    -0.000464355       -0.0935134       -0.140513     -0.000245243    -6.43073e-05        -0.825711       -0.525202
                        0.159383       -0.947473     -0.000304898    -0.000103026        -0.250243       0.0379755       0.00046801     1.58037e-05
                     5.32529e-05     0.000246659         -0.82613       -0.525144      0.000625627     0.000304999         0.161035        0.018695
281700.6               -0.223883       -0.116845      6.79638e-05    -0.000468287         0.159637       -0.947562      0.000224199    -7.44165e-05
                     0.000150984    -0.000464354       -0.0935115       -0.140519     -0.000245243    -6.42903e-05        -0.825729       -0.525172
                        0.159353       -0.947478     -0.000304906    -0.000103003        -0.250241        0.037982      0.000467969     1.57984e-05
                     5.32628e-05     0.000246656        -0.826148       -0.525113      0.000625631     0.000304977          0.16104       0.0186787
281700.7               -0.223887       -0.116837      6.79336e-05     -0.00046827         0.159608       -0.947567      0.000224168    -7.44243e-05
                     0.000150961    -0.000464353       -0.0935096       -0.140525     -0.000245244    -6.42734e-05        -0.825747       -0.525142
                        0.159324       -0.947483     -0.000304913    -0.000102979         -0.25024       0.0379884      0.000467929     1.57931e-05
                     5.32727e-05     0.000246653        -0.826166       -0.525083      0.000625635     0.000304955         0.161046       0.0186624
281700.8               -0.223891       -0.116828      6.79033e-05    -0.000468252         0.159578       -0.947572      0.000224136    -7.44321e-05
                     0.000150937    -0.000464352       -0.0935077       -0.140531     -0.000245245    -6.42565e-05        -0.825765       -0.525112
                        0.159294       -0.947488     -0.000304921    -0.000102956        -0.250239       0.0379949      0.000467888     1.57879e-05
                     5.32827e-05      0.00024665        -0.826184       -0.525053       0.00062564     0.000304933         0.161052       0.0186462
281700.9               -0.223895        -0.11682      6.78731e-05    -0.000468234         0.159549       -0.947577      0.000224105    -7.44399e-05
                     0.000150913    -0.000464351       -0.0935058       -0.140537     -0.000245246    -6.42395e-05        -0.825783       -0.525082
                        0.159264       -0.947493     -0.000304928    -0.000102932        -0.250237       0.0380013      0.000467847     1.57826e-05
                     5.32926e-05     0.000246647        -0.826202       -0.525023      0.000625644      0.00030491         0.161058       0.0186299
281701                 -0.223898       -0.116812      6.78429e-05    -0.000468216         0.159519       -0.947582      0.000224074    -7.44477e-05
                     0.000150889     -0.00046435       -0.0935039       -0.140543     -0.000245246    -6.42226e-05        -0.825801       -0.525051
                        0.159235       -0.947498     -0.000304936    -0.000102909        -0.250236       0.0380078      0.000467807     1.57774e-05
                     5.33025e-05     0.000246644         -0.82622       -0.524993      0.000625649     0.000304888         0.161064       0.0186136
281701.1               -0.223902       -0.116804      6.78127e-05    -0.000468199         0.159489       -0.947588      0.000224043    -7.44555e-05
                     0.000150865    -0.000464349        -0.093502       -0.140549     -0.000245247    -6.42056e-05        -0.825819       -0.525021
                        0.159205       -0.947503     -0.000304943    -0.000102885        -0.250235       0.0380142      0.000467766     1.57721e-05
                     5.33124e-05     0.000246641        -0.826238       -0.524963      0.000625653     0.000304866          0.16107       0.0185973
281701.2               -0.223906       -0.116795      6.77825e-05    -0.000468181          0.15946       -0.947593      0.000224011    -7.44633e-05
                     0.000150841    -0.000464348       -0.0935001       -0.140555     -0.000245248    -6.41887e-05        -0.825838       -0.524991
                        0.159176       -0.947508     -0.000304951    -0.000102862        -0.250233       0.0380207      0.000467726     1.57669e-05
                     5.33223e-05     0.000246638        -0.826257       -0.524933      0.000625657     0.000304844         0.161076       0.0185811
281701.3                -0.22391       -0.116787      6.77523e-05    -0.000468163          0.15943       -0.947598       0.00022398    -7.44711e-05
                     0.000150817    -0.000464347       -0.0934982       -0.140561     -0.000245248    -6.41718e-05        -0.825856       -0.524961
                        0.159146       -0.947513     -0.000304958    -0.000102838        -0.250232       0.0380271      0.000467685     1.57616e-05
                     5.33322e-05     0.000246635        -0.826275       -0.524903      0.000625662     0.000304822         0.161082       0.0185648
281701.4               -0.223914       -0.116779      6.77221e-05    -0.000468145         0.159401       -0.947603      0.000223949    -7.44789e-05
                     0.000150793    -0.000464346       -0.0934964       -0.140567     -0.000245249    -6.41548e-05        -0.825874       -0.524931
                        0.159117       -0.947518     -0.000304966    -0.000102815        -0.250231       0.0380336      0.000467644     1.57564e-05
                     5.33421e-05     0.000246632        -0.826293       -0.524873      0.000625666     0.000304799         0.161088       0.0185485
281701.5               -0.223918       -0.116771      6.76919e-05    -0.000468128         0.159371       -0.947608      0.000223918    -7.44867e-05
                     0.000150769    -0.000464346       -0.0934945       -0.140573      -0.00024525    -6.41379e-05        -0.825892       -0.524901
                        0.159087       -0.947524     -0.000304973    -0.000102791        -0.250229       0.0380401      0.000467604     1.57511e-05
                     5.33521e-05     0.000246629        -0.826311       -0.524842       0.00062567     0.000304777         0.161093       0.0185322
281701.6               -0.223922       -0.116762      6.76617e-05     -0.00046811         0.159342       -0.947613      0.000223886    -7.44944e-05
                     0.000150745    -0.000464345       -0.0934926       -0.140579     -0.000245251     -6.4121e-05         -0.82591       -0.524871
                        0.159057       -0.947529     -0.000304981    -0.000102768        -0.250228       0.0380465      0.000467563     1.57459e-05
                      5.3362e-05     0.000246626        -0.826329       -0.524812      0.000625675     0.000304755         0.161099        0.018516
281701.7               -0.223926       -0.116754      6.76315e-05    -0.000468092         0.159312       -0.947618      0.000223855    -7.45022e-05
                     0.000150721    -0.000464344       -0.0934907       -0.140585     -0.000245251     -6.4104e-05        -0.825928       -0.524841
                        0.159028       -0.947534     -0.000304988    -0.000102745        -0.250227        0.038053      0.000467522     1.57407e-05
                     5.33719e-05     0.000246623        -0.826347       -0.524782      0.000625679     0.000304733         0.161105       0.0184997
281701.8                -0.22393       -0.116746      6.76013e-05    -0.000468074         0.159283       -0.947623      0.000223824      -7.451e-05
                     0.000150697    -0.000464343       -0.0934888       -0.140591     -0.000245252    -6.40871e-05        -0.825946       -0.524811
                        0.158998       -0.947539     -0.000304996    -0.000102721        -0.250225       0.0380594      0.000467482     1.57354e-05
                     5.33818e-05      0.00024662        -0.826365       -0.524752      0.000625684     0.000304711         0.161111       0.0184834
281701.9               -0.223934       -0.116738      6.75711e-05    -0.000468057         0.159253       -0.947628      0.000223793    -7.45177e-05
                     0.000150673    -0.000464342       -0.0934869       -0.140597     -0.000245253    -6.40701e-05        -0.825964       -0.524781
                        0.158969       -0.947544     -0.000305003    -0.000102698        -0.250224       0.0380659      0.000467441     1.57302e-05
                     5.33917e-05     0.000246617        -0.826384       -0.524722      0.000625688     0.000304688         0.161117       0.0184671
281702                 -0.223938       -0.116729      6.75409e-05    -0.000468039         0.159224       -0.947633      0.000223761    -7.45254e-05
                     0.000150649    -0.000464341        -0.093485       -0.140602     -0.000245253    -6.40532e-05        -0.825983       -0.524751
                        0.158939       -0.947549     -0.000305011    -0.000102674        -0.250223       0.0380723        0.0004674      1.5725e-05
                     5.34016e-05     0.000246614        -0.826402       -0.524692      0.000625692     0.000304666         0.161123       0.0184508
281702.1               -0.223942       -0.116721      6.75107e-05    -0.000468021         0.159194       -0.947638       0.00022373    -7.45332e-05
                     0.000150625     -0.00046434       -0.0934831       -0.140608     -0.000245254    -6.40362e-05        -0.826001       -0.524721
                         0.15891       -0.947554     -0.000305018    -0.000102651        -0.250221       0.0380788       0.00046736     1.57198e-05
                     5.34115e-05     0.000246611         -0.82642       -0.524662      0.000625697     0.000304644         0.161129       0.0184346
281702.2               -0.223946       -0.116713      6.74805e-05    -0.000468003         0.159164       -0.947643      0.000223699    -7.45409e-05
                     0.000150601    -0.000464339       -0.0934812       -0.140614     -0.000245255    -6.40193e-05        -0.826019       -0.524691
                         0.15888       -0.947559     -0.000305026    -0.000102627         -0.25022       0.0380852      0.000467319     1.57146e-05
                     5.34215e-05     0.000246608        -0.826438       -0.524632      0.000625701     0.000304622         0.161135       0.0184183
281702.3               -0.223949       -0.116705      6.74503e-05    -0.000467985         0.159135       -0.947649      0.000223667    -7.45486e-05
                     0.000150577    -0.000464338       -0.0934793        -0.14062     -0.000245255    -6.40024e-05        -0.826037       -0.524661
                         0.15885       -0.947564     -0.000305033    -0.000102604        -0.250219       0.0380917      0.000467278     1.57094e-05
                     5.34314e-05     0.000246605        -0.826456       -0.524602      0.000625705       0.0003046          0.16114        0.018402
281702.4               -0.223953       -0.116696      6.74201e-05    -0.000467968         0.159105       -0.947654      0.000223636    -7.45563e-05
                     0.000150554    -0.000464336       -0.0934774       -0.140626     -0.000245256    -6.39854e-05        -0.826055        -0.52463
                        0.158821       -0.947569     -0.000305041     -0.00010258        -0.250217       0.0380981      0.000467237     1.57042e-05
                     5.34413e-05     0.000246602        -0.826474       -0.524571       0.00062571     0.000304577         0.161146       0.0183857
281702.5               -0.223957       -0.116688      6.73899e-05     -0.00046795         0.159076       -0.947659      0.000223605     -7.4564e-05
                      0.00015053    -0.000464335       -0.0934755       -0.140632     -0.000245257    -6.39685e-05        -0.826073         -0.5246
                        0.158791       -0.947574     -0.000305048    -0.000102557        -0.250216       0.0381046      0.000467197      1.5699e-05
                     5.34512e-05     0.000246599        -0.826492       -0.524541      0.000625714     0.000304555         0.161152       0.0183694
281702.6               -0.223961        -0.11668      6.73598e-05    -0.000467932         0.159046       -0.947664      0.000223574    -7.45717e-05
                     0.000150506    -0.000464334       -0.0934736       -0.140638     -0.000245258    -6.39515e-05        -0.826091        -0.52457
                        0.158762       -0.947579     -0.000305055    -0.000102533        -0.250215       0.0381111      0.000467156     1.56938e-05
                     5.34611e-05     0.000246596        -0.826511       -0.524511      0.000625719     0.000304533         0.161158       0.0183531
281702.7               -0.223965       -0.116672      6.73296e-05    -0.000467914         0.159017       -0.947669      0.000223542    -7.45794e-05
                     0.000150482    -0.000464333       -0.0934717       -0.140644     -0.000245258    -6.39346e-05        -0.826109        -0.52454
                        0.158732       -0.947584     -0.000305063     -0.00010251        -0.250213       0.0381175      0.000467115     1.56886e-05
                      5.3471e-05     0.000246593        -0.826529       -0.524481      0.000625723     0.000304511         0.161164       0.0183369
281702.8               -0.223969       -0.116663      6.72994e-05    -0.000467897         0.158987       -0.947674      0.000223511    -7.45871e-05
                     0.000150458    -0.000464332       -0.0934698        -0.14065     -0.000245259    -6.39176e-05        -0.826128        -0.52451
                        0.158703       -0.947589      -0.00030507    -0.000102486        -0.250212        0.038124      0.000467075     1.56835e-05
                      5.3481e-05      0.00024659        -0.826547       -0.524451      0.000625727     0.000304488          0.16117       0.0183206
281702.9               -0.223973       -0.116655      6.72692e-05    -0.000467879         0.158958       -0.947679       0.00022348    -7.45948e-05
                     0.000150434    -0.000464331        -0.093468       -0.140656      -0.00024526    -6.39007e-05        -0.826146        -0.52448
                        0.158673       -0.947595     -0.000305078    -0.000102463         -0.25021       0.0381304      0.000467034     1.56783e-05
                     5.34909e-05     0.000246587        -0.826565       -0.524421      0.000625732     0.000304466         0.161176       0.0183043
281703                 -0.223977       -0.116647       6.7239e-05    -0.000467861         0.158928       -0.947684      0.000223448    -7.46025e-05
                      0.00015041     -0.00046433       -0.0934661       -0.140662      -0.00024526    -6.38837e-05        -0.826164        -0.52445
                        0.158644         -0.9476     -0.000305085    -0.000102439        -0.250209       0.0381369      0.000466993     1.56731e-05
                     5.35008e-05     0.000246584        -0.826583       -0.524391      0.000625736     0.000304444         0.161182        0.018288
281703.1               -0.223981       -0.116639      6.72089e-05    -0.000467843         0.158898       -0.947689      0.000223417    -7.46101e-05
                     0.000150386    -0.000464329       -0.0934642       -0.140668     -0.000245261    -6.38668e-05        -0.826182        -0.52442
                        0.158614       -0.947605     -0.000305093    -0.000102416        -0.250208       0.0381433      0.000466953     1.56679e-05
