! TOUCHSTONE file generated by CST MICROWAVE STUDIO
! Date and time: Wed Oct  8 06:59:23 2025
! Project name: Teste_Macro_Metasurface_Nanopilar.cst
! Parameters = {H=600; L_x=140; L_y=175; Lambda=1064; Max_L=200; Min_L=70; PathPara=1; Phi=0; Step_L=10; Theta=0; p=520; phaseX=180; phaseY=0}
! Header version: 2018
! Port assignment regex: !\s*Touchstone port\s*([0-9]+)\s*=\s*(CST MWS port|CST DS port)\s*([0-9]+|Zmin|Zmax)\s*\(\"(.*)\"\)(\s*mode\s*([0-9]+))?.*
! Touchstone port assignment:
! Touchstone port 1 = CST MWS port Zmax ("") mode 1
! Touchstone port 2 = CST MWS port Zmax ("") mode 2
! Touchstone port 3 = CST MWS port Zmin ("") mode 1
! Touchstone port 4 = CST MWS port Zmin ("") mode 2
! S-Parameters are not renormalized. Each port impedance will be approximated by the real part at minimum frequency. The values are described via the [Reference] keyword.
! Default impedance is overridden by [Reference]
[Version] 2.0
# GHz S RI R 376.73
[Number of Ports] 4
[Reference]
376.73 376.73 376.73 376.73 
[Number of Frequencies] 1001
[Network Data]
281700                -0.0374481        0.139006     -0.000161426    -0.000576525        -0.905759        -0.38677      -0.00079782     0.000231726
                    -0.000134463    -0.000641343        -0.627027        0.300231     -0.000345468       1.126e-05        -0.165086       -0.648921
                       -0.905704       -0.386614     -0.000259257     0.000105121       -0.0791803        0.119598      0.000888837      0.00076738
                    -0.000824015     0.000184392        -0.165194       -0.649206      0.000965795     0.000625161        -0.683262      -0.0669272
281700.1               -0.037442        0.139001     -0.000161497    -0.000576532        -0.905771       -0.386744     -0.000797765     0.000231784
                    -0.000134528    -0.000641351        -0.626988        0.300254     -0.000345439     1.12764e-05        -0.165132        -0.64894
                       -0.905716       -0.386587     -0.000259229     0.000105145       -0.0791736        0.119595      0.000888846     0.000767337
                    -0.000823957      0.00018445         -0.16524       -0.649225       0.00096578     0.000625131        -0.683243      -0.0668713
281700.2              -0.0374359        0.138996     -0.000161567    -0.000576539        -0.905784       -0.386717     -0.000797709     0.000231841
                    -0.000134593    -0.000641359        -0.626949        0.300277      -0.00034541     1.12929e-05        -0.165178       -0.648959
                       -0.905729        -0.38656     -0.000259202      0.00010517        -0.079167        0.119592      0.000888856     0.000767294
                      -0.0008239     0.000184508        -0.165285       -0.649244      0.000965764     0.000625101        -0.683224      -0.0668153
281700.3              -0.0374298        0.138991     -0.000161638    -0.000576545        -0.905796        -0.38669     -0.000797654     0.000231898
                    -0.000134658    -0.000641367         -0.62691          0.3003     -0.000345381     1.13093e-05        -0.165223       -0.648979
                       -0.905741       -0.386533     -0.000259175     0.000105194       -0.0791603        0.119589      0.000888865     0.000767252
                    -0.000823843     0.000184567        -0.165331       -0.649263      0.000965749     0.000625072        -0.683205      -0.0667594
281700.4              -0.0374238        0.138986     -0.000161709    -0.000576552        -0.905809       -0.386663     -0.000797598     0.000231955
                    -0.000134724    -0.000641375        -0.626871        0.300323     -0.000345351     1.13258e-05        -0.165269       -0.648998
                       -0.905754       -0.386506     -0.000259147     0.000105218       -0.0791536        0.119586      0.000888875     0.000767209
                    -0.000823786     0.000184625        -0.165377       -0.649282      0.000965733     0.000625042        -0.683186      -0.0667035
281700.5              -0.0374177        0.138981     -0.000161779    -0.000576559        -0.905821       -0.386636     -0.000797543     0.000232012
                    -0.000134789    -0.000641383        -0.626832        0.300346     -0.000345322     1.13422e-05        -0.165315       -0.649017
                       -0.905766        -0.38648      -0.00025912     0.000105242        -0.079147        0.119583      0.000888885     0.000767166
                    -0.000823729     0.000184683        -0.165423       -0.649302      0.000965718     0.000625012        -0.683167      -0.0666476
281700.6              -0.0374116        0.138976      -0.00016185    -0.000576566        -0.905834       -0.386609     -0.000797487     0.000232069
                    -0.000134854    -0.000641391        -0.626793        0.300369     -0.000345293     1.13587e-05        -0.165361       -0.649036
                       -0.905778       -0.386453     -0.000259092     0.000105266       -0.0791403        0.119579      0.000888894     0.000767123
                    -0.000823672     0.000184741        -0.165468       -0.649321      0.000965702     0.000624983        -0.683148      -0.0665916
281700.7              -0.0374055        0.138971     -0.000161921    -0.000576573        -0.905846       -0.386583     -0.000797432     0.000232126
                    -0.000134919    -0.000641398        -0.626755        0.300392     -0.000345264     1.13751e-05        -0.165406       -0.649056
                       -0.905791       -0.386426     -0.000259065      0.00010529       -0.0791337        0.119576      0.000888904      0.00076708
                    -0.000823615     0.000184799        -0.165514        -0.64934      0.000965687     0.000624953        -0.683129      -0.0665357
281700.8              -0.0373994        0.138966     -0.000161991     -0.00057658        -0.905859       -0.386556     -0.000797376     0.000232183
                    -0.000134984    -0.000641406        -0.626716        0.300415     -0.000345234     1.13916e-05        -0.165452       -0.649075
                       -0.905803       -0.386399     -0.000259038     0.000105314        -0.079127        0.119573      0.000888913     0.000767037
                    -0.000823558     0.000184858         -0.16556       -0.649359      0.000965671     0.000624923        -0.683111      -0.0664798
281700.9              -0.0373934        0.138961     -0.000162062    -0.000576586        -0.905871       -0.386529     -0.000797321     0.000232241
                    -0.000135049    -0.000641414        -0.626677        0.300438     -0.000345205      1.1408e-05        -0.165498       -0.649094
                       -0.905816       -0.386372      -0.00025901     0.000105338       -0.0791203         0.11957      0.000888923     0.000766994
                    -0.000823501     0.000184916        -0.165606       -0.649379      0.000965656     0.000624894        -0.683092       -0.066424
281701                -0.0373873        0.138956     -0.000162133    -0.000576593        -0.905884       -0.386502     -0.000797265     0.000232298
                    -0.000135115    -0.000641422        -0.626638        0.300461     -0.000345176     1.14244e-05        -0.165544       -0.649113
                       -0.905828       -0.386346     -0.000258983     0.000105362       -0.0791137        0.119567      0.000888933     0.000766951
                    -0.000823444     0.000184974        -0.165652       -0.649398      0.000965641     0.000624864        -0.683073      -0.0663681
281701.1              -0.0373812        0.138951     -0.000162203      -0.0005766        -0.905896       -0.386475      -0.00079721     0.000232355
                     -0.00013518     -0.00064143        -0.626599        0.300484     -0.000345147     1.14409e-05         -0.16559       -0.649132
                       -0.905841       -0.386319     -0.000258956     0.000105386        -0.079107        0.119564      0.000888942     0.000766908
                    -0.000823387     0.000185032        -0.165697       -0.649417      0.000965625     0.000624834        -0.683054      -0.0663122
281701.2              -0.0373751        0.138946     -0.000162274    -0.000576607        -0.905909       -0.386449     -0.000797154     0.000232412
                    -0.000135245    -0.000641438         -0.62656        0.300507     -0.000345117     1.14573e-05        -0.165635       -0.649152
                       -0.905853       -0.386292     -0.000258928      0.00010541       -0.0791004         0.11956      0.000888952     0.000766866
                     -0.00082333      0.00018509        -0.165743       -0.649436       0.00096561     0.000624805        -0.683035      -0.0662563
281701.3              -0.0373691        0.138941     -0.000162345    -0.000576614        -0.905921       -0.386422     -0.000797098     0.000232469
                     -0.00013531    -0.000641445        -0.626521         0.30053     -0.000345088     1.14737e-05        -0.165681       -0.649171
                       -0.905866       -0.386265     -0.000258901     0.000105434       -0.0790937        0.119557      0.000888961     0.000766823
                    -0.000823273     0.000185148        -0.165789       -0.649455      0.000965594     0.000624775        -0.683016      -0.0662004
281701.4               -0.037363        0.138936     -0.000162415     -0.00057662        -0.905933       -0.386395     -0.000797043     0.000232526
                    -0.000135375    -0.000641453        -0.626483        0.300552     -0.000345059     1.14901e-05        -0.165727        -0.64919
                       -0.905878       -0.386238     -0.000258873     0.000105458        -0.079087        0.119554      0.000888971      0.00076678
                    -0.000823216     0.000185207        -0.165835       -0.649474      0.000965579     0.000624745        -0.682997      -0.0661446
281701.5              -0.0373569        0.138931     -0.000162486    -0.000576627        -0.905946       -0.386368     -0.000796987     0.000232583
                    -0.000135441    -0.000641461        -0.626444        0.300575      -0.00034503     1.15066e-05        -0.165773       -0.649209
                       -0.905891       -0.386212     -0.000258846     0.000105482       -0.0790804        0.119551       0.00088898     0.000766737
                    -0.000823159     0.000185265         -0.16588       -0.649494      0.000965563     0.000624715        -0.682978      -0.0660887
281701.6              -0.0373508        0.138927     -0.000162557    -0.000576634        -0.905958       -0.386341     -0.000796932      0.00023264
                    -0.000135506    -0.000641469        -0.626405        0.300598        -0.000345      1.1523e-05        -0.165818       -0.649228
                       -0.905903       -0.386185     -0.000258818     0.000105506       -0.0790737        0.119548       0.00088899     0.000766694
                    -0.000823102     0.000185323        -0.165926       -0.649513      0.000965548     0.000624686        -0.682959      -0.0660329
281701.7              -0.0373448        0.138922     -0.000162627    -0.000576641        -0.905971       -0.386314     -0.000796876     0.000232697
                    -0.000135571    -0.000641477        -0.626366        0.300621     -0.000344971     1.15394e-05        -0.165864       -0.649247
                       -0.905916       -0.386158     -0.000258791      0.00010553       -0.0790671        0.119545         0.000889     0.000766651
                    -0.000823045     0.000185381        -0.165972       -0.649532      0.000965533     0.000624656         -0.68294       -0.065977
281701.8              -0.0373387        0.138917     -0.000162698    -0.000576648        -0.905983       -0.386288     -0.000796821     0.000232754
                    -0.000135636    -0.000641484        -0.626327        0.300644     -0.000344942     1.15558e-05         -0.16591       -0.649267
                       -0.905928       -0.386131     -0.000258764     0.000105554       -0.0790604        0.119541      0.000889009     0.000766608
                    -0.000822988     0.000185439        -0.166018       -0.649551      0.000965517     0.000624626        -0.682921      -0.0659212
281701.9              -0.0373326        0.138912     -0.000162769    -0.000576654        -0.905996       -0.386261     -0.000796765     0.000232811
                    -0.000135701    -0.000641492        -0.626288        0.300667     -0.000344913     1.15723e-05        -0.165956       -0.649286
                        -0.90594       -0.386104     -0.000258736     0.000105578       -0.0790537        0.119538      0.000889019     0.000766565
                    -0.000822931     0.000185497        -0.166063        -0.64957      0.000965502     0.000624597        -0.682902      -0.0658654
281702                -0.0373265        0.138907     -0.000162839    -0.000576661        -0.906008       -0.386234      -0.00079671     0.000232868
                    -0.000135767      -0.0006415         -0.62625         0.30069     -0.000344884     1.15887e-05        -0.166001       -0.649305
                       -0.905953       -0.386078     -0.000258709     0.000105602       -0.0790471        0.119535      0.000889028     0.000766523
                    -0.000822874     0.000185555        -0.166109       -0.649589      0.000965486     0.000624567        -0.682883      -0.0658096
281702.1              -0.0373205        0.138902      -0.00016291    -0.000576668        -0.906021       -0.386207     -0.000796654     0.000232925
                    -0.000135832    -0.000641508        -0.626211        0.300713     -0.000344854     1.16051e-05        -0.166047       -0.649324
                       -0.905965       -0.386051     -0.000258681     0.000105626       -0.0790404        0.119532      0.000889038      0.00076648
                    -0.000822817     0.000185613        -0.166155       -0.649608      0.000965471     0.000624537        -0.682864      -0.0657537
281702.2              -0.0373144        0.138897     -0.000162981    -0.000576675        -0.906033        -0.38618     -0.000796599     0.000232982
                    -0.000135897    -0.000641515        -0.626172        0.300736     -0.000344825     1.16215e-05        -0.166093       -0.649343
                       -0.905978       -0.386024     -0.000258654      0.00010565       -0.0790338        0.119529      0.000889047     0.000766437
                     -0.00082276     0.000185671        -0.166201       -0.649627      0.000965456     0.000624508        -0.682845      -0.0656979
281702.3              -0.0373083        0.138892     -0.000163051    -0.000576682        -0.906046       -0.386153     -0.000796543     0.000233038
                    -0.000135962    -0.000641523        -0.626133        0.300758     -0.000344796     1.16379e-05        -0.166139       -0.649362
                        -0.90599       -0.385997     -0.000258626     0.000105674       -0.0790271        0.119526      0.000889057     0.000766394
                    -0.000822703     0.000185729        -0.166247       -0.649646       0.00096544     0.000624478        -0.682826      -0.0656421
281702.4              -0.0373022        0.138887     -0.000163122    -0.000576688        -0.906058       -0.386127     -0.000796488     0.000233095
                    -0.000136027    -0.000641531        -0.626094        0.300781     -0.000344767     1.16543e-05        -0.166185       -0.649381
                       -0.906003        -0.38597     -0.000258599     0.000105698       -0.0790204        0.119522      0.000889066     0.000766351
                    -0.000822646     0.000185787        -0.166292       -0.649666      0.000965425     0.000624448        -0.682807      -0.0655863
281702.5              -0.0372962        0.138882     -0.000163193    -0.000576695        -0.906071         -0.3861     -0.000796432     0.000233152
                    -0.000136093    -0.000641539        -0.626055        0.300804     -0.000344738     1.16707e-05         -0.16623         -0.6494
                       -0.906015       -0.385944     -0.000258572     0.000105722       -0.0790138        0.119519      0.000889076     0.000766308
                     -0.00082259     0.000185845        -0.166338       -0.649685       0.00096541     0.000624419        -0.682788      -0.0655306
281702.6              -0.0372901        0.138877     -0.000163263    -0.000576702        -0.906083       -0.386073     -0.000796377     0.000233209
                    -0.000136158    -0.000641546        -0.626016        0.300827     -0.000344708     1.16871e-05        -0.166276       -0.649419
                       -0.906028       -0.385917     -0.000258544     0.000105746       -0.0790071        0.119516      0.000889086     0.000766265
                    -0.000822533     0.000185903        -0.166384       -0.649704      0.000965394     0.000624389        -0.682769      -0.0654748
281702.7               -0.037284        0.138872     -0.000163334    -0.000576709        -0.906096       -0.386046     -0.000796321     0.000233266
                    -0.000136223    -0.000641554        -0.625978         0.30085     -0.000344679     1.17035e-05        -0.166322       -0.649439
                        -0.90604        -0.38589     -0.000258517      0.00010577       -0.0790005        0.119513      0.000889095     0.000766222
                    -0.000822476     0.000185961         -0.16643       -0.649723      0.000965379     0.000624359         -0.68275       -0.065419
281702.8               -0.037278        0.138867     -0.000163405    -0.000576715        -0.906108       -0.386019     -0.000796265     0.000233323
                    -0.000136288    -0.000641562        -0.625939        0.300873      -0.00034465       1.172e-05        -0.166368       -0.649458
                       -0.906053       -0.385863     -0.000258489     0.000105794       -0.0789938         0.11951      0.000889105      0.00076618
                    -0.000822419     0.000186019        -0.166475       -0.649742      0.000965363      0.00062433        -0.682731      -0.0653632
281702.9              -0.0372719        0.138862     -0.000163476    -0.000576722         -0.90612       -0.385992      -0.00079621      0.00023338
                    -0.000136354    -0.000641569          -0.6259        0.300896     -0.000344621     1.17364e-05        -0.166413       -0.649477
                       -0.906065       -0.385836     -0.000258462     0.000105818       -0.0789872        0.119507      0.000889114     0.000766137
                    -0.000822362     0.000186077        -0.166521       -0.649761      0.000965348       0.0006243        -0.682713      -0.0653075
281703                -0.0372658        0.138857     -0.000163546    -0.000576729        -0.906133       -0.385966     -0.000796154     0.000233437
                    -0.000136419    -0.000641577        -0.625861        0.300918     -0.000344592     1.17528e-05        -0.166459       -0.649496
                       -0.906077       -0.385809     -0.000258434     0.000105841       -0.0789805        0.119503      0.000889124     0.000766094
                    -0.000822306     0.000186135        -0.166567        -0.64978      0.000965333      0.00062427        -0.682694      -0.0652517
281703.1              -0.0372597        0.138852     -0.000163617    -0.000576736        -0.906145       -0.385939     -0.000796099     0.000233493
                    -0.000136484    -0.000641585        -0.625822        0.300941     -0.000344563     1.17692e-05        -0.166505       -0.649515
                        -0.90609       -0.385783     -0.000258407     0.000105865       -0.0789739          0.1195      0.000889133     0.000766051
