! TOUCHSTONE file generated by CST MICROWAVE STUDIO
! Date and time: Wed Oct  8 06:58:28 2025
! Project name: Teste_Macro_Metasurface_Nanopilar.cst
! Parameters = {H=600; L_x=135; L_y=105; Lambda=1064; Max_L=200; Min_L=70; PathPara=1; Phi=0; Step_L=10; Theta=0; p=520; phaseX=180; phaseY=0}
! Header version: 2018
! Port assignment regex: !\s*Touchstone port\s*([0-9]+)\s*=\s*(CST MWS port|CST DS port)\s*([0-9]+|Zmin|Zmax)\s*\(\"(.*)\"\)(\s*mode\s*([0-9]+))?.*
! Touchstone port assignment:
! Touchstone port 1 = CST MWS port Zmax ("") mode 1
! Touchstone port 2 = CST MWS port Zmax ("") mode 2
! Touchstone port 3 = CST MWS port Zmin ("") mode 1
! Touchstone port 4 = CST MWS port Zmin ("") mode 2
! S-Parameters are not renormalized. Each port impedance will be approximated by the real part at minimum frequency. The values are described via the [Reference] keyword.
! Default impedance is overridden by [Reference]
[Version] 2.0
# GHz S RI R 376.73
[Number of Ports] 4
[Reference]
376.73 376.73 376.73 376.73 
[Number of Frequencies] 1001
[Network Data]
281700                 -0.213694       0.0674837     -0.000402196    -0.000525478         0.495873        0.831372     -0.000114776    -9.85855e-05
                    -0.000303479    -0.000740516        -0.108429       -0.176123      0.000104709    -0.000279603         0.419119       -0.875044
                        0.495247        0.831398     -0.000397194     -0.00018924        -0.162635        0.154958      8.83908e-05    -0.000626804
                    -0.000327246     3.67666e-05         0.418538       -0.874865     -3.92246e-05    -0.000613261        -0.206928       0.0282433
281700.1               -0.213688       0.0674899     -0.000402201     -0.00052545           0.4959        0.831357     -0.000114785    -9.85821e-05
                    -0.000303525    -0.000740503        -0.108437       -0.176118      0.000104717    -0.000279606         0.419091       -0.875057
                        0.495275        0.831382     -0.000397184    -0.000189192        -0.162627         0.15496       8.8367e-05    -0.000626811
                    -0.000327211     3.67755e-05          0.41851       -0.874879     -3.92408e-05    -0.000613265        -0.206928       0.0282476
281700.2               -0.213682       0.0674962     -0.000402206    -0.000525421         0.495927        0.831342     -0.000114794    -9.85786e-05
                    -0.000303571     -0.00074049        -0.108446       -0.176114      0.000104726     -0.00027961         0.419062       -0.875071
                        0.495302        0.831367     -0.000397174    -0.000189144         -0.16262        0.154962      8.83431e-05    -0.000626819
                    -0.000327176     3.67843e-05         0.418481       -0.874893      -3.9257e-05    -0.000613269        -0.206927       0.0282519
281700.3               -0.213676       0.0675025     -0.000402211    -0.000525392         0.495955        0.831326     -0.000114802    -9.85751e-05
                    -0.000303617    -0.000740478        -0.108454       -0.176109      0.000104734    -0.000279613         0.419033       -0.875085
                        0.495329        0.831352     -0.000397165    -0.000189096        -0.162613        0.154964      8.83193e-05    -0.000626827
                    -0.000327141     3.67931e-05         0.418453       -0.874906     -3.92731e-05    -0.000613273        -0.206927       0.0282562
281700.4                -0.21367       0.0675088     -0.000402216    -0.000525364         0.495982        0.831311     -0.000114811    -9.85716e-05
                    -0.000303663    -0.000740465        -0.108462       -0.176105      0.000104742    -0.000279616         0.419005       -0.875098
                        0.495357        0.831336     -0.000397155    -0.000189048        -0.162605        0.154966      8.82955e-05    -0.000626834
                    -0.000327106      3.6802e-05         0.418424        -0.87492     -3.92893e-05    -0.000613278        -0.206927       0.0282605
281700.5               -0.213664       0.0675151     -0.000402221    -0.000525335         0.496009        0.831296      -0.00011482    -9.85681e-05
                    -0.000303709    -0.000740452         -0.10847       -0.176101       0.00010475    -0.000279619         0.418976       -0.875112
                        0.495384        0.831321     -0.000397146       -0.000189        -0.162598        0.154969      8.82716e-05    -0.000626842
                    -0.000327071     3.68108e-05         0.418395       -0.874934     -3.93055e-05    -0.000613282        -0.206927       0.0282649
281700.6               -0.213658       0.0675214     -0.000402226    -0.000525307         0.496037        0.831281     -0.000114829    -9.85646e-05
                    -0.000303755    -0.000740439        -0.108478       -0.176096      0.000104759    -0.000279622         0.418947       -0.875126
                        0.495412        0.831306     -0.000397136    -0.000188952         -0.16259        0.154971      8.82478e-05    -0.000626849
                    -0.000327036     3.68196e-05         0.418367       -0.874947     -3.93216e-05    -0.000613286        -0.206927       0.0282692
281700.7               -0.213652       0.0675277     -0.000402231    -0.000525278         0.496064        0.831265     -0.000114837    -9.85612e-05
                    -0.000303802    -0.000740426        -0.108486       -0.176092      0.000104767    -0.000279625         0.418919       -0.875139
                        0.495439         0.83129     -0.000397126    -0.000188904        -0.162583        0.154973       8.8224e-05    -0.000626857
                    -0.000327001     3.68284e-05         0.418338       -0.874961     -3.93378e-05     -0.00061329        -0.206926       0.0282735
281700.8               -0.213646       0.0675339     -0.000402236     -0.00052525         0.496091         0.83125     -0.000114846    -9.85577e-05
                    -0.000303848    -0.000740413        -0.108494       -0.176087      0.000104775    -0.000279628          0.41889       -0.875153
                        0.495466        0.831275     -0.000397117    -0.000188856        -0.162576        0.154975      8.82002e-05    -0.000626864
                    -0.000326967     3.68372e-05         0.418309       -0.874974      -3.9354e-05    -0.000613294        -0.206926       0.0282778
281700.9                -0.21364       0.0675402     -0.000402241    -0.000525221         0.496119        0.831235     -0.000114855    -9.85542e-05
                    -0.000303894      -0.0007404        -0.108502       -0.176083      0.000104784    -0.000279631         0.418861       -0.875167
                        0.495494         0.83126     -0.000397107    -0.000188808        -0.162568        0.154977      8.81763e-05    -0.000626872
                    -0.000326932      3.6846e-05         0.418281       -0.874988     -3.93702e-05    -0.000613299        -0.206926       0.0282821
281701                 -0.213634       0.0675465     -0.000402246    -0.000525193         0.496146        0.831219     -0.000114863    -9.85507e-05
                     -0.00030394    -0.000740388         -0.10851       -0.176078      0.000104792    -0.000279634         0.418833        -0.87518
                        0.495521        0.831244     -0.000397097    -0.000188761        -0.162561        0.154979      8.81525e-05    -0.000626879
                    -0.000326897     3.68548e-05         0.418252       -0.875002     -3.93863e-05    -0.000613303        -0.206926       0.0282864
281701.1               -0.213628       0.0675528     -0.000402251    -0.000525164         0.496173        0.831204     -0.000114872    -9.85472e-05
                    -0.000303986    -0.000740375        -0.108518       -0.176074        0.0001048    -0.000279637         0.418804       -0.875194
                        0.495549        0.831229     -0.000397087    -0.000188713        -0.162554        0.154982      8.81287e-05    -0.000626887
                    -0.000326862     3.68636e-05         0.418224       -0.875015     -3.94025e-05    -0.000613307        -0.206926       0.0282907
281701.2               -0.213622       0.0675591     -0.000402255    -0.000525136         0.496201        0.831189     -0.000114881    -9.85437e-05
                    -0.000304032    -0.000740362        -0.108526        -0.17607      0.000104808     -0.00027964         0.418775       -0.875208
                        0.495576        0.831214     -0.000397078    -0.000188665        -0.162546        0.154984      8.81048e-05    -0.000626894
                    -0.000326827     3.68724e-05         0.418195       -0.875029     -3.94187e-05    -0.000613311        -0.206925        0.028295
281701.3               -0.213616       0.0675654      -0.00040226    -0.000525107         0.496228        0.831174      -0.00011489    -9.85403e-05
                    -0.000304078    -0.000740349        -0.108535       -0.176065      0.000104817    -0.000279643         0.418747       -0.875221
                        0.495603        0.831198     -0.000397068    -0.000188617        -0.162539        0.154986       8.8081e-05    -0.000626902
                    -0.000326792     3.68812e-05         0.418166       -0.875043     -3.94349e-05    -0.000613315        -0.206925       0.0282994
281701.4                -0.21361       0.0675716     -0.000402265    -0.000525079         0.496255        0.831158     -0.000114898    -9.85368e-05
                    -0.000304124    -0.000740336        -0.108543       -0.176061      0.000104825    -0.000279646         0.418718       -0.875235
                        0.495631        0.831183     -0.000397058    -0.000188569        -0.162532        0.154988      8.80571e-05    -0.000626909
                    -0.000326757       3.689e-05         0.418138       -0.875056     -3.94511e-05    -0.000613319        -0.206925       0.0283037
281701.5               -0.213604       0.0675779      -0.00040227     -0.00052505         0.496283        0.831143     -0.000114907    -9.85333e-05
                     -0.00030417    -0.000740323        -0.108551       -0.176056      0.000104833    -0.000279649         0.418689       -0.875249
                        0.495658        0.831168     -0.000397048    -0.000188521        -0.162524         0.15499      8.80333e-05    -0.000626917
                    -0.000326722     3.68988e-05         0.418109        -0.87507     -3.94672e-05    -0.000613323        -0.206925        0.028308
281701.6               -0.213598       0.0675842     -0.000402275    -0.000525021          0.49631        0.831128     -0.000114916    -9.85298e-05
                    -0.000304216     -0.00074031        -0.108559       -0.176052      0.000104841    -0.000279652         0.418661       -0.875262
                        0.495685        0.831152     -0.000397039    -0.000188473        -0.162517        0.154993      8.80095e-05    -0.000626924
                    -0.000326687     3.69076e-05          0.41808       -0.875083     -3.94834e-05    -0.000613327        -0.206925       0.0283123
281701.7               -0.213592       0.0675905      -0.00040228    -0.000524993         0.496337        0.831112     -0.000114924    -9.85263e-05
                    -0.000304262    -0.000740297        -0.108567       -0.176047      0.000104849    -0.000279655         0.418632       -0.875276
                        0.495713        0.831137     -0.000397029    -0.000188425         -0.16251        0.154995      8.79856e-05    -0.000626932
                    -0.000326652     3.69163e-05         0.418052       -0.875097     -3.94996e-05    -0.000613331        -0.206924       0.0283166
281701.8               -0.213586       0.0675968     -0.000402285    -0.000524964         0.496365        0.831097     -0.000114933    -9.85228e-05
                    -0.000304309    -0.000740284        -0.108575       -0.176043      0.000104858    -0.000279658         0.418603        -0.87529
                         0.49574        0.831122     -0.000397019    -0.000188377        -0.162502        0.154997      8.79618e-05    -0.000626939
                    -0.000326617     3.69251e-05         0.418023       -0.875111     -3.95158e-05    -0.000613336        -0.206924       0.0283209
281701.9                -0.21358        0.067603      -0.00040229    -0.000524936         0.496392        0.831082     -0.000114942    -9.85193e-05
                    -0.000304355    -0.000740271        -0.108583       -0.176039      0.000104866    -0.000279661         0.418575       -0.875303
                        0.495768        0.831106     -0.000397009    -0.000188329        -0.162495        0.154999      8.79379e-05    -0.000626947
                    -0.000326582     3.69339e-05         0.417994       -0.875124      -3.9532e-05     -0.00061334        -0.206924       0.0283252
281702                 -0.213574       0.0676093     -0.000402295    -0.000524907         0.496419        0.831067     -0.000114951    -9.85158e-05
                    -0.000304401    -0.000740258        -0.108591       -0.176034      0.000104874    -0.000279664         0.418546       -0.875317
                        0.495795        0.831091     -0.000396999    -0.000188281        -0.162488        0.155001      8.79141e-05    -0.000626954
                    -0.000326547     3.69426e-05         0.417966       -0.875138     -3.95482e-05    -0.000613344        -0.206924       0.0283295
281702.1               -0.213568       0.0676156       -0.0004023    -0.000524879         0.496446        0.831051     -0.000114959    -9.85123e-05
                    -0.000304447    -0.000740245        -0.108599        -0.17603      0.000104882    -0.000279667         0.418517       -0.875331
                        0.495822        0.831076      -0.00039699    -0.000188233         -0.16248        0.155003      8.78902e-05    -0.000626962
                    -0.000326512     3.69514e-05         0.417937       -0.875151     -3.95644e-05    -0.000613348        -0.206924       0.0283339
281702.2               -0.213562       0.0676219     -0.000402305     -0.00052485         0.496474        0.831036     -0.000114968    -9.85088e-05
                    -0.000304493    -0.000740232        -0.108607       -0.176025       0.00010489     -0.00027967         0.418489       -0.875344
                         0.49585         0.83106      -0.00039698    -0.000188185        -0.162473        0.155006      8.78664e-05    -0.000626969
                    -0.000326477     3.69601e-05         0.417909       -0.875165     -3.95805e-05    -0.000613352        -0.206924       0.0283382
281702.3               -0.213556       0.0676281     -0.000402309    -0.000524822         0.496501        0.831021     -0.000114977    -9.85054e-05
                    -0.000304539    -0.000740219        -0.108615       -0.176021      0.000104899    -0.000279673          0.41846       -0.875358
                        0.495877        0.831045      -0.00039697    -0.000188137        -0.162466        0.155008      8.78425e-05    -0.000626977
                    -0.000326442     3.69689e-05          0.41788       -0.875179     -3.95967e-05    -0.000613356        -0.206923       0.0283425
281702.4                -0.21355       0.0676344     -0.000402314    -0.000524793         0.496528        0.831005     -0.000114985    -9.85019e-05
                    -0.000304585    -0.000740206        -0.108624       -0.176016      0.000104907    -0.000279676         0.418431       -0.875372
                        0.495905         0.83103      -0.00039696    -0.000188089        -0.162458         0.15501      8.78187e-05    -0.000626985
                    -0.000326407     3.69776e-05         0.417851       -0.875192     -3.96129e-05     -0.00061336        -0.206923       0.0283468
281702.5               -0.213544       0.0676407     -0.000402319    -0.000524765         0.496556         0.83099     -0.000114994    -9.84984e-05
                    -0.000304631    -0.000740193        -0.108632       -0.176012      0.000104915    -0.000279679         0.418403       -0.875385
                        0.495932        0.831014      -0.00039695    -0.000188041        -0.162451        0.155012      8.77948e-05    -0.000626992
                    -0.000326372     3.69864e-05         0.417823       -0.875206     -3.96291e-05    -0.000613364        -0.206923       0.0283511
281702.6               -0.213538        0.067647     -0.000402324    -0.000524736         0.496583        0.830975     -0.000115003    -9.84949e-05
                    -0.000304677     -0.00074018         -0.10864       -0.176007      0.000104923    -0.000279682         0.418374       -0.875399
                        0.495959        0.830999      -0.00039694    -0.000187993        -0.162444        0.155014       8.7771e-05       -0.000627
                    -0.000326337     3.69951e-05         0.417794       -0.875219     -3.96453e-05    -0.000613368        -0.206923       0.0283554
281702.7               -0.213532       0.0676533     -0.000402329    -0.000524708          0.49661        0.830959     -0.000115012    -9.84914e-05
                    -0.000304723    -0.000740167        -0.108648       -0.176003      0.000104931    -0.000279685         0.418345       -0.875413
                        0.495987        0.830984      -0.00039693    -0.000187945        -0.162436        0.155016      8.77471e-05    -0.000627007
                    -0.000326302     3.70038e-05         0.417765       -0.875233     -3.96615e-05    -0.000613372        -0.206923       0.0283597
281702.8               -0.213526       0.0676595     -0.000402334    -0.000524679         0.496638        0.830944      -0.00011502    -9.84879e-05
                    -0.000304769    -0.000740154        -0.108656       -0.175999      0.000104939    -0.000279688         0.418317       -0.875426
                        0.496014        0.830968      -0.00039692    -0.000187897        -0.162429        0.155019      8.77233e-05    -0.000627015
                    -0.000326267     3.70126e-05         0.417737       -0.875247     -3.96777e-05    -0.000613375        -0.206922        0.028364
281702.9                -0.21352       0.0676658     -0.000402339    -0.000524651         0.496665        0.830929     -0.000115029    -9.84844e-05
                    -0.000304815    -0.000740141        -0.108664       -0.175994      0.000104947    -0.000279691         0.418288        -0.87544
                        0.496042        0.830953     -0.000396911    -0.000187849        -0.162422        0.155021      8.76994e-05    -0.000627022
                    -0.000326233     3.70213e-05         0.417708        -0.87526     -3.96939e-05    -0.000613379        -0.206922       0.0283684
281703                 -0.213514       0.0676721     -0.000402344    -0.000524622         0.496692        0.830914     -0.000115038    -9.84809e-05
                    -0.000304861    -0.000740128        -0.108672        -0.17599      0.000104956    -0.000279694         0.418259       -0.875453
                        0.496069        0.830938     -0.000396901    -0.000187802        -0.162414        0.155023      8.76755e-05     -0.00062703
                    -0.000326198       3.703e-05         0.417679       -0.875274     -3.97101e-05    -0.000613383        -0.206922       0.0283727
281703.1               -0.213508       0.0676784     -0.000402348    -0.000524594          0.49672        0.830898     -0.000115047    -9.84774e-05
                    -0.000304907    -0.000740115         -0.10868       -0.175985      0.000104964    -0.000279697         0.418231       -0.875467
                        0.496096        0.830922     -0.000396891    -0.000187754        -0.162407        0.155025      8.76517e-05    -0.000627037
