! TOUCHSTONE file generated by CST MICROWAVE STUDIO
! Date and time: Wed Oct  8 07:01:00 2025
! Project name: Teste_Macro_Metasurface_Nanopilar.cst
! Parameters = {H=600; L_x=155; L_y=135; Lambda=1064; Max_L=200; Min_L=70; PathPara=1; Phi=0; Step_L=10; Theta=0; p=520; phaseX=180; phaseY=0}
! Header version: 2018
! Port assignment regex: !\s*Touchstone port\s*([0-9]+)\s*=\s*(CST MWS port|CST DS port)\s*([0-9]+|Zmin|Zmax)\s*\(\"(.*)\"\)(\s*mode\s*([0-9]+))?.*
! Touchstone port assignment:
! Touchstone port 1 = CST MWS port Zmax ("") mode 1
! Touchstone port 2 = CST MWS port Zmax ("") mode 2
! Touchstone port 3 = CST MWS port Zmin ("") mode 1
! Touchstone port 4 = CST MWS port Zmin ("") mode 2
! S-Parameters are not renormalized. Each port impedance will be approximated by the real part at minimum frequency. The values are described via the [Reference] keyword.
! Default impedance is overridden by [Reference]
[Version] 2.0
# GHz S RI R 376.73
[Number of Ports] 4
[Reference]
376.73 376.73 376.73 376.73 
[Number of Frequencies] 1001
[Network Data]
281700                 -0.153037       0.0102413      0.000972488     0.000414155        -0.615499       -0.767441     -0.000666581    -0.000315328
                      0.00100295     0.000383054        -0.939599      -0.0716982      -0.00046159    -0.000883685      -0.00949402       -0.108473
                       -0.614926       -0.767712     -0.000982258    -0.000728245       -0.0450978        0.144886      0.000427782     0.000824455
                    -0.000795484    -0.000332938      -0.00986144       -0.108688     -0.000595068      0.00120506        -0.635205       -0.681787
281700.1               -0.153031       0.0102432      0.000972518     0.000414107        -0.615524       -0.767422      -0.00066662    -0.000315295
                       0.0010023     0.000383172        -0.939599      -0.0716273     -0.000461572    -0.000883483      -0.00947505       -0.108529
                       -0.614948        -0.76769     -0.000982333    -0.000728161       -0.0450895        0.144882        0.0004279     0.000824401
                    -0.000797754    -0.000330827      -0.00984249       -0.108744     -0.000594603      0.00120555        -0.635273       -0.681717
281700.2               -0.153025        0.010245      0.000972548     0.000414058        -0.615548       -0.767404     -0.000666659    -0.000315262
                      0.00100164     0.000383288        -0.939599      -0.0715565     -0.000461555    -0.000883281      -0.00945609       -0.108585
                       -0.614969       -0.767668     -0.000982409    -0.000728077       -0.0450812        0.144879      0.000428017     0.000824346
                    -0.000799996    -0.000328716      -0.00982356         -0.1088     -0.000594138      0.00120603        -0.635342       -0.681647
281700.3               -0.153019       0.0102469      0.000972578      0.00041401        -0.615572       -0.767385     -0.000666698     -0.00031523
                      0.00100096       0.0003834          -0.9396      -0.0714856     -0.000461538     -0.00088308      -0.00943714       -0.108641
                       -0.614991       -0.767647     -0.000982485    -0.000727993       -0.0450728        0.144876      0.000428134     0.000824292
                     -0.00080221    -0.000326606      -0.00980463       -0.108856     -0.000593674      0.00120652         -0.63541       -0.681578
281700.4               -0.153014       0.0102487      0.000972608     0.000413962        -0.615596       -0.767366     -0.000666738    -0.000315197
                      0.00100028      0.00038351          -0.9396      -0.0714148      -0.00046152     -0.00088288      -0.00941821       -0.108697
                       -0.615013       -0.767625      -0.00098256    -0.000727909       -0.0450645        0.144872      0.000428251     0.000824238
                    -0.000804396    -0.000324496      -0.00978572       -0.108912      -0.00059321        0.001207        -0.635479       -0.681508
281700.5               -0.153008       0.0102506      0.000972638     0.000413914        -0.615621       -0.767348     -0.000666777    -0.000315165
                     0.000999585     0.000383615          -0.9396      -0.0713439     -0.000461503     -0.00088268      -0.00939928       -0.108753
                       -0.615035       -0.767604     -0.000982636    -0.000727825       -0.0450562        0.144869      0.000428368     0.000824183
                    -0.000806555    -0.000322388      -0.00976682       -0.108968     -0.000592746      0.00120748        -0.635547       -0.681438
281700.6               -0.153002       0.0102525      0.000972668     0.000413865        -0.615645       -0.767329     -0.000666816    -0.000315132
                     0.000998877     0.000383717          -0.9396      -0.0712731     -0.000461486    -0.000882481      -0.00938037       -0.108809
                       -0.615056       -0.767582     -0.000982711    -0.000727741       -0.0450478        0.144865      0.000428484     0.000824129
                    -0.000808687     -0.00032028      -0.00974792       -0.109024     -0.000592284      0.00120796        -0.635616       -0.681368
281700.7               -0.152996       0.0102543      0.000972698     0.000413817        -0.615669        -0.76731     -0.000666856      -0.0003151
                     0.000998157     0.000383816        -0.939601      -0.0712022     -0.000461469    -0.000882283      -0.00936147       -0.108865
                       -0.615078       -0.767561     -0.000982787    -0.000727657       -0.0450395        0.144862      0.000428601     0.000824074
                    -0.000810793    -0.000318175      -0.00972904        -0.10908     -0.000591821      0.00120844        -0.635684       -0.681298
281700.8                -0.15299       0.0102562      0.000972728     0.000413769        -0.615694       -0.767292     -0.000666895    -0.000315067
                     0.000997424     0.000383909        -0.939601      -0.0711314     -0.000461452    -0.000882085      -0.00934258       -0.108921
                         -0.6151        -0.76754     -0.000982862    -0.000727573       -0.0450312        0.144859      0.000428718      0.00082402
                    -0.000812871    -0.000316072      -0.00971017       -0.109136      -0.00059136      0.00120891        -0.635752       -0.681228
281700.9               -0.152984        0.010258      0.000972758      0.00041372        -0.615718       -0.767273     -0.000666934    -0.000315035
                     0.000996678     0.000383999        -0.939601      -0.0710606     -0.000461435    -0.000881888       -0.0093237       -0.108977
                       -0.615122       -0.767518     -0.000982938    -0.000727489       -0.0450229        0.144855      0.000428835     0.000823965
                    -0.000814923     -0.00031397      -0.00969131       -0.109192     -0.000590898      0.00120938        -0.635821       -0.681158
281701                 -0.152978       0.0102599      0.000972788     0.000413672        -0.615742       -0.767254     -0.000666974    -0.000315003
                      0.00099592     0.000384083        -0.939601      -0.0709897     -0.000461418    -0.000881692      -0.00930483       -0.109033
                       -0.615144       -0.767497     -0.000983014    -0.000727405       -0.0450145        0.144852      0.000428951      0.00082391
                    -0.000816949    -0.000311872      -0.00967247       -0.109248     -0.000590438      0.00120985        -0.635889       -0.681089
281701.1               -0.152972       0.0102618      0.000972818     0.000413624        -0.615766       -0.767236     -0.000667013     -0.00031497
                     0.000995148     0.000384163        -0.939601      -0.0709189     -0.000461401    -0.000881497      -0.00928598       -0.109089
                       -0.615166       -0.767476     -0.000983089    -0.000727321       -0.0450062        0.144849      0.000429068     0.000823856
                    -0.000818949    -0.000309776      -0.00965363       -0.109304     -0.000589978      0.00121032        -0.635957       -0.681019
281701.2               -0.152967       0.0102636      0.000972848     0.000413576        -0.615791       -0.767217     -0.000667053    -0.000314938
                     0.000994363     0.000384237        -0.939601       -0.070848     -0.000461385    -0.000881302      -0.00926713       -0.109146
                       -0.615188       -0.767454     -0.000983165    -0.000727237       -0.0449979        0.144845      0.000429184     0.000823801
                    -0.000820923    -0.000307684       -0.0096348        -0.10936     -0.000589519      0.00121079        -0.636026       -0.680949
281701.3               -0.152961       0.0102655      0.000972877     0.000413527        -0.615815       -0.767198     -0.000667092    -0.000314905
                     0.000993564     0.000384305        -0.939602      -0.0707772     -0.000461368    -0.000881108       -0.0092483       -0.109202
                        -0.61521       -0.767433      -0.00098324    -0.000727153       -0.0449895        0.144842      0.000429301     0.000823746
                    -0.000822872    -0.000305595      -0.00961599       -0.109416      -0.00058906      0.00121125        -0.636094       -0.680879
281701.4               -0.152955       0.0102673      0.000972907     0.000413479        -0.615839       -0.767179     -0.000667132    -0.000314873
                     0.000992751     0.000384368        -0.939602      -0.0707064     -0.000461352    -0.000880915      -0.00922947       -0.109258
                       -0.615232       -0.767412     -0.000983316    -0.000727069       -0.0449812        0.144838      0.000429417     0.000823691
                    -0.000824795     -0.00030351      -0.00959718       -0.109472     -0.000588603      0.00121171        -0.636162       -0.680809
281701.5               -0.152949       0.0102692      0.000972937     0.000413431        -0.615863       -0.767161     -0.000667171    -0.000314841
                     0.000991923     0.000384424        -0.939602      -0.0706355     -0.000461335    -0.000880722      -0.00921066       -0.109314
                       -0.615254       -0.767391     -0.000983391    -0.000726985       -0.0449729        0.144835      0.000429533     0.000823636
                    -0.000826694    -0.000301428      -0.00957839       -0.109528     -0.000588145      0.00121217        -0.636231       -0.680739
281701.6               -0.152943        0.010271      0.000972967     0.000413383        -0.615888       -0.767142     -0.000667211    -0.000314809
                     0.000991081     0.000384473        -0.939602      -0.0705647     -0.000461319    -0.000880531      -0.00919186        -0.10937
                       -0.615276        -0.76737     -0.000983466    -0.000726901       -0.0449646        0.144832       0.00042965     0.000823581
                    -0.000828568    -0.000299351       -0.0095596       -0.109584     -0.000587689      0.00121263        -0.636299       -0.680669
281701.7               -0.152937       0.0102729      0.000972997     0.000413335        -0.615912       -0.767123     -0.000667251    -0.000314776
                     0.000990224     0.000384516        -0.939602      -0.0704939     -0.000461303     -0.00088034      -0.00917307       -0.109426
                       -0.615298       -0.767349     -0.000983542    -0.000726816       -0.0449562        0.144828      0.000429766     0.000823526
                    -0.000830417    -0.000297279      -0.00954083        -0.10964     -0.000587233      0.00121309        -0.636367       -0.680599
281701.8               -0.152931       0.0102747      0.000973027     0.000413286        -0.615936       -0.767105      -0.00066729    -0.000314744
                     0.000989352      0.00038455        -0.939602      -0.0704231     -0.000461286    -0.000880149      -0.00915429       -0.109482
                        -0.61532       -0.767328     -0.000983617    -0.000726732       -0.0449479        0.144825      0.000429882     0.000823471
                    -0.000832243    -0.000295211      -0.00952207       -0.109696     -0.000586778      0.00121354        -0.636435       -0.680529
281701.9               -0.152925       0.0102766      0.000973056     0.000413238         -0.61596       -0.767086      -0.00066733    -0.000314712
                     0.000988465     0.000384577        -0.939602      -0.0703522      -0.00046127     -0.00087996      -0.00913552       -0.109538
                       -0.615343       -0.767307     -0.000983693    -0.000726648       -0.0449396        0.144822      0.000429998     0.000823416
                    -0.000834044    -0.000293147      -0.00950332       -0.109752     -0.000586324      0.00121399        -0.636504       -0.680459
281702                  -0.15292       0.0102785      0.000973086      0.00041319        -0.615985       -0.767067      -0.00066737     -0.00031468
                     0.000987561     0.000384596        -0.939602      -0.0702814     -0.000461254    -0.000879771      -0.00911677       -0.109594
                       -0.615365       -0.767286     -0.000983768    -0.000726564       -0.0449312        0.144818      0.000430114     0.000823361
                    -0.000835821     -0.00029109      -0.00948458       -0.109808      -0.00058587      0.00121444        -0.636572       -0.680389
281702.1               -0.152914       0.0102803      0.000973116     0.000413142        -0.616009       -0.767049      -0.00066741    -0.000314648
                     0.000986642     0.000384605        -0.939602      -0.0702106     -0.000461238    -0.000879583      -0.00909802        -0.10965
                       -0.615387       -0.767265     -0.000983844    -0.000726479       -0.0449229        0.144815       0.00043023     0.000823306
                    -0.000837575    -0.000289037      -0.00946585       -0.109864     -0.000585418      0.00121489         -0.63664       -0.680319
281702.2               -0.152908       0.0102822      0.000973146     0.000413094        -0.616033        -0.76703     -0.000667449    -0.000314615
                     0.000985707     0.000384606        -0.939603      -0.0701398     -0.000461223    -0.000879396      -0.00907929       -0.109706
                       -0.615409       -0.767244     -0.000983919    -0.000726395       -0.0449146        0.144812      0.000430346     0.000823251
                    -0.000839306     -0.00028699      -0.00944713        -0.10992     -0.000584966      0.00121533        -0.636708       -0.680249
281702.3               -0.152902        0.010284      0.000973176     0.000413045        -0.616057       -0.767011     -0.000667489    -0.000314583
                     0.000984755     0.000384596        -0.939603       -0.070069     -0.000461207     -0.00087921      -0.00906057       -0.109762
                       -0.615432       -0.767223     -0.000983994    -0.000726311       -0.0449063        0.144808      0.000430462     0.000823196
                    -0.000841014    -0.000284949      -0.00942842       -0.109976     -0.000584515      0.00121578        -0.636777       -0.680179
281702.4               -0.152896       0.0102859      0.000973205     0.000412997        -0.616082       -0.766992     -0.000667529    -0.000314551
                     0.000983786     0.000384576        -0.939603      -0.0699981     -0.000461192    -0.000879024      -0.00904186       -0.109819
                       -0.615454       -0.767202      -0.00098407    -0.000726226       -0.0448979        0.144805      0.000430578     0.000823141
                    -0.000842699    -0.000282913      -0.00940973       -0.110032     -0.000584064      0.00121622        -0.636845       -0.680109
281702.5                -0.15289       0.0102877      0.000973235     0.000412949        -0.616106       -0.766974     -0.000667569    -0.000314519
                       0.0009828     0.000384545        -0.939603      -0.0699273     -0.000461176     -0.00087884      -0.00902316       -0.109875
                       -0.615476       -0.767181     -0.000984145    -0.000726142       -0.0448896        0.144801      0.000430693     0.000823085
                    -0.000844361    -0.000280884      -0.00939104       -0.110088     -0.000583615      0.00121665        -0.636913       -0.680039
281702.6               -0.152884       0.0102896      0.000973265     0.000412901         -0.61613       -0.766955     -0.000667609    -0.000314487
                     0.000981797     0.000384503        -0.939603      -0.0698565     -0.000461161    -0.000878656      -0.00900447       -0.109931
                       -0.615499       -0.767161      -0.00098422    -0.000726057       -0.0448813        0.144798      0.000430809      0.00082303
                    -0.000846002    -0.000278861      -0.00937237       -0.110144     -0.000583166      0.00121709        -0.636981       -0.679969
281702.7               -0.152879       0.0102914      0.000973294     0.000412853        -0.616154       -0.766936     -0.000667649    -0.000314455
                     0.000980776     0.000384448        -0.939603      -0.0697857     -0.000461146    -0.000878472      -0.00898579       -0.109987
                       -0.615521        -0.76714     -0.000984296    -0.000725973        -0.044873        0.144795      0.000430925     0.000822975
                     -0.00084762    -0.000276845      -0.00935371         -0.1102     -0.000582719      0.00121752        -0.637049       -0.679899
281702.8               -0.152873       0.0102933      0.000973324     0.000412805        -0.616179       -0.766918     -0.000667689    -0.000314423
                     0.000979737     0.000384381        -0.939603      -0.0697149     -0.000461131     -0.00087829      -0.00896712       -0.110043
                       -0.615543       -0.767119     -0.000984371    -0.000725888       -0.0448647        0.144791       0.00043104     0.000822919
                    -0.000849217    -0.000274836      -0.00933505       -0.110256     -0.000582272      0.00121795        -0.637117       -0.679829
281702.9               -0.152867       0.0102951      0.000973354     0.000412757        -0.616203       -0.766899     -0.000667729    -0.000314391
                      0.00097868       0.0003843        -0.939603      -0.0696441     -0.000461116    -0.000878109      -0.00894847       -0.110099
                       -0.615566       -0.767099     -0.000984446    -0.000725804       -0.0448563        0.144788      0.000431156     0.000822864
                    -0.000850792    -0.000272833      -0.00931641       -0.110312     -0.000581826      0.00121838        -0.637185       -0.679759
281703                 -0.152861        0.010297      0.000973384     0.000412709        -0.616227        -0.76688     -0.000667769    -0.000314359
                     0.000977605     0.000384205        -0.939603      -0.0695733     -0.000461101    -0.000877928      -0.00892982       -0.110155
                       -0.615588       -0.767078     -0.000984522    -0.000725719        -0.044848        0.144785      0.000431271     0.000822809
                    -0.000852345    -0.000270837      -0.00929778       -0.110368     -0.000581381      0.00121881        -0.637254       -0.679689
281703.1               -0.152855       0.0102988      0.000973413      0.00041266        -0.616251       -0.766861     -0.000667809    -0.000314327
                     0.000976511     0.000384096        -0.939603      -0.0695025     -0.000461087    -0.000877748      -0.00891119       -0.110211
                       -0.615611       -0.767057     -0.000984597    -0.000725635       -0.0448397        0.144781      0.000431386     0.000822753
