! TOUCHSTONE file generated by CST MICROWAVE STUDIO
! Date and time: Wed Oct  8 06:58:52 2025
! Project name: Teste_Macro_Metasurface_Nanopilar.cst
! Parameters = {H=600; L_x=135; L_y=195; Lambda=1064; Max_L=200; Min_L=70; PathPara=1; Phi=0; Step_L=10; Theta=0; p=520; phaseX=180; phaseY=0}
! Header version: 2018
! Port assignment regex: !\s*Touchstone port\s*([0-9]+)\s*=\s*(CST MWS port|CST DS port)\s*([0-9]+|Zmin|Zmax)\s*\(\"(.*)\"\)(\s*mode\s*([0-9]+))?.*
! Touchstone port assignment:
! Touchstone port 1 = CST MWS port Zmax ("") mode 1
! Touchstone port 2 = CST MWS port Zmax ("") mode 2
! Touchstone port 3 = CST MWS port Zmin ("") mode 1
! Touchstone port 4 = CST MWS port Zmin ("") mode 2
! S-Parameters are not renormalized. Each port impedance will be approximated by the real part at minimum frequency. The values are described via the [Reference] keyword.
! Default impedance is overridden by [Reference]
[Version] 2.0
# GHz S RI R 376.73
[Number of Ports] 4
[Reference]
376.73 376.73 376.73 376.73 
[Number of Frequencies] 1001
[Network Data]
281700               -0.00951554       -0.024275      0.000363981    -0.000278156         -0.99205      -0.0779613     -0.000460581     0.000291522
                     0.000367502    -0.000470468        -0.480775        0.307089     -0.000412983     0.000477012        -0.304869        -0.72787
                       -0.991869      -0.0779548     -0.000402728      0.00045122       0.00791556      -0.0242778      0.000592214    -0.000172338
                    -0.000497671     0.000269205        -0.305367       -0.727726      0.000525665    -0.000259498        -0.559702       0.0637718
281700.1             -0.00951577      -0.0242817      0.000363965    -0.000278193        -0.992052      -0.0779313     -0.000460572     0.000291565
                     0.000367474    -0.000470507        -0.480743        0.307098     -0.000412972     0.000477033        -0.304914       -0.727871
                       -0.991872      -0.0779249     -0.000402717     0.000451239       0.00791543       -0.024285      0.000592211    -0.000172365
                    -0.000497666      0.00026925        -0.305412       -0.727727      0.000525658    -0.000259522        -0.559677       0.0638065
281700.2             -0.00951601      -0.0242885      0.000363949     -0.00027823        -0.992054      -0.0779013     -0.000460564     0.000291609
                     0.000367445    -0.000470545        -0.480711        0.307108      -0.00041296     0.000477053        -0.304958       -0.727872
                       -0.991874      -0.0778949     -0.000402707     0.000451258        0.0079153      -0.0242923      0.000592207    -0.000172392
                    -0.000497661     0.000269296        -0.305456       -0.727729       0.00052565    -0.000259545        -0.559652       0.0638411
281700.3             -0.00951624      -0.0242952      0.000363934    -0.000278267        -0.992056      -0.0778712     -0.000460555     0.000291652
                     0.000367417    -0.000470584        -0.480679        0.307118     -0.000412948     0.000477074        -0.305002       -0.727873
                       -0.991876      -0.0778649     -0.000402697     0.000451277       0.00791517      -0.0242995      0.000592203    -0.000172418
                    -0.000497656     0.000269341          -0.3055        -0.72773      0.000525642    -0.000259569        -0.559627       0.0638757
281700.4             -0.00951647       -0.024302      0.000363918    -0.000278304        -0.992059      -0.0778412     -0.000460547     0.000291695
                     0.000367389    -0.000470623        -0.480647        0.307127     -0.000412936     0.000477095        -0.305047       -0.727875
                       -0.991878      -0.0778349     -0.000402687     0.000451296       0.00791504      -0.0243067        0.0005922    -0.000172445
                    -0.000497651     0.000269386        -0.305545       -0.727731      0.000525635    -0.000259592        -0.559601       0.0639103
281700.5             -0.00951671      -0.0243088      0.000363902    -0.000278341        -0.992061      -0.0778112     -0.000460539     0.000291739
                     0.000367361    -0.000470661        -0.480614        0.307137     -0.000412925     0.000477115        -0.305091       -0.727876
                        -0.99188      -0.0778049     -0.000402676     0.000451315       0.00791491       -0.024314      0.000592196    -0.000172472
                    -0.000497646     0.000269431        -0.305589       -0.727732      0.000525627    -0.000259616        -0.559576       0.0639448
281700.6             -0.00951695      -0.0243155      0.000363887    -0.000278378        -0.992063      -0.0777812      -0.00046053     0.000291782
                     0.000367332      -0.0004707        -0.480582        0.307147     -0.000412913     0.000477136        -0.305136       -0.727877
                       -0.991882      -0.0777749     -0.000402666     0.000451334       0.00791478      -0.0243212      0.000592193    -0.000172498
                    -0.000497641     0.000269477        -0.305634       -0.727733      0.000525619    -0.000259639        -0.559551       0.0639794
281700.7             -0.00951718      -0.0243223      0.000363871    -0.000278414        -0.992065      -0.0777512     -0.000460522     0.000291825
                     0.000367304    -0.000470738         -0.48055        0.307156     -0.000412901     0.000477157         -0.30518       -0.727878
                       -0.991885      -0.0777449     -0.000402656     0.000451352       0.00791465      -0.0243284      0.000592189    -0.000172525
                    -0.000497636     0.000269522        -0.305678       -0.727734      0.000525612    -0.000259663        -0.559526        0.064014
281700.8             -0.00951742       -0.024329      0.000363855    -0.000278451        -0.992067      -0.0777212     -0.000460513     0.000291869
                     0.000367276    -0.000470777        -0.480518        0.307166     -0.000412889     0.000477177        -0.305225       -0.727879
                       -0.991887      -0.0777149     -0.000402646     0.000451371       0.00791452      -0.0243357      0.000592185    -0.000172552
                    -0.000497631     0.000269567        -0.305723       -0.727735      0.000525604    -0.000259686        -0.559501       0.0640486
281700.9             -0.00951766      -0.0243358      0.000363839    -0.000278488        -0.992069      -0.0776912     -0.000460505     0.000291912
                     0.000367248    -0.000470816        -0.480486        0.307176     -0.000412877     0.000477198        -0.305269        -0.72788
                       -0.991889      -0.0776849     -0.000402636      0.00045139       0.00791439      -0.0243429      0.000592182    -0.000172578
                    -0.000497626     0.000269612        -0.305767       -0.727736      0.000525596     -0.00025971        -0.559475       0.0640832
281701               -0.00951789      -0.0243425      0.000363824    -0.000278525        -0.992072      -0.0776612     -0.000460496     0.000291955
                     0.000367219    -0.000470854        -0.480454        0.307185     -0.000412866     0.000477219        -0.305313       -0.727881
                       -0.991891      -0.0776549     -0.000402625     0.000451409       0.00791426      -0.0243501      0.000592178    -0.000172605
                    -0.000497621     0.000269658        -0.305811       -0.727737      0.000525589    -0.000259734         -0.55945       0.0641177
281701.1             -0.00951813      -0.0243493      0.000363808    -0.000278562        -0.992074      -0.0776312     -0.000460488     0.000291999
                     0.000367191    -0.000470893        -0.480422        0.307195     -0.000412854     0.000477239        -0.305358       -0.727882
                       -0.991893      -0.0776249     -0.000402615     0.000451428       0.00791413      -0.0243574      0.000592175    -0.000172632
                    -0.000497616     0.000269703        -0.305856       -0.727739      0.000525581    -0.000259757        -0.559425       0.0641523
281701.2             -0.00951837       -0.024356      0.000363792    -0.000278599        -0.992076      -0.0776012     -0.000460479     0.000292042
                     0.000367163    -0.000470931         -0.48039        0.307204     -0.000412842      0.00047726        -0.305402       -0.727884
                       -0.991896       -0.077595     -0.000402605     0.000451447       0.00791399      -0.0243646      0.000592171    -0.000172658
                    -0.000497611     0.000269748          -0.3059        -0.72774      0.000525573    -0.000259781          -0.5594       0.0641869
281701.3             -0.00951861      -0.0243628      0.000363777    -0.000278635        -0.992078      -0.0775712     -0.000460471     0.000292085
                     0.000367135     -0.00047097        -0.480357        0.307214      -0.00041283     0.000477281        -0.305447       -0.727885
                       -0.991898       -0.077565     -0.000402595     0.000451466       0.00791386      -0.0243718      0.000592167    -0.000172685
                    -0.000497606     0.000269793        -0.305945       -0.727741      0.000525566    -0.000259804        -0.559374       0.0642214
281701.4             -0.00951885      -0.0243695      0.000363761    -0.000278672         -0.99208      -0.0775412     -0.000460462     0.000292129
                     0.000367106    -0.000471009        -0.480325        0.307224     -0.000412818     0.000477301        -0.305491       -0.727886
                         -0.9919       -0.077535     -0.000402585     0.000451484       0.00791373      -0.0243791      0.000592164    -0.000172711
                    -0.000497601     0.000269839        -0.305989       -0.727742      0.000525558    -0.000259828        -0.559349        0.064256
281701.5             -0.00951908      -0.0243763      0.000363745    -0.000278709        -0.992082      -0.0775112     -0.000460454     0.000292172
                     0.000367078    -0.000471047        -0.480293        0.307233     -0.000412807     0.000477322        -0.305536       -0.727887
                       -0.991902       -0.077505     -0.000402574     0.000451503       0.00791359      -0.0243863       0.00059216    -0.000172738
                    -0.000497596     0.000269884        -0.306033       -0.727743       0.00052555    -0.000259851        -0.559324       0.0642905
281701.6             -0.00951932       -0.024383      0.000363729    -0.000278746        -0.992085      -0.0774811     -0.000460446     0.000292215
                      0.00036705    -0.000471086        -0.480261        0.307243     -0.000412795     0.000477343         -0.30558       -0.727888
                       -0.991904       -0.077475     -0.000402564     0.000451522       0.00791346      -0.0243935      0.000592156    -0.000172765
                    -0.000497592     0.000269929        -0.306078       -0.727744      0.000525543    -0.000259875        -0.559299        0.064325
281701.7             -0.00951956      -0.0243898      0.000363714    -0.000278782        -0.992087      -0.0774511     -0.000460437     0.000292258
                     0.000367022    -0.000471124        -0.480229        0.307253     -0.000412783     0.000477363        -0.305624       -0.727889
                       -0.991906       -0.077445     -0.000402554     0.000451541       0.00791332      -0.0244008      0.000592153    -0.000172791
                    -0.000497587     0.000269974        -0.306122       -0.727745      0.000525535    -0.000259898        -0.559274       0.0643596
281701.8              -0.0095198      -0.0243966      0.000363698    -0.000278819        -0.992089      -0.0774211     -0.000460429     0.000292302
                     0.000366994    -0.000471163        -0.480197        0.307262     -0.000412771     0.000477384        -0.305669        -0.72789
                       -0.991909       -0.077415     -0.000402544      0.00045156       0.00791319       -0.024408      0.000592149    -0.000172818
                    -0.000497582     0.000270019        -0.306167       -0.727746      0.000525527    -0.000259922        -0.559248       0.0643941
281701.9             -0.00952005      -0.0244033      0.000363682    -0.000278856        -0.992091      -0.0773911      -0.00046042     0.000292345
                     0.000366965    -0.000471201        -0.480165        0.307272     -0.000412759     0.000477405        -0.305713       -0.727891
                       -0.991911       -0.077385     -0.000402534     0.000451579       0.00791305      -0.0244153      0.000592146    -0.000172845
                    -0.000497577     0.000270064        -0.306211       -0.727747       0.00052552    -0.000259946        -0.559223       0.0644286
281702               -0.00952029      -0.0244101      0.000363666    -0.000278893        -0.992093      -0.0773611     -0.000460412     0.000292388
                     0.000366937     -0.00047124        -0.480133        0.307281     -0.000412748     0.000477425        -0.305758       -0.727892
                       -0.991913       -0.077355     -0.000402523     0.000451598       0.00791292      -0.0244225      0.000592142    -0.000172871
                    -0.000497572      0.00027011        -0.306256       -0.727748      0.000525512    -0.000259969        -0.559198       0.0644631
281702.1             -0.00952053      -0.0244168      0.000363651    -0.000278929        -0.992095      -0.0773311     -0.000460403     0.000292432
                     0.000366909    -0.000471278        -0.480101        0.307291     -0.000412736     0.000477446        -0.305802       -0.727893
                       -0.991915       -0.077325     -0.000402513     0.000451616       0.00791278      -0.0244297      0.000592138    -0.000172898
                    -0.000497567     0.000270155          -0.3063       -0.727749      0.000525504    -0.000259993        -0.559173       0.0644977
281702.2             -0.00952077      -0.0244236      0.000363635    -0.000278966        -0.992098      -0.0773011     -0.000460395     0.000292475
                     0.000366881    -0.000471317        -0.480068        0.307301     -0.000412724     0.000477467        -0.305846       -0.727894
                       -0.991917       -0.077295     -0.000402503     0.000451635       0.00791264       -0.024437      0.000592135    -0.000172925
                    -0.000497562       0.0002702        -0.306344        -0.72775      0.000525496    -0.000260016        -0.559147       0.0645322
281702.3             -0.00952101      -0.0244303      0.000363619    -0.000279003          -0.9921      -0.0772711     -0.000460386     0.000292518
                     0.000366852    -0.000471355        -0.480036         0.30731     -0.000412712     0.000477487        -0.305891       -0.727895
                       -0.991919       -0.077265     -0.000402493     0.000451654        0.0079125      -0.0244442      0.000592131    -0.000172951
                    -0.000497557     0.000270245        -0.306389       -0.727751      0.000525489     -0.00026004        -0.559122       0.0645667
281702.4             -0.00952126      -0.0244371      0.000363603     -0.00027904        -0.992102      -0.0772411     -0.000460378     0.000292561
                     0.000366824    -0.000471394        -0.480004         0.30732       -0.0004127     0.000477508        -0.305935       -0.727897
                       -0.991922      -0.0772351     -0.000402483     0.000451673       0.00791236      -0.0244514      0.000592127    -0.000172978
                    -0.000497552      0.00027029        -0.306433       -0.727752      0.000525481    -0.000260064        -0.559097       0.0646012
281702.5              -0.0095215      -0.0244438      0.000363588    -0.000279076        -0.992104      -0.0772111     -0.000460369     0.000292605
                     0.000366796    -0.000471432        -0.479972         0.30733     -0.000412689     0.000477529         -0.30598       -0.727898
                       -0.991924      -0.0772051     -0.000402472     0.000451692       0.00791223      -0.0244587      0.000592124    -0.000173004
                    -0.000497547     0.000270335        -0.306478       -0.727753      0.000525473    -0.000260087        -0.559072       0.0646357
281702.6             -0.00952174      -0.0244506      0.000363572    -0.000279113        -0.992106      -0.0771811     -0.000460361     0.000292648
                     0.000366768    -0.000471471         -0.47994        0.307339     -0.000412677     0.000477549        -0.306024       -0.727899
                       -0.991926      -0.0771751     -0.000402462     0.000451711       0.00791209      -0.0244659       0.00059212    -0.000173031
                    -0.000497542     0.000270381        -0.306522       -0.727755      0.000525466    -0.000260111        -0.559046       0.0646702
281702.7             -0.00952199      -0.0244573      0.000363556     -0.00027915        -0.992108      -0.0771511     -0.000460352     0.000292691
                      0.00036674    -0.000471509        -0.479908        0.307349     -0.000412665      0.00047757        -0.306069         -0.7279
                       -0.991928      -0.0771451     -0.000402452      0.00045173       0.00791195      -0.0244731      0.000592117    -0.000173058
                    -0.000497537     0.000270426        -0.306566       -0.727756      0.000525458    -0.000260134        -0.559021       0.0647046
281702.8             -0.00952223      -0.0244641       0.00036354    -0.000279187        -0.992111      -0.0771211     -0.000460344     0.000292735
                     0.000366711    -0.000471548        -0.479876        0.307358     -0.000412653     0.000477591        -0.306113       -0.727901
                        -0.99193      -0.0771151     -0.000402442     0.000451748       0.00791181      -0.0244804      0.000592113    -0.000173084
                    -0.000497532     0.000270471        -0.306611       -0.727757       0.00052545    -0.000260158        -0.558996       0.0647391
281702.9             -0.00952248      -0.0244708      0.000363525    -0.000279223        -0.992113       -0.077091     -0.000460335     0.000292778
                     0.000366683    -0.000471586        -0.479844        0.307368     -0.000412641     0.000477611        -0.306157       -0.727902
                       -0.991932      -0.0770851     -0.000402431     0.000451767       0.00791167      -0.0244876      0.000592109    -0.000173111
                    -0.000497527     0.000270516        -0.306655       -0.727758      0.000525443    -0.000260182        -0.558971       0.0647736
281703               -0.00952272      -0.0244776      0.000363509     -0.00027926        -0.992115       -0.077061     -0.000460326     0.000292821
                     0.000366655    -0.000471625        -0.479812        0.307378      -0.00041263     0.000477632        -0.306202       -0.727903
                       -0.991935      -0.0770551     -0.000402421     0.000451786       0.00791153      -0.0244948      0.000592106    -0.000173138
                    -0.000497522     0.000270561          -0.3067       -0.727759      0.000525435    -0.000260205        -0.558945       0.0648081
281703.1             -0.00952297      -0.0244844      0.000363493    -0.000279297        -0.992117       -0.077031     -0.000460318     0.000292864
                     0.000366627    -0.000471663         -0.47978        0.307387     -0.000412618     0.000477653        -0.306246       -0.727904
                       -0.991937      -0.0770251     -0.000402411     0.000451805       0.00791138      -0.0245021      0.000592102    -0.000173164
