! TOUCHSTONE file generated by CST MICROWAVE STUDIO
! Date and time: Wed Oct  8 06:51:16 2025
! Project name: Teste_Macro_Metasurface_Nanopilar.cst
! Parameters = {H=600; L_x=75; L_y=95; Lambda=1064; Max_L=200; Min_L=70; PathPara=1; Phi=0; Step_L=10; Theta=0; p=520; phaseX=180; phaseY=0}
! Header version: 2018
! Port assignment regex: !\s*Touchstone port\s*([0-9]+)\s*=\s*(CST MWS port|CST DS port)\s*([0-9]+|Zmin|Zmax)\s*\(\"(.*)\"\)(\s*mode\s*([0-9]+))?.*
! Touchstone port assignment:
! Touchstone port 1 = CST MWS port Zmax ("") mode 1
! Touchstone port 2 = CST MWS port Zmax ("") mode 2
! Touchstone port 3 = CST MWS port Zmin ("") mode 1
! Touchstone port 4 = CST MWS port Zmin ("") mode 2
! S-Parameters are not renormalized. Each port impedance will be approximated by the real part at minimum frequency. The values are described via the [Reference] keyword.
! Default impedance is overridden by [Reference]
[Version] 2.0
# GHz S RI R 376.73
[Number of Ports] 4
[Reference]
376.73 376.73 376.73 376.73 
[Number of Frequencies] 1001
[Network Data]
281700                  0.099174      -0.0489613      0.000191239    -0.000424916        -0.904554        0.409781      0.000215861     0.000165627
                     0.000190806    -0.000443965         0.120636       0.0477048       2.3854e-06     0.000176849        -0.970962        0.198929
                        -0.90459        0.410023      8.89291e-05     0.000191447          -0.1025       0.0425014     -0.000477935    -0.000134127
                     0.000194028     0.000169139        -0.971053        0.198928     -0.000416683     -0.00025311       -0.0923424       0.0913481
281700.1               0.0991701       -0.048966      0.000191225    -0.000424918        -0.904543        0.409805      0.000215867     0.000165622
                     0.000190795    -0.000443968         0.120635       0.0476988       2.3903e-06     0.000176848        -0.970957        0.198955
                       -0.904579        0.410047      8.89377e-05     0.000191439        -0.102498       0.0425008      -0.00047794    -0.000134108
                     0.000194036      0.00016913        -0.971048        0.198954     -0.000416688    -0.000253095       -0.0923392       0.0913471
281700.2               0.0991662      -0.0489708      0.000191211     -0.00042492        -0.904532        0.409829      0.000215874     0.000165617
                     0.000190784     -0.00044397         0.120634       0.0476928       2.3952e-06     0.000176848        -0.970953         0.19898
                       -0.904568        0.410071      8.89462e-05     0.000191431        -0.102497       0.0425002     -0.000477945    -0.000134089
                     0.000194044     0.000169122        -0.971043         0.19898     -0.000416693    -0.000253081       -0.0923361       0.0913461
281700.3               0.0991623      -0.0489756      0.000191197    -0.000424921        -0.904521        0.409854       0.00021588     0.000165612
                     0.000190773    -0.000443973         0.120634       0.0476868       2.4001e-06     0.000176847        -0.970948        0.199006
                       -0.904558        0.410096      8.89547e-05     0.000191424        -0.102496       0.0424996      -0.00047795    -0.000134071
                     0.000194053     0.000169113        -0.971038        0.199006     -0.000416698    -0.000253067       -0.0923329       0.0913452
281700.4               0.0991583      -0.0489804      0.000191183    -0.000424923        -0.904511        0.409878      0.000215886     0.000165607
                     0.000190762    -0.000443976         0.120633       0.0476807        2.405e-06     0.000176846        -0.970943        0.199032
                       -0.904547         0.41012      8.89632e-05     0.000191416        -0.102495       0.0424989     -0.000477955    -0.000134052
                     0.000194061     0.000169105        -0.971033        0.199031     -0.000416704    -0.000253053       -0.0923297       0.0913442
281700.5               0.0991544      -0.0489852      0.000191169    -0.000424925          -0.9045        0.409902      0.000215893     0.000165602
                      0.00019075    -0.000443978         0.120632       0.0476747       2.4099e-06     0.000176846        -0.970938        0.199058
                       -0.904536        0.410144      8.89718e-05     0.000191408        -0.102493       0.0424983      -0.00047796    -0.000134033
                     0.000194069     0.000169096        -0.971028        0.199057     -0.000416709    -0.000253039       -0.0923265       0.0913432
281700.6               0.0991505        -0.04899      0.000191155    -0.000424927        -0.904489        0.409927      0.000215899     0.000165597
                     0.000190739    -0.000443981         0.120631       0.0476687      2.41479e-06     0.000176845        -0.970933        0.199084
                       -0.904525        0.410169      8.89803e-05       0.0001914        -0.102492       0.0424977     -0.000477964    -0.000134015
                     0.000194077     0.000169088        -0.971023        0.199083     -0.000416714    -0.000253025       -0.0923233       0.0913422
281700.7               0.0991466      -0.0489948      0.000191141    -0.000424929        -0.904478        0.409951      0.000215905     0.000165592
                     0.000190728    -0.000443984         0.120631       0.0476626      2.41969e-06     0.000176845        -0.970928        0.199109
                       -0.904514        0.410193      8.89888e-05     0.000191392        -0.102491       0.0424971     -0.000477969    -0.000133996
                     0.000194085     0.000169079        -0.971018        0.199109     -0.000416719     -0.00025301       -0.0923201       0.0913413
281700.8               0.0991426      -0.0489996      0.000191127    -0.000424931        -0.904467        0.409975      0.000215912     0.000165587
                     0.000190717    -0.000443986          0.12063       0.0476566      2.42458e-06     0.000176844        -0.970923        0.199135
                       -0.904503        0.410217      8.89974e-05     0.000191384         -0.10249       0.0424965     -0.000477974    -0.000133977
                     0.000194093      0.00016907        -0.971014        0.199135     -0.000416725    -0.000252996       -0.0923169       0.0913403
281700.9               0.0991387      -0.0490044      0.000191113    -0.000424933        -0.904456            0.41      0.000215918     0.000165582
                     0.000190705    -0.000443989         0.120629       0.0476506      2.42948e-06     0.000176843        -0.970918        0.199161
                       -0.904492        0.410242      8.90059e-05     0.000191377        -0.102488       0.0424959     -0.000477979    -0.000133959
                     0.000194101     0.000169062        -0.971009         0.19916      -0.00041673    -0.000252982       -0.0923137       0.0913393
281701                 0.0991348      -0.0490091      0.000191099    -0.000424935        -0.904445        0.410024      0.000215924     0.000165577
                     0.000190694    -0.000443991         0.120628       0.0476446      2.43437e-06     0.000176843        -0.970913        0.199187
                       -0.904481        0.410266      8.90144e-05     0.000191369        -0.102487       0.0424953     -0.000477984     -0.00013394
                     0.000194109     0.000169053        -0.971004        0.199186     -0.000416735    -0.000252968       -0.0923105       0.0913384
281701.1               0.0991308      -0.0490139      0.000191085    -0.000424937        -0.904434        0.410049      0.000215931     0.000165572
                     0.000190683    -0.000443994         0.120627       0.0476385      2.43927e-06     0.000176842        -0.970909        0.199213
                       -0.904471         0.41029      8.90229e-05     0.000191361        -0.102486       0.0424946     -0.000477989    -0.000133921
                     0.000194117     0.000169045        -0.970999        0.199212      -0.00041674    -0.000252954       -0.0923073       0.0913374
281701.2               0.0991269      -0.0490187      0.000191071    -0.000424939        -0.904424        0.410073      0.000215937     0.000165567
                     0.000190672    -0.000443997         0.120627       0.0476325      2.44416e-06     0.000176842        -0.970904        0.199238
                        -0.90446        0.410315      8.90314e-05     0.000191353        -0.102484        0.042494     -0.000477994    -0.000133903
                     0.000194125     0.000169036        -0.970994        0.199238     -0.000416746    -0.000252939       -0.0923041       0.0913364
281701.3                0.099123      -0.0490235      0.000191057    -0.000424941        -0.904413        0.410097      0.000215943     0.000165562
                     0.000190661    -0.000443999         0.120626       0.0476265      2.44905e-06     0.000176841        -0.970899        0.199264
                       -0.904449        0.410339        8.904e-05     0.000191345        -0.102483       0.0424934     -0.000477999    -0.000133884
                     0.000194133     0.000169028        -0.970989        0.199264     -0.000416751    -0.000252925       -0.0923009       0.0913355
281701.4               0.0991191      -0.0490283      0.000191043    -0.000424943        -0.904402        0.410122       0.00021595     0.000165557
                     0.000190649    -0.000444002         0.120625       0.0476205      2.45395e-06      0.00017684        -0.970894         0.19929
                       -0.904438        0.410363      8.90485e-05     0.000191337        -0.102482       0.0424928     -0.000478003    -0.000133865
                     0.000194142     0.000169019        -0.970984        0.199289     -0.000416756    -0.000252911       -0.0922978       0.0913345
281701.5               0.0991151      -0.0490331      0.000191029    -0.000424945        -0.904391        0.410146      0.000215956     0.000165552
                     0.000190638    -0.000444005         0.120624       0.0476144      2.45884e-06      0.00017684        -0.970889        0.199316
                       -0.904427        0.410388       8.9057e-05      0.00019133        -0.102481       0.0424922     -0.000478008    -0.000133847
                      0.00019415     0.000169011        -0.970979        0.199315     -0.000416761    -0.000252897       -0.0922946       0.0913335
281701.6               0.0991112      -0.0490379      0.000191015    -0.000424947         -0.90438         0.41017      0.000215963     0.000165547
                     0.000190627    -0.000444007         0.120623       0.0476084      2.46373e-06     0.000176839        -0.970884        0.199342
                       -0.904416        0.410412      8.90655e-05     0.000191322        -0.102479       0.0424916     -0.000478013    -0.000133828
                     0.000194158     0.000169002        -0.970974        0.199341     -0.000416767    -0.000252883       -0.0922914       0.0913326
281701.7               0.0991073      -0.0490426      0.000191001    -0.000424949        -0.904369        0.410195      0.000215969     0.000165542
                     0.000190616     -0.00044401         0.120623       0.0476024      2.46862e-06     0.000176839        -0.970879        0.199367
                       -0.904405        0.410436       8.9074e-05     0.000191314        -0.102478        0.042491     -0.000478018    -0.000133809
                     0.000194166     0.000168993        -0.970969        0.199367     -0.000416772    -0.000252869       -0.0922882       0.0913316
281701.8               0.0991033      -0.0490474      0.000190987    -0.000424951        -0.904358        0.410219      0.000215975     0.000165537
                     0.000190604    -0.000444012         0.120622       0.0475963      2.47351e-06     0.000176838        -0.970874        0.199393
                       -0.904394        0.410461      8.90826e-05     0.000191306        -0.102477       0.0424903     -0.000478023     -0.00013379
                     0.000194174     0.000168985        -0.970965        0.199393     -0.000416777    -0.000252854        -0.092285       0.0913306
281701.9               0.0990994      -0.0490522      0.000190972    -0.000424953        -0.904347        0.410243      0.000215982     0.000165532
                     0.000190593    -0.000444015         0.120621       0.0475903       2.4784e-06     0.000176837        -0.970869        0.199419
                       -0.904384        0.410485      8.90911e-05     0.000191298        -0.102476       0.0424897     -0.000478028    -0.000133772
                     0.000194182     0.000168976         -0.97096        0.199418     -0.000416782     -0.00025284       -0.0922818       0.0913297
281702                 0.0990955       -0.049057      0.000190958    -0.000424955        -0.904337        0.410268      0.000215988     0.000165526
                     0.000190582    -0.000444018          0.12062       0.0475843      2.48329e-06     0.000176837        -0.970865        0.199445
                       -0.904373        0.410509      8.90996e-05      0.00019129        -0.102474       0.0424891     -0.000478033    -0.000133753
                      0.00019419     0.000168968        -0.970955        0.199444     -0.000416788    -0.000252826       -0.0922786       0.0913287
281702.1               0.0990916      -0.0490618      0.000190944    -0.000424957        -0.904326        0.410292      0.000215994     0.000165521
                     0.000190571     -0.00044402          0.12062       0.0475783      2.48817e-06     0.000176836         -0.97086        0.199471
                       -0.904362        0.410534      8.91081e-05     0.000191282        -0.102473       0.0424885     -0.000478037    -0.000133734
                     0.000194198     0.000168959         -0.97095         0.19947     -0.000416793    -0.000252812       -0.0922754       0.0913277
281702.2               0.0990876      -0.0490666       0.00019093    -0.000424959        -0.904315        0.410316      0.000216001     0.000165516
                      0.00019056    -0.000444023         0.120619       0.0475722      2.49306e-06     0.000176836        -0.970855        0.199496
                       -0.904351        0.410558      8.91166e-05     0.000191275        -0.102472       0.0424879     -0.000478042    -0.000133716
                     0.000194206     0.000168951        -0.970945        0.199496     -0.000416798    -0.000252798       -0.0922722       0.0913268
281702.3               0.0990837      -0.0490714      0.000190916    -0.000424961        -0.904304        0.410341      0.000216007     0.000165511
                     0.000190548    -0.000444026         0.120618       0.0475662      2.49795e-06     0.000176835         -0.97085        0.199522
                        -0.90434        0.410582      8.91252e-05     0.000191267        -0.102471       0.0424873     -0.000478047    -0.000133697
                     0.000194214     0.000168942         -0.97094        0.199522     -0.000416803    -0.000252784        -0.092269       0.0913258
281702.4               0.0990798      -0.0490761      0.000190902    -0.000424963        -0.904293        0.410365      0.000216013     0.000165506
                     0.000190537    -0.000444028         0.120617       0.0475602      2.50283e-06     0.000176834        -0.970845        0.199548
                       -0.904329        0.410607      8.91337e-05     0.000191259        -0.102469       0.0424866     -0.000478052    -0.000133678
                     0.000194222     0.000168933        -0.970935        0.199547     -0.000416809    -0.000252769       -0.0922659       0.0913248
281702.5               0.0990758      -0.0490809      0.000190888    -0.000424965        -0.904282        0.410389       0.00021602     0.000165501
                     0.000190526    -0.000444031         0.120616       0.0475542      2.50772e-06     0.000176834         -0.97084        0.199574
                       -0.904318        0.410631      8.91422e-05     0.000191251        -0.102468        0.042486     -0.000478057     -0.00013366
                      0.00019423     0.000168925         -0.97093        0.199573     -0.000416814    -0.000252755       -0.0922627       0.0913239
281702.6               0.0990719      -0.0490857      0.000190874    -0.000424967        -0.904271        0.410414      0.000216026     0.000165496
                     0.000190515    -0.000444033         0.120616       0.0475481       2.5126e-06     0.000176833        -0.970835        0.199599
                       -0.904307        0.410655      8.91507e-05     0.000191243        -0.102467       0.0424854     -0.000478062    -0.000133641
                     0.000194238     0.000168916        -0.970925        0.199599     -0.000416819    -0.000252741       -0.0922595       0.0913229
281702.7                0.099068      -0.0490905       0.00019086    -0.000424969         -0.90426        0.410438      0.000216032     0.000165491
                     0.000190503    -0.000444036         0.120615       0.0475421      2.51749e-06     0.000176833         -0.97083        0.199625
                       -0.904297         0.41068      8.91592e-05     0.000191235        -0.102466       0.0424848     -0.000478067    -0.000133622
                     0.000194247     0.000168908         -0.97092        0.199625     -0.000416824    -0.000252727       -0.0922563       0.0913219
281702.8                0.099064      -0.0490953      0.000190846    -0.000424971         -0.90425        0.410462      0.000216039     0.000165486
                     0.000190492    -0.000444039         0.120614       0.0475361      2.52237e-06     0.000176832        -0.970825        0.199651
                       -0.904286        0.410704      8.91677e-05     0.000191228        -0.102464       0.0424842     -0.000478071    -0.000133604
                     0.000194255     0.000168899        -0.970915        0.199651      -0.00041683    -0.000252713       -0.0922531       0.0913209
281702.9               0.0990601      -0.0491001      0.000190832    -0.000424973        -0.904239        0.410487      0.000216045     0.000165481
                     0.000190481    -0.000444041         0.120613       0.0475301      2.52726e-06     0.000176831         -0.97082        0.199677
                       -0.904275        0.410728      8.91762e-05      0.00019122        -0.102463       0.0424836     -0.000478076    -0.000133585
                     0.000194263     0.000168891        -0.970911        0.199677     -0.000416835    -0.000252698       -0.0922499         0.09132
281703                 0.0990562      -0.0491049      0.000190818    -0.000424975        -0.904228        0.410511      0.000216051     0.000165476
                      0.00019047    -0.000444044         0.120612        0.047524      2.53214e-06     0.000176831        -0.970816        0.199703
                       -0.904264        0.410753      8.91848e-05     0.000191212        -0.102462        0.042483     -0.000478081    -0.000133566
                     0.000194271     0.000168882        -0.970906        0.199702      -0.00041684    -0.000252684       -0.0922467        0.091319
281703.1               0.0990523      -0.0491096      0.000190804    -0.000424977        -0.904217        0.410535      0.000216058     0.000165471
                     0.000190459    -0.000444046         0.120612        0.047518      2.53702e-06      0.00017683        -0.970811        0.199728
                       -0.904253        0.410777      8.91933e-05     0.000191204         -0.10246       0.0424823     -0.000478086    -0.000133548
