! TOUCHSTONE file generated by CST MICROWAVE STUDIO
! Date and time: Wed Oct  8 06:58:09 2025
! Project name: Teste_Macro_Metasurface_Nanopilar.cst
! Parameters = {H=600; L_x=130; L_y=170; Lambda=1064; Max_L=200; Min_L=70; PathPara=1; Phi=0; Step_L=10; Theta=0; p=520; phaseX=180; phaseY=0}
! Header version: 2018
! Port assignment regex: !\s*Touchstone port\s*([0-9]+)\s*=\s*(CST MWS port|CST DS port)\s*([0-9]+|Zmin|Zmax)\s*\(\"(.*)\"\)(\s*mode\s*([0-9]+))?.*
! Touchstone port assignment:
! Touchstone port 1 = CST MWS port Zmax ("") mode 1
! Touchstone port 2 = CST MWS port Zmax ("") mode 2
! Touchstone port 3 = CST MWS port Zmin ("") mode 1
! Touchstone port 4 = CST MWS port Zmin ("") mode 2
! S-Parameters are not renormalized. Each port impedance will be approximated by the real part at minimum frequency. The values are described via the [Reference] keyword.
! Default impedance is overridden by [Reference]
[Version] 2.0
# GHz S RI R 376.73
[Number of Ports] 4
[Reference]
376.73 376.73 376.73 376.73 
[Number of Frequencies] 1001
[Network Data]
281700                 -0.158286         0.29538     -0.000697768     0.000377292        -0.708624       -0.608937       0.00055098    -0.000454997
                    -0.000201954     0.000340005        -0.152523       0.0108142      0.000466198      -0.0002764        -0.587348        -0.78905
                       -0.708812       -0.608974      0.000602189     -0.00012594        -0.274125        0.190894     -0.000575354      0.00041312
                      0.00068133    -0.000508255        -0.587205       -0.789095      -0.00067097      0.00043737       -0.0556986         0.14098
281700.1               -0.158274        0.295378     -0.000697755     0.000377296        -0.708646       -0.608916      0.000550954     -0.00045501
                    -0.000202119     0.000339394        -0.152517       0.0108167        0.0004662     -0.00027641        -0.587373       -0.789033
                       -0.708833       -0.608954      0.000602163    -0.000125954        -0.274113          0.1909     -0.000575313     0.000413125
                     0.000680643    -0.000508439         -0.58723       -0.789077     -0.000670934     0.000437393       -0.0556905        0.140977
281700.2               -0.158262        0.295376     -0.000697741     0.000377299        -0.708667       -0.608895      0.000550928    -0.000455022
                    -0.000202278     0.000338781        -0.152511       0.0108191      0.000466202     -0.00027642        -0.587398       -0.789015
                       -0.708855       -0.608933      0.000602136    -0.000125967        -0.274101        0.190905     -0.000575272      0.00041313
                     0.000679962    -0.000508646        -0.587255        -0.78906     -0.000670897     0.000437415       -0.0556825        0.140974
281700.3               -0.158251        0.295374     -0.000697727     0.000377303        -0.708689       -0.608874      0.000550902    -0.000455035
                    -0.000202433     0.000338166        -0.152506       0.0108215      0.000466204     -0.00027643        -0.587423       -0.788998
                       -0.708877       -0.608912       0.00060211     -0.00012598        -0.274088        0.190911     -0.000575232     0.000413134
                     0.000679288    -0.000508876         -0.58728       -0.789042     -0.000670861     0.000437438       -0.0556745        0.140972
281700.4               -0.158239        0.295372     -0.000697713     0.000377306         -0.70871       -0.608853      0.000550876    -0.000455048
                    -0.000202583     0.000337549          -0.1525       0.0108239      0.000466206    -0.000276439        -0.587448        -0.78898
                       -0.708899       -0.608892      0.000602083    -0.000125994        -0.274076        0.190916     -0.000575191     0.000413139
                     0.000678622     -0.00050913        -0.587305       -0.789025     -0.000670824      0.00043746       -0.0556665        0.140969
281700.5               -0.158227        0.295371     -0.000697699      0.00037731        -0.708731       -0.608832      0.000550851     -0.00045506
                    -0.000202727     0.000336931        -0.152495       0.0108263      0.000466208    -0.000276449        -0.587473       -0.788962
                        -0.70892       -0.608871      0.000602057    -0.000126008        -0.274063        0.190922      -0.00057515     0.000413144
                     0.000677966    -0.000509405         -0.58733       -0.789007     -0.000670788     0.000437483       -0.0556585        0.140966
281700.6               -0.158215        0.295369     -0.000697685     0.000377313        -0.708753       -0.608811      0.000550825    -0.000455073
                    -0.000202866     0.000336311        -0.152489       0.0108288       0.00046621    -0.000276459        -0.587498       -0.788945
                       -0.708942       -0.608851       0.00060203    -0.000126021        -0.274051        0.190927      -0.00057511     0.000413149
                      0.00067732    -0.000509702        -0.587355        -0.78899     -0.000670752     0.000437506       -0.0556504        0.140964
281700.7               -0.158203        0.295367     -0.000697672     0.000377317        -0.708774        -0.60879      0.000550799    -0.000455085
                    -0.000202999      0.00033569        -0.152484       0.0108312      0.000466212    -0.000276468        -0.587523       -0.788927
                       -0.708964        -0.60883      0.000602004    -0.000126035        -0.274039        0.190933     -0.000575069     0.000413154
                     0.000676687    -0.000510021         -0.58738       -0.788972     -0.000670715     0.000437528       -0.0556424        0.140961
281700.8               -0.158191        0.295365     -0.000697658      0.00037732        -0.708795       -0.608769      0.000550773    -0.000455098
                    -0.000203127     0.000335068        -0.152478       0.0108336      0.000466214    -0.000276478        -0.587548        -0.78891
                       -0.708985       -0.608809      0.000601978    -0.000126049        -0.274026        0.190938     -0.000575028     0.000413159
                     0.000676066     -0.00051036        -0.587405       -0.788954     -0.000670679     0.000437551       -0.0556344        0.140958
281700.9               -0.158179        0.295363     -0.000697644     0.000377324        -0.708817       -0.608748      0.000550747     -0.00045511
                     -0.00020325     0.000334444        -0.152473        0.010836      0.000466216    -0.000276487        -0.587573       -0.788892
                       -0.709007       -0.608789      0.000601951    -0.000126062        -0.274014        0.190944     -0.000574987     0.000413163
                     0.000675459    -0.000510718         -0.58743       -0.788937     -0.000670642     0.000437573       -0.0556264        0.140956
281701                 -0.158167        0.295362      -0.00069763     0.000377327        -0.708838       -0.608727      0.000550721    -0.000455123
                    -0.000203367     0.000333819        -0.152467       0.0108385      0.000466218    -0.000276497        -0.587598       -0.788875
                       -0.709029       -0.608768      0.000601925    -0.000126076        -0.274001        0.190949     -0.000574947     0.000413168
                     0.000674867    -0.000511095        -0.587455       -0.788919     -0.000670606     0.000437596       -0.0556183        0.140953
281701.1               -0.158156         0.29536     -0.000697616     0.000377331         -0.70886       -0.608707      0.000550696    -0.000455135
                    -0.000203479     0.000333192        -0.152462       0.0108409       0.00046622    -0.000276506        -0.587622       -0.788857
                        -0.70905       -0.608748      0.000601898     -0.00012609        -0.273989        0.190955     -0.000574906     0.000413173
                     0.000674291     -0.00051149         -0.58748       -0.788902      -0.00067057     0.000437618       -0.0556103         0.14095
281701.2               -0.158144        0.295358     -0.000697602     0.000377334        -0.708881       -0.608686       0.00055067    -0.000455148
                    -0.000203585     0.000332565        -0.152456       0.0108433      0.000466221    -0.000276516        -0.587647        -0.78884
                       -0.709072       -0.608727      0.000601872    -0.000126104        -0.273977         0.19096     -0.000574865     0.000413178
                     0.000673731    -0.000511902        -0.587505       -0.788884     -0.000670533     0.000437641       -0.0556023        0.140948
281701.3               -0.158132        0.295356     -0.000697588     0.000377338        -0.708902       -0.608665      0.000550644     -0.00045516
                    -0.000203685     0.000331936        -0.152451       0.0108457      0.000466223    -0.000276525        -0.587672       -0.788822
                       -0.709094       -0.608706      0.000601845    -0.000126118        -0.273964        0.190966     -0.000574825     0.000413183
                     0.000673188     -0.00051233        -0.587529       -0.788867     -0.000670497     0.000437663       -0.0555943        0.140945
281701.4                -0.15812        0.295354     -0.000697574     0.000377341        -0.708924       -0.608644      0.000550618    -0.000455173
                     -0.00020378     0.000331307        -0.152445       0.0108481      0.000466225    -0.000276534        -0.587697       -0.788805
                       -0.709115       -0.608686      0.000601819    -0.000126133        -0.273952        0.190971     -0.000574784     0.000413187
                     0.000672663    -0.000512773        -0.587554       -0.788849     -0.000670461     0.000437685       -0.0555862        0.140942
281701.5               -0.158108        0.295353     -0.000697561     0.000377345        -0.708945       -0.608623      0.000550593    -0.000455185
                    -0.000203869     0.000330677        -0.152439       0.0108506      0.000466227    -0.000276544        -0.587722       -0.788787
                       -0.709137       -0.608665      0.000601792    -0.000126147        -0.273939        0.190977     -0.000574743     0.000413192
                     0.000672157     -0.00051323        -0.587579       -0.788831     -0.000670424     0.000437708       -0.0555782         0.14094
281701.6               -0.158096        0.295351     -0.000697547     0.000377348        -0.708967       -0.608602      0.000550567    -0.000455197
                    -0.000203952     0.000330046        -0.152434        0.010853      0.000466228    -0.000276553        -0.587747        -0.78877
                       -0.709159       -0.608645      0.000601766    -0.000126161        -0.273927        0.190982     -0.000574703     0.000413197
                      0.00067167    -0.000513699        -0.587604       -0.788814     -0.000670388      0.00043773       -0.0555702        0.140937
281701.7               -0.158084        0.295349     -0.000697533     0.000377352        -0.708988       -0.608581      0.000550541     -0.00045521
                     -0.00020403     0.000329414        -0.152428       0.0108554       0.00046623    -0.000276562        -0.587772       -0.788752
                        -0.70918       -0.608624       0.00060174    -0.000126175        -0.273915        0.190988     -0.000574662     0.000413202
                     0.000671202     -0.00051418        -0.587629       -0.788796     -0.000670352     0.000437753       -0.0555622        0.140934
281701.8               -0.158072        0.295347     -0.000697519     0.000377355        -0.709009        -0.60856      0.000550515    -0.000455222
                    -0.000204101     0.000328782        -0.152423       0.0108578      0.000466231    -0.000276572        -0.587797       -0.788734
                       -0.709202       -0.608603      0.000601713     -0.00012619        -0.273902        0.190993     -0.000574621     0.000413206
                     0.000670754    -0.000514672        -0.587654       -0.788779     -0.000670315     0.000437775       -0.0555542        0.140932
281701.9               -0.158061        0.295345     -0.000697505     0.000377359        -0.709031       -0.608539      0.000550489    -0.000455235
                    -0.000204167     0.000328149        -0.152417       0.0108602      0.000466233    -0.000276581        -0.587822       -0.788717
                       -0.709224       -0.608583      0.000601687    -0.000126204         -0.27389        0.190999     -0.000574581     0.000413211
                     0.000670325    -0.000515173        -0.587679       -0.788761     -0.000670279     0.000437798       -0.0555461        0.140929
281702                 -0.158049        0.295344     -0.000697491     0.000377362        -0.709052       -0.608518      0.000550464    -0.000455247
                    -0.000204227     0.000327516        -0.152412       0.0108627      0.000466234     -0.00027659        -0.587847       -0.788699
                       -0.709245       -0.608562       0.00060166    -0.000126219        -0.273877        0.191004      -0.00057454     0.000413216
                     0.000669918    -0.000515683        -0.587704       -0.788744     -0.000670243      0.00043782       -0.0555381        0.140926
281702.1               -0.158037        0.295342     -0.000697477     0.000377366        -0.709073       -0.608497      0.000550438     -0.00045526
                    -0.000204281     0.000326883        -0.152406       0.0108651      0.000466236    -0.000276599        -0.587872       -0.788682
                       -0.709267       -0.608542      0.000601634    -0.000126234        -0.273865         0.19101     -0.000574499     0.000413221
                      0.00066953    -0.000516199        -0.587729       -0.788726     -0.000670207     0.000437842       -0.0555301        0.140924
281702.2               -0.158025         0.29534     -0.000697463     0.000377369        -0.709095       -0.608476      0.000550412    -0.000455272
                    -0.000204329     0.000326249        -0.152401       0.0108675      0.000466237    -0.000276608        -0.587897       -0.788664
                       -0.709289       -0.608521      0.000601608    -0.000126248        -0.273853        0.191015     -0.000574459     0.000413225
                     0.000669163    -0.000516722        -0.587754       -0.788709      -0.00067017     0.000437865       -0.0555221        0.140921
281702.3               -0.158013        0.295338     -0.000697449     0.000377373        -0.709116       -0.608455      0.000550386    -0.000455284
                    -0.000204371     0.000325615        -0.152395       0.0108699      0.000466239    -0.000276617        -0.587922       -0.788647
                        -0.70931         -0.6085      0.000601581    -0.000126263         -0.27384        0.191021     -0.000574418      0.00041323
                     0.000668816     -0.00051725        -0.587779       -0.788691     -0.000670134     0.000437887       -0.0555141        0.140918
281702.4               -0.158001        0.295336     -0.000697435     0.000377377        -0.709138       -0.608434      0.000550361    -0.000455297
                    -0.000204407     0.000324981         -0.15239       0.0108723       0.00046624    -0.000276626        -0.587947       -0.788629
                       -0.709332        -0.60848      0.000601555    -0.000126278        -0.273828        0.191026     -0.000574377     0.000413235
                     0.000668489    -0.000517782        -0.587804       -0.788673     -0.000670098     0.000437909        -0.055506        0.140916
281702.5               -0.157989        0.295335     -0.000697421      0.00037738        -0.709159       -0.608413      0.000550335    -0.000455309
                    -0.000204438     0.000324347        -0.152384       0.0108747      0.000466241    -0.000276635        -0.587971       -0.788612
                       -0.709354       -0.608459      0.000601528    -0.000126293        -0.273815        0.191032     -0.000574336     0.000413239
                     0.000668182    -0.000518317        -0.587828       -0.788656     -0.000670062     0.000437932        -0.055498        0.140913
281702.6               -0.157978        0.295333     -0.000697407     0.000377384         -0.70918       -0.608392      0.000550309    -0.000455322
                    -0.000204462     0.000323713        -0.152379       0.0108772      0.000466242    -0.000276644        -0.587996       -0.788594
                       -0.709375       -0.608439      0.000601502    -0.000126308        -0.273803        0.191037     -0.000574296     0.000413244
                     0.000667895    -0.000518854        -0.587853       -0.788638     -0.000670025     0.000437954         -0.05549         0.14091
281702.7               -0.157966        0.295331     -0.000697393     0.000377387        -0.709202       -0.608372      0.000550283    -0.000455334
                     -0.00020448      0.00032308        -0.152373       0.0108796      0.000466244    -0.000276653        -0.588021       -0.788577
                       -0.709397       -0.608418      0.000601476    -0.000126323        -0.273791        0.191043     -0.000574255     0.000413249
                     0.000667628    -0.000519392        -0.587878       -0.788621     -0.000669989     0.000437976        -0.055482        0.140908
281702.8               -0.157954        0.295329     -0.000697379     0.000377391        -0.709223       -0.608351      0.000550258    -0.000455346
                    -0.000204492     0.000322447        -0.152367        0.010882      0.000466245    -0.000276662        -0.588046       -0.788559
                       -0.709419       -0.608397      0.000601449    -0.000126338        -0.273778        0.191048     -0.000574214     0.000413253
                     0.000667379     -0.00051993        -0.587903       -0.788603     -0.000669953     0.000437999        -0.055474        0.140905
281702.9               -0.157942        0.295327     -0.000697365     0.000377394        -0.709244        -0.60833      0.000550232    -0.000455359
                    -0.000204498     0.000321814        -0.152362       0.0108844      0.000466246    -0.000276671        -0.588071       -0.788541
                        -0.70944       -0.608377      0.000601423    -0.000126353        -0.273766        0.191053     -0.000574174     0.000413258
                      0.00066715    -0.000520468        -0.587928       -0.788586     -0.000669917     0.000438021        -0.055466        0.140902
281703                  -0.15793        0.295326     -0.000697352     0.000377398        -0.709266       -0.608309      0.000550206    -0.000455371
                    -0.000204497     0.000321182        -0.152356       0.0108868      0.000466247     -0.00027668        -0.588096       -0.788524
                       -0.709462       -0.608356      0.000601396    -0.000126368        -0.273754        0.191059     -0.000574133     0.000413263
                     0.000666939    -0.000521004        -0.587953       -0.788568     -0.000669881     0.000438043       -0.0554579        0.140899
281703.1               -0.157918        0.295324     -0.000697338     0.000377401        -0.709287       -0.608288       0.00055018    -0.000455384
                    -0.000204491      0.00032055        -0.152351       0.0108892      0.000466248    -0.000276689        -0.588121       -0.788506
                       -0.709484       -0.608335       0.00060137    -0.000126383        -0.273741        0.191064     -0.000574092     0.000413267
