! TOUCHSTONE file generated by CST MICROWAVE STUDIO
! Date and time: Wed Oct  8 06:52:46 2025
! Project name: Teste_Macro_Metasurface_Nanopilar.cst
! Parameters = {H=600; L_x=85; L_y=165; Lambda=1064; Max_L=200; Min_L=70; PathPara=1; Phi=0; Step_L=10; Theta=0; p=520; phaseX=180; phaseY=0}
! Header version: 2018
! Port assignment regex: !\s*Touchstone port\s*([0-9]+)\s*=\s*(CST MWS port|CST DS port)\s*([0-9]+|Zmin|Zmax)\s*\(\"(.*)\"\)(\s*mode\s*([0-9]+))?.*
! Touchstone port assignment:
! Touchstone port 1 = CST MWS port Zmax ("") mode 1
! Touchstone port 2 = CST MWS port Zmax ("") mode 2
! Touchstone port 3 = CST MWS port Zmin ("") mode 1
! Touchstone port 4 = CST MWS port Zmin ("") mode 2
! S-Parameters are not renormalized. Each port impedance will be approximated by the real part at minimum frequency. The values are described via the [Reference] keyword.
! Default impedance is overridden by [Reference]
[Version] 2.0
# GHz S RI R 376.73
[Number of Ports] 4
[Reference]
376.73 376.73 376.73 376.73 
[Number of Frequencies] 1001
[Network Data]
281700                 -0.193468      -0.0815245      0.000400446    -0.000290223        -0.210359       -0.949068      0.000295067     0.000105556
                     0.000413177    -0.000293138       -0.0266068       -0.170434      -0.00040492    -6.70576e-05        -0.579731        0.794096
                       -0.210231       -0.948772     -0.000219342     -4.9692e-05        -0.141713        0.155204     -0.000258515    -0.000437635
                     0.000236017     0.000187217        -0.579713        0.793982     -8.79603e-05    -0.000302157        -0.170578        0.027069
281700.1               -0.193467      -0.0815172      0.000400449    -0.000290249        -0.210388       -0.949062       0.00029507     0.000105547
                     0.000413178    -0.000293166       -0.0266138       -0.170432      -0.00040492    -6.70511e-05        -0.579709        0.794112
                       -0.210261       -0.948766     -0.000219345    -4.96766e-05        -0.141706        0.155206     -0.000258534    -0.000437652
                     0.000236025     0.000187215        -0.579691        0.793998     -8.79809e-05    -0.000302177        -0.170578       0.0270713
281700.2               -0.193466      -0.0815099      0.000400452    -0.000290275        -0.210418       -0.949056      0.000295073     0.000105539
                     0.000413178    -0.000293195       -0.0266208       -0.170431      -0.00040492    -6.70446e-05        -0.579687        0.794128
                       -0.210291        -0.94876     -0.000219349    -4.96612e-05        -0.141699        0.155208     -0.000258553    -0.000437668
                     0.000236033     0.000187213        -0.579669        0.794014     -8.80015e-05    -0.000302196        -0.170577       0.0270737
281700.3               -0.193465      -0.0815026      0.000400455    -0.000290301        -0.210448        -0.94905      0.000295076     0.000105531
                     0.000413179    -0.000293223       -0.0266278        -0.17043      -0.00040492    -6.70381e-05        -0.579665        0.794144
                       -0.210321       -0.948754     -0.000219353    -4.96458e-05        -0.141691         0.15521     -0.000258572    -0.000437684
                     0.000236042     0.000187211        -0.579647         0.79403     -8.80221e-05    -0.000302216        -0.170576       0.0270761
281700.4               -0.193465      -0.0814954      0.000400459    -0.000290327        -0.210478       -0.949045      0.000295079     0.000105523
                      0.00041318    -0.000293251       -0.0266348       -0.170428      -0.00040492    -6.70315e-05        -0.579643         0.79416
                       -0.210351       -0.948748     -0.000219357    -4.96304e-05        -0.141684        0.155211     -0.000258592    -0.000437701
                      0.00023605     0.000187209        -0.579625        0.794046     -8.80427e-05    -0.000302235        -0.170576       0.0270784
281700.5               -0.193464      -0.0814881      0.000400462    -0.000290353        -0.210508       -0.949039      0.000295082     0.000105514
                     0.000413181    -0.000293279       -0.0266418       -0.170427     -0.000404921     -6.7025e-05        -0.579622        0.794176
                       -0.210381       -0.948743     -0.000219361     -4.9615e-05        -0.141677        0.155213     -0.000258611    -0.000437717
                     0.000236058     0.000187207        -0.579603        0.794062     -8.80632e-05    -0.000302255        -0.170575       0.0270808
281700.6               -0.193463      -0.0814808      0.000400465    -0.000290379        -0.210538       -0.949033      0.000295084     0.000105506
                     0.000413182    -0.000293307       -0.0266487       -0.170426     -0.000404921    -6.70185e-05          -0.5796        0.794192
                       -0.210411       -0.948737     -0.000219364    -4.95996e-05        -0.141669        0.155215      -0.00025863    -0.000437733
                     0.000236066     0.000187205        -0.579581        0.794078     -8.80838e-05    -0.000302274        -0.170575       0.0270832
281700.7               -0.193462      -0.0814735      0.000400468    -0.000290405        -0.210568       -0.949027      0.000295087     0.000105498
                     0.000413183    -0.000293335       -0.0266557       -0.170425     -0.000404921     -6.7012e-05        -0.579578        0.794209
                       -0.210441       -0.948731     -0.000219368    -4.95842e-05        -0.141662        0.155217      -0.00025865     -0.00043775
                     0.000236074     0.000187203        -0.579559        0.794094     -8.81044e-05    -0.000302294        -0.170574       0.0270855
281700.8               -0.193461      -0.0814662      0.000400471    -0.000290431        -0.210598       -0.949021       0.00029509     0.000105489
                     0.000413184    -0.000293363       -0.0266627       -0.170423     -0.000404921    -6.70055e-05        -0.579556        0.794225
                       -0.210471       -0.948725     -0.000219372    -4.95688e-05        -0.141654        0.155219     -0.000258669    -0.000437766
                     0.000236082     0.000187201        -0.579537         0.79411      -8.8125e-05    -0.000302313        -0.170573       0.0270879
281700.9               -0.193461      -0.0814589      0.000400474    -0.000290457        -0.210628       -0.949015      0.000295093     0.000105481
                     0.000413184    -0.000293391       -0.0266697       -0.170422     -0.000404921    -6.69989e-05        -0.579534        0.794241
                         -0.2105       -0.948719     -0.000219376    -4.95534e-05        -0.141647        0.155221     -0.000258688    -0.000437783
                      0.00023609     0.000187199        -0.579515        0.794127     -8.81456e-05    -0.000302333        -0.170573       0.0270903
281701                  -0.19346      -0.0814516      0.000400477    -0.000290483        -0.210658        -0.94901      0.000295096     0.000105473
                     0.000413185    -0.000293419       -0.0266767       -0.170421     -0.000404921    -6.69924e-05        -0.579512        0.794257
                        -0.21053       -0.948713      -0.00021938     -4.9538e-05         -0.14164        0.155222     -0.000258708    -0.000437799
                     0.000236098     0.000187197        -0.579493        0.794143     -8.81661e-05    -0.000302352        -0.170572       0.0270927
281701.1               -0.193459      -0.0814443       0.00040048    -0.000290509        -0.210688       -0.949004      0.000295099     0.000105464
                     0.000413186    -0.000293447       -0.0266837       -0.170419     -0.000404921    -6.69859e-05         -0.57949        0.794273
                        -0.21056       -0.948708     -0.000219383    -4.95227e-05        -0.141632        0.155224     -0.000258727    -0.000437815
                     0.000236106     0.000187195        -0.579471        0.794159     -8.81867e-05    -0.000302372        -0.170572        0.027095
281701.2               -0.193458       -0.081437      0.000400483    -0.000290536        -0.210718       -0.948998      0.000295102     0.000105456
                     0.000413187    -0.000293475       -0.0266907       -0.170418     -0.000404921    -6.69794e-05        -0.579468        0.794289
                        -0.21059       -0.948702     -0.000219387    -4.95073e-05        -0.141625        0.155226     -0.000258746    -0.000437832
                     0.000236114     0.000187193        -0.579449        0.794175     -8.82073e-05    -0.000302391        -0.170571       0.0270974
281701.3               -0.193457      -0.0814298      0.000400486    -0.000290562        -0.210748       -0.948992      0.000295104     0.000105448
                     0.000413188    -0.000293503       -0.0266977       -0.170417     -0.000404921    -6.69728e-05        -0.579446        0.794305
                        -0.21062       -0.948696     -0.000219391    -4.94919e-05        -0.141617        0.155228     -0.000258765    -0.000437848
                     0.000236122     0.000187191        -0.579427        0.794191     -8.82279e-05    -0.000302411         -0.17057       0.0270998
281701.4               -0.193457      -0.0814225       0.00040049    -0.000290588        -0.210778       -0.948986      0.000295107     0.000105439
                     0.000413189    -0.000293532       -0.0267047       -0.170415     -0.000404921    -6.69663e-05        -0.579424        0.794321
                        -0.21065        -0.94869     -0.000219395    -4.94765e-05         -0.14161         0.15523     -0.000258785    -0.000437864
                     0.000236131     0.000187189        -0.579405        0.794207     -8.82485e-05     -0.00030243         -0.17057       0.0271021
281701.5               -0.193456      -0.0814152      0.000400493    -0.000290614        -0.210808        -0.94898       0.00029511     0.000105431
                      0.00041319     -0.00029356       -0.0267117       -0.170414     -0.000404921    -6.69598e-05        -0.579402        0.794337
                        -0.21068       -0.948684     -0.000219399    -4.94611e-05        -0.141603        0.155232     -0.000258804    -0.000437881
                     0.000236139     0.000187187        -0.579383        0.794223      -8.8269e-05     -0.00030245        -0.170569       0.0271045
281701.6               -0.193455      -0.0814079      0.000400496     -0.00029064        -0.210838       -0.948975      0.000295113     0.000105423
                      0.00041319    -0.000293588       -0.0267187       -0.170413     -0.000404921    -6.69533e-05         -0.57938        0.794353
                        -0.21071       -0.948678     -0.000219402    -4.94457e-05        -0.141595        0.155234     -0.000258823    -0.000437897
                     0.000236147     0.000187185        -0.579361        0.794239     -8.82896e-05    -0.000302469        -0.170569       0.0271069
281701.7               -0.193454      -0.0814006      0.000400499    -0.000290666        -0.210867       -0.948969      0.000295116     0.000105414
                     0.000413191    -0.000293616       -0.0267257       -0.170412     -0.000404921    -6.69467e-05        -0.579358        0.794369
                        -0.21074       -0.948673     -0.000219406    -4.94302e-05        -0.141588        0.155235     -0.000258843    -0.000437914
                     0.000236155     0.000187183        -0.579339        0.794255     -8.83102e-05    -0.000302489        -0.170568       0.0271092
281701.8               -0.193453      -0.0813933      0.000400502    -0.000290692        -0.210897       -0.948963      0.000295119     0.000105406
                     0.000413192    -0.000293644       -0.0267327        -0.17041     -0.000404921    -6.69402e-05        -0.579336        0.794385
                        -0.21077       -0.948667      -0.00021941    -4.94148e-05         -0.14158        0.155237     -0.000258862     -0.00043793
                     0.000236163     0.000187181        -0.579317        0.794271     -8.83308e-05    -0.000302508        -0.170567       0.0271116
281701.9               -0.193453       -0.081386      0.000400505    -0.000290718        -0.210927       -0.948957      0.000295122     0.000105398
                     0.000413193    -0.000293672       -0.0267397       -0.170409     -0.000404922    -6.69337e-05        -0.579314        0.794401
                         -0.2108       -0.948661     -0.000219414    -4.93994e-05        -0.141573        0.155239     -0.000258881    -0.000437946
                     0.000236171      0.00018718        -0.579295        0.794287     -8.83514e-05    -0.000302528        -0.170567        0.027114
281702                 -0.193452      -0.0813787      0.000400508    -0.000290744        -0.210957       -0.948951      0.000295125      0.00010539
                     0.000413194      -0.0002937       -0.0267467       -0.170408     -0.000404922    -6.69271e-05        -0.579292        0.794417
                        -0.21083       -0.948655     -0.000219418     -4.9384e-05        -0.141566        0.155241     -0.000258901    -0.000437963
                     0.000236179     0.000187178        -0.579273        0.794303      -8.8372e-05    -0.000302547        -0.170566       0.0271164
281702.1               -0.193451      -0.0813715      0.000400511     -0.00029077        -0.210987       -0.948945      0.000295127     0.000105381
                     0.000413195    -0.000293728       -0.0267537       -0.170406     -0.000404922    -6.69206e-05         -0.57927        0.794433
                        -0.21086       -0.948649     -0.000219421    -4.93686e-05        -0.141558        0.155243      -0.00025892    -0.000437979
                     0.000236187     0.000187176        -0.579251        0.794319     -8.83926e-05    -0.000302567        -0.170566       0.0271187
281702.2                -0.19345      -0.0813642      0.000400514    -0.000290796        -0.211017       -0.948939       0.00029513     0.000105373
                     0.000413195    -0.000293756       -0.0267607       -0.170405     -0.000404922    -6.69141e-05        -0.579248        0.794449
                        -0.21089       -0.948643     -0.000219425    -4.93532e-05        -0.141551        0.155245     -0.000258939    -0.000437995
                     0.000236195     0.000187174        -0.579229        0.794336     -8.84131e-05    -0.000302587        -0.170565       0.0271211
281702.3               -0.193449      -0.0813569      0.000400517    -0.000290822        -0.211047       -0.948934      0.000295133     0.000105365
                     0.000413196    -0.000293784       -0.0267677       -0.170404     -0.000404922    -6.69075e-05        -0.579226        0.794465
                        -0.21092       -0.948637     -0.000219429    -4.93378e-05        -0.141544        0.155246     -0.000258958    -0.000438012
                     0.000236204     0.000187172        -0.579207        0.794352     -8.84337e-05    -0.000302606        -0.170564       0.0271235
281702.4               -0.193449      -0.0813496       0.00040052    -0.000290849        -0.211077       -0.948928      0.000295136     0.000105356
                     0.000413197    -0.000293812       -0.0267747       -0.170402     -0.000404922     -6.6901e-05        -0.579204        0.794482
                        -0.21095       -0.948632     -0.000219433    -4.93224e-05        -0.141536        0.155248     -0.000258978    -0.000438028
                     0.000236212      0.00018717        -0.579185        0.794368     -8.84543e-05    -0.000302626        -0.170564       0.0271258
281702.5               -0.193448      -0.0813423      0.000400524    -0.000290875        -0.211107       -0.948922      0.000295139     0.000105348
                     0.000413198     -0.00029384       -0.0267817       -0.170401     -0.000404922    -6.68945e-05        -0.579182        0.794498
                        -0.21098       -0.948626     -0.000219437     -4.9307e-05        -0.141529         0.15525     -0.000258997    -0.000438044
                      0.00023622     0.000187168        -0.579163        0.794384     -8.84749e-05    -0.000302645        -0.170563       0.0271282
281702.6               -0.193447       -0.081335      0.000400527    -0.000290901        -0.211137       -0.948916      0.000295142      0.00010534
                     0.000413199    -0.000293869       -0.0267887         -0.1704     -0.000404922    -6.68879e-05         -0.57916        0.794514
                        -0.21101        -0.94862      -0.00021944    -4.92916e-05        -0.141521        0.155252     -0.000259016    -0.000438061
                     0.000236228     0.000187166        -0.579141          0.7944     -8.84955e-05    -0.000302665        -0.170563       0.0271306
281702.7               -0.193446      -0.0813277       0.00040053    -0.000290927        -0.211167        -0.94891      0.000295145     0.000105331
                     0.000413199    -0.000293897       -0.0267957       -0.170399     -0.000404922    -6.68814e-05        -0.579138         0.79453
                        -0.21104       -0.948614     -0.000219444    -4.92762e-05        -0.141514        0.155254     -0.000259036    -0.000438077
                     0.000236236     0.000187164        -0.579119        0.794416     -8.85161e-05    -0.000302684        -0.170562       0.0271329
281702.8               -0.193445      -0.0813204      0.000400533    -0.000290953        -0.211197       -0.948904      0.000295147     0.000105323
                       0.0004132    -0.000293925       -0.0268027       -0.170397     -0.000404922    -6.68749e-05        -0.579116        0.794546
                        -0.21107       -0.948608     -0.000219448    -4.92607e-05        -0.141507        0.155256     -0.000259055    -0.000438093
                     0.000236244     0.000187162        -0.579097        0.794432     -8.85367e-05    -0.000302704        -0.170561       0.0271353
281702.9               -0.193445      -0.0813132      0.000400536    -0.000290979        -0.211227       -0.948898       0.00029515     0.000105315
                     0.000413201    -0.000293953       -0.0268097       -0.170396     -0.000404922    -6.68683e-05        -0.579094        0.794562
                       -0.211099       -0.948602     -0.000219452    -4.92453e-05        -0.141499        0.155257     -0.000259074     -0.00043811
                     0.000236252      0.00018716        -0.579075        0.794448     -8.85572e-05    -0.000302723        -0.170561       0.0271377
281703                 -0.193444      -0.0813059      0.000400539    -0.000291005        -0.211257       -0.948893      0.000295153     0.000105306
                     0.000413202    -0.000293981       -0.0268167       -0.170395     -0.000404922    -6.68618e-05        -0.579072        0.794578
                       -0.211129       -0.948596     -0.000219456    -4.92299e-05        -0.141492        0.155259     -0.000259094    -0.000438126
                      0.00023626     0.000187158        -0.579053        0.794464     -8.85778e-05    -0.000302743         -0.17056       0.0271401
281703.1               -0.193443      -0.0812986      0.000400542    -0.000291031        -0.211287       -0.948887      0.000295156     0.000105298
                     0.000413203    -0.000294009       -0.0268236       -0.170393     -0.000404922    -6.68552e-05         -0.57905        0.794594
                       -0.211159       -0.948591     -0.000219459    -4.92145e-05        -0.141484        0.155261     -0.000259113    -0.000438142
