! TOUCHSTONE file generated by CST MICROWAVE STUDIO
! Date and time: Wed Oct  8 06:53:38 2025
! Project name: Teste_Macro_Metasurface_Nanopilar.cst
! Parameters = {H=600; L_x=95; L_y=90; Lambda=1064; Max_L=200; Min_L=70; PathPara=1; Phi=0; Step_L=10; Theta=0; p=520; phaseX=180; phaseY=0}
! Header version: 2018
! Port assignment regex: !\s*Touchstone port\s*([0-9]+)\s*=\s*(CST MWS port|CST DS port)\s*([0-9]+|Zmin|Zmax)\s*\(\"(.*)\"\)(\s*mode\s*([0-9]+))?.*
! Touchstone port assignment:
! Touchstone port 1 = CST MWS port Zmax ("") mode 1
! Touchstone port 2 = CST MWS port Zmax ("") mode 2
! Touchstone port 3 = CST MWS port Zmin ("") mode 1
! Touchstone port 4 = CST MWS port Zmin ("") mode 2
! S-Parameters are not renormalized. Each port impedance will be approximated by the real part at minimum frequency. The values are described via the [Reference] keyword.
! Default impedance is overridden by [Reference]
[Version] 2.0
# GHz S RI R 376.73
[Number of Ports] 4
[Reference]
376.73 376.73 376.73 376.73 
[Number of Frequencies] 1001
[Network Data]
281700                 0.0878983      -0.0769077      0.000392252     0.000795486        -0.867897        0.481319     -0.000163948    -0.000379545
                     0.000309465     0.000790991        0.0643128       -0.107021     -0.000301291    -0.000205527        -0.822155        0.553578
                       -0.867425        0.481232     -0.000305151    -0.000325398        -0.112096       0.0340704      0.000424827     0.000523483
                    -0.000153366    -0.000384656        -0.822058         0.55374      0.000491495     0.000457505        -0.123745         0.01974
281700.1               0.0878935      -0.0769117      0.000392267     0.000795476        -0.867884        0.481342     -0.000163959    -0.000379537
                     0.000309477     0.000790973        0.0643071       -0.107024     -0.000301297    -0.000205507         -0.82214          0.5536
                       -0.867412        0.481255     -0.000305163    -0.000325387        -0.112095       0.0340702      0.000424844     0.000523463
                    -0.000153376    -0.000384646        -0.822043        0.553762      0.000491516     0.000457474        -0.123744       0.0197403
281700.2               0.0878887      -0.0769157      0.000392282     0.000795465        -0.867871        0.481365      -0.00016397    -0.000379528
                      0.00030949     0.000790956        0.0643014       -0.107027     -0.000301304    -0.000205486        -0.822125        0.553623
                       -0.867399        0.481279     -0.000305175    -0.000325376        -0.112094       0.0340701      0.000424861     0.000523444
                    -0.000153387    -0.000384635        -0.822028        0.553785      0.000491536     0.000457444        -0.123744       0.0197405
281700.3               0.0878839      -0.0769197      0.000392297     0.000795454        -0.867858        0.481389     -0.000163981    -0.000379519
                     0.000309502     0.000790938        0.0642957        -0.10703      -0.00030131    -0.000205465         -0.82211        0.553645
                       -0.867386        0.481302     -0.000305187    -0.000325365        -0.112093       0.0340699      0.000424878     0.000523424
                    -0.000153398    -0.000384624        -0.822013        0.553807      0.000491557     0.000457413        -0.123743       0.0197408
281700.4               0.0878791      -0.0769238      0.000392312     0.000795444        -0.867845        0.481412     -0.000163992    -0.000379511
                     0.000309515      0.00079092        0.0642899       -0.107033     -0.000301317    -0.000205444        -0.822095        0.553667
                       -0.867373        0.481326     -0.000305199    -0.000325354        -0.112092       0.0340697      0.000424895     0.000523404
                    -0.000153408    -0.000384613        -0.821998        0.553829      0.000491578     0.000457382        -0.123743       0.0197411
281700.5               0.0878743      -0.0769278      0.000392327     0.000795433        -0.867832        0.481436     -0.000164003    -0.000379502
                     0.000309527     0.000790903        0.0642842       -0.107036     -0.000301323    -0.000205423         -0.82208         0.55369
                        -0.86736        0.481349     -0.000305211    -0.000325342        -0.112091       0.0340695      0.000424912     0.000523385
                    -0.000153419    -0.000384603        -0.821983        0.553852      0.000491599     0.000457352        -0.123743       0.0197413
281700.6               0.0878695      -0.0769318      0.000392342     0.000795423        -0.867819        0.481459     -0.000164014    -0.000379494
                      0.00030954     0.000790885        0.0642785       -0.107039      -0.00030133    -0.000205402        -0.822065        0.553712
                       -0.867348        0.481372     -0.000305223    -0.000325331         -0.11209       0.0340694      0.000424929     0.000523365
                     -0.00015343    -0.000384592        -0.821968        0.553874      0.000491619     0.000457321        -0.123742       0.0197416
281700.7               0.0878647      -0.0769358      0.000392356     0.000795412        -0.867806        0.481483     -0.000164025    -0.000379485
                     0.000309552     0.000790868        0.0642728       -0.107042     -0.000301336    -0.000205381         -0.82205        0.553734
                       -0.867335        0.481396     -0.000305236     -0.00032532        -0.112089       0.0340692      0.000424946     0.000523345
                     -0.00015344    -0.000384581        -0.821953        0.553896       0.00049164      0.00045729        -0.123742       0.0197419
281700.8               0.0878599      -0.0769398      0.000392371     0.000795401        -0.867793        0.481506     -0.000164036    -0.000379477
                     0.000309565      0.00079085        0.0642671       -0.107045     -0.000301343     -0.00020536        -0.822035        0.553757
                       -0.867322        0.481419     -0.000305248    -0.000325309        -0.112088        0.034069      0.000424963     0.000523325
                    -0.000153451     -0.00038457        -0.821938        0.553919      0.000491661      0.00045726        -0.123741       0.0197421
281700.9               0.0878551      -0.0769439      0.000392386     0.000795391        -0.867781         0.48153     -0.000164047    -0.000379468
                     0.000309577     0.000790832        0.0642614       -0.107048     -0.000301349    -0.000205339         -0.82202        0.553779
                       -0.867309        0.481443      -0.00030526    -0.000325298        -0.112087       0.0340689       0.00042498     0.000523305
                    -0.000153462     -0.00038456        -0.821923        0.553941      0.000491681     0.000457229        -0.123741       0.0197424
281701                 0.0878503      -0.0769479      0.000392401      0.00079538        -0.867768        0.481553     -0.000164058     -0.00037946
                      0.00030959     0.000790815        0.0642557       -0.107051     -0.000301356    -0.000205318        -0.822005        0.553801
                       -0.867296        0.481466     -0.000305272    -0.000325287        -0.112086       0.0340687      0.000424997     0.000523285
                    -0.000153472    -0.000384549        -0.821908        0.553963      0.000491702     0.000457199        -0.123741       0.0197427
281701.1               0.0878455      -0.0769519      0.000392416      0.00079537        -0.867755        0.481577     -0.000164069    -0.000379451
                     0.000309602     0.000790797          0.06425       -0.107054     -0.000301362    -0.000205297         -0.82199        0.553823
                       -0.867283         0.48149     -0.000305284    -0.000325275        -0.112085       0.0340685      0.000425014     0.000523266
                    -0.000153483    -0.000384538        -0.821893        0.553986      0.000491723     0.000457168         -0.12374       0.0197429
281701.2               0.0878407      -0.0769559      0.000392431     0.000795359        -0.867742          0.4816      -0.00016408    -0.000379442
                     0.000309615      0.00079078        0.0642443       -0.107057     -0.000301369    -0.000205276        -0.821975        0.553846
                        -0.86727        0.481513     -0.000305296    -0.000325264        -0.112084       0.0340684      0.000425032     0.000523246
                    -0.000153494    -0.000384527        -0.821878        0.554008      0.000491743     0.000457137         -0.12374       0.0197432
281701.3               0.0878359        -0.07696      0.000392446     0.000795348        -0.867729        0.481623     -0.000164091    -0.000379434
                     0.000309627     0.000790762        0.0642386        -0.10706     -0.000301376    -0.000205255         -0.82196        0.553868
                       -0.867257        0.481536     -0.000305308    -0.000325253        -0.112083       0.0340682      0.000425049     0.000523226
                    -0.000153504    -0.000384517        -0.821863         0.55403      0.000491764     0.000457107        -0.123739       0.0197435
281701.4               0.0878311       -0.076964       0.00039246     0.000795338        -0.867716        0.481647     -0.000164102    -0.000379425
                      0.00030964     0.000790744        0.0642328       -0.107063     -0.000301382    -0.000205234        -0.821945         0.55389
                       -0.867244         0.48156      -0.00030532    -0.000325242        -0.112082        0.034068      0.000425066     0.000523206
                    -0.000153515    -0.000384506        -0.821848        0.554053      0.000491785     0.000457076        -0.123739       0.0197437
281701.5               0.0878263       -0.076968      0.000392475     0.000795327        -0.867703         0.48167     -0.000164113    -0.000379417
                     0.000309653     0.000790727        0.0642271       -0.107066     -0.000301389    -0.000205213         -0.82193        0.553913
                       -0.867232        0.481583     -0.000305332    -0.000325231        -0.112081       0.0340679      0.000425084     0.000523186
                    -0.000153526    -0.000384495        -0.821833        0.554075      0.000491806     0.000457045        -0.123739        0.019744
281701.6               0.0878215       -0.076972       0.00039249     0.000795317         -0.86769        0.481694     -0.000164124    -0.000379408
                     0.000309665     0.000790709        0.0642214       -0.107069     -0.000301395    -0.000205192        -0.821915        0.553935
                       -0.867219        0.481607     -0.000305344    -0.000325219         -0.11208       0.0340677      0.000425101     0.000523166
                    -0.000153536    -0.000384484        -0.821818        0.554097      0.000491826     0.000457015        -0.123738       0.0197443
281701.7               0.0878166       -0.076976      0.000392505     0.000795306        -0.867677        0.481717     -0.000164135      -0.0003794
                     0.000309678     0.000790692        0.0642157       -0.107072     -0.000301402    -0.000205171          -0.8219        0.553957
                       -0.867206         0.48163     -0.000305356    -0.000325208        -0.112079       0.0340675      0.000425119     0.000523145
                    -0.000153547    -0.000384473        -0.821803         0.55412      0.000491847     0.000456984        -0.123738       0.0197445
281701.8               0.0878118      -0.0769801       0.00039252     0.000795296        -0.867664        0.481741     -0.000164146    -0.000379391
                      0.00030969     0.000790674          0.06421       -0.107075     -0.000301408     -0.00020515        -0.821885         0.55398
                       -0.867193        0.481654     -0.000305368    -0.000325197        -0.112078       0.0340674      0.000425136     0.000523125
                    -0.000153558    -0.000384463        -0.821788        0.554142      0.000491868     0.000456953        -0.123737       0.0197448
281701.9                0.087807      -0.0769841      0.000392535     0.000795285        -0.867652        0.481764     -0.000164157    -0.000379383
                     0.000309703     0.000790656        0.0642043       -0.107078     -0.000301415    -0.000205129         -0.82187        0.554002
                        -0.86718        0.481677      -0.00030538    -0.000325186        -0.112078       0.0340672      0.000425154     0.000523105
                    -0.000153569    -0.000384452        -0.821773        0.554164      0.000491888     0.000456923        -0.123737        0.019745
281702                 0.0878022      -0.0769881       0.00039255     0.000795274        -0.867639        0.481788     -0.000164168    -0.000379374
                     0.000309715     0.000790639        0.0641986       -0.107081     -0.000301421    -0.000205108        -0.821855        0.554024
                       -0.867167          0.4817     -0.000305392    -0.000325175        -0.112077        0.034067      0.000425171     0.000523085
                    -0.000153579    -0.000384441        -0.821758        0.554186      0.000491909     0.000456892        -0.123737       0.0197453
281702.1               0.0877974      -0.0769921      0.000392564     0.000795264        -0.867626        0.481811     -0.000164179    -0.000379366
                     0.000309728     0.000790621        0.0641929       -0.107084     -0.000301428    -0.000205087         -0.82184        0.554047
                       -0.867154        0.481724     -0.000305404    -0.000325164        -0.112076       0.0340669      0.000425189     0.000523065
                     -0.00015359     -0.00038443        -0.821743        0.554209       0.00049193     0.000456862        -0.123736       0.0197456
281702.2               0.0877926      -0.0769961      0.000392579     0.000795253        -0.867613        0.481834      -0.00016419    -0.000379357
                      0.00030974     0.000790603        0.0641871       -0.107088     -0.000301434    -0.000205066        -0.821825        0.554069
                       -0.867141        0.481747     -0.000305417    -0.000325152        -0.112075       0.0340667      0.000425207     0.000523044
                    -0.000153601     -0.00038442        -0.821728        0.554231       0.00049195     0.000456831        -0.123736       0.0197458
281702.3               0.0877878      -0.0770002      0.000392594     0.000795243          -0.8676        0.481858     -0.000164201    -0.000379349
                     0.000309753     0.000790586        0.0641814       -0.107091     -0.000301441    -0.000205045         -0.82181        0.554091
                       -0.867128        0.481771     -0.000305429    -0.000325141        -0.112074       0.0340665      0.000425225     0.000523024
                    -0.000153611    -0.000384409        -0.821713        0.554253      0.000491971       0.0004568        -0.123735       0.0197461
281702.4                0.087783      -0.0770042      0.000392609     0.000795232        -0.867587        0.481881     -0.000164212     -0.00037934
                     0.000309765     0.000790568        0.0641757       -0.107094     -0.000301447    -0.000205024        -0.821795        0.554114
                       -0.867115        0.481794     -0.000305441     -0.00032513        -0.112073       0.0340663      0.000425243     0.000523004
                    -0.000153622    -0.000384398        -0.821698        0.554276      0.000491992      0.00045677        -0.123735       0.0197464
281702.5               0.0877782      -0.0770082      0.000392624     0.000795221        -0.867574        0.481905     -0.000164223    -0.000379332
                     0.000309778     0.000790551          0.06417       -0.107097     -0.000301454    -0.000205003         -0.82178        0.554136
                       -0.867103        0.481818     -0.000305453    -0.000325119        -0.112072       0.0340662      0.000425261     0.000522983
                    -0.000153633    -0.000384387        -0.821683        0.554298      0.000492013     0.000456739        -0.123735       0.0197466
281702.6               0.0877734      -0.0770122      0.000392639     0.000795211        -0.867561        0.481928     -0.000164234    -0.000379323
                      0.00030979     0.000790533        0.0641643         -0.1071      -0.00030146    -0.000204982        -0.821765        0.554158
                        -0.86709        0.481841     -0.000305465    -0.000325108        -0.112071        0.034066       0.00042528     0.000522963
                    -0.000153643    -0.000384376        -0.821668         0.55432      0.000492033     0.000456708        -0.123734       0.0197469
281702.7               0.0877686      -0.0770162      0.000392653       0.0007952        -0.867548        0.481952     -0.000164245    -0.000379315
                     0.000309803     0.000790515        0.0641586       -0.107103     -0.000301467    -0.000204961         -0.82175         0.55418
                       -0.867077        0.481865     -0.000305477    -0.000325096         -0.11207       0.0340658      0.000425298     0.000522942
                    -0.000153654    -0.000384366        -0.821653        0.554343      0.000492054     0.000456678        -0.123734       0.0197472
281702.8               0.0877638      -0.0770203      0.000392668     0.000795189        -0.867535        0.481975     -0.000164256    -0.000379306
                     0.000309815     0.000790498        0.0641529       -0.107106     -0.000301473    -0.000204941        -0.821735        0.554203
                       -0.867064        0.481888     -0.000305489    -0.000325085        -0.112069       0.0340657      0.000425317     0.000522921
                    -0.000153665    -0.000384355        -0.821638        0.554365      0.000492075     0.000456647        -0.123733       0.0197474
281702.9                0.087759      -0.0770243      0.000392683     0.000795179        -0.867522        0.481999     -0.000164267    -0.000379298
                     0.000309828      0.00079048        0.0641472       -0.107109      -0.00030148     -0.00020492         -0.82172        0.554225
                       -0.867051        0.481911     -0.000305501    -0.000325074        -0.112068       0.0340655      0.000425335     0.000522901
                    -0.000153675    -0.000384344        -0.821623        0.554387      0.000492095     0.000456616        -0.123733       0.0197477
281703                 0.0877542      -0.0770283      0.000392698     0.000795168         -0.86751        0.482022     -0.000164278     -0.00037929
                      0.00030984     0.000790462        0.0641414       -0.107112     -0.000301486    -0.000204899        -0.821705        0.554247
                       -0.867038        0.481935     -0.000305513    -0.000325063        -0.112067       0.0340653      0.000425354      0.00052288
                    -0.000153686    -0.000384333        -0.821608         0.55441      0.000492116     0.000456586        -0.123733       0.0197479
281703.1               0.0877494      -0.0770323      0.000392713     0.000795158        -0.867497        0.482045     -0.000164289    -0.000379281
                     0.000309853     0.000790445        0.0641357       -0.107115     -0.000301493    -0.000204878         -0.82169         0.55427
                       -0.867025        0.481958     -0.000305525    -0.000325052        -0.112066       0.0340652      0.000425373     0.000522859
