! TOUCHSTONE file generated by CST MICROWAVE STUDIO
! Date and time: Wed Oct  8 06:52:50 2025
! Project name: Teste_Macro_Metasurface_Nanopilar.cst
! Parameters = {H=600; L_x=85; L_y=180; Lambda=1064; Max_L=200; Min_L=70; PathPara=1; Phi=0; Step_L=10; Theta=0; p=520; phaseX=180; phaseY=0}
! Header version: 2018
! Port assignment regex: !\s*Touchstone port\s*([0-9]+)\s*=\s*(CST MWS port|CST DS port)\s*([0-9]+|Zmin|Zmax)\s*\(\"(.*)\"\)(\s*mode\s*([0-9]+))?.*
! Touchstone port assignment:
! Touchstone port 1 = CST MWS port Zmax ("") mode 1
! Touchstone port 2 = CST MWS port Zmax ("") mode 2
! Touchstone port 3 = CST MWS port Zmin ("") mode 1
! Touchstone port 4 = CST MWS port Zmin ("") mode 2
! S-Parameters are not renormalized. Each port impedance will be approximated by the real part at minimum frequency. The values are described via the [Reference] keyword.
! Default impedance is overridden by [Reference]
[Version] 2.0
# GHz S RI R 376.73
[Number of Ports] 4
[Reference]
376.73 376.73 376.73 376.73 
[Number of Frequencies] 1001
[Network Data]
281700                 -0.116728       -0.109359     -0.000393501    -0.000406055        -0.677926       -0.709334     -0.000644519     0.000265678
                    -0.000376499    -0.000422555       -0.0631603       -0.176295      0.000823894     0.000312226        -0.468978        0.860635
                       -0.677916       -0.709556      0.000738216     0.000264808         0.101284        0.117933      0.000409546    -0.000378849
                    -0.000617453     0.000207665        -0.468939        0.860708      0.000372128    -0.000561586        -0.182478       0.0429298
281700.1               -0.116724        -0.10936      -0.00039352    -0.000406036         -0.67795       -0.709312     -0.000644515     0.000265699
                    -0.000376519    -0.000422535        -0.063167       -0.176292      0.000823909     0.000312195        -0.468954        0.860648
                        -0.67794       -0.709534      0.000738233     0.000264786         0.101293        0.117922      0.000409541    -0.000378864
                    -0.000617452     0.000207682        -0.468915        0.860721      0.000372118    -0.000561597        -0.182477       0.0429328
281700.2               -0.116721        -0.10936      -0.00039354    -0.000406016        -0.677974       -0.709289     -0.000644511     0.000265721
                    -0.000376538    -0.000422514       -0.0631736       -0.176289      0.000823924     0.000312164         -0.46893        0.860661
                       -0.677964       -0.709511      0.000738249     0.000264764         0.101301        0.117912      0.000409536    -0.000378879
                    -0.000617451       0.0002077        -0.468891        0.860734      0.000372108    -0.000561607        -0.182475       0.0429358
281700.3               -0.116717       -0.109361      -0.00039356    -0.000405996        -0.677998       -0.709266     -0.000644507     0.000265742
                    -0.000376557    -0.000422493       -0.0631802       -0.176286      0.000823938     0.000312133        -0.468906        0.860674
                       -0.677988       -0.709489      0.000738266     0.000264742          0.10131        0.117901      0.000409531    -0.000378894
                     -0.00061745     0.000207717        -0.468867        0.860747      0.000372097    -0.000561617        -0.182474       0.0429388
281700.4               -0.116713       -0.109362      -0.00039358    -0.000405977        -0.678022       -0.709244     -0.000644503     0.000265764
                    -0.000376577    -0.000422472       -0.0631868       -0.176283      0.000823953     0.000312103        -0.468882        0.860687
                       -0.678012       -0.709466      0.000738282     0.000264719         0.101319         0.11789      0.000409526    -0.000378909
                    -0.000617448     0.000207735        -0.468843         0.86076      0.000372087    -0.000561627        -0.182473       0.0429418
281700.5                -0.11671       -0.109362     -0.000393599    -0.000405957        -0.678046       -0.709221     -0.000644499     0.000265785
                    -0.000376596    -0.000422451       -0.0631934        -0.17628      0.000823967     0.000312072        -0.468858        0.860701
                       -0.678036       -0.709443      0.000738298     0.000264697         0.101328         0.11788      0.000409521    -0.000378924
                    -0.000617447     0.000207752        -0.468819        0.860774      0.000372077    -0.000561638        -0.182471       0.0429448
281700.6               -0.116706       -0.109363     -0.000393619    -0.000405938         -0.67807       -0.709199     -0.000644495     0.000265806
                    -0.000376615     -0.00042243          -0.0632       -0.176277      0.000823982     0.000312041        -0.468834        0.860714
                        -0.67806       -0.709421      0.000738315     0.000264675         0.101337        0.117869      0.000409516    -0.000378939
                    -0.000617446      0.00020777        -0.468795        0.860787      0.000372067    -0.000561648         -0.18247       0.0429478
281700.7               -0.116702       -0.109363     -0.000393639    -0.000405918        -0.678094       -0.709176     -0.000644491     0.000265828
                    -0.000376635    -0.000422409       -0.0632067       -0.176274      0.000823997      0.00031201         -0.46881        0.860727
                       -0.678084       -0.709398      0.000738331     0.000264653         0.101345        0.117859       0.00040951    -0.000378954
                    -0.000617445     0.000207787        -0.468771          0.8608      0.000372057    -0.000561658        -0.182469       0.0429508
281700.8               -0.116699       -0.109364     -0.000393659    -0.000405899        -0.678119       -0.709153     -0.000644487     0.000265849
                    -0.000376654    -0.000422388       -0.0632133       -0.176271      0.000824011     0.000311979        -0.468786         0.86074
                       -0.678108       -0.709376      0.000738348     0.000264631         0.101354        0.117848      0.000409505    -0.000378969
                    -0.000617443     0.000207805        -0.468747        0.860813      0.000372047    -0.000561668        -0.182467       0.0429537
281700.9               -0.116695       -0.109365     -0.000393678    -0.000405879        -0.678143       -0.709131     -0.000644483     0.000265871
                    -0.000376673    -0.000422367       -0.0632199       -0.176268      0.000824026     0.000311948        -0.468762        0.860754
                       -0.678133       -0.709353      0.000738364     0.000264608         0.101363        0.117837        0.0004095    -0.000378984
                    -0.000617442     0.000207822        -0.468723        0.860826      0.000372037    -0.000561679        -0.182466       0.0429567
281701                 -0.116692       -0.109365     -0.000393698    -0.000405859        -0.678167       -0.709108     -0.000644479     0.000265892
                    -0.000376692    -0.000422346       -0.0632265       -0.176265       0.00082404     0.000311917        -0.468738        0.860767
                       -0.678157        -0.70933      0.000738381     0.000264586         0.101372        0.117827      0.000409495    -0.000378999
                    -0.000617441      0.00020784        -0.468699         0.86084      0.000372027    -0.000561689        -0.182464       0.0429597
281701.1               -0.116688       -0.109366     -0.000393718     -0.00040584        -0.678191       -0.709086     -0.000644475     0.000265914
                    -0.000376712    -0.000422326       -0.0632331       -0.176262      0.000824055     0.000311886        -0.468714         0.86078
                       -0.678181       -0.709308      0.000738397     0.000264564         0.101381        0.117816       0.00040949    -0.000379013
                    -0.000617439     0.000207857        -0.468675        0.860853      0.000372017    -0.000561699        -0.182463       0.0429627
281701.2               -0.116684       -0.109367     -0.000393738     -0.00040582        -0.678215       -0.709063     -0.000644471     0.000265935
                    -0.000376731    -0.000422305       -0.0632397       -0.176259      0.000824069     0.000311855         -0.46869        0.860793
                       -0.678205       -0.709285      0.000738413     0.000264542         0.101389        0.117805      0.000409485    -0.000379028
                    -0.000617438     0.000207875        -0.468651        0.860866      0.000372006     -0.00056171        -0.182462       0.0429657
281701.3               -0.116681       -0.109367     -0.000393757    -0.000405801        -0.678239        -0.70904     -0.000644467     0.000265957
                     -0.00037675    -0.000422284       -0.0632464       -0.176256      0.000824084     0.000311824        -0.468666        0.860806
                       -0.678229       -0.709263       0.00073843      0.00026452         0.101398        0.117795       0.00040948    -0.000379043
                    -0.000617437     0.000207892        -0.468627        0.860879      0.000371996     -0.00056172         -0.18246       0.0429687
281701.4               -0.116677       -0.109368     -0.000393777    -0.000405781        -0.678263       -0.709018     -0.000644463     0.000265978
                     -0.00037677    -0.000422263        -0.063253       -0.176253      0.000824099     0.000311794        -0.468642         0.86082
                       -0.678253        -0.70924      0.000738446     0.000264497         0.101407        0.117784      0.000409474    -0.000379058
                    -0.000617436      0.00020791        -0.468603        0.860892      0.000371986     -0.00056173        -0.182459       0.0429717
281701.5               -0.116673       -0.109368     -0.000393797    -0.000405761        -0.678287       -0.708995     -0.000644459     0.000265999
                    -0.000376789    -0.000422242       -0.0632596        -0.17625      0.000824113     0.000311763        -0.468618        0.860833
                       -0.678277       -0.709217      0.000738463     0.000264475         0.101416        0.117774      0.000409469    -0.000379073
                    -0.000617434     0.000207927        -0.468579        0.860905      0.000371976     -0.00056174        -0.182458       0.0429747
281701.6                -0.11667       -0.109369     -0.000393817    -0.000405742        -0.678311       -0.708972     -0.000644455     0.000266021
                    -0.000376808    -0.000422221       -0.0632662       -0.176247      0.000824128     0.000311732        -0.468594        0.860846
                       -0.678301       -0.709195      0.000738479     0.000264453         0.101424        0.117763      0.000409464    -0.000379088
                    -0.000617433     0.000207945        -0.468555        0.860919      0.000371966    -0.000561751        -0.182456       0.0429777
281701.7               -0.116666        -0.10937     -0.000393836    -0.000405722        -0.678336        -0.70895     -0.000644451     0.000266042
                    -0.000376828      -0.0004222       -0.0632728       -0.176244      0.000824142     0.000311701         -0.46857        0.860859
                       -0.678325       -0.709172      0.000738496     0.000264431         0.101433        0.117752      0.000409459    -0.000379103
                    -0.000617432     0.000207963        -0.468531        0.860932      0.000371956    -0.000561761        -0.182455       0.0429806
281701.8               -0.116662        -0.10937     -0.000393856    -0.000405703         -0.67836       -0.708927     -0.000644447     0.000266064
                    -0.000376847    -0.000422179       -0.0632794       -0.176241      0.000824157      0.00031167        -0.468546        0.860873
                        -0.67835        -0.70915      0.000738512     0.000264409         0.101442        0.117742      0.000409454    -0.000379118
                     -0.00061743      0.00020798        -0.468507        0.860945      0.000371946    -0.000561771        -0.182454       0.0429836
281701.9               -0.116659       -0.109371     -0.000393876    -0.000405683        -0.678384       -0.708905     -0.000644443     0.000266085
                    -0.000376866    -0.000422158        -0.063286       -0.176238      0.000824172     0.000311639        -0.468522        0.860886
                       -0.678374       -0.709127      0.000738528     0.000264386         0.101451        0.117731      0.000409449    -0.000379133
                    -0.000617429     0.000207998        -0.468483        0.860958      0.000371936    -0.000561781        -0.182452       0.0429866
281702                 -0.116655       -0.109372     -0.000393896    -0.000405664        -0.678408       -0.708882     -0.000644439     0.000266107
                    -0.000376886    -0.000422137       -0.0632927       -0.176235      0.000824186     0.000311608        -0.468497        0.860899
                       -0.678398       -0.709104      0.000738545     0.000264364         0.101459         0.11772      0.000409444    -0.000379148
                    -0.000617428     0.000208015        -0.468459        0.860971      0.000371926    -0.000561792        -0.182451       0.0429896
281702.1               -0.116651       -0.109372     -0.000393915    -0.000405644        -0.678432       -0.708859     -0.000644435     0.000266128
                    -0.000376905    -0.000422116       -0.0632993       -0.176232      0.000824201     0.000311577        -0.468473        0.860912
                       -0.678422       -0.709082      0.000738561     0.000264342         0.101468         0.11771      0.000409438    -0.000379163
                    -0.000617426     0.000208033        -0.468435        0.860984      0.000371916    -0.000561802         -0.18245       0.0429926
281702.2               -0.116648       -0.109373     -0.000393935    -0.000405624        -0.678456       -0.708837     -0.000644431     0.000266149
                    -0.000376924    -0.000422095       -0.0633059       -0.176229      0.000824215     0.000311546        -0.468449        0.860925
                       -0.678446       -0.709059      0.000738578      0.00026432         0.101477        0.117699      0.000409433    -0.000379177
                    -0.000617425      0.00020805        -0.468411        0.860998      0.000371905    -0.000561812        -0.182448       0.0429956
281702.3               -0.116644       -0.109374     -0.000393955    -0.000405605         -0.67848       -0.708814     -0.000644427     0.000266171
                    -0.000376943    -0.000422075       -0.0633125       -0.176226       0.00082423     0.000311515        -0.468425        0.860939
                        -0.67847       -0.709037      0.000738594     0.000264298         0.101486        0.117689      0.000409428    -0.000379192
                    -0.000617424     0.000208068        -0.468387        0.861011      0.000371895    -0.000561822        -0.182447       0.0429986
281702.4               -0.116641       -0.109374     -0.000393975    -0.000405585        -0.678504       -0.708792     -0.000644423     0.000266192
                    -0.000376963    -0.000422054       -0.0633191       -0.176223      0.000824244     0.000311485        -0.468401        0.860952
                       -0.678494       -0.709014      0.000738611     0.000264275         0.101495        0.117678      0.000409423    -0.000379207
                    -0.000617423     0.000208085        -0.468363        0.861024      0.000371885    -0.000561833        -0.182446       0.0430016
281702.5               -0.116637       -0.109375     -0.000393994    -0.000405566        -0.678528       -0.708769     -0.000644419     0.000266214
                    -0.000376982    -0.000422033       -0.0633257        -0.17622      0.000824259     0.000311454        -0.468377        0.860965
                       -0.678518       -0.708991      0.000738627     0.000264253         0.101503        0.117667      0.000409418    -0.000379222
                    -0.000617421     0.000208103        -0.468339        0.861037      0.000371875    -0.000561843        -0.182444       0.0430046
281702.6               -0.116633       -0.109375     -0.000394014    -0.000405546        -0.678553       -0.708746     -0.000644415     0.000266235
                    -0.000377001    -0.000422012       -0.0633323       -0.176217      0.000824274     0.000311423        -0.468353        0.860978
                       -0.678542       -0.708969      0.000738643     0.000264231         0.101512        0.117657      0.000409413    -0.000379237
                     -0.00061742      0.00020812        -0.468315         0.86105      0.000371865    -0.000561853        -0.182443       0.0430075
281702.7                -0.11663       -0.109376     -0.000394034    -0.000405527        -0.678577       -0.708724     -0.000644411     0.000266257
                    -0.000377021    -0.000421991        -0.063339       -0.176214      0.000824288     0.000311392        -0.468329        0.860991
                       -0.678566       -0.708946       0.00073866     0.000264209         0.101521        0.117646      0.000409408    -0.000379252
                    -0.000617419     0.000208138        -0.468291        0.861063      0.000371855    -0.000561863        -0.182442       0.0430105
281702.8               -0.116626       -0.109377     -0.000394054    -0.000405507        -0.678601       -0.708701     -0.000644407     0.000266278
                     -0.00037704     -0.00042197       -0.0633456        -0.17621      0.000824303     0.000311361        -0.468305        0.861005
                       -0.678591       -0.708923      0.000738676     0.000264187          0.10153        0.117635      0.000409403    -0.000379267
                    -0.000617417     0.000208155        -0.468267        0.861077      0.000371845    -0.000561874         -0.18244       0.0430135
281702.9               -0.116622       -0.109377     -0.000394073    -0.000405487        -0.678625       -0.708678     -0.000644403       0.0002663
                    -0.000377059    -0.000421949       -0.0633522       -0.176207      0.000824317      0.00031133        -0.468281        0.861018
                       -0.678615       -0.708901      0.000738693     0.000264164         0.101538        0.117625      0.000409397    -0.000379282
                    -0.000617416     0.000208173        -0.468242         0.86109      0.000371835    -0.000561884        -0.182439       0.0430165
281703                 -0.116619       -0.109378     -0.000394093    -0.000405468        -0.678649       -0.708656     -0.000644398     0.000266321
                    -0.000377079    -0.000421928       -0.0633588       -0.176204      0.000824332     0.000311299        -0.468257        0.861031
                       -0.678639       -0.708878      0.000738709     0.000264142         0.101547        0.117614      0.000409392    -0.000379297
                    -0.000617415      0.00020819        -0.468218        0.861103      0.000371825    -0.000561894        -0.182438       0.0430195
281703.1               -0.116615       -0.109379     -0.000394113    -0.000405448        -0.678673       -0.708633     -0.000644394     0.000266342
                    -0.000377098    -0.000421907       -0.0633654       -0.176201      0.000824347     0.000311268        -0.468233        0.861044
                       -0.678663       -0.708856      0.000738725      0.00026412         0.101556        0.117604      0.000409387    -0.000379312
