! TOUCHSTONE file generated by CST MICROWAVE STUDIO
! Date and time: Wed Oct  8 07:02:39 2025
! Project name: Teste_Macro_Metasurface_Nanopilar.cst
! Parameters = {H=600; L_x=170; L_y=105; Lambda=1064; Max_L=200; Min_L=70; PathPara=1; Phi=0; Step_L=10; Theta=0; p=520; phaseX=180; phaseY=0}
! Header version: 2018
! Port assignment regex: !\s*Touchstone port\s*([0-9]+)\s*=\s*(CST MWS port|CST DS port)\s*([0-9]+|Zmin|Zmax)\s*\(\"(.*)\"\)(\s*mode\s*([0-9]+))?.*
! Touchstone port assignment:
! Touchstone port 1 = CST MWS port Zmax ("") mode 1
! Touchstone port 2 = CST MWS port Zmax ("") mode 2
! Touchstone port 3 = CST MWS port Zmin ("") mode 1
! Touchstone port 4 = CST MWS port Zmin ("") mode 2
! S-Parameters are not renormalized. Each port impedance will be approximated by the real part at minimum frequency. The values are described via the [Reference] keyword.
! Default impedance is overridden by [Reference]
[Version] 2.0
# GHz S RI R 376.73
[Number of Ports] 4
[Reference]
376.73 376.73 376.73 376.73 
[Number of Frequencies] 1001
[Network Data]
281700                 0.0021327      -0.0176998     -0.000339426     0.000182407         0.990366      -0.0170472     -0.000424073    -0.000248989
                     -0.00037742     0.000311656        -0.165902       -0.358765     -0.000367825    -1.78628e-06        -0.883687       -0.200186
                        0.990382      -0.0165809     -0.000435202    -2.76959e-05      -0.00766685      -0.0163313     -0.000210579    -0.000421345
                    -0.000502231    -0.000253468        -0.883794       -0.200432     -0.000208812    -0.000429428         0.286318       -0.263533
281700.1              0.00213273      -0.0177067     -0.000339415     0.000182414         0.990365      -0.0170822     -0.000424113    -0.000248955
                    -0.000377386     0.000311651        -0.165913       -0.358775     -0.000367824    -1.77695e-06         -0.88369       -0.200146
                        0.990381      -0.0166159     -0.000435224    -2.76841e-05      -0.00766829      -0.0163378     -0.000210558    -0.000421324
                    -0.000502252    -0.000253454        -0.883796       -0.200392     -0.000208823    -0.000429412         0.286309       -0.263564
281700.2              0.00213275      -0.0177136     -0.000339403     0.000182422         0.990365      -0.0171171     -0.000424153    -0.000248922
                    -0.000377352     0.000311647        -0.165924       -0.358786     -0.000367824    -1.76762e-06        -0.883692       -0.200106
                        0.990381      -0.0166509     -0.000435246    -2.76722e-05      -0.00766974      -0.0163443     -0.000210537    -0.000421304
                    -0.000502273     -0.00025344        -0.883798       -0.200352     -0.000208835    -0.000429396           0.2863       -0.263595
281700.3              0.00213277      -0.0177205     -0.000339392     0.000182429         0.990364      -0.0171521     -0.000424193    -0.000248888
                    -0.000377318     0.000311643        -0.165935       -0.358797     -0.000367823    -1.75829e-06        -0.883694       -0.200067
                         0.99038      -0.0166858     -0.000435267    -2.76604e-05      -0.00767118      -0.0163508     -0.000210516    -0.000421284
                    -0.000502294    -0.000253426        -0.883801       -0.200312     -0.000208846    -0.000429379         0.286291       -0.263627
281700.4              0.00213279      -0.0177273     -0.000339381     0.000182437         0.990363      -0.0171871     -0.000424233    -0.000248854
                    -0.000377284     0.000311639        -0.165947       -0.358808     -0.000367822    -1.74896e-06        -0.883696       -0.200027
                        0.990379      -0.0167208     -0.000435289    -2.76486e-05      -0.00767262      -0.0163574     -0.000210495    -0.000421263
                    -0.000502315    -0.000253411        -0.883803       -0.200273     -0.000208857    -0.000429363         0.286283       -0.263658
281700.5               0.0021328      -0.0177342     -0.000339369     0.000182444         0.990362       -0.017222     -0.000424273    -0.000248821
                    -0.000377251     0.000311635        -0.165958       -0.358818     -0.000367822    -1.73962e-06        -0.883698       -0.199987
                        0.990379      -0.0167558      -0.00043531    -2.76367e-05      -0.00767406      -0.0163639     -0.000210475    -0.000421243
                    -0.000502336    -0.000253397        -0.883805       -0.200233     -0.000208869    -0.000429346         0.286274       -0.263689
281700.6              0.00213282      -0.0177411     -0.000339358     0.000182452         0.990362       -0.017257     -0.000424313    -0.000248787
                    -0.000377217     0.000311631        -0.165969       -0.358829     -0.000367821    -1.73029e-06          -0.8837       -0.199947
                        0.990378      -0.0167907     -0.000435332    -2.76249e-05      -0.00767551      -0.0163704     -0.000210454    -0.000421223
                    -0.000502357    -0.000253383        -0.883807       -0.200193      -0.00020888     -0.00042933         0.286265        -0.26372
281700.7              0.00213284       -0.017748     -0.000339347     0.000182459         0.990361       -0.017292     -0.000424353    -0.000248753
                    -0.000377183     0.000311626         -0.16598        -0.35884      -0.00036782    -1.72096e-06        -0.883703       -0.199907
                        0.990377      -0.0168257     -0.000435353     -2.7613e-05      -0.00767695      -0.0163769     -0.000210433    -0.000421203
                    -0.000502378    -0.000253369        -0.883809       -0.200153     -0.000208892    -0.000429314         0.286257       -0.263751
281700.8              0.00213286      -0.0177548     -0.000339335     0.000182466          0.99036      -0.0173269     -0.000424393    -0.000248719
                    -0.000377149     0.000311622        -0.165991       -0.358851     -0.000367819    -1.71163e-06        -0.883705       -0.199867
                        0.990377      -0.0168607     -0.000435375    -2.76012e-05       -0.0076784      -0.0163834     -0.000210412    -0.000421183
                    -0.000502398    -0.000253354        -0.883811       -0.200113     -0.000208903    -0.000429297         0.286248       -0.263782
281700.9              0.00213287      -0.0177617     -0.000339324     0.000182474          0.99036      -0.0173619     -0.000424433    -0.000248686
                    -0.000377116     0.000311618        -0.166002       -0.358861     -0.000367819     -1.7023e-06        -0.883707       -0.199827
                        0.990376      -0.0168956     -0.000435396    -2.75893e-05      -0.00767984        -0.01639     -0.000210391    -0.000421163
                    -0.000502419     -0.00025334        -0.883813       -0.200073     -0.000208915    -0.000429281         0.286239       -0.263813
281701                0.00213289      -0.0177686     -0.000339313     0.000182481         0.990359      -0.0173969     -0.000424473    -0.000248652
                    -0.000377082     0.000311614        -0.166013       -0.358872     -0.000367818    -1.69296e-06        -0.883709       -0.199787
                        0.990375      -0.0169306     -0.000435418    -2.75775e-05      -0.00768129      -0.0163965      -0.00021037    -0.000421142
                     -0.00050244    -0.000253326        -0.883816       -0.200033     -0.000208926    -0.000429265          0.28623       -0.263844
281701.1              0.00213291      -0.0177755     -0.000339301     0.000182489         0.990358      -0.0174318     -0.000424513    -0.000248618
                    -0.000377048      0.00031161        -0.166024       -0.358883     -0.000367817    -1.68363e-06        -0.883711       -0.199747
                        0.990374      -0.0169656     -0.000435439    -2.75656e-05      -0.00768273       -0.016403     -0.000210349    -0.000421122
                    -0.000502461    -0.000253312        -0.883818       -0.199993     -0.000208938    -0.000429248         0.286222       -0.263875
281701.2              0.00213292      -0.0177823      -0.00033929     0.000182496         0.990357      -0.0174668     -0.000424552    -0.000248584
                    -0.000377015     0.000311605        -0.166036       -0.358894     -0.000367817    -1.67429e-06        -0.883713       -0.199707
                        0.990374      -0.0170005     -0.000435461    -2.75537e-05      -0.00768418      -0.0164095     -0.000210329    -0.000421102
                    -0.000502482    -0.000253297         -0.88382       -0.199953     -0.000208949    -0.000429232         0.286213       -0.263906
281701.3              0.00213294      -0.0177892     -0.000339279     0.000182504         0.990357      -0.0175018     -0.000424592     -0.00024855
                    -0.000376981     0.000311601        -0.166047       -0.358905     -0.000367816    -1.66496e-06        -0.883715       -0.199667
                        0.990373      -0.0170355     -0.000435483    -2.75419e-05      -0.00768563       -0.016416     -0.000210308    -0.000421082
                    -0.000502503    -0.000253283        -0.883822       -0.199913     -0.000208961    -0.000429215         0.286204       -0.263937
281701.4              0.00213295      -0.0177961     -0.000339267     0.000182511         0.990356      -0.0175367     -0.000424632    -0.000248516
                    -0.000376947     0.000311597        -0.166058       -0.358915     -0.000367815    -1.65563e-06        -0.883718       -0.199627
                        0.990372      -0.0170705     -0.000435504      -2.753e-05      -0.00768708      -0.0164226     -0.000210287    -0.000421062
                    -0.000502524    -0.000253269        -0.883824       -0.199874     -0.000208972    -0.000429199         0.286195       -0.263968
281701.5              0.00213296       -0.017803     -0.000339256     0.000182519         0.990355      -0.0175717     -0.000424672    -0.000248482
                    -0.000376914     0.000311593        -0.166069       -0.358926     -0.000367814    -1.64629e-06         -0.88372       -0.199587
                        0.990372      -0.0171054     -0.000435526    -2.75182e-05      -0.00768852      -0.0164291     -0.000210266    -0.000421042
                    -0.000502545    -0.000253255        -0.883826       -0.199834     -0.000208984    -0.000429183         0.286187       -0.263999
281701.6              0.00213298      -0.0178098     -0.000339244     0.000182526         0.990354      -0.0176067     -0.000424712    -0.000248449
                     -0.00037688     0.000311588         -0.16608       -0.358937     -0.000367814    -1.63696e-06        -0.883722       -0.199548
                        0.990371      -0.0171404     -0.000435547    -2.75063e-05      -0.00768997      -0.0164356     -0.000210245    -0.000421022
                    -0.000502566     -0.00025324        -0.883828       -0.199794     -0.000208995    -0.000429166         0.286178        -0.26403
281701.7              0.00213299      -0.0178167     -0.000339233     0.000182533         0.990354      -0.0176416     -0.000424752    -0.000248415
                    -0.000376846     0.000311584        -0.166091       -0.358948     -0.000367813    -1.62762e-06        -0.883724       -0.199508
                         0.99037      -0.0171754     -0.000435569    -2.74945e-05      -0.00769142      -0.0164421     -0.000210224    -0.000421003
                    -0.000502587    -0.000253226        -0.883831       -0.199754     -0.000209007     -0.00042915         0.286169       -0.264062
281701.8                0.002133      -0.0178236     -0.000339222     0.000182541         0.990353      -0.0176766     -0.000424792    -0.000248381
                    -0.000376813      0.00031158        -0.166102       -0.358958     -0.000367812    -1.61828e-06        -0.883726       -0.199468
                        0.990369      -0.0172103      -0.00043559    -2.74826e-05      -0.00769287      -0.0164486     -0.000210203    -0.000420983
                    -0.000502608    -0.000253212        -0.883833       -0.199714     -0.000209018    -0.000429134          0.28616       -0.264093
281701.9              0.00213301      -0.0178304      -0.00033921     0.000182548         0.990352      -0.0177116     -0.000424832    -0.000248347
                    -0.000376779     0.000311576        -0.166114       -0.358969     -0.000367812    -1.60895e-06        -0.883728       -0.199428
                        0.990369      -0.0172453     -0.000435612    -2.74708e-05      -0.00769432      -0.0164552     -0.000210182    -0.000420963
                    -0.000502629    -0.000253198        -0.883835       -0.199674     -0.000209029    -0.000429117         0.286152       -0.264124
281702                0.00213302      -0.0178373     -0.000339199     0.000182556         0.990351      -0.0177465     -0.000424871    -0.000248313
                    -0.000376746     0.000311571        -0.166125        -0.35898     -0.000367811    -1.59961e-06         -0.88373       -0.199388
                        0.990368      -0.0172803     -0.000435633    -2.74589e-05      -0.00769577      -0.0164617     -0.000210161    -0.000420943
                     -0.00050265    -0.000253183        -0.883837       -0.199634     -0.000209041    -0.000429101         0.286143       -0.264155
281702.1              0.00213304      -0.0178442     -0.000339188     0.000182563         0.990351      -0.0177815     -0.000424911    -0.000248279
                    -0.000376712     0.000311567        -0.166136       -0.358991      -0.00036781    -1.59027e-06        -0.883733       -0.199348
                        0.990367      -0.0173152     -0.000435655     -2.7447e-05      -0.00769722      -0.0164682      -0.00021014    -0.000420923
                    -0.000502672    -0.000253169        -0.883839       -0.199594     -0.000209052    -0.000429084         0.286134       -0.264186
281702.2              0.00213305      -0.0178511     -0.000339176      0.00018257          0.99035      -0.0178165     -0.000424951    -0.000248245
                    -0.000376678     0.000311563        -0.166147       -0.359001     -0.000367809    -1.58094e-06        -0.883735       -0.199308
                        0.990366      -0.0173502     -0.000435676    -2.74352e-05      -0.00769867      -0.0164747     -0.000210119    -0.000420903
                    -0.000502693    -0.000253155        -0.883841       -0.199554     -0.000209064    -0.000429068         0.286125       -0.264217
281702.3              0.00213306      -0.0178579     -0.000339165     0.000182578         0.990349      -0.0178514     -0.000424991    -0.000248211
                    -0.000376645     0.000311558        -0.166158       -0.359012     -0.000367809     -1.5716e-06        -0.883737       -0.199268
                        0.990366      -0.0173852     -0.000435698    -2.74233e-05      -0.00770012      -0.0164812     -0.000210098    -0.000420883
                    -0.000502714    -0.000253141        -0.883843       -0.199515     -0.000209075    -0.000429052         0.286117       -0.264248
281702.4              0.00213306      -0.0178648     -0.000339154     0.000182585         0.990348      -0.0178864     -0.000425031    -0.000248176
                    -0.000376611     0.000311554        -0.166169       -0.359023     -0.000367808    -1.56226e-06        -0.883739       -0.199228
                        0.990365      -0.0174201     -0.000435719    -2.74115e-05      -0.00770158      -0.0164878     -0.000210077    -0.000420864
                    -0.000502735    -0.000253126        -0.883845       -0.199475     -0.000209087    -0.000429035         0.286108       -0.264279
281702.5              0.00213307      -0.0178717     -0.000339142     0.000182593         0.990348      -0.0179214     -0.000425071    -0.000248142
                    -0.000376578      0.00031155        -0.166181       -0.359034     -0.000367807    -1.55292e-06        -0.883741       -0.199188
                        0.990364      -0.0174551     -0.000435741    -2.73996e-05      -0.00770303      -0.0164943     -0.000210056    -0.000420844
                    -0.000502756    -0.000253112        -0.883848       -0.199435     -0.000209098    -0.000429019         0.286099        -0.26431
281702.6              0.00213308      -0.0178786     -0.000339131       0.0001826         0.990347      -0.0179563      -0.00042511    -0.000248108
                    -0.000376544     0.000311545        -0.166192       -0.359045     -0.000367807    -1.54358e-06        -0.883743       -0.199148
                        0.990364      -0.0174901     -0.000435762    -2.73877e-05      -0.00770448      -0.0165008     -0.000210035    -0.000420824
                    -0.000502777    -0.000253098         -0.88385       -0.199395      -0.00020911    -0.000429003          0.28609       -0.264341
281702.7              0.00213309      -0.0178854      -0.00033912     0.000182607         0.990346      -0.0179913      -0.00042515    -0.000248074
                    -0.000376511     0.000311541        -0.166203       -0.359055     -0.000367806    -1.53424e-06        -0.883745       -0.199108
                        0.990363       -0.017525     -0.000435784    -2.73759e-05      -0.00770593      -0.0165073     -0.000210014    -0.000420805
                    -0.000502798    -0.000253084        -0.883852       -0.199355     -0.000209121    -0.000428986         0.286081       -0.264372
281702.8               0.0021331      -0.0178923     -0.000339108     0.000182615         0.990345      -0.0180263      -0.00042519     -0.00024804
                    -0.000376477     0.000311537        -0.166214       -0.359066     -0.000367805     -1.5249e-06        -0.883747       -0.199068
                        0.990362        -0.01756     -0.000435805     -2.7364e-05      -0.00770739      -0.0165138     -0.000209993    -0.000420785
                    -0.000502819    -0.000253069        -0.883854       -0.199315     -0.000209133     -0.00042897         0.286073       -0.264403
281702.9               0.0021331      -0.0178992     -0.000339097     0.000182622         0.990345      -0.0180612      -0.00042523    -0.000248006
                    -0.000376444     0.000311532        -0.166225       -0.359077     -0.000367804    -1.51556e-06        -0.883749       -0.199029
                        0.990361       -0.017595     -0.000435827    -2.73522e-05      -0.00770884      -0.0165204     -0.000209972    -0.000420765
                     -0.00050284    -0.000253055        -0.883856       -0.199275     -0.000209144    -0.000428953         0.286064       -0.264434
281703                0.00213311      -0.0179061     -0.000339086      0.00018263         0.990344      -0.0180962      -0.00042527    -0.000247972
                    -0.000376411     0.000311528        -0.166236       -0.359088     -0.000367804    -1.50622e-06        -0.883752       -0.198989
                        0.990361      -0.0176299     -0.000435848    -2.73403e-05       -0.0077103      -0.0165269     -0.000209951    -0.000420746
                    -0.000502861    -0.000253041        -0.883858       -0.199235     -0.000209156    -0.000428937         0.286055       -0.264466
281703.1              0.00213311      -0.0179129     -0.000339074     0.000182637         0.990343      -0.0181312     -0.000425309    -0.000247937
                    -0.000376377     0.000311523        -0.166247       -0.359098     -0.000367803    -1.49688e-06        -0.883754       -0.198949
                         0.99036      -0.0176649      -0.00043587    -2.73284e-05      -0.00771175      -0.0165334      -0.00020993    -0.000420726
