! TOUCHSTONE file generated by CST MICROWAVE STUDIO
! Date and time: Wed Oct  8 06:59:38 2025
! Project name: Teste_Macro_Metasurface_Nanopilar.cst
! Parameters = {H=600; L_x=145; L_y=100; Lambda=1064; Max_L=200; Min_L=70; PathPara=1; Phi=0; Step_L=10; Theta=0; p=520; phaseX=180; phaseY=0}
! Header version: 2018
! Port assignment regex: !\s*Touchstone port\s*([0-9]+)\s*=\s*(CST MWS port|CST DS port)\s*([0-9]+|Zmin|Zmax)\s*\(\"(.*)\"\)(\s*mode\s*([0-9]+))?.*
! Touchstone port assignment:
! Touchstone port 1 = CST MWS port Zmax ("") mode 1
! Touchstone port 2 = CST MWS port Zmax ("") mode 2
! Touchstone port 3 = CST MWS port Zmin ("") mode 1
! Touchstone port 4 = CST MWS port Zmin ("") mode 2
! S-Parameters are not renormalized. Each port impedance will be approximated by the real part at minimum frequency. The values are described via the [Reference] keyword.
! Default impedance is overridden by [Reference]
[Version] 2.0
# GHz S RI R 376.73
[Number of Ports] 4
[Reference]
376.73 376.73 376.73 376.73 
[Number of Frequencies] 1001
[Network Data]
281700                 -0.237022      -0.0294938      0.000885437     0.000834277         0.225658         0.93879     -0.000434795    -0.000770712
                     0.000822083     0.000971652        -0.200159       -0.113636      0.000239533    -0.000172683        0.0260317       -0.965866
                        0.225386        0.938869      0.000201142    -0.000307433        -0.198348        0.133636     -0.000575333     0.000942257
                    -0.000430648     -0.00070628        0.0263975        -0.96607     -0.000735102      0.00105408        -0.206835        0.103262
281700.1                -0.23702      -0.0294855      0.000885463     0.000834265         0.225687        0.938784      -0.00043482    -0.000770699
                     0.000822118      0.00097164        -0.200161       -0.113628      0.000239549     -0.00017269        0.0260014       -0.965867
                        0.225415        0.938863      0.000201138    -0.000307442        -0.198342         0.13364     -0.000575308     0.000942288
                    -0.000430671    -0.000706263        0.0263672       -0.966072     -0.000735067      0.00105413         -0.20683        0.103267
281700.2               -0.237019      -0.0294771      0.000885489     0.000834253         0.225716        0.938778     -0.000434846    -0.000770687
                     0.000822153     0.000971629        -0.200164        -0.11362      0.000239565    -0.000172697        0.0259711       -0.965869
                        0.225444        0.938856      0.000201134    -0.000307451        -0.198336        0.133644     -0.000575283     0.000942319
                    -0.000430695    -0.000706245         0.026337       -0.966073     -0.000735032      0.00105417        -0.206826        0.103271
281700.3               -0.237017      -0.0294687      0.000885515     0.000834241         0.225746        0.938771     -0.000434871    -0.000770674
                     0.000822189     0.000971618        -0.200166       -0.113611       0.00023958    -0.000172704        0.0259408        -0.96587
                        0.225473         0.93885       0.00020113    -0.000307459         -0.19833        0.133647     -0.000575258     0.000942351
                    -0.000430718    -0.000706227        0.0263067       -0.966074     -0.000734998      0.00105421        -0.206822        0.103276
281700.4               -0.237015      -0.0294603      0.000885541     0.000834229         0.225775        0.938765     -0.000434897    -0.000770661
                     0.000822224     0.000971607        -0.200169       -0.113603      0.000239596    -0.000172712        0.0259106       -0.965871
                        0.225502        0.938844      0.000201126    -0.000307468        -0.198324        0.133651     -0.000575234     0.000942382
                    -0.000430741    -0.000706209        0.0262764       -0.966075     -0.000734963      0.00105426        -0.206817         0.10328
281700.5               -0.237014       -0.029452      0.000885567     0.000834218         0.225804        0.938758     -0.000434923    -0.000770649
                      0.00082226     0.000971596        -0.200171       -0.113595      0.000239612    -0.000172719        0.0258803       -0.965873
                        0.225531        0.938837      0.000201122    -0.000307476        -0.198318        0.133655     -0.000575209     0.000942413
                    -0.000430764    -0.000706192        0.0262461       -0.966077     -0.000734928       0.0010543        -0.206813        0.103285
281700.6               -0.237012      -0.0294436      0.000885593     0.000834206         0.225833        0.938752     -0.000434948    -0.000770636
                     0.000822295     0.000971585        -0.200174       -0.113587      0.000239627    -0.000172726          0.02585       -0.965874
                        0.225561        0.938831      0.000201118    -0.000307485        -0.198312        0.133659     -0.000575184     0.000942445
                    -0.000430787    -0.000706174        0.0262158       -0.966078     -0.000734893      0.00105435        -0.206809        0.103289
281700.7               -0.237011      -0.0294352      0.000885619     0.000834194         0.225862        0.938746     -0.000434974    -0.000770624
                      0.00082233     0.000971574        -0.200177       -0.113579      0.000239643    -0.000172733        0.0258197       -0.965875
                         0.22559        0.938824      0.000201114    -0.000307493        -0.198306        0.133663     -0.000575159     0.000942476
                     -0.00043081    -0.000706156        0.0261855       -0.966079     -0.000734859      0.00105439        -0.206804        0.103294
281700.8               -0.237009      -0.0294268      0.000885645     0.000834182         0.225891        0.938739     -0.000434999    -0.000770611
                     0.000822366     0.000971563        -0.200179        -0.11357      0.000239658     -0.00017274        0.0257895       -0.965876
                        0.225619        0.938818       0.00020111    -0.000307502        -0.198301        0.133667     -0.000575134     0.000942507
                    -0.000430833    -0.000706138        0.0261553       -0.966081     -0.000734824      0.00105443          -0.2068        0.103298
281700.9               -0.237007      -0.0294185      0.000885671      0.00083417         0.225921        0.938733     -0.000435025    -0.000770599
                     0.000822401     0.000971552        -0.200182       -0.113562      0.000239674    -0.000172748        0.0257592       -0.965878
                        0.225648        0.938812      0.000201106     -0.00030751        -0.198295        0.133671     -0.000575109     0.000942538
                    -0.000430856     -0.00070612         0.026125       -0.966082     -0.000734789      0.00105448        -0.206796        0.103303
281701                 -0.237006      -0.0294101      0.000885697     0.000834158          0.22595        0.938727      -0.00043505    -0.000770586
                     0.000822437     0.000971541        -0.200184       -0.113554       0.00023969    -0.000172755        0.0257289       -0.965879
                        0.225677        0.938805      0.000201102    -0.000307519        -0.198289        0.133675     -0.000575084      0.00094257
                    -0.000430879    -0.000706103        0.0260947       -0.966083     -0.000734754      0.00105452        -0.206791        0.103308
281701.1               -0.237004      -0.0294017      0.000885724     0.000834146         0.225979         0.93872     -0.000435076    -0.000770574
                     0.000822472      0.00097153        -0.200187       -0.113546      0.000239705    -0.000172762        0.0256986        -0.96588
                        0.225706        0.938799      0.000201098    -0.000307527        -0.198283        0.133679     -0.000575059     0.000942601
                    -0.000430902    -0.000706085        0.0260644       -0.966084     -0.000734719      0.00105457        -0.206787        0.103312
281701.2               -0.237002      -0.0293933       0.00088575     0.000834134         0.226008        0.938714     -0.000435101    -0.000770561
                     0.000822507     0.000971519         -0.20019       -0.113538      0.000239721    -0.000172769        0.0256684       -0.965881
                        0.225736        0.938793      0.000201095    -0.000307536        -0.198277        0.133683     -0.000575035     0.000942632
                    -0.000430926    -0.000706067        0.0260341       -0.966086     -0.000734685      0.00105461        -0.206783        0.103317
281701.3               -0.237001       -0.029385      0.000885776     0.000834122         0.226037        0.938707     -0.000435127    -0.000770549
                     0.000822543     0.000971508        -0.200192       -0.113529      0.000239737    -0.000172777        0.0256381       -0.965883
                        0.225765        0.938786      0.000201091    -0.000307544        -0.198271        0.133687      -0.00057501     0.000942663
                    -0.000430949    -0.000706049        0.0260038       -0.966087      -0.00073465      0.00105465        -0.206778        0.103321
281701.4               -0.236999      -0.0293766      0.000885802      0.00083411         0.226066        0.938701     -0.000435152    -0.000770536
                     0.000822578     0.000971496        -0.200195       -0.113521      0.000239752    -0.000172784        0.0256078       -0.965884
                        0.225794         0.93878      0.000201087    -0.000307553        -0.198265        0.133691     -0.000574985     0.000942695
                    -0.000430972    -0.000706032        0.0259735       -0.966088     -0.000734615       0.0010547        -0.206774        0.103326
281701.5               -0.236997      -0.0293682      0.000885828     0.000834098         0.226095        0.938695     -0.000435178    -0.000770523
                     0.000822614     0.000971485        -0.200197       -0.113513      0.000239768    -0.000172791        0.0255775       -0.965885
                        0.225823        0.938774      0.000201083    -0.000307562        -0.198259        0.133695      -0.00057496     0.000942726
                    -0.000430995    -0.000706014        0.0259433       -0.966089      -0.00073458      0.00105474         -0.20677         0.10333
281701.6               -0.236996      -0.0293598      0.000885854     0.000834086         0.226125        0.938688     -0.000435203    -0.000770511
                     0.000822649     0.000971474          -0.2002       -0.113505      0.000239783    -0.000172798        0.0255473       -0.965887
                        0.225852        0.938767      0.000201079     -0.00030757        -0.198253        0.133699     -0.000574935     0.000942757
                    -0.000431018    -0.000705996         0.025913       -0.966091     -0.000734545      0.00105478        -0.206765        0.103335
281701.7               -0.236994      -0.0293515       0.00088588     0.000834075         0.226154        0.938682     -0.000435229    -0.000770498
                     0.000822684     0.000971463        -0.200202       -0.113497      0.000239799    -0.000172806         0.025517       -0.965888
                        0.225881        0.938761      0.000201075    -0.000307579        -0.198247        0.133703      -0.00057491     0.000942789
                    -0.000431041    -0.000705978        0.0258827       -0.966092     -0.000734511      0.00105483        -0.206761        0.103339
281701.8               -0.236992      -0.0293431      0.000885906     0.000834063         0.226183        0.938676     -0.000435255    -0.000770486
                      0.00082272     0.000971452        -0.200205       -0.113488      0.000239815    -0.000172813        0.0254867       -0.965889
                        0.225911        0.938755      0.000201071    -0.000307587        -0.198241        0.133707     -0.000574885      0.00094282
                    -0.000431064     -0.00070596        0.0258524       -0.966093     -0.000734476      0.00105487        -0.206757        0.103344
281701.9               -0.236991      -0.0293347      0.000885932     0.000834051         0.226212        0.938669      -0.00043528    -0.000770473
                     0.000822755     0.000971441        -0.200208        -0.11348       0.00023983     -0.00017282        0.0254564        -0.96589
                         0.22594        0.938748      0.000201067    -0.000307596        -0.198235        0.133711      -0.00057486     0.000942851
                    -0.000431087    -0.000705943        0.0258221       -0.966095     -0.000734441      0.00105492        -0.206752        0.103348
281702                 -0.236989      -0.0293263      0.000885958     0.000834039         0.226241        0.938663     -0.000435306    -0.000770461
                     0.000822791      0.00097143         -0.20021       -0.113472      0.000239846    -0.000172827        0.0254262       -0.965892
                        0.225969        0.938742      0.000201063    -0.000307604         -0.19823        0.133715     -0.000574836     0.000942882
                     -0.00043111    -0.000705925        0.0257918       -0.966096     -0.000734406      0.00105496        -0.206748        0.103353
281702.1               -0.236987       -0.029318      0.000885984     0.000834027          0.22627        0.938656     -0.000435331    -0.000770448
                     0.000822826     0.000971419        -0.200213       -0.113464      0.000239861    -0.000172835        0.0253959       -0.965893
                        0.225998        0.938736      0.000201059    -0.000307613        -0.198224        0.133719     -0.000574811     0.000942914
                    -0.000431133    -0.000705907        0.0257616       -0.966097     -0.000734371        0.001055        -0.206744        0.103357
281702.2               -0.236986      -0.0293096       0.00088601     0.000834015           0.2263         0.93865     -0.000435357    -0.000770436
                     0.000822861     0.000971407        -0.200215       -0.113455      0.000239877    -0.000172842        0.0253656       -0.965894
                        0.226027        0.938729      0.000201055    -0.000307621        -0.198218        0.133723     -0.000574786     0.000942945
                    -0.000431156    -0.000705889        0.0257313       -0.966098     -0.000734337      0.00105505        -0.206739        0.103362
281702.3               -0.236984      -0.0293012      0.000886036     0.000834003         0.226329        0.938644     -0.000435382    -0.000770423
                     0.000822897     0.000971396        -0.200218       -0.113447      0.000239892    -0.000172849        0.0253353       -0.965895
                        0.226056        0.938723      0.000201051     -0.00030763        -0.198212        0.133727     -0.000574761     0.000942976
                    -0.000431179    -0.000705872         0.025701         -0.9661     -0.000734302      0.00105509        -0.206735        0.103367
281702.4               -0.236982      -0.0292928      0.000886063     0.000833991         0.226358        0.938637     -0.000435408    -0.000770411
                     0.000822932     0.000971385         -0.20022       -0.113439      0.000239908    -0.000172857        0.0253051       -0.965897
                        0.226086        0.938716      0.000201047    -0.000307638        -0.198206        0.133731     -0.000574736     0.000943008
                    -0.000431203    -0.000705854        0.0256707       -0.966101     -0.000734267      0.00105514        -0.206731        0.103371
281702.5               -0.236981      -0.0292845      0.000886089     0.000833979         0.226387        0.938631     -0.000435433    -0.000770398
                     0.000822968     0.000971374        -0.200223       -0.113431      0.000239924    -0.000172864        0.0252748       -0.965898
                        0.226115         0.93871      0.000201043    -0.000307647          -0.1982        0.133735     -0.000574711     0.000943039
                    -0.000431226    -0.000705836        0.0256404       -0.966102     -0.000734232      0.00105518        -0.206726        0.103376
281702.6               -0.236979      -0.0292761      0.000886115     0.000833967         0.226416        0.938624     -0.000435459    -0.000770385
                     0.000823003     0.000971363        -0.200226       -0.113423      0.000239939    -0.000172871        0.0252445       -0.965899
                        0.226144        0.938704      0.000201039    -0.000307655        -0.198194        0.133739     -0.000574686      0.00094307
                    -0.000431249    -0.000705818        0.0256101       -0.966103     -0.000734197      0.00105522        -0.206722         0.10338
281702.7               -0.236977      -0.0292677      0.000886141     0.000833955         0.226445        0.938618     -0.000435484    -0.000770373
                     0.000823038     0.000971352        -0.200228       -0.113414      0.000239955    -0.000172879        0.0252142       -0.965901
                        0.226173        0.938697      0.000201035    -0.000307664        -0.198188        0.133743     -0.000574661     0.000943101
                    -0.000431272      -0.0007058        0.0255798       -0.966105     -0.000734163      0.00105527        -0.206718        0.103385
281702.8               -0.236976      -0.0292593      0.000886167     0.000833943         0.226474        0.938612      -0.00043551     -0.00077036
                     0.000823074     0.000971341        -0.200231       -0.113406       0.00023997    -0.000172886         0.025184       -0.965902
                        0.226202        0.938691      0.000201031    -0.000307673        -0.198182        0.133747     -0.000574636     0.000943133
                    -0.000431295    -0.000705783        0.0255496       -0.966106     -0.000734128      0.00105531        -0.206713        0.103389
281702.9               -0.236974       -0.029251      0.000886193     0.000833931         0.226504        0.938605     -0.000435535    -0.000770348
                     0.000823109     0.000971329        -0.200233       -0.113398      0.000239986    -0.000172893        0.0251537       -0.965903
                        0.226231        0.938685      0.000201027    -0.000307681        -0.198176        0.133751     -0.000574611     0.000943164
                    -0.000431318    -0.000705765        0.0255193       -0.966107     -0.000734093      0.00105535        -0.206709        0.103394
281703                 -0.236972      -0.0292426      0.000886219     0.000833919         0.226533        0.938599     -0.000435561    -0.000770335
                     0.000823145     0.000971318        -0.200236        -0.11339      0.000240002    -0.000172901        0.0251234       -0.965904
                        0.226261        0.938678      0.000201023     -0.00030769         -0.19817        0.133755     -0.000574587     0.000943195
                    -0.000431341    -0.000705747         0.025489       -0.966108     -0.000734058       0.0010554        -0.206705        0.103398
281703.1               -0.236971      -0.0292342      0.000886245     0.000833907         0.226562        0.938593     -0.000435587    -0.000770323
                      0.00082318     0.000971307        -0.200238       -0.113382      0.000240017    -0.000172908        0.0250931       -0.965906
                         0.22629        0.938672      0.000201019    -0.000307698        -0.198164        0.133759     -0.000574562     0.000943227
