! TOUCHSTONE file generated by CST MICROWAVE STUDIO
! Date and time: Wed Oct  8 06:55:09 2025
! Project name: Teste_Macro_Metasurface_Nanopilar.cst
! Parameters = {H=600; L_x=105; L_y=165; Lambda=1064; Max_L=200; Min_L=70; PathPara=1; Phi=0; Step_L=10; Theta=0; p=520; phaseX=180; phaseY=0}
! Header version: 2018
! Port assignment regex: !\s*Touchstone port\s*([0-9]+)\s*=\s*(CST MWS port|CST DS port)\s*([0-9]+|Zmin|Zmax)\s*\(\"(.*)\"\)(\s*mode\s*([0-9]+))?.*
! Touchstone port assignment:
! Touchstone port 1 = CST MWS port Zmax ("") mode 1
! Touchstone port 2 = CST MWS port Zmax ("") mode 2
! Touchstone port 3 = CST MWS port Zmin ("") mode 1
! Touchstone port 4 = CST MWS port Zmin ("") mode 2
! S-Parameters are not renormalized. Each port impedance will be approximated by the real part at minimum frequency. The values are described via the [Reference] keyword.
! Default impedance is overridden by [Reference]
[Version] 2.0
# GHz S RI R 376.73
[Number of Ports] 4
[Reference]
376.73 376.73 376.73 376.73 
[Number of Frequencies] 1001
[Network Data]
281700                -0.0900324       -0.143578     -0.000714356     0.000196638        -0.825517       -0.526513     -0.000166642     0.000312307
                    -0.000711579     0.000383446      -0.00263625       0.0177937      0.000139457    -0.000447092         0.983786        0.115109
                       -0.825507        -0.52623      0.000250544    -0.000432288          0.16278       0.0156039       -0.0003129    -0.000676572
                    -0.000228276     0.000369715         0.983734        0.115256     -0.000329499    -0.000686205      -0.00650844       0.0185648
281700.1              -0.0900305       -0.143583     -0.000713902     0.000196514        -0.825536       -0.526483     -0.000166579     0.000312384
                    -0.000711487     0.000383559      -0.00263399       0.0177867      0.000139138    -0.000447428          0.98379        0.115075
                       -0.825525         -0.5262      0.000249792    -0.000431991         0.162786       0.0155879     -0.000312955    -0.000676525
                    -0.000228145      0.00036964         0.983739        0.115221     -0.000329846    -0.000686481      -0.00650797       0.0185582
281700.2              -0.0900285       -0.143589     -0.000713479     0.000196424        -0.825556       -0.526453     -0.000166516     0.000312461
                     -0.00071138     0.000383725      -0.00263173       0.0177797      0.000138778    -0.000447776         0.983793         0.11504
                       -0.825543       -0.526171      0.000249138    -0.000431737         0.162791       0.0155718     -0.000313011    -0.000676466
                    -0.000227985     0.000369443         0.983745        0.115186     -0.000330228    -0.000686769       -0.0065075       0.0185516
281700.3              -0.0900265       -0.143594     -0.000713086     0.000196364        -0.825575       -0.526423     -0.000166453     0.000312539
                    -0.000711269     0.000383995      -0.00262947       0.0177727      0.000138372    -0.000448134         0.983797        0.115005
                       -0.825561       -0.526141      0.000248564    -0.000431516         0.162796       0.0155558     -0.000313067    -0.000676395
                    -0.000227979     0.000368984         0.983751        0.115151     -0.000330646    -0.000687066      -0.00650703        0.018545
281700.4              -0.0900245         -0.1436     -0.000712722     0.000196327        -0.825594       -0.526393      -0.00016639     0.000312618
                    -0.000711237      0.00038448      -0.00262721       0.0177658      0.000137914    -0.000448498         0.983801        0.114971
                       -0.825579       -0.526112      0.000248056    -0.000431323         0.162802       0.0155397     -0.000313125    -0.000676312
                    -0.000228564     0.000368666         0.983756        0.115117     -0.000331108    -0.000687373      -0.00650656       0.0185384
281700.5              -0.0900225       -0.143605     -0.000712384     0.000196309        -0.825613       -0.526362     -0.000166327     0.000312696
                    -0.000711705     0.000385241      -0.00262495       0.0177588      0.000137394    -0.000448865         0.983804        0.114936
                       -0.825597       -0.526082      0.000247604    -0.000431153         0.162807       0.0155237     -0.000313183    -0.000676216
                    -0.000228993     0.000369013         0.983762        0.115082     -0.000331618    -0.000687687      -0.00650609       0.0185318
281700.6              -0.0900205       -0.143611     -0.000712071     0.000196306        -0.825632       -0.526332     -0.000166264     0.000312776
                    -0.000713067     0.000385152      -0.00262269       0.0177518      0.000136806    -0.000449228         0.983808        0.114901
                       -0.825615       -0.526052      0.000247198    -0.000431002         0.162812       0.0155077     -0.000313243    -0.000676107
                    -0.000229017     0.000369327         0.983767        0.115047     -0.000332182    -0.000688006      -0.00650562       0.0185252
281700.7              -0.0900185       -0.143616     -0.000711781     0.000196316        -0.825651       -0.526302     -0.000166201     0.000312855
                    -0.000713368     0.000384032      -0.00262043       0.0177448       0.00013614    -0.000449579         0.983812        0.114866
                       -0.825633       -0.526023      0.000246832    -0.000430867         0.162817       0.0154916     -0.000313303    -0.000675985
                    -0.000228952     0.000369495         0.983773        0.115012     -0.000332808    -0.000688328      -0.00650514       0.0185186
281700.8              -0.0900165       -0.143622     -0.000711512     0.000196335         -0.82567       -0.526272     -0.000166139     0.000312935
                    -0.000712997     0.000383509      -0.00261818       0.0177378      0.000135388    -0.000449906         0.983815        0.114832
                       -0.825651       -0.525993        0.0002465    -0.000430746         0.162823       0.0154756     -0.000313363    -0.000675849
                    -0.000228884     0.000369589         0.983779        0.114977     -0.000333504    -0.000688648      -0.00650467        0.018512
281700.9              -0.0900145       -0.143627     -0.000711262     0.000196362        -0.825689       -0.526241     -0.000166077     0.000313016
                     -0.00071268     0.000383347      -0.00261592       0.0177308       0.00013454    -0.000450195         0.983819        0.114797
                       -0.825669       -0.525963      0.000246197    -0.000430637         0.162828       0.0154595     -0.000313424    -0.000675699
                    -0.000228826     0.000369647         0.983784        0.114942     -0.000334279    -0.000688958      -0.00650419       0.0185054
281701                -0.0900125       -0.143633     -0.000711031     0.000196396        -0.825708       -0.526211     -0.000166014     0.000313097
                    -0.000712459     0.000383306      -0.00261366       0.0177238      0.000133591    -0.000450425         0.983823        0.114763
                       -0.825687       -0.525934       0.00024592    -0.000430538         0.162833       0.0154435     -0.000313486    -0.000675534
                    -0.000228776     0.000369686          0.98379        0.114907     -0.000335143    -0.000689252      -0.00650371       0.0184988
281701.1              -0.0900105       -0.143638     -0.000710815     0.000196434        -0.825727       -0.526181     -0.000165952     0.000313178
                    -0.000712301     0.000383307      -0.00261141       0.0177168      0.000132536    -0.000450571         0.983826        0.114728
                       -0.825705       -0.525904      0.000245666    -0.000430448         0.162839       0.0154274     -0.000313548    -0.000675354
                    -0.000228734     0.000369715         0.983796        0.114872     -0.000336105    -0.000689517      -0.00650323       0.0184922
281701.2              -0.0900085       -0.143644     -0.000710614     0.000196476        -0.825745       -0.526151      -0.00016589      0.00031326
                    -0.000712181     0.000383325      -0.00260915       0.0177097      0.000131376    -0.000450605          0.98383        0.114693
                       -0.825723       -0.525874      0.000245432    -0.000430366         0.162844       0.0154114     -0.000313611    -0.000675158
                    -0.000228697     0.000369737         0.983801        0.114837     -0.000337178    -0.000689737      -0.00650275       0.0184856
281701.3              -0.0900065       -0.143649     -0.000710427     0.000196521        -0.825764       -0.526121     -0.000165828     0.000313343
                    -0.000712085     0.000383349       -0.0026069       0.0177027      0.000130122    -0.000450492         0.983833        0.114659
                       -0.825741       -0.525845      0.000245215    -0.000430291         0.162849       0.0153953     -0.000313673    -0.000674946
                    -0.000228664     0.000369756         0.983807        0.114802      -0.00033837    -0.000689895      -0.00650226        0.018479
281701.4              -0.0900045       -0.143654     -0.000710252     0.000196568        -0.825783        -0.52609     -0.000165767     0.000313425
                    -0.000712005     0.000383376      -0.00260464       0.0176957      0.000128795    -0.000450195         0.983837        0.114624
                       -0.825759       -0.525815      0.000245014    -0.000430222         0.162854       0.0153793     -0.000313736    -0.000674716
                    -0.000228634     0.000369771         0.983813        0.114767     -0.000339692    -0.000689963      -0.00650177       0.0184724
281701.5              -0.0900026        -0.14366     -0.000710089     0.000196617        -0.825802        -0.52606     -0.000165705     0.000313508
                    -0.000711936     0.000383404      -0.00260239       0.0176887      0.000127427    -0.000449679          0.98384         0.11459
                       -0.825777       -0.525786      0.000244827    -0.000430158          0.16286       0.0153633     -0.000313799    -0.000674469
                    -0.000228606     0.000369784         0.983818        0.114732     -0.000341147    -0.000689909      -0.00650129       0.0184659
281701.6              -0.0900006       -0.143665     -0.000709936     0.000196666        -0.825821        -0.52603     -0.000165643     0.000313592
                    -0.000711875     0.000383433      -0.00260014       0.0176816      0.000126071    -0.000448917         0.983844        0.114555
                       -0.825795       -0.525756      0.000244652      -0.0004301         0.162865       0.0153472     -0.000313862    -0.000674204
                     -0.00022858     0.000369796         0.983824        0.114697     -0.000342735    -0.000689695       -0.0065008       0.0184593
281701.7              -0.0899986       -0.143671     -0.000709793     0.000196717         -0.82584       -0.525999     -0.000165582     0.000313676
                    -0.000711821     0.000383462      -0.00259788       0.0176746      0.000124788    -0.000447895         0.983848        0.114521
                       -0.825813       -0.525726      0.000244489    -0.000430045          0.16287       0.0153312     -0.000313924    -0.000673919
                    -0.000228555     0.000369807          0.98383        0.114662     -0.000344446    -0.000689275       -0.0065003       0.0184527
281701.8              -0.0899966       -0.143676     -0.000709659     0.000196768        -0.825859       -0.525969     -0.000165521     0.000313761
                     -0.00071177      0.00038349      -0.00259563       0.0176675      0.000123651    -0.000446621         0.983851        0.114486
                       -0.825831       -0.525697      0.000244336    -0.000429995         0.162876       0.0153151     -0.000313986    -0.000673614
                    -0.000228531     0.000369817         0.983836        0.114627     -0.000346254    -0.000688595      -0.00649981       0.0184461
281701.9              -0.0899946       -0.143682     -0.000709533     0.000196819        -0.825878       -0.525939      -0.00016546     0.000313846
                    -0.000711724     0.000383519      -0.00259338       0.0176605      0.000122731     -0.00044513         0.983855        0.114452
                       -0.825849       -0.525667      0.000244193    -0.000429948         0.162881        0.015299     -0.000314047    -0.000673288
                    -0.000228509     0.000369826         0.983841        0.114592     -0.000348117    -0.000687603      -0.00649931       0.0184396
281702                -0.0899926       -0.143687     -0.000709415      0.00019687        -0.825897       -0.525909     -0.000165399     0.000313931
                    -0.000711679     0.000383547      -0.00259112       0.0176534      0.000122085    -0.000443482         0.983858        0.114418
                       -0.825867       -0.525637      0.000244057    -0.000429904         0.162886        0.015283     -0.000314108     -0.00067294
                    -0.000228487     0.000369835         0.983847        0.114557     -0.000349967    -0.000686251      -0.00649881        0.018433
281702.1              -0.0899906       -0.143693     -0.000709303     0.000196921        -0.825916       -0.525878     -0.000165339     0.000314017
                    -0.000711638     0.000383575      -0.00258887       0.0176463      0.000121748    -0.000441755         0.983862        0.114383
                       -0.825885       -0.525608       0.00024393    -0.000429863         0.162891       0.0152669     -0.000314167    -0.000672569
                    -0.000228466     0.000369843         0.983853        0.114522     -0.000351714    -0.000684508      -0.00649831       0.0184264
281702.2              -0.0899886       -0.143698     -0.000709199     0.000196971        -0.825934       -0.525848     -0.000165278     0.000314103
                    -0.000711597     0.000383603      -0.00258662       0.0176392      0.000121725    -0.000440033         0.983865        0.114349
                       -0.825903       -0.525578       0.00024381    -0.000429825         0.162897       0.0152509     -0.000314225    -0.000672174
                    -0.000228445     0.000369851         0.983859        0.114487     -0.000353244    -0.000682369      -0.00649781       0.0184199
281702.3              -0.0899866       -0.143704       -0.0007091     0.000197021        -0.825953       -0.525818     -0.000165218      0.00031419
                    -0.000711559      0.00038363      -0.00258437       0.0176321      0.000121991    -0.000438394         0.983869        0.114315
                       -0.825921       -0.525548      0.000243696     -0.00042979         0.162902       0.0152348     -0.000314281    -0.000671754
                    -0.000228425     0.000369859         0.983864        0.114452     -0.000354437    -0.000679876       -0.0064973       0.0184133
281702.4              -0.0899847       -0.143709     -0.000709006      0.00019707        -0.825972       -0.525787     -0.000165158     0.000314277
                    -0.000711521     0.000383658      -0.00258211        0.017625      0.000122501    -0.000436901         0.983872         0.11428
                       -0.825939       -0.525519      0.000243588    -0.000429756         0.162907       0.0152188     -0.000314335    -0.000671307
                    -0.000228406     0.000369866          0.98387        0.114416     -0.000355182    -0.000677112      -0.00649679       0.0184068
281702.5              -0.0899827       -0.143715     -0.000708918     0.000197119        -0.825991       -0.525757     -0.000165098     0.000314365
                    -0.000711485     0.000383685      -0.00257986       0.0176179      0.000123197    -0.000435591         0.983876        0.114246
                       -0.825957       -0.525489      0.000243485    -0.000429725         0.162913       0.0152027     -0.000314387    -0.000670832
                    -0.000228386     0.000369873         0.983876        0.114381     -0.000355401    -0.000674208      -0.00649628       0.0184002
281702.6              -0.0899807        -0.14372     -0.000708835     0.000197167         -0.82601       -0.525727     -0.000165038     0.000314453
                     -0.00071145     0.000383712      -0.00257761       0.0176108      0.000124019    -0.000434483         0.983879        0.114212
                       -0.825975        -0.52546      0.000243388    -0.000429696         0.162918       0.0151867     -0.000314435    -0.000670328
                    -0.000228367      0.00036988         0.983882        0.114346     -0.000355067    -0.000671317      -0.00649576       0.0183937
281702.7              -0.0899787       -0.143726     -0.000708756     0.000197214        -0.826028       -0.525696     -0.000164978     0.000314541
                    -0.000711415     0.000383739      -0.00257536       0.0176037      0.000124914    -0.000433574         0.983883        0.114178
                       -0.825993        -0.52543      0.000243295    -0.000429668         0.162923       0.0151706      -0.00031448    -0.000669792
                    -0.000228348     0.000369887         0.983888        0.114311     -0.000354214    -0.000668592      -0.00649525       0.0183871
281702.8              -0.0899767       -0.143731     -0.000708681      0.00019726        -0.826047       -0.525666     -0.000164919      0.00031463
                    -0.000711381     0.000383766       -0.0025731       0.0175966      0.000125837    -0.000432853         0.983886        0.114144
                       -0.826011         -0.5254      0.000243206    -0.000429642         0.162928       0.0151545     -0.000314521    -0.000669224
                     -0.00022833     0.000369894         0.983894        0.114276     -0.000352926    -0.000666158      -0.00649472       0.0183806
281702.9              -0.0899747       -0.143737      -0.00070861     0.000197306        -0.826066       -0.525635      -0.00016486      0.00031472
                    -0.000711347     0.000383792      -0.00257085       0.0175894      0.000126754    -0.000432298          0.98389         0.11411
                       -0.826029       -0.525371      0.000243122    -0.000429617         0.162934       0.0151385     -0.000314558     -0.00066862
                    -0.000228312     0.000369901           0.9839         0.11424     -0.000351316    -0.000664098       -0.0064942        0.018374
281703                -0.0899727       -0.143742     -0.000708543     0.000197351        -0.826085       -0.525605     -0.000164801      0.00031481
                    -0.000711314     0.000383819       -0.0025686       0.0175823      0.000127641    -0.000431887         0.983893        0.114076
                       -0.826047       -0.525341      0.000243041    -0.000429594         0.162939       0.0151224     -0.000314589     -0.00066798
                    -0.000228294     0.000369908         0.983905        0.114205      -0.00034951    -0.000662445      -0.00649367       0.0183675
281703.1              -0.0899708       -0.143748     -0.000708479     0.000197395        -0.826103       -0.525575     -0.000164742       0.0003149
                    -0.000711282     0.000383845      -0.00256634       0.0175751      0.000128484    -0.000431595         0.983897        0.114042
                       -0.826065       -0.525311      0.000242964    -0.000429573         0.162944       0.0151064     -0.000314613    -0.000667301
