! TOUCHSTONE file generated by CST MICROWAVE STUDIO
! Date and time: Wed Oct  8 06:58:54 2025
! Project name: Teste_Macro_Metasurface_Nanopilar.cst
! Parameters = {H=600; L_x=135; L_y=200; Lambda=1064; Max_L=200; Min_L=70; PathPara=1; Phi=0; Step_L=10; Theta=0; p=520; phaseX=180; phaseY=0}
! Header version: 2018
! Port assignment regex: !\s*Touchstone port\s*([0-9]+)\s*=\s*(CST MWS port|CST DS port)\s*([0-9]+|Zmin|Zmax)\s*\(\"(.*)\"\)(\s*mode\s*([0-9]+))?.*
! Touchstone port assignment:
! Touchstone port 1 = CST MWS port Zmax ("") mode 1
! Touchstone port 2 = CST MWS port Zmax ("") mode 2
! Touchstone port 3 = CST MWS port Zmin ("") mode 1
! Touchstone port 4 = CST MWS port Zmin ("") mode 2
! S-Parameters are not renormalized. Each port impedance will be approximated by the real part at minimum frequency. The values are described via the [Reference] keyword.
! Default impedance is overridden by [Reference]
[Version] 2.0
# GHz S RI R 376.73
[Number of Ports] 4
[Reference]
376.73 376.73 376.73 376.73 
[Number of Frequencies] 1001
[Network Data]
281700                -0.0254785      -0.0709954      0.000860803    -0.000864307        -0.992576       0.0154323     -0.000342318     0.000778826
                     0.000892371     -0.00084548        -0.314051        0.279601     -0.000942842     0.000626342         -0.49973       -0.738714
                       -0.992306       0.0154011     -0.000976856     0.000760377        0.0177728      -0.0730905      0.000230277    -0.000500769
                    -0.000568023     0.000909245        -0.499812       -0.738869      0.000194302    -0.000668302        -0.383805        0.161213
281700.1              -0.0254807      -0.0710019      0.000860764    -0.000864318        -0.992575       0.0154624     -0.000342271     0.000778817
                     0.000892335    -0.000845483        -0.314032        0.279603     -0.000942814     0.000626328        -0.499763         -0.7387
                       -0.992305       0.0154312     -0.000976802     0.000760386        0.0177704      -0.0730982      0.000230279    -0.000500767
                    -0.000567992     0.000909231        -0.499845       -0.738855      0.000194184    -0.000668315        -0.383786        0.161226
281700.2              -0.0254828      -0.0710083      0.000860725    -0.000864329        -0.992574       0.0154925     -0.000342223     0.000778807
                       0.0008923    -0.000845487        -0.314014        0.279605     -0.000942786     0.000626313        -0.499795       -0.738687
                       -0.992304       0.0154613     -0.000976747     0.000760395        0.0177679      -0.0731059       0.00023028    -0.000500765
                    -0.000567961     0.000909217        -0.499877       -0.738842      0.000194067    -0.000668328        -0.383767        0.161239
281700.3               -0.025485      -0.0710148      0.000860686    -0.000864341        -0.992573       0.0155226     -0.000342176     0.000778798
                     0.000892264     -0.00084549        -0.313996        0.279607     -0.000942757     0.000626299        -0.499827       -0.738673
                       -0.992303       0.0154914     -0.000976693     0.000760404        0.0177655      -0.0731137      0.000230281    -0.000500764
                     -0.00056793     0.000909203        -0.499909       -0.738828      0.000193949    -0.000668341        -0.383748        0.161253
281700.4              -0.0254871      -0.0710213      0.000860647    -0.000864352        -0.992572       0.0155527     -0.000342128     0.000778789
                     0.000892228    -0.000845494        -0.313977        0.279608     -0.000942729     0.000626284        -0.499859       -0.738659
                       -0.992302       0.0155215     -0.000976639     0.000760412        0.0177631      -0.0731214      0.000230282    -0.000500762
                    -0.000567899     0.000909188        -0.499942       -0.738814      0.000193831    -0.000668354        -0.383729        0.161266
281700.5              -0.0254893      -0.0710277      0.000860609    -0.000864363        -0.992571       0.0155828      -0.00034208     0.000778779
                     0.000892193    -0.000845497        -0.313959         0.27961     -0.000942701      0.00062627        -0.499892       -0.738645
                       -0.992301       0.0155516     -0.000976584     0.000760421        0.0177606      -0.0731291      0.000230284     -0.00050076
                    -0.000567868     0.000909174        -0.499974         -0.7388      0.000193713    -0.000668367        -0.383711         0.16128
281700.6              -0.0254915      -0.0710342       0.00086057    -0.000864374         -0.99257       0.0156129     -0.000342033      0.00077877
                     0.000892157    -0.000845501         -0.31394        0.279612     -0.000942672     0.000626256        -0.499924       -0.738631
                         -0.9923       0.0155817      -0.00097653      0.00076043        0.0177582      -0.0731369      0.000230285    -0.000500759
                    -0.000567837      0.00090916        -0.500006       -0.738786      0.000193595     -0.00066838        -0.383692        0.161293
281700.7              -0.0254936      -0.0710406      0.000860531    -0.000864385        -0.992569        0.015643     -0.000341985     0.000778761
                     0.000892122    -0.000845504        -0.313922        0.279614     -0.000942644     0.000626241        -0.499956       -0.738617
                       -0.992299       0.0156117     -0.000976476     0.000760439        0.0177558      -0.0731446      0.000230286    -0.000500757
                    -0.000567806     0.000909146        -0.500038       -0.738772      0.000193478    -0.000668393        -0.383673        0.161306
281700.8              -0.0254958      -0.0710471      0.000860492    -0.000864397        -0.992568        0.015673     -0.000341938     0.000778751
                     0.000892086    -0.000845508        -0.313903        0.279616     -0.000942616     0.000626227        -0.499988       -0.738603
                       -0.992298       0.0156418     -0.000976421     0.000760448        0.0177533      -0.0731523      0.000230287    -0.000500755
                    -0.000567775     0.000909131        -0.500071       -0.738758       0.00019336    -0.000668406        -0.383654         0.16132
281700.9              -0.0254979      -0.0710536      0.000860453    -0.000864408        -0.992567       0.0157031      -0.00034189     0.000778742
                      0.00089205    -0.000845511        -0.313885        0.279617     -0.000942587     0.000626213        -0.500021       -0.738589
                       -0.992297       0.0156719     -0.000976367     0.000760457        0.0177509      -0.0731601      0.000230289    -0.000500754
                    -0.000567743     0.000909117        -0.500103       -0.738744      0.000193242    -0.000668419        -0.383635        0.161333
281701                -0.0255001        -0.07106      0.000860414    -0.000864419        -0.992566       0.0157332     -0.000341843     0.000778733
                     0.000892015    -0.000845515        -0.313867        0.279619     -0.000942559     0.000626198        -0.500053       -0.738575
                       -0.992296        0.015702     -0.000976313     0.000760465        0.0177485      -0.0731678       0.00023029    -0.000500752
                    -0.000567712     0.000909103        -0.500135        -0.73873      0.000193124    -0.000668432        -0.383616        0.161347
281701.1              -0.0255023      -0.0710665      0.000860376     -0.00086443        -0.992565       0.0157633     -0.000341795     0.000778723
                     0.000891979    -0.000845518        -0.313848        0.279621     -0.000942531     0.000626184        -0.500085       -0.738562
                       -0.992295       0.0157321     -0.000976258     0.000760474         0.017746      -0.0731755      0.000230291     -0.00050075
                    -0.000567681     0.000909089        -0.500168       -0.738716      0.000193006    -0.000668445        -0.383597         0.16136
281701.2              -0.0255044      -0.0710729      0.000860337    -0.000864442        -0.992564       0.0157934     -0.000341748     0.000778714
                     0.000891944    -0.000845521         -0.31383        0.279623     -0.000942503      0.00062617        -0.500118       -0.738548
                       -0.992294       0.0157622     -0.000976204     0.000760483        0.0177436      -0.0731833      0.000230292    -0.000500749
                     -0.00056765     0.000909074          -0.5002       -0.738702      0.000192888    -0.000668458        -0.383578        0.161373
281701.3              -0.0255066      -0.0710794      0.000860298    -0.000864453        -0.992563       0.0158235       -0.0003417     0.000778705
                     0.000891908    -0.000845525        -0.313811        0.279624     -0.000942475     0.000626155         -0.50015       -0.738534
                       -0.992293       0.0157922     -0.000976149     0.000760492        0.0177412       -0.073191      0.000230294    -0.000500747
                    -0.000567619      0.00090906        -0.500232       -0.738688       0.00019277    -0.000668471        -0.383559        0.161387
281701.4              -0.0255088      -0.0710859      0.000860259    -0.000864464        -0.992562       0.0158536     -0.000341653     0.000778695
                     0.000891872    -0.000845528        -0.313793        0.279626     -0.000942447     0.000626141        -0.500182        -0.73852
                       -0.992292       0.0158223     -0.000976095     0.000760501        0.0177387      -0.0731987      0.000230295    -0.000500745
                    -0.000567588     0.000909046        -0.500264       -0.738674      0.000192652    -0.000668484        -0.383541          0.1614
281701.5              -0.0255109      -0.0710923       0.00086022    -0.000864475        -0.992561       0.0158837     -0.000341605     0.000778686
                     0.000891837    -0.000845532        -0.313775        0.279628     -0.000942418     0.000626127        -0.500214       -0.738506
                       -0.992291       0.0158524     -0.000976041      0.00076051        0.0177363      -0.0732065      0.000230296    -0.000500744
                    -0.000567557     0.000909032        -0.500297       -0.738661      0.000192534    -0.000668497        -0.383522        0.161413
281701.6              -0.0255131      -0.0710988      0.000860181    -0.000864486         -0.99256       0.0159138     -0.000341558     0.000778676
                     0.000891801    -0.000845535        -0.313756         0.27963      -0.00094239     0.000626112        -0.500247       -0.738492
                        -0.99229       0.0158825     -0.000975986     0.000760519        0.0177339      -0.0732142      0.000230297    -0.000500742
                    -0.000567526     0.000909017        -0.500329       -0.738647      0.000192416     -0.00066851        -0.383503        0.161427
281701.7              -0.0255153      -0.0711053      0.000860143    -0.000864498        -0.992559       0.0159439      -0.00034151     0.000778667
                     0.000891765    -0.000845539        -0.313738        0.279631     -0.000942362     0.000626098        -0.500279       -0.738478
                       -0.992289       0.0159126     -0.000975932     0.000760527        0.0177314      -0.0732219      0.000230299     -0.00050074
                    -0.000567495     0.000909003        -0.500361       -0.738633      0.000192298    -0.000668523        -0.383484         0.16144
281701.8              -0.0255174      -0.0711117      0.000860104    -0.000864509        -0.992558        0.015974     -0.000341463     0.000778658
                      0.00089173    -0.000845542        -0.313719        0.279633     -0.000942334     0.000626084        -0.500311       -0.738464
                       -0.992288       0.0159427     -0.000975878     0.000760536         0.017729      -0.0732297        0.0002303    -0.000500739
                    -0.000567464     0.000908989        -0.500393       -0.738619       0.00019218    -0.000668535        -0.383465        0.161454
281701.9              -0.0255196      -0.0711182      0.000860065     -0.00086452        -0.992557       0.0160041     -0.000341415     0.000778648
                     0.000891694    -0.000845546        -0.313701        0.279635     -0.000942306      0.00062607        -0.500343        -0.73845
                       -0.992287       0.0159728     -0.000975823     0.000760545        0.0177266      -0.0732374      0.000230301    -0.000500737
                    -0.000567433     0.000908974        -0.500426       -0.738605      0.000192062    -0.000668548        -0.383446        0.161467
281702                -0.0255218      -0.0711246      0.000860026    -0.000864531        -0.992556       0.0160341     -0.000341368     0.000778639
                     0.000891659    -0.000845549        -0.313683        0.279637     -0.000942278     0.000626056        -0.500376       -0.738436
                       -0.992286       0.0160028     -0.000975769     0.000760554        0.0177241      -0.0732451      0.000230302    -0.000500736
                    -0.000567401      0.00090896        -0.500458       -0.738591      0.000191943    -0.000668561        -0.383427         0.16148
281702.1              -0.0255239      -0.0711311      0.000859987    -0.000864542        -0.992555       0.0160642      -0.00034132      0.00077863
                     0.000891623    -0.000845553        -0.313664        0.279638      -0.00094225     0.000626042        -0.500408       -0.738422
                       -0.992285       0.0160329     -0.000975715     0.000760563        0.0177217      -0.0732529      0.000230304    -0.000500734
                     -0.00056737     0.000908946         -0.50049       -0.738577      0.000191825    -0.000668574        -0.383408        0.161494
281702.2              -0.0255261      -0.0711376      0.000859948    -0.000864554        -0.992554       0.0160943     -0.000341273      0.00077862
                     0.000891587    -0.000845556        -0.313646         0.27964     -0.000942222     0.000626027         -0.50044       -0.738409
                       -0.992284        0.016063      -0.00097566     0.000760572        0.0177193      -0.0732606      0.000230305    -0.000500732
                    -0.000567339     0.000908932        -0.500523       -0.738563      0.000191707    -0.000668587        -0.383389        0.161507
281702.3              -0.0255283       -0.071144       0.00085991    -0.000864565        -0.992553       0.0161244     -0.000341225     0.000778611
                     0.000891552     -0.00084556        -0.313627        0.279642     -0.000942194     0.000626013        -0.500473       -0.738395
                       -0.992283       0.0160931     -0.000975606      0.00076058        0.0177168      -0.0732683      0.000230306    -0.000500731
                    -0.000567308     0.000908917        -0.500555       -0.738549      0.000191589      -0.0006686        -0.383371         0.16152
281702.4              -0.0255304      -0.0711505      0.000859871    -0.000864576        -0.992551       0.0161545     -0.000341178     0.000778602
                     0.000891516    -0.000845563        -0.313609        0.279644     -0.000942166     0.000625999        -0.500505       -0.738381
                       -0.992282       0.0161232     -0.000975552     0.000760589        0.0177144      -0.0732761      0.000230307    -0.000500729
                    -0.000567277     0.000908903        -0.500587       -0.738535      0.000191471    -0.000668612        -0.383352        0.161534
281702.5              -0.0255326      -0.0711569      0.000859832    -0.000864587         -0.99255       0.0161846      -0.00034113     0.000778592
                     0.000891481    -0.000845567         -0.31359        0.279645     -0.000942138     0.000625985        -0.500537       -0.738367
                       -0.992281       0.0161533     -0.000975497     0.000760598        0.0177119      -0.0732838      0.000230309    -0.000500728
                    -0.000567246     0.000908889        -0.500619       -0.738521      0.000191353    -0.000668625        -0.383333        0.161547
281702.6              -0.0255348      -0.0711634      0.000859793    -0.000864598        -0.992549       0.0162147     -0.000341083     0.000778583
                     0.000891445     -0.00084557        -0.313572        0.279647      -0.00094211     0.000625971        -0.500569       -0.738353
                        -0.99228       0.0161833     -0.000975443     0.000760607        0.0177095      -0.0732915       0.00023031    -0.000500726
                    -0.000567215     0.000908874        -0.500652       -0.738507      0.000191234    -0.000668638        -0.383314         0.16156
281702.7              -0.0255369      -0.0711699      0.000859754    -0.000864609        -0.992548       0.0162448     -0.000341036     0.000778574
                     0.000891409    -0.000845573        -0.313554        0.279649     -0.000942082     0.000625957        -0.500602       -0.738339
                       -0.992279       0.0162134     -0.000975389     0.000760616        0.0177071      -0.0732992      0.000230311    -0.000500724
                    -0.000567184      0.00090886        -0.500684       -0.738493      0.000191116    -0.000668651        -0.383295        0.161574
281702.8              -0.0255391      -0.0711763      0.000859716    -0.000864621        -0.992547       0.0162749     -0.000340988     0.000778564
                     0.000891374    -0.000845577        -0.313535        0.279651     -0.000942054     0.000625943        -0.500634       -0.738325
                       -0.992278       0.0162435     -0.000975335     0.000760625        0.0177046       -0.073307      0.000230312    -0.000500723
                    -0.000567153     0.000908846        -0.500716       -0.738479      0.000190998    -0.000668663        -0.383276        0.161587
281702.9              -0.0255413      -0.0711828      0.000859677    -0.000864632        -0.992546        0.016305     -0.000340941     0.000778555
                     0.000891338     -0.00084558        -0.313517        0.279652     -0.000942026     0.000625929        -0.500666       -0.738311
                       -0.992277       0.0162736      -0.00097528     0.000760633        0.0177022      -0.0733147      0.000230314    -0.000500721
                    -0.000567122     0.000908831        -0.500748       -0.738465       0.00019088    -0.000668676        -0.383257        0.161601
281703                -0.0255434      -0.0711892      0.000859638    -0.000864643        -0.992545       0.0163351     -0.000340893     0.000778545
                     0.000891303    -0.000845584        -0.313498        0.279654     -0.000941999     0.000625915        -0.500698       -0.738297
                       -0.992276       0.0163037     -0.000975226     0.000760642        0.0176997      -0.0733224      0.000230315     -0.00050072
                    -0.000567091     0.000908817        -0.500781       -0.738451      0.000190761    -0.000668689        -0.383238        0.161614
281703.1              -0.0255456      -0.0711957      0.000859599    -0.000864654        -0.992544       0.0163652     -0.000340846     0.000778536
                     0.000891267    -0.000845587         -0.31348        0.279656     -0.000941971     0.000625901        -0.500731       -0.738283
                       -0.992275       0.0163338     -0.000975172     0.000760651        0.0176973      -0.0733302      0.000230316    -0.000500718
