! TOUCHSTONE file generated by CST MICROWAVE STUDIO
! Date and time: Wed Oct  8 07:01:04 2025
! Project name: Teste_Macro_Metasurface_Nanopilar.cst
! Parameters = {H=600; L_x=155; L_y=150; Lambda=1064; Max_L=200; Min_L=70; PathPara=1; Phi=0; Step_L=10; Theta=0; p=520; phaseX=180; phaseY=0}
! Header version: 2018
! Port assignment regex: !\s*Touchstone port\s*([0-9]+)\s*=\s*(CST MWS port|CST DS port)\s*([0-9]+|Zmin|Zmax)\s*\(\"(.*)\"\)(\s*mode\s*([0-9]+))?.*
! Touchstone port assignment:
! Touchstone port 1 = CST MWS port Zmax ("") mode 1
! Touchstone port 2 = CST MWS port Zmax ("") mode 2
! Touchstone port 3 = CST MWS port Zmin ("") mode 1
! Touchstone port 4 = CST MWS port Zmin ("") mode 2
! S-Parameters are not renormalized. Each port impedance will be approximated by the real part at minimum frequency. The values are described via the [Reference] keyword.
! Default impedance is overridden by [Reference]
[Version] 2.0
# GHz S RI R 376.73
[Number of Ports] 4
[Reference]
376.73 376.73 376.73 376.73 
[Number of Frequencies] 1001
[Network Data]
281700                 -0.304758        0.332518      0.000516307    -0.000273858         -0.51111       -0.714426      -0.00031068    -0.000107198
                     0.000387629    -0.000219297        -0.198816        0.289783     -0.000268944      3.6624e-06        -0.650514       -0.660894
                       -0.511018       -0.714465     -0.000317923    -0.000101526        -0.419638        0.157253      0.000284812    -0.000151689
                    -0.000277571    -7.67014e-05        -0.650163       -0.660781      0.000421532    -0.000242882        -0.298933        0.181672
281700.1                -0.30474         0.33252      0.000516294    -0.000273881         -0.51114       -0.714412     -0.000310681    -0.000107179
                     0.000387619    -0.000219298        -0.198803        0.289783     -0.000268937     3.67578e-06        -0.650537       -0.660875
                       -0.511048       -0.714451     -0.000317929    -0.000101496        -0.419621        0.157267      0.000284811    -0.000151714
                     -0.00027755     -7.6701e-05        -0.650187       -0.660762      0.000421527    -0.000242898        -0.298919        0.181679
281700.2               -0.304722        0.332521      0.000516281    -0.000273905         -0.51117       -0.714398     -0.000310682     -0.00010716
                     0.000387609    -0.000219299         -0.19879        0.289782     -0.000268931     3.68916e-06        -0.650561       -0.660856
                       -0.511078       -0.714437     -0.000317934    -0.000101465        -0.419604        0.157282      0.000284809    -0.000151739
                    -0.000277529    -7.67007e-05        -0.650211       -0.660743      0.000421521    -0.000242915        -0.298906        0.181686
281700.3               -0.304704        0.332523      0.000516268    -0.000273928          -0.5112       -0.714384     -0.000310683    -0.000107141
                     0.000387599      -0.0002193        -0.198777        0.289781     -0.000268925     3.70254e-06        -0.650585       -0.660837
                       -0.511108       -0.714423      -0.00031794    -0.000101435        -0.419587        0.157296      0.000284808    -0.000151764
                    -0.000277508    -7.67004e-05        -0.650235       -0.660724      0.000421516    -0.000242931        -0.298893        0.181693
281700.4               -0.304686        0.332524      0.000516255    -0.000273951         -0.51123        -0.71437     -0.000310685    -0.000107122
                     0.000387589    -0.000219301        -0.198764        0.289781     -0.000268918     3.71592e-06        -0.650609       -0.660818
                       -0.511138       -0.714409     -0.000317946    -0.000101404         -0.41957        0.157311      0.000284807    -0.000151789
                    -0.000277487    -7.67002e-05        -0.650259       -0.660705       0.00042151    -0.000242948        -0.298879          0.1817
281700.5               -0.304668        0.332526      0.000516242    -0.000273974         -0.51126       -0.714356     -0.000310686    -0.000107103
                     0.000387579    -0.000219302        -0.198751         0.28978     -0.000268912     3.72929e-06        -0.650633       -0.660799
                       -0.511168       -0.714395     -0.000317951    -0.000101374        -0.419553        0.157325      0.000284805    -0.000151813
                    -0.000277466       -7.67e-05        -0.650283       -0.660685      0.000421505    -0.000242964        -0.298866        0.181706
281700.6                -0.30465        0.332527      0.000516229    -0.000273998         -0.51129       -0.714342     -0.000310687    -0.000107084
                     0.000387569    -0.000219303        -0.198738        0.289779     -0.000268906     3.74267e-06        -0.650657       -0.660779
                       -0.511198       -0.714381     -0.000317957    -0.000101343        -0.419536         0.15734      0.000284804    -0.000151838
                    -0.000277445    -7.66998e-05        -0.650306       -0.660666      0.000421499    -0.000242981        -0.298853        0.181713
281700.7               -0.304632        0.332528      0.000516216    -0.000274021         -0.51132       -0.714328     -0.000310688    -0.000107065
                     0.000387559    -0.000219304        -0.198725        0.289779     -0.000268899     3.75604e-06        -0.650681        -0.66076
                       -0.511228       -0.714367     -0.000317963    -0.000101312        -0.419519        0.157354      0.000284803    -0.000151863
                    -0.000277424    -7.66997e-05         -0.65033       -0.660647      0.000421494    -0.000242997         -0.29884         0.18172
281700.8               -0.304614         0.33253      0.000516203    -0.000274044         -0.51135       -0.714314      -0.00031069    -0.000107046
                     0.000387549    -0.000219305        -0.198713        0.289778     -0.000268893     3.76941e-06        -0.650704       -0.660741
                       -0.511258       -0.714353     -0.000317968    -0.000101282        -0.419502        0.157369      0.000284802    -0.000151888
                    -0.000277403    -7.66996e-05        -0.650354       -0.660628      0.000421488    -0.000243013        -0.298826        0.181727
281700.9               -0.304596        0.332531       0.00051619    -0.000274067         -0.51138         -0.7143     -0.000310691    -0.000107027
                     0.000387539    -0.000219306          -0.1987        0.289777     -0.000268887     3.78278e-06        -0.650728       -0.660722
                       -0.511288       -0.714339     -0.000317974    -0.000101251        -0.419485        0.157383        0.0002848    -0.000151913
                    -0.000277382    -7.66996e-05        -0.650378       -0.660609      0.000421483     -0.00024303        -0.298813        0.181734
281701                 -0.304579        0.332533      0.000516177    -0.000274091         -0.51141       -0.714286     -0.000310692    -0.000107008
                      0.00038753    -0.000219307        -0.198687        0.289776     -0.000268881     3.79614e-06        -0.650752       -0.660703
                       -0.511318       -0.714325      -0.00031798    -0.000101221        -0.419468        0.157398      0.000284799    -0.000151938
                    -0.000277362    -7.66996e-05        -0.650402        -0.66059      0.000421477    -0.000243046          -0.2988        0.181741
281701.1               -0.304561        0.332534      0.000516165    -0.000274114         -0.51144       -0.714272     -0.000310694    -0.000106989
                      0.00038752    -0.000219308        -0.198674        0.289776     -0.000268874     3.80951e-06        -0.650776       -0.660684
                       -0.511348       -0.714311     -0.000317985     -0.00010119        -0.419451        0.157412      0.000284798    -0.000151962
                    -0.000277341    -7.66997e-05        -0.650426       -0.660571      0.000421472    -0.000243063        -0.298787        0.181748
281701.2               -0.304543        0.332536      0.000516152    -0.000274137         -0.51147       -0.714258     -0.000310695    -0.000106969
                      0.00038751    -0.000219309        -0.198661        0.289775     -0.000268868     3.82287e-06          -0.6508       -0.660665
                       -0.511378       -0.714297     -0.000317991    -0.000101159        -0.419434        0.157427      0.000284797    -0.000151987
                     -0.00027732    -7.66998e-05         -0.65045       -0.660552      0.000421466    -0.000243079        -0.298773        0.181755
281701.3               -0.304525        0.332537      0.000516139     -0.00027416          -0.5115       -0.714244     -0.000310696     -0.00010695
                       0.0003875     -0.00021931        -0.198648        0.289774     -0.000268862     3.83623e-06        -0.650824       -0.660645
                       -0.511408       -0.714283     -0.000317996    -0.000101129        -0.419417        0.157441      0.000284796    -0.000152012
                    -0.000277299    -7.66999e-05        -0.650473       -0.660533      0.000421461    -0.000243096         -0.29876        0.181761
281701.4               -0.304507        0.332539      0.000516126    -0.000274183         -0.51153        -0.71423     -0.000310697    -0.000106931
                      0.00038749    -0.000219311        -0.198635        0.289774     -0.000268855     3.84959e-06        -0.650848       -0.660626
                       -0.511438       -0.714269     -0.000318002    -0.000101098          -0.4194        0.157456      0.000284794    -0.000152037
                    -0.000277278    -7.67001e-05        -0.650497       -0.660513      0.000421455    -0.000243112        -0.298747        0.181768
281701.5               -0.304489         0.33254      0.000516113    -0.000274207         -0.51156       -0.714216     -0.000310699    -0.000106912
                      0.00038748    -0.000219312        -0.198622        0.289773     -0.000268849     3.86295e-06        -0.650871       -0.660607
                       -0.511468       -0.714255     -0.000318008    -0.000101068        -0.419383        0.157471      0.000284793    -0.000152062
                    -0.000277257    -7.67003e-05        -0.650521       -0.660494       0.00042145    -0.000243128        -0.298733        0.181775
281701.6               -0.304471        0.332542        0.0005161     -0.00027423         -0.51159       -0.714202       -0.0003107    -0.000106893
                      0.00038747    -0.000219313        -0.198609        0.289772     -0.000268843      3.8763e-06        -0.650895       -0.660588
                       -0.511498       -0.714241     -0.000318013    -0.000101037        -0.419366        0.157485      0.000284792    -0.000152087
                    -0.000277237    -7.67006e-05        -0.650545       -0.660475      0.000421444    -0.000243145         -0.29872        0.181782
281701.7               -0.304453        0.332543      0.000516087    -0.000274253         -0.51162       -0.714188     -0.000310701    -0.000106874
                      0.00038746    -0.000219314        -0.198596        0.289771     -0.000268836     3.88966e-06        -0.650919       -0.660569
                       -0.511527       -0.714227     -0.000318019    -0.000101007        -0.419349          0.1575      0.000284791    -0.000152112
                    -0.000277216    -7.67009e-05        -0.650569       -0.660456      0.000421439    -0.000243161        -0.298707        0.181789
281701.8               -0.304435        0.332545      0.000516074    -0.000274276         -0.51165       -0.714174     -0.000310702    -0.000106855
                      0.00038745    -0.000219315        -0.198583        0.289771      -0.00026883     3.90301e-06        -0.650943        -0.66055
                       -0.511557       -0.714213     -0.000318024    -0.000100976        -0.419332        0.157514       0.00028479    -0.000152137
                    -0.000277195    -7.67013e-05        -0.650593       -0.660437      0.000421433    -0.000243178        -0.298694        0.181796
281701.9               -0.304417        0.332546      0.000516061      -0.0002743         -0.51168        -0.71416     -0.000310704    -0.000106835
                      0.00038744    -0.000219316         -0.19857         0.28977     -0.000268824     3.91636e-06        -0.650967       -0.660531
                       -0.511587       -0.714199      -0.00031803    -0.000100945        -0.419315        0.157529      0.000284789    -0.000152161
                    -0.000277174    -7.67017e-05        -0.650617       -0.660418      0.000421427    -0.000243194         -0.29868        0.181803
281702                 -0.304399        0.332548      0.000516049    -0.000274323        -0.511709       -0.714146     -0.000310705    -0.000106816
                     0.000387431    -0.000219317        -0.198557        0.289769     -0.000268817     3.92971e-06        -0.650991       -0.660512
                       -0.511617       -0.714185     -0.000318036    -0.000100915        -0.419298        0.157543      0.000284788    -0.000152186
                    -0.000277153    -7.67022e-05         -0.65064       -0.660399      0.000421422     -0.00024321        -0.298667        0.181809
281702.1               -0.304381        0.332549      0.000516036    -0.000274346        -0.511739       -0.714132     -0.000310706    -0.000106797
                     0.000387421    -0.000219318        -0.198544        0.289769     -0.000268811     3.94306e-06        -0.651015       -0.660492
                       -0.511647       -0.714171     -0.000318041    -0.000100884        -0.419281        0.157558      0.000284786    -0.000152211
                    -0.000277133    -7.67027e-05        -0.650664        -0.66038      0.000421416    -0.000243227        -0.298654        0.181816
281702.2               -0.304364         0.33255      0.000516023    -0.000274369        -0.511769       -0.714118     -0.000310707    -0.000106778
                     0.000387411    -0.000219319        -0.198531        0.289768     -0.000268805      3.9564e-06        -0.651038       -0.660473
                       -0.511677       -0.714157     -0.000318047    -0.000100853        -0.419264        0.157572      0.000284785    -0.000152236
                    -0.000277112    -7.67032e-05        -0.650688        -0.66036      0.000421411    -0.000243243        -0.298641        0.181823
281702.3               -0.304346        0.332552       0.00051601    -0.000274392        -0.511799       -0.714104     -0.000310709    -0.000106759
                     0.000387401     -0.00021932        -0.198519        0.289767     -0.000268799     3.96975e-06        -0.651062       -0.660454
                       -0.511707       -0.714143     -0.000318052    -0.000100823        -0.419247        0.157587      0.000284784    -0.000152261
                    -0.000277091    -7.67038e-05        -0.650712       -0.660341      0.000421405     -0.00024326        -0.298627         0.18183
281702.4               -0.304328        0.332553      0.000515997    -0.000274416        -0.511829        -0.71409      -0.00031071    -0.000106739
                     0.000387391    -0.000219321        -0.198506        0.289766     -0.000268792     3.98309e-06        -0.651086       -0.660435
                       -0.511737       -0.714129     -0.000318058    -0.000100792         -0.41923        0.157601      0.000284783    -0.000152286
                     -0.00027707    -7.67044e-05        -0.650736       -0.660322        0.0004214    -0.000243276        -0.298614        0.181837
281702.5                -0.30431        0.332555      0.000515984    -0.000274439        -0.511859       -0.714076     -0.000310711     -0.00010672
                     0.000387381    -0.000219322        -0.198493        0.289766     -0.000268786     3.99643e-06         -0.65111       -0.660416
                       -0.511767       -0.714115     -0.000318064    -0.000100762        -0.419213        0.157616      0.000284782    -0.000152311
                     -0.00027705    -7.67051e-05         -0.65076       -0.660303      0.000421394    -0.000243293        -0.298601        0.181844
281702.6               -0.304292        0.332556      0.000515971    -0.000274462        -0.511889       -0.714062     -0.000310713    -0.000106701
                     0.000387372    -0.000219323         -0.19848        0.289765      -0.00026878     4.00977e-06        -0.651134       -0.660397
                       -0.511797       -0.714101     -0.000318069    -0.000100731        -0.419197         0.15763      0.000284781    -0.000152336
                    -0.000277029    -7.67058e-05        -0.650784       -0.660284      0.000421389    -0.000243309        -0.298587        0.181851
281702.7               -0.304274        0.332558      0.000515958    -0.000274485        -0.511919       -0.714048     -0.000310714    -0.000106682
                     0.000387362    -0.000219324        -0.198467        0.289764     -0.000268773      4.0231e-06        -0.651158       -0.660378
                       -0.511827       -0.714087     -0.000318075      -0.0001007         -0.41918        0.157645       0.00028478    -0.000152361
                    -0.000277008    -7.67065e-05        -0.650807       -0.660265      0.000421383    -0.000243325        -0.298574        0.181857
281702.8               -0.304256        0.332559      0.000515946    -0.000274509        -0.511949       -0.714034     -0.000310715    -0.000106662
                     0.000387352    -0.000219325        -0.198454        0.289764     -0.000268767     4.03644e-06        -0.651182       -0.660358
                       -0.511857       -0.714073      -0.00031808     -0.00010067        -0.419163        0.157659      0.000284779    -0.000152386
                    -0.000276987    -7.67073e-05        -0.650831       -0.660246      0.000421378    -0.000243342        -0.298561        0.181864
281702.9               -0.304238        0.332561      0.000515933    -0.000274532        -0.511979        -0.71402     -0.000310716    -0.000106643
                     0.000387342    -0.000219326        -0.198441        0.289763     -0.000268761     4.04977e-06        -0.651205       -0.660339
                       -0.511887       -0.714059     -0.000318086    -0.000100639        -0.419146        0.157674      0.000284778    -0.000152411
                    -0.000276967    -7.67082e-05        -0.650855       -0.660227      0.000421372    -0.000243358        -0.298548        0.181871
281703                  -0.30422        0.332562       0.00051592    -0.000274555        -0.512009       -0.714006     -0.000310718    -0.000106624
                     0.000387333    -0.000219327        -0.198428        0.289762     -0.000268754     4.06311e-06        -0.651229        -0.66032
                       -0.511917       -0.714045     -0.000318091    -0.000100609        -0.419129        0.157688      0.000284777    -0.000152436
                    -0.000276946     -7.6709e-05        -0.650879       -0.660207      0.000421367    -0.000243374        -0.298534        0.181878
281703.1               -0.304202        0.332564      0.000515907    -0.000274578        -0.512039       -0.713992     -0.000310719    -0.000106605
                     0.000387323    -0.000219329        -0.198415        0.289761     -0.000268748     4.07644e-06        -0.651253       -0.660301
                       -0.511947       -0.714031     -0.000318097    -0.000100578        -0.419112        0.157703      0.000284776    -0.000152461
