! TOUCHSTONE file generated by CST MICROWAVE STUDIO
! Date and time: Wed Oct  8 06:53:25 2025
! Project name: Teste_Macro_Metasurface_Nanopilar.cst
! Parameters = {H=600; L_x=90; L_y=175; Lambda=1064; Max_L=200; Min_L=70; PathPara=1; Phi=0; Step_L=10; Theta=0; p=520; phaseX=180; phaseY=0}
! Header version: 2018
! Port assignment regex: !\s*Touchstone port\s*([0-9]+)\s*=\s*(CST MWS port|CST DS port)\s*([0-9]+|Zmin|Zmax)\s*\(\"(.*)\"\)(\s*mode\s*([0-9]+))?.*
! Touchstone port assignment:
! Touchstone port 1 = CST MWS port Zmax ("") mode 1
! Touchstone port 2 = CST MWS port Zmax ("") mode 2
! Touchstone port 3 = CST MWS port Zmin ("") mode 1
! Touchstone port 4 = CST MWS port Zmin ("") mode 2
! S-Parameters are not renormalized. Each port impedance will be approximated by the real part at minimum frequency. The values are described via the [Reference] keyword.
! Default impedance is overridden by [Reference]
[Version] 2.0
# GHz S RI R 376.73
[Number of Ports] 4
[Reference]
376.73 376.73 376.73 376.73 
[Number of Frequencies] 1001
[Network Data]
281700                 -0.118917       -0.103516     -0.000340118    -0.000337239        -0.706183       -0.682143     -0.000122264    -8.54441e-05
                    -0.000373143    -0.000323949        -0.152313        -0.15318      0.000436727     5.88181e-06        -0.190448        0.954175
                       -0.706315       -0.682157      0.000206554    -7.61675e-05           0.1048        0.111604      0.000150138    -0.000524456
                    -0.000108146    -3.76159e-05        -0.190377        0.953739     -0.000108474    -0.000337365        -0.199492       0.0833028
281700.1               -0.118913       -0.103517     -0.000340035    -0.000337439        -0.706206        -0.68212     -0.000122267    -8.54386e-05
                    -0.000373156    -0.000323933        -0.152317       -0.153174      0.000436738     5.86013e-06         -0.19042         0.95418
                       -0.706339       -0.682133      0.000209137    -7.69035e-05         0.104809        0.111593      0.000150117    -0.000524443
                    -0.000108126    -3.76141e-05        -0.190349        0.953745     -0.000108485    -0.000337347        -0.199488       0.0833068
281700.2               -0.118909       -0.103518     -0.000339955    -0.000337638        -0.706229       -0.682096      -0.00012227    -8.54331e-05
                    -0.000373169    -0.000323916        -0.152322       -0.153168       0.00043675     5.83844e-06        -0.190393        0.954186
                       -0.706362        -0.68211      0.000211694    -7.75093e-05         0.104817        0.111582      0.000150096     -0.00052443
                    -0.000108106    -3.76122e-05        -0.190322        0.953751     -0.000108496    -0.000337329        -0.199485       0.0833108
281700.3               -0.118906       -0.103519     -0.000339875    -0.000337834        -0.706252       -0.682072     -0.000122273    -8.54277e-05
                    -0.000373182      -0.0003239        -0.152326       -0.153162      0.000436762     5.81675e-06        -0.190365        0.954192
                       -0.706385       -0.682086      0.000214212    -7.79907e-05         0.104826        0.111572      0.000150075    -0.000524417
                    -0.000108086    -3.76104e-05        -0.190294        0.953757     -0.000108507    -0.000337311        -0.199482       0.0833148
281700.4               -0.118902        -0.10352     -0.000339798    -0.000338028        -0.706275       -0.682049     -0.000122276    -8.54222e-05
                    -0.000373194    -0.000323883        -0.152331       -0.153155      0.000436773     5.79506e-06        -0.190337        0.954198
                       -0.706408       -0.682063      0.000216681    -7.83543e-05         0.104834        0.111561      0.000150054    -0.000524404
                    -0.000108066    -3.76086e-05        -0.190267        0.953764     -0.000108519    -0.000337294        -0.199479       0.0833187
281700.5               -0.118899       -0.103521     -0.000339722     -0.00033822        -0.706298       -0.682025      -0.00012228    -8.54168e-05
                    -0.000373207    -0.000323866        -0.152335       -0.153149      0.000436785     5.77337e-06         -0.19031        0.954204
                       -0.706431       -0.682039      0.000219091    -7.86076e-05         0.104843         0.11155      0.000150033    -0.000524391
                    -0.000108047    -3.76068e-05        -0.190239         0.95377      -0.00010853    -0.000337276        -0.199476       0.0833227
281700.6               -0.118895       -0.103522     -0.000339648    -0.000338408        -0.706321       -0.682002     -0.000122283    -8.54114e-05
                     -0.00037322     -0.00032385        -0.152339       -0.153143      0.000436797     5.75168e-06        -0.190282        0.954209
                       -0.706454       -0.682016      0.000221433     -7.8759e-05         0.104851        0.111539      0.000150012    -0.000524378
                    -0.000108027     -3.7605e-05        -0.190212        0.953776     -0.000108541    -0.000337258        -0.199473       0.0833267
281700.7               -0.118891       -0.103523     -0.000339576    -0.000338593        -0.706344       -0.681978     -0.000122286     -8.5406e-05
                    -0.000373233    -0.000323833        -0.152344       -0.153136      0.000436808     5.72999e-06        -0.190255        0.954215
                       -0.706477       -0.681992        0.0002237     -7.8817e-05         0.104859        0.111528      0.000149991    -0.000524365
                    -0.000108007    -3.76031e-05        -0.190184        0.953781     -0.000108552     -0.00033724         -0.19947       0.0833307
281700.8               -0.118888       -0.103524     -0.000339506    -0.000338773        -0.706367       -0.681955     -0.000122289    -8.54006e-05
                    -0.000373246    -0.000323817        -0.152348        -0.15313       0.00043682      5.7083e-06        -0.190227        0.954221
                         -0.7065       -0.681969      0.000225885     -7.8791e-05         0.104868        0.111517       0.00014997    -0.000524352
                    -0.000107987    -3.76013e-05        -0.190157        0.953787     -0.000108564    -0.000337222        -0.199467       0.0833347
281700.9               -0.118884       -0.103526     -0.000339439    -0.000338949        -0.706391       -0.681931     -0.000122292    -8.53952e-05
                    -0.000373259      -0.0003238        -0.152353       -0.153124      0.000436832      5.6866e-06        -0.190199        0.954227
                       -0.706523       -0.681945      0.000227982    -7.86903e-05         0.104876        0.111506      0.000149949    -0.000524339
                    -0.000107967    -3.75995e-05        -0.190129        0.953793     -0.000108575    -0.000337204        -0.199463       0.0833387
281701                  -0.11888       -0.103527     -0.000339373    -0.000339121        -0.706414       -0.681908     -0.000122296    -8.53898e-05
                    -0.000373271    -0.000323784        -0.152357       -0.153118      0.000436843      5.6649e-06        -0.190172        0.954233
                       -0.706547       -0.681922      0.000229986    -7.85245e-05         0.104885        0.111495      0.000149928    -0.000524326
                    -0.000107947    -3.75977e-05        -0.190102        0.953799     -0.000108586    -0.000337187         -0.19946       0.0833427
281701.1               -0.118877       -0.103528      -0.00033931    -0.000339287        -0.706437       -0.681884     -0.000122299    -8.53844e-05
                    -0.000373284    -0.000323767        -0.152362       -0.153111      0.000436855     5.64321e-06        -0.190144        0.954238
                        -0.70657       -0.681898      0.000231894    -7.83028e-05         0.104893        0.111484      0.000149907    -0.000524313
                    -0.000107927    -3.75959e-05        -0.190074        0.953805     -0.000108597    -0.000337169        -0.199457       0.0833466
281701.2               -0.118873       -0.103529      -0.00033925    -0.000339447         -0.70646       -0.681861     -0.000122302    -8.53791e-05
                    -0.000373297    -0.000323751        -0.152366       -0.153105      0.000436867     5.62151e-06        -0.190117        0.954244
                       -0.706593       -0.681875      0.000233702    -7.80348e-05         0.104902        0.111473      0.000149887    -0.000524301
                    -0.000107907     -3.7594e-05        -0.190046        0.953811     -0.000108609    -0.000337151        -0.199454       0.0833506
281701.3               -0.118869        -0.10353     -0.000339192    -0.000339601        -0.706483       -0.681837     -0.000122306    -8.53737e-05
                     -0.00037331    -0.000323734        -0.152371       -0.153099      0.000436879     5.59981e-06        -0.190089         0.95425
                       -0.706616       -0.681851      0.000235409    -7.77295e-05          0.10491        0.111463      0.000149866    -0.000524288
                    -0.000107887    -3.75922e-05        -0.190019        0.953817      -0.00010862    -0.000337133        -0.199451       0.0833546
281701.4               -0.118866       -0.103531     -0.000339137    -0.000339748        -0.706506       -0.681814     -0.000122309    -8.53683e-05
                    -0.000373322    -0.000323717        -0.152375       -0.153092       0.00043689      5.5781e-06        -0.190061        0.954256
                       -0.706639       -0.681828      0.000237013    -7.73957e-05         0.104918        0.111452      0.000149845    -0.000524275
                    -0.000107867    -3.75904e-05        -0.189991        0.953823     -0.000108631    -0.000337115        -0.199448       0.0833586
281701.5               -0.118862       -0.103532     -0.000339085    -0.000339888        -0.706529        -0.68179     -0.000122312    -8.53628e-05
                    -0.000373335    -0.000323701         -0.15238       -0.153086      0.000436902      5.5564e-06        -0.190034        0.954261
                       -0.706662       -0.681804      0.000238512    -7.70419e-05         0.104927        0.111441      0.000149824    -0.000524262
                    -0.000107848    -3.75886e-05        -0.189964        0.953829     -0.000108642    -0.000337098        -0.199445       0.0833626
281701.6               -0.118859       -0.103533     -0.000339036     -0.00034002        -0.706552       -0.681767     -0.000122316    -8.53574e-05
                    -0.000373348    -0.000323684        -0.152384        -0.15308      0.000436914     5.53469e-06        -0.190006        0.954267
                       -0.706685       -0.681781      0.000239905    -7.66762e-05         0.104935         0.11143      0.000149803    -0.000524249
                    -0.000107828    -3.75867e-05        -0.189936        0.953835     -0.000108653     -0.00033708        -0.199442       0.0833666
281701.7               -0.118855       -0.103534      -0.00033899    -0.000340143        -0.706575       -0.681743     -0.000122319     -8.5352e-05
                     -0.00037336    -0.000323668        -0.152389       -0.153073      0.000436925     5.51299e-06        -0.189979        0.954273
                       -0.706708       -0.681757      0.000241194    -7.63061e-05         0.104944        0.111419      0.000149782    -0.000524236
                    -0.000107808    -3.75849e-05        -0.189909        0.953841     -0.000108665    -0.000337062        -0.199438       0.0833705
281701.8               -0.118851       -0.103535     -0.000338947    -0.000340258        -0.706598        -0.68172     -0.000122323    -8.53465e-05
                    -0.000373373    -0.000323651        -0.152393       -0.153067      0.000436937     5.49128e-06        -0.189951        0.954279
                       -0.706731       -0.681733      0.000242377    -7.59389e-05         0.104952        0.111408      0.000149761    -0.000524223
                    -0.000107788    -3.75831e-05        -0.189881        0.953847     -0.000108676    -0.000337044        -0.199435       0.0833745
281701.9               -0.118848       -0.103536     -0.000338908    -0.000340364        -0.706622       -0.681696     -0.000122326    -8.53411e-05
                    -0.000373386    -0.000323634        -0.152398       -0.153061      0.000436949     5.46957e-06        -0.189923        0.954285
                       -0.706754        -0.68171      0.000243455    -7.55812e-05          0.10496        0.111397       0.00014974     -0.00052421
                    -0.000107768    -3.75813e-05        -0.189854        0.953853     -0.000108687    -0.000337027        -0.199432       0.0833785
281702                 -0.118844       -0.103537     -0.000338872     -0.00034046        -0.706645       -0.681673      -0.00012233    -8.53356e-05
                    -0.000373398    -0.000323618        -0.152402       -0.153055      0.000436961     5.44786e-06        -0.189896         0.95429
                       -0.706777       -0.681686      0.000244428    -7.52394e-05         0.104969        0.111386      0.000149719    -0.000524197
                    -0.000107748    -3.75794e-05        -0.189826        0.953859     -0.000108698    -0.000337009        -0.199429       0.0833825
281702.1                -0.11884       -0.103538     -0.000338839    -0.000340545        -0.706668       -0.681649     -0.000122333    -8.53301e-05
                    -0.000373411    -0.000323601        -0.152407       -0.153048      0.000436972     5.42614e-06        -0.189868        0.954296
                       -0.706801       -0.681663      0.000245297     -7.4919e-05         0.104977        0.111375      0.000149698    -0.000524184
                    -0.000107728    -3.75776e-05        -0.189798        0.953864     -0.000108709    -0.000336991        -0.199426       0.0833865
281702.2               -0.118837       -0.103539     -0.000338811    -0.000340619        -0.706691       -0.681626     -0.000122337    -8.53247e-05
                    -0.000373424    -0.000323584        -0.152411       -0.153042      0.000436984     5.40443e-06        -0.189841        0.954302
                       -0.706824       -0.681639      0.000246061    -7.46255e-05         0.104986        0.111364      0.000149677    -0.000524171
                    -0.000107709    -3.75758e-05        -0.189771         0.95387     -0.000108721    -0.000336973        -0.199423       0.0833905
281702.3               -0.118833        -0.10354     -0.000338786    -0.000340682        -0.706714       -0.681602     -0.000122341    -8.53192e-05
                    -0.000373436    -0.000323568        -0.152415       -0.153036      0.000436996     5.38271e-06        -0.189813        0.954308
                       -0.706847       -0.681616      0.000246721    -7.43636e-05         0.104994        0.111353      0.000149656    -0.000524158
                    -0.000107689    -3.75739e-05        -0.189743        0.953876     -0.000108732    -0.000336956         -0.19942       0.0833945
281702.4               -0.118829       -0.103541     -0.000338765    -0.000340733        -0.706737       -0.681579     -0.000122344    -8.53136e-05
                    -0.000373449    -0.000323551         -0.15242       -0.153029      0.000437008     5.36099e-06        -0.189785        0.954313
                        -0.70687       -0.681592      0.000247277    -7.41377e-05         0.105002        0.111343      0.000149635    -0.000524145
                    -0.000107669    -3.75721e-05        -0.189716        0.953882     -0.000108743    -0.000336938        -0.199416       0.0833984
281702.5               -0.118826       -0.103542     -0.000338748    -0.000340772         -0.70676       -0.681555     -0.000122348    -8.53081e-05
                    -0.000373462    -0.000323534        -0.152424       -0.153023       0.00043702     5.33927e-06        -0.189758        0.954319
                       -0.706893       -0.681569      0.000247728    -7.39516e-05         0.105011        0.111332      0.000149615    -0.000524132
                    -0.000107649    -3.75703e-05        -0.189688        0.953888     -0.000108754     -0.00033692        -0.199413       0.0834024
281702.6               -0.118822       -0.103543     -0.000338735    -0.000340797        -0.706783       -0.681532     -0.000122351    -8.53026e-05
                    -0.000373474    -0.000323518        -0.152429       -0.153017      0.000437031     5.31755e-06         -0.18973        0.954325
                       -0.706916       -0.681545      0.000248073    -7.38087e-05         0.105019        0.111321      0.000149594    -0.000524119
                    -0.000107629    -3.75684e-05         -0.18966        0.953894     -0.000108765    -0.000336902         -0.19941       0.0834064
281702.7               -0.118819       -0.103544     -0.000338727     -0.00034081        -0.706806       -0.681508     -0.000122355     -8.5297e-05
                    -0.000373487    -0.000323501        -0.152433        -0.15301      0.000437043     5.29583e-06        -0.189703        0.954331
                       -0.706939       -0.681522      0.000248311    -7.37119e-05         0.105028         0.11131      0.000149573    -0.000524106
                    -0.000107609    -3.75666e-05        -0.189633        0.953899     -0.000108776    -0.000336885        -0.199407       0.0834104
281702.8               -0.118815       -0.103545     -0.000338723    -0.000340808        -0.706829       -0.681484     -0.000122359    -8.52915e-05
                    -0.000373499    -0.000323485        -0.152438       -0.153004      0.000437055      5.2741e-06        -0.189675        0.954337
                       -0.706962       -0.681498      0.000248442    -7.36636e-05         0.105036        0.111299      0.000149552    -0.000524093
                    -0.000107589    -3.75647e-05        -0.189605        0.953905     -0.000108788    -0.000336867        -0.199404       0.0834144
281702.9               -0.118811       -0.103546     -0.000338723    -0.000340793        -0.706852       -0.681461     -0.000122362    -8.52859e-05
                    -0.000373512    -0.000323468        -0.152442       -0.152998      0.000437067     5.25237e-06        -0.189647        0.954342
                       -0.706985       -0.681475      0.000248461    -7.36658e-05         0.105045        0.111288      0.000149531     -0.00052408
                     -0.00010757    -3.75629e-05        -0.189578        0.953911     -0.000108799    -0.000336849        -0.199401       0.0834184
281703                 -0.118808       -0.103547     -0.000338728    -0.000340762        -0.706875       -0.681437     -0.000122366    -8.52803e-05
                    -0.000373525    -0.000323451        -0.152447       -0.152991      0.000437079     5.23064e-06         -0.18962        0.954348
                       -0.707008       -0.681451      0.000248368    -7.37198e-05         0.105053        0.111277       0.00014951    -0.000524067
                     -0.00010755    -3.75611e-05         -0.18955        0.953917      -0.00010881    -0.000336832        -0.199398       0.0834223
281703.1               -0.118804       -0.103548     -0.000338737    -0.000340718        -0.706899       -0.681414      -0.00012237    -8.52747e-05
                    -0.000373537    -0.000323435        -0.152451       -0.152985       0.00043709     5.20891e-06        -0.189592        0.954354
                       -0.707031       -0.681428      0.000248158    -7.38262e-05         0.105061        0.111266      0.000149489    -0.000524054
