! TOUCHSTONE file generated by CST MICROWAVE STUDIO
! Date and time: Wed Oct  8 06:50:53 2025
! Project name: Teste_Macro_Metasurface_Nanopilar.cst
! Parameters = {H=600; L_x=70; L_y=145; Lambda=1064; Max_L=200; Min_L=70; PathPara=1; Phi=0; Step_L=10; Theta=0; p=520; phaseX=180; phaseY=0}
! Header version: 2018
! Port assignment regex: !\s*Touchstone port\s*([0-9]+)\s*=\s*(CST MWS port|CST DS port)\s*([0-9]+|Zmin|Zmax)\s*\(\"(.*)\"\)(\s*mode\s*([0-9]+))?.*
! Touchstone port assignment:
! Touchstone port 1 = CST MWS port Zmax ("") mode 1
! Touchstone port 2 = CST MWS port Zmax ("") mode 2
! Touchstone port 3 = CST MWS port Zmin ("") mode 1
! Touchstone port 4 = CST MWS port Zmin ("") mode 2
! S-Parameters are not renormalized. Each port impedance will be approximated by the real part at minimum frequency. The values are described via the [Reference] keyword.
! Default impedance is overridden by [Reference]
[Version] 2.0
# GHz S RI R 376.73
[Number of Ports] 4
[Reference]
376.73 376.73 376.73 376.73 
[Number of Frequencies] 1001
[Network Data]
281700                -0.0844011        0.288395      0.000196722    -7.18642e-05         0.793245        0.513701      4.33526e-05     0.000228837
                     0.000179775     4.35811e-05         0.116344     -0.00292413      -0.00023919     -0.00023351         -0.94163        0.313041
                        0.793338        0.513746      7.29996e-05    -0.000157424           -0.232        0.194496      0.000319347     0.000214013
                     3.46101e-05     0.000263242        -0.941949        0.313518      0.000254961     8.89774e-05       -0.0950181       0.0674767
281700.1              -0.0843897        0.288394      0.000196721    -7.18757e-05         0.793263        0.513675      4.33586e-05     0.000228848
                     0.000179794     4.35852e-05         0.116342     -0.00292957      -0.00023857    -0.000233303        -0.941621        0.313066
                        0.793356        0.513721      7.30057e-05    -0.000157415        -0.231991          0.1945      0.000319352     0.000214039
                     3.46103e-05     0.000263242         -0.94194        0.313543       0.00025557     8.86335e-05       -0.0950158       0.0674759
281700.2              -0.0843784        0.288394       0.00019672    -7.18872e-05         0.793281         0.51365      4.33647e-05     0.000228858
                     0.000179813     4.35893e-05         0.116339     -0.00293501     -0.000237988    -0.000233105        -0.941613        0.313092
                        0.793374        0.513695      7.30119e-05    -0.000157405        -0.231982        0.194505      0.000319358     0.000214064
                     3.46105e-05     0.000263242        -0.941932        0.313568      0.000256154     8.82992e-05       -0.0950135       0.0674751
281700.3              -0.0843671        0.288393      0.000196719    -7.18987e-05         0.793299        0.513625      4.33708e-05     0.000228869
                     0.000179832     4.35935e-05         0.116337     -0.00294045     -0.000237445    -0.000232918        -0.941605        0.313117
                        0.793392         0.51367       7.3018e-05    -0.000157396        -0.231973        0.194509      0.000319363      0.00021409
                     3.46107e-05     0.000263242        -0.941924        0.313593       0.00025671     8.79764e-05       -0.0950111       0.0674743
281700.4              -0.0843557        0.288392      0.000196718    -7.19102e-05         0.793317        0.513599      4.33768e-05     0.000228879
                     0.000179851     4.35976e-05         0.116334     -0.00294589     -0.000236942    -0.000232742        -0.941597        0.313142
                         0.79341        0.513644      7.30242e-05    -0.000157387        -0.231964        0.194514      0.000319368     0.000214116
                     3.46109e-05     0.000263242        -0.941916        0.313618      0.000257235     8.76673e-05       -0.0950088       0.0674735
281700.5              -0.0843444        0.288391      0.000196717    -7.19217e-05         0.793335        0.513574      4.33829e-05      0.00022889
                      0.00017987     4.36018e-05         0.116332     -0.00295133     -0.000236479     -0.00023258        -0.941589        0.313167
                        0.793427        0.513619      7.30303e-05    -0.000157377        -0.231955        0.194518      0.000319374     0.000214141
                     3.46111e-05     0.000263243        -0.941908        0.313643      0.000257726     8.73741e-05       -0.0950065       0.0674727
281700.6              -0.0843331        0.288391      0.000196716    -7.19332e-05         0.793353        0.513548       4.3389e-05     0.000228901
                     0.000179889     4.36059e-05          0.11633     -0.00295678     -0.000236058     -0.00023243        -0.941581        0.313192
                        0.793445        0.513593      7.30365e-05    -0.000157368        -0.231947        0.194523      0.000319379     0.000214167
                     3.46113e-05     0.000263243          -0.9419        0.313669       0.00025818      8.7099e-05       -0.0950042       0.0674719
281700.7              -0.0843217         0.28839      0.000196715    -7.19447e-05          0.79337        0.513523       4.3395e-05     0.000228911
                     0.000179908     4.36101e-05         0.116327     -0.00296222      -0.00023568    -0.000232295        -0.941573        0.313217
                        0.793463        0.513568      7.30426e-05    -0.000157358        -0.231938        0.194527      0.000319385     0.000214192
                     3.46115e-05     0.000263243        -0.941892        0.313694      0.000258593     8.68445e-05       -0.0950019       0.0674711
281700.8              -0.0843104        0.288389      0.000196714    -7.19562e-05         0.793388        0.513498      4.34011e-05     0.000228922
                     0.000179927     4.36142e-05         0.116325     -0.00296766     -0.000235345    -0.000232174        -0.941564        0.313243
                        0.793481        0.513542      7.30488e-05    -0.000157349        -0.231929        0.194532       0.00031939     0.000214217
                     3.46117e-05     0.000263243        -0.941884        0.313719      0.000258964     8.66127e-05       -0.0949996       0.0674703
281700.9              -0.0842991        0.288388      0.000196713    -7.19677e-05         0.793406        0.513472      4.34072e-05     0.000228932
                     0.000179946     4.36183e-05         0.116322      -0.0029731     -0.000235055    -0.000232069        -0.941556        0.313268
                        0.793499        0.513517       7.3055e-05     -0.00015734         -0.23192        0.194536      0.000319396     0.000214243
                     3.46119e-05     0.000263243        -0.941876        0.313744      0.000259289      8.6406e-05       -0.0949973       0.0674695
281701                -0.0842877        0.288388      0.000196712    -7.19792e-05         0.793424        0.513447      4.34133e-05     0.000228943
                     0.000179965     4.36225e-05          0.11632     -0.00297854      -0.00023481    -0.000231981        -0.941548        0.313293
                        0.793517        0.513491      7.30611e-05     -0.00015733        -0.231911         0.19454      0.000319402     0.000214268
                     3.46121e-05     0.000263243        -0.941868        0.313769      0.000259566     8.62265e-05        -0.094995       0.0674688
281701.1              -0.0842764        0.288387      0.000196711    -7.19907e-05         0.793442        0.513421      4.34193e-05     0.000228954
                     0.000179984     4.36267e-05         0.116317     -0.00298397     -0.000234612    -0.000231909         -0.94154        0.313318
                        0.793535        0.513466      7.30673e-05    -0.000157321        -0.231902        0.194545      0.000319409     0.000214292
                     3.46123e-05     0.000263244         -0.94186        0.313794      0.000259791     8.60764e-05       -0.0949927        0.067468
281701.2              -0.0842651        0.288386       0.00019671    -7.20022e-05          0.79346        0.513396      4.34254e-05     0.000228964
                     0.000180003     4.36308e-05         0.116315     -0.00298941     -0.000234463    -0.000231856        -0.941532        0.313343
                        0.793553         0.51344      7.30735e-05    -0.000157312        -0.231894        0.194549      0.000319416     0.000214316
                     3.46125e-05     0.000263244        -0.941851        0.313819      0.000259963     8.59576e-05       -0.0949904       0.0674672
281701.3              -0.0842537        0.288385      0.000196709    -7.20137e-05         0.793478         0.51337      4.34315e-05     0.000228975
                     0.000180022      4.3635e-05         0.116312     -0.00299485     -0.000234362     -0.00023182        -0.941524        0.313368
                        0.793571        0.513415      7.30797e-05    -0.000157302        -0.231885        0.194554      0.000319423     0.000214339
                     3.46127e-05     0.000263244        -0.941843        0.313845      0.000260079      8.5872e-05       -0.0949881       0.0674664
281701.4              -0.0842424        0.288385      0.000196708    -7.20252e-05         0.793496        0.513345      4.34375e-05     0.000228986
                     0.000180041     4.36391e-05          0.11631     -0.00300029     -0.000234313    -0.000231804        -0.941516        0.313394
                        0.793589        0.513389      7.30858e-05    -0.000157293        -0.231876        0.194558       0.00031943     0.000214358
                      3.4613e-05     0.000263244        -0.941835         0.31387      0.000260136     8.58212e-05       -0.0949857       0.0674656
281701.5              -0.0842311        0.288384      0.000196707    -7.20368e-05         0.793514        0.513319      4.34436e-05     0.000228996
                      0.00018006     4.36433e-05         0.116307     -0.00300573     -0.000234315    -0.000231806        -0.941507        0.313419
                        0.793607        0.513364       7.3092e-05    -0.000157283        -0.231867        0.194563      0.000319432     0.000214373
                     3.46132e-05     0.000263244        -0.941827        0.313895      0.000260134     8.58064e-05       -0.0949834       0.0674648
281701.6              -0.0842197        0.288383      0.000196706    -7.20483e-05         0.793532        0.513294      4.34496e-05     0.000229007
                     0.000180079     4.36475e-05         0.116305     -0.00301117     -0.000234371    -0.000231829        -0.941499        0.313444
                        0.793625        0.513338      7.30982e-05    -0.000157274        -0.231858        0.194567      0.000319421     0.000214392
                     3.46134e-05     0.000263244        -0.941819         0.31392      0.000260069     8.58289e-05       -0.0949811        0.067464
281701.7              -0.0842084        0.288382      0.000196705    -7.20598e-05          0.79355        0.513268      4.34555e-05     0.000229018
                     0.000180098     4.36516e-05         0.116302     -0.00301661     -0.000234482    -0.000231871        -0.941491        0.313469
                        0.793643        0.513313      7.31044e-05    -0.000157265        -0.231849        0.194572      0.000319414     0.000214428
                     3.46136e-05     0.000263245        -0.941811        0.313945      0.000259942     8.58893e-05       -0.0949788       0.0674632
281701.8              -0.0841971        0.288382      0.000196704    -7.20713e-05         0.793568        0.513243      4.34614e-05     0.000229029
                     0.000180117     4.36558e-05           0.1163     -0.00302205     -0.000234649    -0.000231934        -0.941483        0.313495
                        0.793661        0.513287      7.31106e-05    -0.000157255        -0.231841        0.194576      0.000319418     0.000214463
                     3.46139e-05     0.000263245        -0.941803         0.31397       0.00025975     8.59881e-05       -0.0949765       0.0674624
281701.9              -0.0841857        0.288381      0.000196703    -7.20828e-05         0.793586        0.513217       4.3467e-05      0.00022904
                     0.000180136       4.366e-05         0.116297     -0.00302749     -0.000234875    -0.000232017        -0.941475        0.313519
                        0.793678        0.513262      7.31168e-05    -0.000157246        -0.231832        0.194581      0.000319426     0.000214494
                     3.46141e-05     0.000263245        -0.941795        0.313995      0.000259494     8.61254e-05       -0.0949742       0.0674616
281702                -0.0841744         0.28838      0.000196702    -7.20943e-05         0.793604        0.513192      4.34724e-05     0.000229051
                     0.000180155     4.36641e-05         0.116295     -0.00303292     -0.000235162    -0.000232121        -0.941467        0.313544
                        0.793696        0.513236       7.3123e-05    -0.000157237        -0.231823        0.194585      0.000319433     0.000214522
                     3.46143e-05     0.000263245        -0.941787         0.31402      0.000259173     8.63009e-05       -0.0949719       0.0674609
281702.1               -0.084163        0.288379      0.000196701    -7.21058e-05         0.793622        0.513166      4.34775e-05     0.000229062
                     0.000180174     4.36683e-05         0.116292     -0.00303836      -0.00023551    -0.000232246        -0.941459         0.31357
                        0.793714        0.513211      7.31292e-05    -0.000157227        -0.231814         0.19459       0.00031944     0.000214549
                     3.46146e-05     0.000263245        -0.941779        0.314046      0.000258786      8.6514e-05       -0.0949696       0.0674601
281702.2              -0.0841517        0.288379        0.0001967    -7.21174e-05          0.79364        0.513141      4.34823e-05     0.000229072
                     0.000180193     4.36725e-05          0.11629      -0.0030438     -0.000235923    -0.000232391         -0.94145        0.313595
                        0.793732        0.513185      7.31354e-05    -0.000157218        -0.231805        0.194594      0.000319446     0.000214576
                     3.46148e-05     0.000263245        -0.941771        0.314071      0.000258335     8.67636e-05       -0.0949673       0.0674593
281702.3              -0.0841404        0.288378      0.000196699    -7.21289e-05         0.793658        0.513115      4.34873e-05     0.000229082
                     0.000180212     4.36767e-05         0.116287     -0.00304924     -0.000236402    -0.000232557        -0.941442         0.31362
                         0.79375         0.51316      7.31416e-05    -0.000157208        -0.231796        0.194599      0.000319452     0.000214602
                      3.4615e-05     0.000263246        -0.941762        0.314096       0.00025782     8.70485e-05        -0.094965       0.0674585
281702.4               -0.084129        0.288377      0.000196698    -7.21404e-05         0.793675         0.51309      4.34929e-05     0.000229091
                     0.000180231     4.36808e-05         0.116285     -0.00305468     -0.000236949    -0.000232742        -0.941434        0.313645
                        0.793768        0.513134      7.31478e-05    -0.000157199        -0.231788        0.194603      0.000319458     0.000214628
                     3.46153e-05     0.000263246        -0.941754        0.314121      0.000257243     8.73669e-05       -0.0949627       0.0674577
281702.5              -0.0841177        0.288376      0.000196697    -7.21519e-05         0.793693        0.513064       4.3499e-05     0.000229101
                     0.000180249      4.3685e-05         0.116282     -0.00306011     -0.000237567    -0.000232947        -0.941426         0.31367
                        0.793786        0.513109       7.3154e-05     -0.00015719        -0.231779        0.194608      0.000319463     0.000214654
                     3.46156e-05     0.000263246        -0.941746        0.314146      0.000256604     8.77169e-05       -0.0949604       0.0674569
281702.6              -0.0841064        0.288376      0.000196696    -7.21634e-05         0.793711        0.513038      4.35054e-05      0.00022911
                     0.000180268     4.36892e-05          0.11628     -0.00306555     -0.000238259     -0.00023317        -0.941418        0.313695
                        0.793804        0.513083      7.31603e-05     -0.00015718         -0.23177        0.194612      0.000319469      0.00021468
                     3.46158e-05     0.000263246        -0.941738        0.314171      0.000255907      8.8096e-05       -0.0949581       0.0674561
281702.7               -0.084095        0.288375      0.000196695     -7.2175e-05         0.793729        0.513013      4.35119e-05      0.00022912
                     0.000180287     4.36934e-05         0.116277     -0.00307099     -0.000239026    -0.000233411         -0.94141        0.313721
                        0.793822        0.513058      7.31665e-05    -0.000157171        -0.231761        0.194616      0.000319474     0.000214706
                     3.46161e-05     0.000263246         -0.94173        0.314196      0.000255152     8.85019e-05       -0.0949557       0.0674553
281702.8              -0.0840837        0.288374      0.000196694    -7.21865e-05         0.793747        0.512987      4.35184e-05     0.000229131
                     0.000180306     4.36976e-05         0.116275     -0.00307643     -0.000239871    -0.000233669        -0.941401        0.313746
                         0.79384        0.513032      7.31727e-05    -0.000157161        -0.231752        0.194621       0.00031948     0.000214732
                     3.46163e-05     0.000263246        -0.941722        0.314221      0.000254344     8.89318e-05       -0.0949534       0.0674545
281702.9              -0.0840724        0.288373      0.000196693     -7.2198e-05         0.793765        0.512961      4.35249e-05     0.000229141
                     0.000180325     4.37018e-05         0.116272     -0.00308186     -0.000240798    -0.000233942        -0.941393        0.313771
                        0.793858        0.513007      7.31789e-05    -0.000157152        -0.231743        0.194625      0.000319485     0.000214757
                     3.46166e-05     0.000263246        -0.941714        0.314247      0.000253484     8.93827e-05       -0.0949511       0.0674537
281703                -0.0840611        0.288373      0.000196692    -7.22095e-05         0.793783        0.512936      4.35312e-05     0.000229151
                     0.000180344      4.3706e-05          0.11627      -0.0030873     -0.000241809    -0.000234229        -0.941385        0.313796
                        0.793876        0.512981      7.31851e-05    -0.000157143        -0.231735         0.19463       0.00031949     0.000214783
                     3.46169e-05     0.000263247        -0.941706        0.314272      0.000252576     8.98518e-05       -0.0949488       0.0674529
281703.1              -0.0840497        0.288372      0.000196691    -7.22211e-05         0.793801         0.51291      4.35376e-05     0.000229162
                     0.000180363     4.37102e-05         0.116267     -0.00309274     -0.000242906    -0.000234528        -0.941377        0.313821
                        0.793894        0.512956      7.31914e-05    -0.000157133        -0.231726        0.194634      0.000319496     0.000214809
