! TOUCHSTONE file generated by CST MICROWAVE STUDIO
! Date and time: Wed Oct  8 06:54:37 2025
! Project name: Teste_Macro_Metasurface_Nanopilar.cst
! Parameters = {H=600; L_x=100; L_y=180; Lambda=1064; Max_L=200; Min_L=70; PathPara=1; Phi=0; Step_L=10; Theta=0; p=520; phaseX=180; phaseY=0}
! Header version: 2018
! Port assignment regex: !\s*Touchstone port\s*([0-9]+)\s*=\s*(CST MWS port|CST DS port)\s*([0-9]+|Zmin|Zmax)\s*\(\"(.*)\"\)(\s*mode\s*([0-9]+))?.*
! Touchstone port assignment:
! Touchstone port 1 = CST MWS port Zmax ("") mode 1
! Touchstone port 2 = CST MWS port Zmax ("") mode 2
! Touchstone port 3 = CST MWS port Zmin ("") mode 1
! Touchstone port 4 = CST MWS port Zmin ("") mode 2
! S-Parameters are not renormalized. Each port impedance will be approximated by the real part at minimum frequency. The values are described via the [Reference] keyword.
! Default impedance is overridden by [Reference]
[Version] 2.0
# GHz S RI R 376.73
[Number of Ports] 4
[Reference]
376.73 376.73 376.73 376.73 
[Number of Frequencies] 1001
[Network Data]
281700                 -0.667546       -0.489415      -0.00045027    -0.000451656          -0.4743        0.210404      -0.00055996      0.00024375
                     0.000292862    -0.000534216       -0.0874244       0.0522877     -7.59186e-05     0.000290297         0.860044         0.48334
                       -0.474637        0.210287      0.000973424     0.000409791     -0.000755998        -0.82165      0.000864481     0.000454489
                       -0.000649     0.000277441         0.859911        0.483605      0.000611446     0.000591074      -0.00301384        0.100951
281700.1                -0.66758       -0.489397     -0.000450295    -0.000451553        -0.474264        0.210419      -0.00055996     0.000243802
                     0.000292845    -0.000534235       -0.0874182       0.0522859     -7.58819e-05     0.000290308         0.860061         0.48331
                       -0.474601        0.210302      0.000973513     0.000409629     -0.000817225       -0.821666      0.000864512     0.000454426
                    -0.000648985     0.000277508         0.859928        0.483576       0.00061149     0.000591072       -0.0030086        0.100944
281700.2               -0.667613       -0.489378     -0.000450321     -0.00045145        -0.474227        0.210434     -0.000559961     0.000243854
                     0.000292828    -0.000534255       -0.0874121       0.0522842     -7.58452e-05      0.00029032         0.860078        0.483281
                       -0.474564        0.210317      0.000973601     0.000409466     -0.000878454       -0.821683      0.000864544     0.000454363
                     -0.00064897     0.000277576         0.859945        0.483547      0.000611534     0.000591071      -0.00300336        0.100938
281700.3               -0.667647        -0.48936     -0.000450346    -0.000451346         -0.47419        0.210449     -0.000559962     0.000243906
                      0.00029281    -0.000534274       -0.0874059       0.0522824     -7.58085e-05     0.000290331         0.860095        0.483252
                       -0.474527        0.210332       0.00097369     0.000409303     -0.000939686         -0.8217      0.000864575       0.0004543
                    -0.000648955     0.000277644         0.859963        0.483517      0.000611577     0.000591069      -0.00299812        0.100932
281700.4               -0.667681       -0.489342     -0.000450371    -0.000451243        -0.474154        0.210465     -0.000559963     0.000243958
                     0.000292793    -0.000534293       -0.0873997       0.0522806     -7.57718e-05     0.000290343         0.860113        0.483222
                       -0.474491        0.210348      0.000973778     0.000409141      -0.00100092       -0.821716      0.000864607     0.000454237
                     -0.00064894     0.000277712          0.85998        0.483488      0.000611621     0.000591067      -0.00299287        0.100926
281700.5               -0.667715       -0.489323     -0.000450397     -0.00045114        -0.474117         0.21048     -0.000559964      0.00024401
                     0.000292776    -0.000534312       -0.0873935       0.0522788      -7.5735e-05     0.000290354          0.86013        0.483193
                       -0.474454        0.210363      0.000973867     0.000408978      -0.00106216       -0.821733      0.000864638     0.000454174
                    -0.000648925     0.000277779         0.859997        0.483459      0.000611665     0.000591065      -0.00298763         0.10092
281700.6               -0.667749       -0.489305     -0.000450422    -0.000451037        -0.474081        0.210495     -0.000559965     0.000244062
                     0.000292759    -0.000534332       -0.0873873        0.052277     -7.56983e-05     0.000290365         0.860147        0.483164
                       -0.474418        0.210378      0.000973955     0.000408815      -0.00112339       -0.821749       0.00086467     0.000454111
                     -0.00064891     0.000277847         0.860014         0.48343      0.000611708     0.000591063      -0.00298239        0.100914
281700.7               -0.667783       -0.489286     -0.000450447    -0.000450934        -0.474044         0.21051     -0.000559965     0.000244114
                     0.000292741    -0.000534351       -0.0873812       0.0522753     -7.56615e-05     0.000290377         0.860164        0.483135
                       -0.474381        0.210393      0.000974043     0.000408653      -0.00118463       -0.821766      0.000864702     0.000454048
                    -0.000648894     0.000277915         0.860032          0.4834      0.000611752     0.000591062      -0.00297715        0.100907
281700.8               -0.667817       -0.489268     -0.000450472    -0.000450831        -0.474007        0.210525     -0.000559966     0.000244166
                     0.000292724     -0.00053437        -0.087375       0.0522735     -7.56248e-05     0.000290388         0.860181        0.483105
                       -0.474344        0.210409      0.000974132      0.00040849      -0.00124588       -0.821783      0.000864733     0.000453985
                    -0.000648879     0.000277982         0.860049        0.483371      0.000611796      0.00059106      -0.00297191        0.100901
281700.9               -0.667851       -0.489249     -0.000450498    -0.000450727        -0.473971         0.21054     -0.000559967     0.000244218
                     0.000292707     -0.00053439       -0.0873688       0.0522717      -7.5588e-05     0.000290399         0.860198        0.483076
                       -0.474308        0.210424       0.00097422     0.000408327      -0.00130712       -0.821799      0.000864765     0.000453922
                    -0.000648864      0.00027805         0.860066        0.483342      0.000611839     0.000591058      -0.00296667        0.100895
281701                 -0.667885       -0.489231     -0.000450523    -0.000450624        -0.473934        0.210556     -0.000559968      0.00024427
                      0.00029269    -0.000534409       -0.0873626       0.0522699     -7.55512e-05     0.000290411         0.860216        0.483047
                       -0.474271        0.210439      0.000974308     0.000408165      -0.00136837       -0.821816      0.000864796     0.000453859
                    -0.000648849     0.000278118         0.860083        0.483312      0.000611883     0.000591056      -0.00296143        0.100889
281701.1               -0.667918       -0.489212     -0.000450548    -0.000450521        -0.473897        0.210571     -0.000559968     0.000244322
                     0.000292672    -0.000534428       -0.0873565       0.0522681     -7.55144e-05     0.000290422         0.860233        0.483017
                       -0.474234        0.210454      0.000974396     0.000408002      -0.00142962       -0.821832      0.000864828     0.000453796
                    -0.000648834     0.000278185         0.860101        0.483283      0.000611926     0.000591055      -0.00295619        0.100883
281701.2               -0.667952       -0.489194     -0.000450573    -0.000450418        -0.473861        0.210586     -0.000559969     0.000244374
                     0.000292655    -0.000534447       -0.0873503       0.0522664     -7.54776e-05     0.000290434          0.86025        0.482988
                       -0.474198        0.210469      0.000974485     0.000407839      -0.00149087       -0.821849      0.000864859     0.000453733
                    -0.000648819     0.000278253         0.860118        0.483254       0.00061197     0.000591053      -0.00295095        0.100877
281701.3               -0.667986       -0.489176     -0.000450598    -0.000450315        -0.473824        0.210601      -0.00055997     0.000244426
                     0.000292638    -0.000534467       -0.0873441       0.0522646     -7.54408e-05     0.000290445         0.860267        0.482959
                       -0.474161        0.210485      0.000974573     0.000407676      -0.00155212       -0.821866      0.000864891      0.00045367
                    -0.000648804     0.000278321         0.860135        0.483225      0.000612013     0.000591051      -0.00294572        0.100871
281701.4                -0.66802       -0.489157     -0.000450624    -0.000450211        -0.473788        0.210616     -0.000559971     0.000244478
                     0.000292621    -0.000534486       -0.0873379       0.0522628     -7.54039e-05     0.000290456         0.860284        0.482929
                       -0.474125          0.2105      0.000974661     0.000407514      -0.00161338       -0.821882      0.000864922     0.000453607
                    -0.000648789     0.000278388         0.860152        0.483195      0.000612057      0.00059105      -0.00294048        0.100864
281701.5               -0.668054       -0.489139     -0.000450649    -0.000450108        -0.473751        0.210631     -0.000559972      0.00024453
                     0.000292603    -0.000534505       -0.0873317        0.052261     -7.53671e-05     0.000290468         0.860301          0.4829
                       -0.474088        0.210515      0.000974749     0.000407351      -0.00167464       -0.821899      0.000864954     0.000453544
                    -0.000648773     0.000278456          0.86017        0.483166        0.0006121     0.000591048      -0.00293524        0.100858
281701.6               -0.668088        -0.48912     -0.000450674    -0.000450005        -0.473714        0.210646     -0.000559972     0.000244582
                     0.000292586    -0.000534525       -0.0873256       0.0522592     -7.53302e-05     0.000290479         0.860319        0.482871
                       -0.474051         0.21053      0.000974837     0.000407188       -0.0017359       -0.821915      0.000864985     0.000453481
                    -0.000648758     0.000278523         0.860187        0.483137      0.000612144     0.000591046         -0.00293        0.100852
281701.7               -0.668122       -0.489102     -0.000450699    -0.000449902        -0.473678        0.210662     -0.000559973     0.000244634
                     0.000292569    -0.000534544       -0.0873194       0.0522574     -7.52934e-05      0.00029049         0.860336        0.482841
                       -0.474015        0.210545      0.000974925     0.000407026      -0.00179716       -0.821932      0.000865016     0.000453418
                    -0.000648743     0.000278591         0.860204        0.483107      0.000612187     0.000591045      -0.00292477        0.100846
281701.8               -0.668156       -0.489083     -0.000450724    -0.000449799        -0.473641        0.210677     -0.000559974     0.000244686
                     0.000292551    -0.000534563       -0.0873132       0.0522557     -7.52565e-05     0.000290502         0.860353        0.482812
                       -0.473978        0.210561      0.000975013     0.000406863      -0.00185843       -0.821948      0.000865048     0.000453355
                    -0.000648728     0.000278659         0.860221        0.483078      0.000612231     0.000591043      -0.00291953         0.10084
281701.9                -0.66819       -0.489065     -0.000450749    -0.000449695        -0.473604        0.210692     -0.000559975     0.000244738
                     0.000292534    -0.000534583        -0.087307       0.0522539     -7.52196e-05     0.000290513          0.86037        0.482783
                       -0.473941        0.210576      0.000975101       0.0004067      -0.00191969       -0.821965      0.000865079     0.000453292
                    -0.000648712     0.000278726         0.860239        0.483049      0.000612274     0.000591042       -0.0029143        0.100834
281702                 -0.668223       -0.489046     -0.000450774    -0.000449592        -0.473568        0.210707     -0.000559975     0.000244791
                     0.000292517    -0.000534602       -0.0873009       0.0522521     -7.51827e-05     0.000290525         0.860387        0.482754
                       -0.473905        0.210591      0.000975189     0.000406537      -0.00198096       -0.821981      0.000865111     0.000453229
                    -0.000648697     0.000278794         0.860256         0.48302      0.000612318      0.00059104      -0.00290906        0.100827
281702.1               -0.668257       -0.489028     -0.000450799    -0.000449489        -0.473531        0.210722     -0.000559976     0.000244843
                       0.0002925    -0.000534621       -0.0872947       0.0522503     -7.51458e-05     0.000290536         0.860404        0.482724
                       -0.473868        0.210606      0.000975277     0.000406375      -0.00204224       -0.821998      0.000865142     0.000453166
                    -0.000648682     0.000278861         0.860273         0.48299      0.000612361     0.000591039      -0.00290382        0.100821
281702.2               -0.668291       -0.489009     -0.000450824    -0.000449386        -0.473495        0.210737     -0.000559977     0.000244895
                     0.000292482    -0.000534641       -0.0872885       0.0522485     -7.51089e-05     0.000290547         0.860421        0.482695
                       -0.473832        0.210621      0.000975365     0.000406212      -0.00210351       -0.822014      0.000865174     0.000453102
                    -0.000648667     0.000278929          0.86029        0.482961      0.000612405     0.000591037      -0.00289859        0.100815
281702.3               -0.668325       -0.488991     -0.000450849    -0.000449283        -0.473458        0.210752     -0.000559977     0.000244947
                     0.000292465     -0.00053466       -0.0872823       0.0522467      -7.5072e-05     0.000290559         0.860439        0.482666
                       -0.473795        0.210637      0.000975453     0.000406049      -0.00216479       -0.822031      0.000865205     0.000453039
                    -0.000648651     0.000278997         0.860308        0.482932      0.000612448     0.000591036      -0.00289336        0.100809
281702.4               -0.668359       -0.488972     -0.000450874     -0.00044918        -0.473421        0.210767     -0.000559978     0.000244999
                     0.000292448    -0.000534679       -0.0872762       0.0522449      -7.5035e-05      0.00029057         0.860456        0.482636
                       -0.473758        0.210652      0.000975541     0.000405886      -0.00222606       -0.822047      0.000865237     0.000452976
                    -0.000648636     0.000279064         0.860325        0.482902      0.000612491     0.000591034      -0.00288812        0.100803
281702.5               -0.668393       -0.488954     -0.000450899    -0.000449076        -0.473385        0.210783     -0.000559979     0.000245051
                      0.00029243    -0.000534698         -0.08727       0.0522431     -7.49981e-05     0.000290581         0.860473        0.482607
                       -0.473722        0.210667      0.000975629     0.000405723      -0.00228734       -0.822064      0.000865268     0.000452913
                    -0.000648621     0.000279132         0.860342        0.482873      0.000612535     0.000591033      -0.00288289        0.100797
281702.6               -0.668427       -0.488935     -0.000450924    -0.000448973        -0.473348        0.210798      -0.00055998     0.000245103
                     0.000292413    -0.000534718       -0.0872638       0.0522414     -7.49611e-05     0.000290593          0.86049        0.482578
                       -0.473685        0.210682      0.000975716     0.000405561      -0.00234863        -0.82208      0.000865299      0.00045285
                    -0.000648605     0.000279199         0.860359        0.482844      0.000612578     0.000591031      -0.00287766         0.10079
281702.7               -0.668461       -0.488917     -0.000450949     -0.00044887        -0.473311        0.210813      -0.00055998     0.000245155
                     0.000292396    -0.000534737       -0.0872577       0.0522396     -7.49241e-05     0.000290604         0.860507        0.482548
                       -0.473648        0.210697      0.000975804     0.000405398      -0.00240991       -0.822097      0.000865331     0.000452787
                     -0.00064859     0.000279267         0.860377        0.482815      0.000612621      0.00059103      -0.00287242        0.100784
281702.8               -0.668495       -0.488898     -0.000450974    -0.000448767        -0.473275        0.210828     -0.000559981     0.000245207
                     0.000292378    -0.000534756       -0.0872515       0.0522378     -7.48872e-05     0.000290615         0.860524        0.482519
                       -0.473612        0.210712      0.000975892     0.000405235       -0.0024712       -0.822113      0.000865362     0.000452724
                    -0.000648575     0.000279335         0.860394        0.482785      0.000612665     0.000591028      -0.00286719        0.100778
281702.9               -0.668528        -0.48888     -0.000450999    -0.000448664        -0.473238        0.210843     -0.000559982     0.000245259
                     0.000292361    -0.000534776       -0.0872453        0.052236     -7.48502e-05     0.000290627         0.860541         0.48249
                       -0.473575        0.210727       0.00097598     0.000405072      -0.00253249        -0.82213      0.000865393      0.00045266
                    -0.000648559     0.000279402         0.860411        0.482756      0.000612708     0.000591027      -0.00286196        0.100772
281703                 -0.668562       -0.488861     -0.000451024     -0.00044856        -0.473201        0.210858     -0.000559982     0.000245311
                     0.000292344    -0.000534795       -0.0872391       0.0522342     -7.48132e-05     0.000290638         0.860559         0.48246
                       -0.473538        0.210743      0.000976067      0.00040491      -0.00259378       -0.822146      0.000865425     0.000452597
                    -0.000648544      0.00027947         0.860428        0.482727      0.000612751     0.000591025      -0.00285673        0.100766
281703.1               -0.668596       -0.488843     -0.000451049    -0.000448457        -0.473165        0.210873     -0.000559983     0.000245363
                     0.000292326    -0.000534814        -0.087233       0.0522324     -7.47762e-05     0.000290649         0.860576        0.482431
                       -0.473502        0.210758      0.000976155     0.000404747      -0.00265507       -0.822163      0.000865456     0.000452534
