! TOUCHSTONE file generated by CST MICROWAVE STUDIO
! Date and time: Wed Oct  8 06:57:54 2025
! Project name: Teste_Macro_Metasurface_Nanopilar.cst
! Parameters = {H=600; L_x=130; L_y=110; Lambda=1064; Max_L=200; Min_L=70; PathPara=1; Phi=0; Step_L=10; Theta=0; p=520; phaseX=180; phaseY=0}
! Header version: 2018
! Port assignment regex: !\s*Touchstone port\s*([0-9]+)\s*=\s*(CST MWS port|CST DS port)\s*([0-9]+|Zmin|Zmax)\s*\(\"(.*)\"\)(\s*mode\s*([0-9]+))?.*
! Touchstone port assignment:
! Touchstone port 1 = CST MWS port Zmax ("") mode 1
! Touchstone port 2 = CST MWS port Zmax ("") mode 2
! Touchstone port 3 = CST MWS port Zmin ("") mode 1
! Touchstone port 4 = CST MWS port Zmin ("") mode 2
! S-Parameters are not renormalized. Each port impedance will be approximated by the real part at minimum frequency. The values are described via the [Reference] keyword.
! Default impedance is overridden by [Reference]
[Version] 2.0
# GHz S RI R 376.73
[Number of Ports] 4
[Reference]
376.73 376.73 376.73 376.73 
[Number of Frequencies] 1001
[Network Data]
281700                -0.0949417        0.133904      9.83047e-05     0.000324452         0.824431        0.525558     -0.000109892     0.000101223
                     0.000152216     0.000199463       -0.0585586       -0.174557      0.000183144     6.74291e-05         0.575551        -0.78574
                        0.824281        0.525348       0.00023075     3.72653e-05       -0.0851107         0.14172     -1.44662e-05     0.000273054
                    -8.74671e-05    -3.86648e-05         0.575501       -0.785677      6.76186e-06     0.000342337         -0.18643    -0.000391504
281700.1              -0.0949333        0.133903      9.83098e-05     0.000324447          0.82445         0.52553     -0.000109888     0.000101228
                     0.000152222     0.000199449       -0.0585677       -0.174556      0.000183152      6.7418e-05         0.575525       -0.785759
                          0.8243         0.52532      0.000230752     3.72469e-05       -0.0851036        0.141717     -1.44448e-05     0.000273052
                    -8.74609e-05    -3.86699e-05         0.575474       -0.785696      6.78281e-06     0.000342332        -0.186431    -0.000388323
281700.2              -0.0949249        0.133902      9.83148e-05     0.000324443         0.824469        0.525502     -0.000109885     0.000101232
                     0.000152228     0.000199435       -0.0585768       -0.174554      0.000183159      6.7407e-05         0.575498       -0.785778
                        0.824319        0.525293      0.000230755     3.72286e-05       -0.0850966        0.141715     -1.44234e-05      0.00027305
                    -8.74547e-05     -3.8675e-05         0.575448       -0.785716      6.80377e-06     0.000342327        -0.186433    -0.000385142
281700.3              -0.0949165        0.133901      9.83199e-05     0.000324438         0.824487        0.525474     -0.000109881     0.000101236
                     0.000152235     0.000199421       -0.0585858       -0.174553      0.000183166     6.73959e-05         0.575472       -0.785797
                        0.824337        0.525265      0.000230758     3.72102e-05       -0.0850895        0.141713      -1.4402e-05     0.000273048
                    -8.74486e-05    -3.86802e-05         0.575422       -0.785735      6.82472e-06     0.000342322        -0.186434     -0.00038196
281700.4              -0.0949081          0.1339      9.83249e-05     0.000324433         0.824506        0.525447     -0.000109878     0.000101241
                     0.000152241     0.000199407       -0.0585949       -0.174551      0.000183173     6.73848e-05         0.575446       -0.785816
                        0.824356        0.525237      0.000230761     3.71918e-05       -0.0850825         0.14171     -1.43806e-05     0.000273046
                    -8.74424e-05    -3.86853e-05         0.575395       -0.785754      6.84567e-06     0.000342317        -0.186435    -0.000378778
281700.5              -0.0948997        0.133899        9.833e-05     0.000324428         0.824525        0.525419     -0.000109874     0.000101245
                     0.000152247     0.000199393        -0.058604        -0.17455       0.00018318     6.73737e-05         0.575419       -0.785835
                        0.824375        0.525209      0.000230763     3.71735e-05       -0.0850754        0.141708     -1.43592e-05     0.000273043
                    -8.74362e-05    -3.86904e-05         0.575369       -0.785773      6.86662e-06     0.000342312        -0.186437    -0.000375597
281700.6              -0.0948913        0.133898       9.8335e-05     0.000324424         0.824544        0.525391      -0.00010987     0.000101249
                     0.000152254     0.000199379       -0.0586131       -0.174548      0.000183187     6.73627e-05         0.575393       -0.785854
                        0.824394        0.525181      0.000230766     3.71551e-05       -0.0850684        0.141706     -1.43378e-05     0.000273041
                      -8.743e-05    -3.86955e-05         0.575342       -0.785792      6.88757e-06     0.000342307        -0.186438    -0.000372415
281700.7               -0.094883        0.133897      9.83401e-05     0.000324419         0.824563        0.525363     -0.000109867     0.000101254
                      0.00015226     0.000199365       -0.0586222       -0.174547      0.000183194     6.73516e-05         0.575366       -0.785873
                        0.824413        0.525153      0.000230769     3.71368e-05       -0.0850613        0.141703     -1.43164e-05     0.000273039
                    -8.74238e-05    -3.87007e-05         0.575316       -0.785811      6.90852e-06     0.000342302        -0.186439    -0.000369233
281700.8              -0.0948746        0.133896      9.83451e-05     0.000324414         0.824582        0.525335     -0.000109863     0.000101258
                     0.000152266     0.000199351       -0.0586313       -0.174545      0.000183202     6.73405e-05          0.57534       -0.785892
                        0.824432        0.525125      0.000230771     3.71184e-05       -0.0850542        0.141701      -1.4295e-05     0.000273037
                    -8.74176e-05    -3.87058e-05         0.575289        -0.78583      6.92947e-06     0.000342297        -0.186441    -0.000366051
281700.9              -0.0948662        0.133895      9.83502e-05     0.000324409           0.8246        0.525307      -0.00010986     0.000101262
                     0.000152272     0.000199337       -0.0586404       -0.174544      0.000183209     6.73295e-05         0.575314       -0.785911
                         0.82445        0.525097      0.000230774        3.71e-05       -0.0850472        0.141699     -1.42736e-05     0.000273035
                    -8.74114e-05    -3.87109e-05         0.575263       -0.785849      6.95042e-06     0.000342292        -0.186442    -0.000362868
281701                -0.0948578        0.133894      9.83553e-05     0.000324405         0.824619        0.525279     -0.000109856     0.000101266
                     0.000152279     0.000199323       -0.0586495       -0.174542      0.000183216     6.73184e-05         0.575287        -0.78593
                        0.824469        0.525069      0.000230777     3.70817e-05       -0.0850401        0.141696     -1.42522e-05     0.000273033
                    -8.74052e-05     -3.8716e-05         0.575237       -0.785868      6.97137e-06     0.000342287        -0.186444    -0.000359686
281701.1              -0.0948494        0.133893      9.83603e-05       0.0003244         0.824638        0.525251     -0.000109852     0.000101271
                     0.000152285     0.000199309       -0.0586586       -0.174541      0.000183223     6.73073e-05         0.575261       -0.785949
                        0.824488        0.525042      0.000230779     3.70633e-05       -0.0850331        0.141694     -1.42308e-05      0.00027303
                     -8.7399e-05    -3.87211e-05          0.57521       -0.785887      6.99232e-06     0.000342282        -0.186445    -0.000356503
281701.2               -0.094841        0.133892      9.83654e-05     0.000324395         0.824657        0.525224     -0.000109849     0.000101275
                     0.000152291     0.000199295       -0.0586676       -0.174539       0.00018323     6.72962e-05         0.575234       -0.785968
                        0.824507        0.525014      0.000230782     3.70449e-05        -0.085026        0.141692     -1.42094e-05     0.000273028
                    -8.73928e-05    -3.87263e-05         0.575184       -0.785906      7.01327e-06     0.000342277        -0.186446    -0.000353321
281701.3              -0.0948326        0.133891      9.83704e-05      0.00032439         0.824676        0.525196     -0.000109845     0.000101279
                     0.000152298     0.000199281       -0.0586767       -0.174538      0.000183237     6.72852e-05         0.575208       -0.785988
                        0.824526        0.524986      0.000230785     3.70265e-05        -0.085019        0.141689      -1.4188e-05     0.000273026
                    -8.73866e-05    -3.87314e-05         0.575157       -0.785925      7.03422e-06     0.000342272        -0.186448    -0.000350138
281701.4              -0.0948242         0.13389      9.83755e-05     0.000324385         0.824695        0.525168     -0.000109842     0.000101284
                     0.000152304     0.000199267       -0.0586858       -0.174536      0.000183244     6.72741e-05         0.575182       -0.786007
                        0.824545        0.524958      0.000230787     3.70082e-05       -0.0850119        0.141687     -1.41667e-05     0.000273024
                    -8.73804e-05    -3.87365e-05         0.575131       -0.785944      7.05516e-06     0.000342267        -0.186449    -0.000346955
281701.5              -0.0948158        0.133889      9.83805e-05     0.000324381         0.824713         0.52514     -0.000109838     0.000101288
                      0.00015231     0.000199253       -0.0586949       -0.174535      0.000183252      6.7263e-05         0.575155       -0.786026
                        0.824563         0.52493       0.00023079     3.69898e-05       -0.0850049        0.141685     -1.41453e-05     0.000273022
                    -8.73742e-05    -3.87416e-05         0.575105       -0.785963      7.07611e-06     0.000342262         -0.18645    -0.000343772
281701.6              -0.0948074        0.133888      9.83856e-05     0.000324376         0.824732        0.525112     -0.000109835     0.000101292
                     0.000152317     0.000199239        -0.058704       -0.174533      0.000183259     6.72519e-05         0.575129       -0.786045
                        0.824582        0.524902      0.000230793     3.69714e-05       -0.0849978        0.141682     -1.41239e-05     0.000273019
                    -8.73679e-05    -3.87467e-05         0.575078       -0.785982      7.09706e-06     0.000342257        -0.186452    -0.000340589
281701.7               -0.094799        0.133887      9.83907e-05     0.000324371         0.824751        0.525084     -0.000109831     0.000101297
                     0.000152323     0.000199225       -0.0587131       -0.174532      0.000183266     6.72408e-05         0.575102       -0.786064
                        0.824601        0.524874      0.000230795     3.69531e-05       -0.0849908         0.14168     -1.41025e-05     0.000273017
                    -8.73617e-05    -3.87519e-05         0.575052       -0.786001      7.11801e-06     0.000342252        -0.186453    -0.000337405
281701.8              -0.0947907        0.133886      9.83957e-05     0.000324366          0.82477        0.525056     -0.000109827     0.000101301
                     0.000152329     0.000199211       -0.0587222        -0.17453      0.000183273     6.72298e-05         0.575076       -0.786083
                         0.82462        0.524846      0.000230798     3.69347e-05       -0.0849837        0.141678     -1.40811e-05     0.000273015
                    -8.73555e-05     -3.8757e-05         0.575025        -0.78602      7.13895e-06     0.000342247        -0.186454    -0.000334222
281701.9              -0.0947823        0.133885      9.84008e-05     0.000324362         0.824789        0.525028     -0.000109824     0.000101305
                     0.000152336     0.000199196       -0.0587313       -0.174529       0.00018328     6.72187e-05          0.57505       -0.786102
                        0.824639        0.524819      0.000230801     3.69163e-05       -0.0849767        0.141675     -1.40597e-05     0.000273013
                    -8.73493e-05    -3.87621e-05         0.574999       -0.786039       7.1599e-06     0.000342242        -0.186456    -0.000331038
281702                -0.0947739        0.133884      9.84059e-05     0.000324357         0.824808        0.525001      -0.00010982      0.00010131
                     0.000152342     0.000199182       -0.0587404       -0.174527      0.000183287     6.72076e-05         0.575023       -0.786121
                        0.824658        0.524791      0.000230803     3.68979e-05       -0.0849696        0.141673     -1.40384e-05     0.000273011
                    -8.73431e-05    -3.87672e-05         0.574972       -0.786058      7.18084e-06     0.000342237        -0.186457    -0.000327855
281702.1              -0.0947655        0.133883      9.84109e-05     0.000324352         0.824826        0.524973     -0.000109817     0.000101314
                     0.000152348     0.000199168       -0.0587494       -0.174526      0.000183294     6.71965e-05         0.574997        -0.78614
                        0.824676        0.524763      0.000230806     3.68795e-05       -0.0849625        0.141671      -1.4017e-05     0.000273009
                    -8.73369e-05    -3.87723e-05         0.574946       -0.786077      7.20179e-06     0.000342232        -0.186459    -0.000324671
281702.2              -0.0947571        0.133883       9.8416e-05     0.000324347         0.824845        0.524945     -0.000109813     0.000101318
                     0.000152355     0.000199154       -0.0587585       -0.174524      0.000183302     6.71854e-05          0.57497       -0.786159
                        0.824695        0.524735      0.000230809     3.68612e-05       -0.0849555        0.141668     -1.39956e-05     0.000273006
                    -8.73306e-05    -3.87774e-05          0.57492       -0.786096      7.22274e-06     0.000342227         -0.18646    -0.000321487
281702.3              -0.0947487        0.133882       9.8421e-05     0.000324343         0.824864        0.524917      -0.00010981     0.000101323
                     0.000152361      0.00019914       -0.0587676       -0.174523      0.000183309     6.71743e-05         0.574944       -0.786178
                        0.824714        0.524707      0.000230812     3.68428e-05       -0.0849484        0.141666     -1.39742e-05     0.000273004
                    -8.73244e-05    -3.87826e-05         0.574893       -0.786115      7.24368e-06     0.000342222        -0.186461    -0.000318303
281702.4              -0.0947403        0.133881      9.84261e-05     0.000324338         0.824883        0.524889     -0.000109806     0.000101327
                     0.000152367     0.000199126       -0.0587767       -0.174521      0.000183316     6.71633e-05         0.574917       -0.786197
                        0.824733        0.524679      0.000230814     3.68244e-05       -0.0849414        0.141664     -1.39529e-05     0.000273002
                    -8.73182e-05    -3.87877e-05         0.574867       -0.786134      7.26462e-06     0.000342217        -0.186463    -0.000315118
281702.5              -0.0947319         0.13388      9.84312e-05     0.000324333         0.824902        0.524861     -0.000109802     0.000101331
                     0.000152374     0.000199112       -0.0587858       -0.174519      0.000183323     6.71522e-05         0.574891       -0.786216
                        0.824752        0.524651      0.000230817      3.6806e-05       -0.0849343        0.141661     -1.39315e-05        0.000273
                     -8.7312e-05    -3.87928e-05          0.57484       -0.786153      7.28557e-06     0.000342212        -0.186464    -0.000311934
281702.6              -0.0947235        0.133879      9.84362e-05     0.000324328          0.82492        0.524833     -0.000109799     0.000101336
                      0.00015238     0.000199098       -0.0587949       -0.174518       0.00018333     6.71411e-05         0.574865       -0.786235
                         0.82477        0.524623       0.00023082     3.67876e-05       -0.0849273        0.141659     -1.39101e-05     0.000272998
                    -8.73057e-05    -3.87979e-05         0.574814       -0.786172      7.30651e-06     0.000342207        -0.186465    -0.000308749
281702.7              -0.0947152        0.133878      9.84413e-05     0.000324323         0.824939        0.524805     -0.000109795      0.00010134
                     0.000152386     0.000199084        -0.058804       -0.174516      0.000183337       6.713e-05         0.574838       -0.786254
                        0.824789        0.524595      0.000230822     3.67692e-05       -0.0849202        0.141657     -1.38887e-05     0.000272995
                    -8.72995e-05     -3.8803e-05         0.574787       -0.786191      7.32745e-06     0.000342202        -0.186467    -0.000305565
281702.8              -0.0947068        0.133877      9.84464e-05     0.000324319         0.824958        0.524777     -0.000109792     0.000101344
                     0.000152393      0.00019907        -0.058813       -0.174515      0.000183344     6.71189e-05         0.574812       -0.786273
                        0.824808        0.524567      0.000230825     3.67508e-05       -0.0849132        0.141654     -1.38674e-05     0.000272993
                    -8.72933e-05    -3.88081e-05         0.574761        -0.78621       7.3484e-06     0.000342197        -0.186468     -0.00030238
281702.9              -0.0946984        0.133876      9.84515e-05     0.000324314         0.824977         0.52475     -0.000109788     0.000101348
                     0.000152399     0.000199056       -0.0588221       -0.174513      0.000183351     6.71078e-05         0.574785       -0.786292
                        0.824827         0.52454      0.000230827     3.67325e-05       -0.0849061        0.141652      -1.3846e-05     0.000272991
                     -8.7287e-05    -3.88132e-05         0.574735       -0.786229      7.36934e-06     0.000342192         -0.18647    -0.000299195
281703                  -0.09469        0.133875      9.84565e-05     0.000324309         0.824996        0.524722     -0.000109784     0.000101353
                     0.000152406     0.000199042       -0.0588312       -0.174512      0.000183359     6.70967e-05         0.574759       -0.786311
                        0.824846        0.524512       0.00023083     3.67141e-05       -0.0848991         0.14165     -1.38246e-05     0.000272989
                    -8.72808e-05    -3.88183e-05         0.574708       -0.786248      7.39028e-06     0.000342187        -0.186471     -0.00029601
281703.1              -0.0946816        0.133874      9.84616e-05     0.000324304         0.825014        0.524694     -0.000109781     0.000101357
                     0.000152412     0.000199028       -0.0588403        -0.17451      0.000183366     6.70856e-05         0.574732        -0.78633
                        0.824865        0.524484      0.000230833     3.66957e-05        -0.084892        0.141647     -1.38033e-05     0.000272987
