! TOUCHSTONE file generated by CST MICROWAVE STUDIO
! Date and time: Wed Oct  8 07:05:57 2025
! Project name: Teste_Macro_Metasurface_Nanopilar.cst
! Parameters = {H=600; L_x=195; L_y=175; Lambda=1064; Max_L=200; Min_L=70; PathPara=1; Phi=0; Step_L=10; Theta=0; p=520; phaseX=180; phaseY=0}
! Header version: 2018
! Port assignment regex: !\s*Touchstone port\s*([0-9]+)\s*=\s*(CST MWS port|CST DS port)\s*([0-9]+|Zmin|Zmax)\s*\(\"(.*)\"\)(\s*mode\s*([0-9]+))?.*
! Touchstone port assignment:
! Touchstone port 1 = CST MWS port Zmax ("") mode 1
! Touchstone port 2 = CST MWS port Zmax ("") mode 2
! Touchstone port 3 = CST MWS port Zmin ("") mode 1
! Touchstone port 4 = CST MWS port Zmin ("") mode 2
! S-Parameters are not renormalized. Each port impedance will be approximated by the real part at minimum frequency. The values are described via the [Reference] keyword.
! Default impedance is overridden by [Reference]
[Version] 2.0
# GHz S RI R 376.73
[Number of Ports] 4
[Reference]
376.73 376.73 376.73 376.73 
[Number of Frequencies] 1001
[Network Data]
281700                 -0.113704       -0.168414     -0.000226831    -0.000173451        -0.973068       0.0725984      0.000120853     0.000149852
                    -0.000208756    -0.000150193       -0.0603928       -0.215567      3.85931e-05     0.000256386        -0.842184        0.474884
                       -0.972929        0.072575      8.07231e-05     0.000242905        0.0844951       -0.183158      -1.3621e-05    -0.000196962
                     0.000175875     0.000172217        -0.841961        0.474975     -4.37372e-05     -0.00019525        -0.148717       -0.156455
281700.1               -0.113707       -0.168417     -0.000226842    -0.000173454        -0.973064       0.0726273      0.000120861     0.000149843
                    -0.000208764    -0.000150194       -0.0603973        -0.21557      3.85985e-05     0.000256382        -0.842167        0.474912
                       -0.972926       0.0726039      8.07346e-05     0.000242902        0.0844873       -0.183168     -1.36363e-05    -0.000196957
                     0.000175877     0.000172212        -0.841944        0.475003     -4.37445e-05    -0.000195254        -0.148727        -0.15645
281700.2               -0.113711       -0.168421     -0.000226853    -0.000173458        -0.973061       0.0726562      0.000120869     0.000149835
                    -0.000208772    -0.000150195       -0.0604017       -0.215573       3.8604e-05     0.000256379         -0.84215         0.47494
                       -0.972923       0.0726328       8.0746e-05       0.0002429        0.0844795       -0.183177     -1.36517e-05    -0.000196952
                     0.000175881     0.000172207        -0.841927        0.475031     -4.37518e-05    -0.000195258        -0.148737       -0.156445
281700.3               -0.113715       -0.168425     -0.000226864    -0.000173462        -0.973058       0.0726851      0.000120877     0.000149826
                    -0.000208779    -0.000150196       -0.0604061       -0.215576      3.86094e-05     0.000256375        -0.842132        0.474968
                        -0.97292       0.0726617      8.07575e-05     0.000242897        0.0844718       -0.183186      -1.3667e-05    -0.000196947
                     0.000175886     0.000172201         -0.84191        0.475059      -4.3759e-05    -0.000195262        -0.148748       -0.156439
281700.4               -0.113719       -0.168428     -0.000226875    -0.000173466        -0.973055        0.072714      0.000120885     0.000149817
                    -0.000208786    -0.000150197       -0.0604106       -0.215578      3.86148e-05     0.000256371        -0.842115        0.474996
                       -0.972916       0.0726906      8.07689e-05     0.000242894         0.084464       -0.183195     -1.36824e-05    -0.000196942
                     0.000175894     0.000172194        -0.841893        0.475088     -4.37663e-05    -0.000195266        -0.148758       -0.156434
281700.5               -0.113722       -0.168432     -0.000226887     -0.00017347        -0.973051       0.0727429      0.000120894     0.000149809
                    -0.000208791    -0.000150198        -0.060415       -0.215581      3.86203e-05     0.000256368        -0.842098        0.475025
                       -0.972913       0.0727194      8.07804e-05     0.000242891        0.0844562       -0.183205     -1.36977e-05    -0.000196936
                     0.000175903     0.000172186        -0.841876        0.475116     -4.37736e-05    -0.000195269        -0.148769       -0.156429
281700.6               -0.113726       -0.168435     -0.000226898    -0.000173473        -0.973048       0.0727718      0.000120902       0.0001498
                    -0.000208795    -0.000150199       -0.0604194       -0.215584      3.86257e-05     0.000256364        -0.842081        0.475053
                        -0.97291       0.0727483      8.07918e-05     0.000242888        0.0844484       -0.183214     -1.37131e-05    -0.000196931
                     0.000175915     0.000172176        -0.841859        0.475144     -4.37808e-05    -0.000195273        -0.148779       -0.156424
281700.7                -0.11373       -0.168439     -0.000226909    -0.000173477        -0.973045       0.0728007       0.00012091     0.000149791
                    -0.000208799      -0.0001502       -0.0604239       -0.215587      3.86311e-05     0.000256361        -0.842064        0.475081
                       -0.972907       0.0727772      8.08033e-05     0.000242885        0.0844406       -0.183223     -1.37284e-05    -0.000196926
                     0.000175928     0.000172166        -0.841842        0.475172     -4.37881e-05    -0.000195277        -0.148789       -0.156419
281700.8               -0.113733       -0.168443      -0.00022692    -0.000173481        -0.973042       0.0728296      0.000120918     0.000149782
                    -0.000208801    -0.000150201       -0.0604283       -0.215589      3.86366e-05     0.000256357        -0.842047        0.475109
                       -0.972903       0.0728061      8.08147e-05     0.000242882        0.0844329       -0.183232     -1.37437e-05    -0.000196921
                     0.000175943     0.000172155        -0.841824          0.4752     -4.37953e-05    -0.000195281          -0.1488       -0.156413
281700.9               -0.113737       -0.168446     -0.000226931    -0.000173485        -0.973039       0.0728585      0.000120927     0.000149774
                    -0.000208803    -0.000150203       -0.0604327       -0.215592       3.8642e-05     0.000256354         -0.84203        0.475137
                         -0.9729       0.0728349      8.08262e-05     0.000242879        0.0844251       -0.183242      -1.3759e-05    -0.000196916
                      0.00017596     0.000172142        -0.841807        0.475228     -4.38026e-05    -0.000195285         -0.14881       -0.156408
281701                 -0.113741        -0.16845     -0.000226942    -0.000173488        -0.973035       0.0728874      0.000120935     0.000149765
                    -0.000208804    -0.000150204       -0.0604371       -0.215595      3.86474e-05      0.00025635        -0.842013        0.475165
                       -0.972897       0.0728638      8.08376e-05     0.000242876        0.0844173       -0.183251     -1.37744e-05    -0.000196911
                      0.00017598     0.000172129         -0.84179        0.475256     -4.38098e-05    -0.000195289        -0.148821       -0.156403
281701.1               -0.113745       -0.168453     -0.000226953    -0.000173492        -0.973032       0.0729163      0.000120943     0.000149756
                    -0.000208804    -0.000150205       -0.0604416       -0.215598      3.86528e-05     0.000256346        -0.841996        0.475193
                       -0.972894       0.0728927      8.08491e-05     0.000242873        0.0844095        -0.18326     -1.37897e-05    -0.000196906
                     0.000176001     0.000172114        -0.841773        0.475284     -4.38171e-05    -0.000195293        -0.148831       -0.156398
281701.2               -0.113748       -0.168457     -0.000226965    -0.000173496        -0.973029       0.0729452      0.000120951     0.000149747
                    -0.000208803    -0.000150206        -0.060446         -0.2156      3.86583e-05     0.000256343        -0.841979        0.475221
                       -0.972891       0.0729216      8.08605e-05      0.00024287        0.0844017       -0.183269      -1.3805e-05    -0.000196901
                     0.000176024     0.000172098        -0.841756        0.475312     -4.38243e-05    -0.000195296        -0.148841       -0.156392
281701.3               -0.113752       -0.168461     -0.000226976      -0.0001735        -0.973026       0.0729741      0.000120959     0.000149738
                    -0.000208801    -0.000150208       -0.0604504       -0.215603      3.86637e-05     0.000256339        -0.841962        0.475249
                       -0.972887       0.0729504      8.08719e-05     0.000242867        0.0843939       -0.183278     -1.38203e-05    -0.000196895
                     0.000176049     0.000172081        -0.841739         0.47534     -4.38316e-05      -0.0001953        -0.148852       -0.156387
281701.4               -0.113756       -0.168464     -0.000226987    -0.000173503        -0.973022        0.073003      0.000120967      0.00014973
                    -0.000208798    -0.000150209       -0.0604549       -0.215606      3.86691e-05     0.000256336        -0.841945        0.475277
                       -0.972884       0.0729793      8.08834e-05     0.000242864        0.0843862       -0.183288     -1.38355e-05     -0.00019689
                     0.000176077     0.000172063        -0.841722        0.475368     -4.38388e-05    -0.000195304        -0.148862       -0.156382
281701.5               -0.113759       -0.168468     -0.000226998    -0.000173507        -0.973019       0.0730319      0.000120976     0.000149721
                    -0.000208794     -0.00015021       -0.0604593       -0.215609      3.86746e-05     0.000256332        -0.841928        0.475305
                       -0.972881       0.0730082      8.08948e-05     0.000242861        0.0843784       -0.183297     -1.38508e-05    -0.000196885
                     0.000176106     0.000172044        -0.841705        0.475396      -4.3846e-05    -0.000195308        -0.148872       -0.156377
281701.6               -0.113763       -0.168472     -0.000227009    -0.000173511        -0.973016       0.0730608      0.000120984     0.000149712
                    -0.000208788    -0.000150212       -0.0604637       -0.215611        3.868e-05     0.000256328        -0.841911        0.475333
                       -0.972878       0.0730371      8.09063e-05     0.000242858        0.0843706       -0.183306     -1.38661e-05     -0.00019688
                     0.000176138     0.000172023        -0.841688        0.475424     -4.38533e-05    -0.000195312        -0.148883       -0.156372
281701.7               -0.113767       -0.168475      -0.00022702    -0.000173515        -0.973013       0.0730896      0.000120992     0.000149703
                    -0.000208782    -0.000150213       -0.0604682       -0.215614      3.86854e-05     0.000256325        -0.841894        0.475361
                       -0.972874        0.073066      8.09177e-05     0.000242855        0.0843628       -0.183315     -1.38814e-05    -0.000196875
                     0.000176172     0.000172001        -0.841671        0.475452     -4.38605e-05    -0.000195316        -0.148893       -0.156366
281701.8                -0.11377       -0.168479     -0.000227031    -0.000173518         -0.97301       0.0731185         0.000121     0.000149694
                    -0.000208775    -0.000150215       -0.0604726       -0.215617      3.86909e-05     0.000256321        -0.841876        0.475389
                       -0.972871       0.0730948      8.09291e-05     0.000242853         0.084355       -0.183325     -1.38966e-05     -0.00019687
                     0.000176208     0.000171979        -0.841654         0.47548     -4.38678e-05     -0.00019532        -0.148904       -0.156361
281701.9               -0.113774       -0.168482     -0.000227043    -0.000173522        -0.973006       0.0731474      0.000121008     0.000149685
                    -0.000208767    -0.000150216        -0.060477        -0.21562      3.86963e-05     0.000256318        -0.841859        0.475417
                       -0.972868       0.0731237      8.09406e-05      0.00024285        0.0843472       -0.183334     -1.39119e-05    -0.000196865
                     0.000176246     0.000171955        -0.841637        0.475508      -4.3875e-05    -0.000195323        -0.148914       -0.156356
281702                 -0.113778       -0.168486     -0.000227054    -0.000173526        -0.973003       0.0731763      0.000121016     0.000149677
                    -0.000208758    -0.000150218       -0.0604814       -0.215622      3.87017e-05     0.000256314        -0.841842        0.475445
                       -0.972865       0.0731526       8.0952e-05     0.000242847        0.0843395       -0.183343     -1.39272e-05     -0.00019686
                     0.000176286     0.000171929        -0.841619        0.475536     -4.38822e-05    -0.000195327        -0.148924       -0.156351
281702.1               -0.113781        -0.16849     -0.000227065     -0.00017353           -0.973       0.0732052      0.000121024     0.000149668
                    -0.000208748    -0.000150219       -0.0604859       -0.215625      3.87072e-05     0.000256311        -0.841825        0.475474
                       -0.972861       0.0731815      8.09634e-05     0.000242844        0.0843317       -0.183352     -1.39424e-05    -0.000196854
                     0.000176329     0.000171903        -0.841602        0.475564     -4.38895e-05    -0.000195331        -0.148935       -0.156346
281702.2               -0.113785       -0.168493     -0.000227076    -0.000173533        -0.972997       0.0732341      0.000121033     0.000149659
                    -0.000208736    -0.000150221       -0.0604903       -0.215628      3.87126e-05     0.000256307        -0.841808        0.475502
                       -0.972858       0.0732103      8.09749e-05     0.000242841        0.0843239       -0.183362     -1.39576e-05    -0.000196849
                     0.000176373     0.000171875        -0.841585        0.475592     -4.38967e-05    -0.000195335        -0.148945        -0.15634
281702.3               -0.113789       -0.168497     -0.000227087    -0.000173537        -0.972993        0.073263      0.000121041      0.00014965
                    -0.000208724    -0.000150222       -0.0604947       -0.215631      3.87181e-05     0.000256303        -0.841791         0.47553
                       -0.972855       0.0732392      8.09863e-05     0.000242838        0.0843161       -0.183371     -1.39729e-05    -0.000196844
                      0.00017642     0.000171846        -0.841568         0.47562     -4.39039e-05    -0.000195339        -0.148955       -0.156335
281702.4               -0.113792       -0.168501     -0.000227098    -0.000173541         -0.97299       0.0732919      0.000121049     0.000149641
                    -0.000208711    -0.000150224       -0.0604992       -0.215633      3.87235e-05       0.0002563        -0.841774        0.475558
                       -0.972852       0.0732681      8.09977e-05     0.000242835        0.0843083        -0.18338     -1.39881e-05    -0.000196839
                     0.000176469     0.000171816        -0.841551        0.475648     -4.39111e-05    -0.000195343        -0.148966        -0.15633
281702.5               -0.113796       -0.168504     -0.000227109    -0.000173545        -0.972987       0.0733208      0.000121057     0.000149632
                    -0.000208696    -0.000150225       -0.0605036       -0.215636      3.87289e-05     0.000256296        -0.841757        0.475586
                       -0.972848        0.073297      8.10092e-05     0.000242832        0.0843005       -0.183389     -1.40033e-05    -0.000196834
                      0.00017652     0.000171784        -0.841534        0.475676     -4.39184e-05    -0.000195347        -0.148976       -0.156325
281702.6                 -0.1138       -0.168508     -0.000227121    -0.000173548        -0.972984       0.0733497      0.000121065     0.000149623
                     -0.00020868    -0.000150227        -0.060508       -0.215639      3.87344e-05     0.000256293         -0.84174        0.475614
                       -0.972845       0.0733258      8.10206e-05     0.000242829        0.0842927       -0.183399     -1.40185e-05    -0.000196829
                     0.000176574     0.000171751        -0.841517        0.475705     -4.39256e-05     -0.00019535        -0.148987       -0.156319
281702.7               -0.113803       -0.168511     -0.000227132    -0.000173552         -0.97298       0.0733786      0.000121073     0.000149615
                    -0.000208664    -0.000150229       -0.0605125       -0.215642      3.87398e-05     0.000256289        -0.841723        0.475642
                       -0.972842       0.0733547       8.1032e-05     0.000242826        0.0842849       -0.183408     -1.40338e-05    -0.000196824
                      0.00017663     0.000171717          -0.8415        0.475733     -4.39328e-05    -0.000195354        -0.148997       -0.156314
281702.8               -0.113807       -0.168515     -0.000227143    -0.000173556        -0.972977       0.0734075      0.000121081     0.000149606
                    -0.000208646    -0.000150231       -0.0605169       -0.215644      3.87452e-05     0.000256285        -0.841706         0.47567
                       -0.972838       0.0733836      8.10435e-05     0.000242823        0.0842771       -0.183417      -1.4049e-05    -0.000196819
                     0.000176688     0.000171681        -0.841483        0.475761       -4.394e-05    -0.000195358        -0.149007       -0.156309
281702.9               -0.113811       -0.168519     -0.000227154    -0.000173559        -0.972974       0.0734364      0.000121089     0.000149597
                    -0.000208626    -0.000150232       -0.0605213       -0.215647      3.87507e-05     0.000256282        -0.841689        0.475698
                       -0.972835       0.0734125      8.10549e-05      0.00024282        0.0842694       -0.183426     -1.40642e-05    -0.000196813
                     0.000176748     0.000171644        -0.841466        0.475789     -4.39473e-05    -0.000195362        -0.149018       -0.156304
281703                 -0.113814       -0.168522     -0.000227165    -0.000173563        -0.972971       0.0734653      0.000121097     0.000149588
                    -0.000208606    -0.000150234       -0.0605257        -0.21565      3.87561e-05     0.000256278        -0.841671        0.475726
                       -0.972832       0.0734413      8.10663e-05     0.000242817        0.0842616       -0.183435     -1.40794e-05    -0.000196808
                     0.000176811     0.000171606        -0.841448        0.475817     -4.39545e-05    -0.000195366        -0.149028       -0.156298
281703.1               -0.113818       -0.168526     -0.000227176    -0.000173567        -0.972968       0.0734942      0.000121105     0.000149579
                    -0.000208585    -0.000150236       -0.0605302       -0.215653      3.87616e-05     0.000256275        -0.841654        0.475754
                       -0.972829       0.0734702      8.10778e-05     0.000242815        0.0842538       -0.183445     -1.40946e-05    -0.000196803
