! TOUCHSTONE file generated by CST MICROWAVE STUDIO
! Date and time: Wed Oct  8 07:01:01 2025
! Project name: Teste_Macro_Metasurface_Nanopilar.cst
! Parameters = {H=600; L_x=155; L_y=140; Lambda=1064; Max_L=200; Min_L=70; PathPara=1; Phi=0; Step_L=10; Theta=0; p=520; phaseX=180; phaseY=0}
! Header version: 2018
! Port assignment regex: !\s*Touchstone port\s*([0-9]+)\s*=\s*(CST MWS port|CST DS port)\s*([0-9]+|Zmin|Zmax)\s*\(\"(.*)\"\)(\s*mode\s*([0-9]+))?.*
! Touchstone port assignment:
! Touchstone port 1 = CST MWS port Zmax ("") mode 1
! Touchstone port 2 = CST MWS port Zmax ("") mode 2
! Touchstone port 3 = CST MWS port Zmin ("") mode 1
! Touchstone port 4 = CST MWS port Zmin ("") mode 2
! S-Parameters are not renormalized. Each port impedance will be approximated by the real part at minimum frequency. The values are described via the [Reference] keyword.
! Default impedance is overridden by [Reference]
[Version] 2.0
# GHz S RI R 376.73
[Number of Ports] 4
[Reference]
376.73 376.73 376.73 376.73 
[Number of Frequencies] 1001
[Network Data]
281700                -0.0860201       -0.112515     -0.000967801      0.00117202        -0.819452       -0.540881       0.00149616    -0.000542263
                    -0.000972592      0.00117089        -0.550467        0.373153       0.00147086    -0.000378431        -0.242443       -0.672776
                       -0.819728       -0.541002       0.00145599    -0.000303377         0.130037       0.0265795       -0.0018727    -0.000324236
                      0.00149038    -0.000544453         -0.24223       -0.672674      -0.00188291     -0.00025737        -0.660242     0.000831884
281700.1              -0.0860168       -0.112522       -0.0009676      0.00117204        -0.819471       -0.540851       0.00149611    -0.000542353
                    -0.000972532      0.00117097        -0.550437        0.373167       0.00147084    -0.000378576        -0.242481       -0.672781
                       -0.819748       -0.540971       0.00145598    -0.000303524         0.130045       0.0265635      -0.00187269    -0.000324095
                      0.00149034    -0.000544518        -0.242268       -0.672679      -0.00188292    -0.000257203        -0.660225     0.000871115
281700.2              -0.0860134       -0.112529     -0.000967408      0.00117207        -0.819491        -0.54082       0.00149605    -0.000542444
                    -0.000972472      0.00117105        -0.550407         0.37318       0.00147082    -0.000378721        -0.242519       -0.672786
                       -0.819768        -0.54094       0.00145597    -0.000303666         0.130052       0.0265476      -0.00187268    -0.000323954
                      0.00149029    -0.000544582        -0.242306       -0.672684      -0.00188293    -0.000257035        -0.660208     0.000910342
281700.3              -0.0860101       -0.112537     -0.000967223      0.00117209         -0.81951       -0.540789         0.001496    -0.000542534
                    -0.000972412      0.00117113        -0.550378        0.373193       0.00147079    -0.000378864        -0.242558       -0.672791
                       -0.819788       -0.540909       0.00145595    -0.000303803          0.13006       0.0265317      -0.00187267    -0.000323813
                      0.00149025    -0.000544646        -0.242345       -0.672689      -0.00188294    -0.000256866        -0.660191     0.000949566
281700.4              -0.0860068       -0.112544     -0.000967047      0.00117212        -0.819529       -0.540758       0.00149594    -0.000542624
                    -0.000972352      0.00117121        -0.550348        0.373206       0.00147076    -0.000379006        -0.242596       -0.672796
                       -0.819808       -0.540878       0.00145594    -0.000303936         0.130067       0.0265157      -0.00187266    -0.000323672
                      0.00149021    -0.000544709        -0.242383       -0.672694      -0.00188295    -0.000256695        -0.660174     0.000988787
281700.5              -0.0860035       -0.112551      -0.00096688      0.00117215        -0.819549       -0.540727       0.00149589    -0.000542714
                    -0.000972291      0.00117129        -0.550318        0.373219       0.00147073    -0.000379147        -0.242634       -0.672801
                       -0.819827       -0.540847       0.00145592    -0.000304064         0.130074       0.0264998      -0.00187265    -0.000323531
                      0.00149017    -0.000544772        -0.242421       -0.672699      -0.00188296    -0.000256523        -0.660157        0.001028
281700.6              -0.0860002       -0.112558      -0.00096672      0.00117217        -0.819568       -0.540696       0.00149584    -0.000542804
                    -0.000972231      0.00117137        -0.550288        0.373232        0.0014707    -0.000379287        -0.242672       -0.672806
                       -0.819847       -0.540816       0.00145589    -0.000304187         0.130082       0.0264838      -0.00187264     -0.00032339
                      0.00149013    -0.000544834        -0.242459       -0.672704      -0.00188297     -0.00025635         -0.66014      0.00106722
281700.7              -0.0859968       -0.112566      -0.00096657       0.0011722        -0.819587       -0.540666       0.00149578    -0.000542894
                     -0.00097217      0.00117145        -0.550258        0.373245       0.00147067    -0.000379426        -0.242711       -0.672811
                       -0.819867       -0.540785       0.00145587    -0.000304306         0.130089       0.0264679      -0.00187263    -0.000323249
                      0.00149008    -0.000544895        -0.242498       -0.672708      -0.00188298    -0.000256176        -0.660123      0.00110643
281700.8              -0.0859935       -0.112573     -0.000966428      0.00117223        -0.819607       -0.540635       0.00149573    -0.000542984
                    -0.000972109      0.00117152        -0.550228        0.373258       0.00147064    -0.000379563        -0.242749       -0.672816
                       -0.819887       -0.540754       0.00145584    -0.000304419         0.130097       0.0264519      -0.00187262    -0.000323108
                      0.00149004    -0.000544955        -0.242536       -0.672713      -0.00188299       -0.000256        -0.660106      0.00114564
281700.9              -0.0859902        -0.11258     -0.000966295      0.00117227        -0.819626       -0.540604       0.00149567    -0.000543074
                    -0.000972048       0.0011716        -0.550198        0.373271        0.0014706    -0.000379699        -0.242787       -0.672821
                       -0.819906       -0.540723       0.00145581    -0.000304527         0.130104        0.026436      -0.00187261    -0.000322967
                         0.00149    -0.000545015        -0.242574       -0.672718        -0.001883    -0.000255823        -0.660089      0.00118484
281701                -0.0859869       -0.112588     -0.000966171       0.0011723        -0.819645       -0.540573       0.00149562    -0.000543164
                    -0.000971987      0.00117168        -0.550169        0.373284       0.00147057    -0.000379834        -0.242825       -0.672826
                       -0.819926       -0.540692       0.00145577    -0.000304629         0.130111         0.02642       -0.0018726    -0.000322826
                      0.00148996    -0.000545074        -0.242612       -0.672723      -0.00188302    -0.000255644        -0.660072      0.00122404
281701.1              -0.0859836       -0.112595     -0.000966056      0.00117233        -0.819665       -0.540542       0.00149556    -0.000543254
                    -0.000971926      0.00117176        -0.550139        0.373297       0.00147053    -0.000379967        -0.242864       -0.672831
                       -0.819946       -0.540661       0.00145574    -0.000304726         0.130119       0.0264041      -0.00187259    -0.000322685
                      0.00148991    -0.000545132        -0.242651       -0.672728      -0.00188303    -0.000255465        -0.660055      0.00126324
281701.2              -0.0859803       -0.112602      -0.00096595      0.00117237        -0.819684       -0.540511       0.00149551    -0.000543344
                    -0.000971864      0.00117184        -0.550109         0.37331       0.00147049    -0.000380098        -0.242902       -0.672836
                       -0.819966        -0.54063        0.0014557    -0.000304818         0.130126       0.0263881      -0.00187258    -0.000322543
                      0.00148987    -0.000545189        -0.242689       -0.672733      -0.00188304    -0.000255283        -0.660038      0.00130244
281701.3               -0.085977        -0.11261     -0.000965854       0.0011724        -0.819703       -0.540481       0.00149546    -0.000543434
                    -0.000971803      0.00117192        -0.550079        0.373323       0.00147045    -0.000380229         -0.24294        -0.67284
                       -0.819985       -0.540599       0.00145565    -0.000304904         0.130133       0.0263722      -0.00187257    -0.000322402
                      0.00148983    -0.000545246        -0.242727       -0.672738      -0.00188306    -0.000255101        -0.660021      0.00134163
281701.4              -0.0859737       -0.112617     -0.000965768      0.00117244        -0.819723        -0.54045        0.0014954    -0.000543524
                    -0.000971741      0.00117199        -0.550049        0.373336       0.00147041    -0.000380357        -0.242978       -0.672845
                       -0.820005       -0.540568        0.0014556    -0.000304985         0.130141       0.0263562      -0.00187256    -0.000322261
                      0.00148979    -0.000545301        -0.242765       -0.672743      -0.00188307    -0.000254917        -0.660004      0.00138082
281701.5              -0.0859704       -0.112624     -0.000965691      0.00117248        -0.819742       -0.540419       0.00149535    -0.000543614
                    -0.000971679      0.00117207        -0.550019        0.373349       0.00147037    -0.000380484        -0.243017        -0.67285
                       -0.820025       -0.540537       0.00145555     -0.00030506         0.130148       0.0263403      -0.00187255     -0.00032212
                      0.00148974    -0.000545356        -0.242803       -0.672748      -0.00188309    -0.000254731        -0.659987         0.00142
281701.6              -0.0859671       -0.112631     -0.000965624      0.00117251        -0.819761       -0.540388       0.00149529    -0.000543703
                    -0.000971617      0.00117215        -0.549989        0.373362       0.00147032     -0.00038061        -0.243055       -0.672855
                       -0.820045       -0.540506        0.0014555    -0.000305129         0.130156       0.0263243      -0.00187254    -0.000321979
                       0.0014897     -0.00054541        -0.242842       -0.672753      -0.00188311    -0.000254544         -0.65997      0.00145918
281701.7              -0.0859638       -0.112639     -0.000965567      0.00117255         -0.81978       -0.540357       0.00149524    -0.000543793
                    -0.000971555      0.00117223         -0.54996        0.373375       0.00147027    -0.000380733        -0.243093        -0.67286
                       -0.820064       -0.540475       0.00145544    -0.000305192         0.130163       0.0263084      -0.00187253    -0.000321838
                      0.00148965    -0.000545463         -0.24288       -0.672758      -0.00188312    -0.000254356        -0.659953      0.00149836
281701.8              -0.0859605       -0.112646     -0.000965521      0.00117259          -0.8198       -0.540326       0.00149519    -0.000543883
                    -0.000971493      0.00117231         -0.54993        0.373388       0.00147023    -0.000380855        -0.243131       -0.672865
                       -0.820084       -0.540444       0.00145538     -0.00030525          0.13017       0.0262924      -0.00187253    -0.000321697
                      0.00148961    -0.000545514        -0.242918       -0.672763      -0.00188314    -0.000254165        -0.659936      0.00153754
281701.9              -0.0859572       -0.112653     -0.000965485      0.00117264        -0.819819       -0.540295       0.00149513    -0.000543972
                    -0.000971431      0.00117238          -0.5499        0.373401       0.00147018    -0.000380975         -0.24317        -0.67287
                       -0.820104       -0.540413       0.00145532    -0.000305301         0.130178       0.0262765      -0.00187252    -0.000321556
                      0.00148957    -0.000545565        -0.242957       -0.672768      -0.00188316    -0.000253974        -0.659919      0.00157671
281702                -0.0859539       -0.112661     -0.000965461      0.00117268        -0.819838       -0.540264       0.00149508    -0.000544062
                    -0.000971368      0.00117246         -0.54987        0.373414       0.00147012    -0.000381094        -0.243208       -0.672875
                       -0.820124       -0.540382       0.00145525    -0.000305346         0.130185       0.0262605      -0.00187251    -0.000321415
                      0.00148952    -0.000545615        -0.242995       -0.672773      -0.00188318    -0.000253781        -0.659901      0.00161588
281702.1              -0.0859506       -0.112668     -0.000965447      0.00117272        -0.819858       -0.540233       0.00149502    -0.000544151
                    -0.000971306      0.00117254         -0.54984        0.373427       0.00147007     -0.00038121        -0.243246        -0.67288
                       -0.820143       -0.540351       0.00145518    -0.000305385         0.130193       0.0262445       -0.0018725    -0.000321274
                      0.00148948    -0.000545664        -0.243033       -0.672778       -0.0018832    -0.000253586        -0.659884      0.00165504
281702.2              -0.0859473       -0.112675     -0.000965445      0.00117277        -0.819877       -0.540202       0.00149497    -0.000544241
                    -0.000971243      0.00117261         -0.54981         0.37344       0.00147001    -0.000381325        -0.243284       -0.672885
                       -0.820163        -0.54032       0.00145511    -0.000305418           0.1302       0.0262286      -0.00187249    -0.000321132
                      0.00148943    -0.000545712        -0.243071       -0.672783      -0.00188322    -0.000253389        -0.659867       0.0016942
281702.3               -0.085944       -0.112683     -0.000965454      0.00117282        -0.819896       -0.540171       0.00149492     -0.00054433
                     -0.00097118      0.00117269         -0.54978        0.373453       0.00146996    -0.000381437        -0.243323       -0.672889
                       -0.820183       -0.540289       0.00145503    -0.000305445         0.130207       0.0262126      -0.00187248    -0.000320991
                      0.00148938    -0.000545759         -0.24311       -0.672787      -0.00188325    -0.000253191         -0.65985      0.00173336
281702.4              -0.0859407        -0.11269     -0.000965475      0.00117287        -0.819915        -0.54014       0.00149486     -0.00054442
                    -0.000971117      0.00117277        -0.549751        0.373466        0.0014699    -0.000381548        -0.243361       -0.672894
                       -0.820202       -0.540258       0.00145494    -0.000305465         0.130215       0.0261966      -0.00187247     -0.00032085
                      0.00148934    -0.000545805        -0.243148       -0.672792      -0.00188327    -0.000252992        -0.659833      0.00177252
281702.5              -0.0859375       -0.112697     -0.000965509      0.00117292        -0.819935       -0.540109       0.00149481    -0.000544509
                    -0.000971054      0.00117284        -0.549721        0.373479       0.00146984    -0.000381656        -0.243399       -0.672899
                       -0.820222       -0.540227       0.00145486    -0.000305479         0.130222       0.0261807      -0.00187246    -0.000320709
                      0.00148929    -0.000545849        -0.243186       -0.672797      -0.00188329     -0.00025279        -0.659816      0.00181167
281702.6              -0.0859342       -0.112704     -0.000965556      0.00117297        -0.819954       -0.540078       0.00149475    -0.000544598
                    -0.000970991      0.00117292        -0.549691        0.373492       0.00146978    -0.000381763        -0.243437       -0.672904
                       -0.820242       -0.540196       0.00145477    -0.000305487         0.130229       0.0261647      -0.00187245    -0.000320568
                      0.00148924    -0.000545893        -0.243224       -0.672802      -0.00188332    -0.000252587        -0.659799      0.00185082
281702.7              -0.0859309       -0.112712     -0.000965615      0.00117302        -0.819973       -0.540047        0.0014947    -0.000544688
                    -0.000970928        0.001173        -0.549661        0.373505       0.00146971    -0.000381867        -0.243476       -0.672909
                       -0.820262       -0.540165       0.00145467    -0.000305488         0.130237       0.0261487      -0.00187244    -0.000320427
                       0.0014892    -0.000545935        -0.243263       -0.672807      -0.00188334    -0.000252382        -0.659782      0.00188996
281702.8              -0.0859276       -0.112719     -0.000965688      0.00117308        -0.819992       -0.540016       0.00149465    -0.000544777
                    -0.000970865      0.00117307        -0.549631        0.373518       0.00146965    -0.000381969        -0.243514       -0.672914
                       -0.820281       -0.540134       0.00145457    -0.000305483         0.130244       0.0261328      -0.00187243    -0.000320285
                      0.00148915    -0.000545976        -0.243301       -0.672812      -0.00188337    -0.000252175        -0.659765      0.00192911
281702.9              -0.0859243       -0.112726     -0.000965775      0.00117313        -0.820011       -0.539985       0.00149459    -0.000544866
                    -0.000970801      0.00117315        -0.549601        0.373531       0.00146958    -0.000382069        -0.243552       -0.672919
                       -0.820301       -0.540103       0.00145447    -0.000305472         0.130252       0.0261168      -0.00187242    -0.000320144
                       0.0014891    -0.000546016        -0.243339       -0.672817       -0.0018834    -0.000251966        -0.659748      0.00196825
281703                -0.0859211       -0.112734     -0.000965876      0.00117319        -0.820031       -0.539954       0.00149454    -0.000544955
                    -0.000970737      0.00117323        -0.549572        0.373544       0.00146951    -0.000382166         -0.24359       -0.672924
                       -0.820321       -0.540072       0.00145436    -0.000305454         0.130259       0.0261008      -0.00187241    -0.000320003
                      0.00148905    -0.000546054        -0.243377       -0.672822      -0.00188343    -0.000251756        -0.659731      0.00200738
281703.1              -0.0859178       -0.112741     -0.000965992      0.00117325         -0.82005       -0.539923       0.00149448    -0.000545044
                    -0.000970674       0.0011733        -0.549542        0.373557       0.00146944    -0.000382261        -0.243629       -0.672928
                        -0.82034       -0.540041       0.00145425    -0.000305429         0.130266       0.0260849       -0.0018724    -0.000319862
