! TOUCHSTONE file generated by CST MICROWAVE STUDIO
! Date and time: Wed Oct  8 06:51:48 2025
! Project name: Teste_Macro_Metasurface_Nanopilar.cst
! Parameters = {H=600; L_x=80; L_y=80; Lambda=1064; Max_L=200; Min_L=70; PathPara=1; Phi=0; Step_L=10; Theta=0; p=520; phaseX=180; phaseY=0}
! Header version: 2018
! Port assignment regex: !\s*Touchstone port\s*([0-9]+)\s*=\s*(CST MWS port|CST DS port)\s*([0-9]+|Zmin|Zmax)\s*\(\"(.*)\"\)(\s*mode\s*([0-9]+))?.*
! Touchstone port assignment:
! Touchstone port 1 = CST MWS port Zmax ("") mode 1
! Touchstone port 2 = CST MWS port Zmax ("") mode 2
! Touchstone port 3 = CST MWS port Zmin ("") mode 1
! Touchstone port 4 = CST MWS port Zmin ("") mode 2
! S-Parameters are not renormalized. Each port impedance will be approximated by the real part at minimum frequency. The values are described via the [Reference] keyword.
! Default impedance is overridden by [Reference]
[Version] 2.0
# GHz S RI R 376.73
[Number of Ports] 4
[Reference]
376.73 376.73 376.73 376.73 
[Number of Frequencies] 1001
[Network Data]
281700                   0.11823       0.0436827       0.00039616      0.00014068        -0.971313        0.200908      0.000124611     0.000136025
                     0.000413078     0.000131233          0.11839       0.0428607      5.57104e-05     0.000124068        -0.971466        0.200801
                       -0.970402        0.200838      4.23263e-05     0.000220226       -0.0913838       0.0870408     -0.000291988     0.000342419
                     4.18196e-05     0.000200448        -0.970481        0.201005       -0.0002823     0.000342075       -0.0918565       0.0863604
281700.1                0.118229       0.0436767       0.00039617     0.000140668        -0.971308        0.200933      0.000124613      0.00013602
                     0.000413088     0.000131227         0.118389       0.0428547      5.57117e-05     0.000124064        -0.971461        0.200827
                       -0.970397        0.200864      4.23309e-05     0.000220227       -0.0913807       0.0870398     -0.000291975     0.000342436
                     4.18125e-05     0.000200448        -0.970476        0.201031     -0.000282289     0.000342093       -0.0918535       0.0863594
281700.2                0.118229       0.0436707       0.00039618     0.000140657        -0.971303        0.200959      0.000124615     0.000136016
                     0.000413098     0.000131221         0.118388       0.0428487      5.57131e-05      0.00012406        -0.971456        0.200853
                       -0.970392        0.200889      4.23354e-05     0.000220229       -0.0913777       0.0870388     -0.000291962     0.000342453
                     4.18053e-05     0.000200448        -0.970471        0.201056     -0.000282278      0.00034211       -0.0918505       0.0863584
281700.3                0.118228       0.0436647       0.00039619     0.000140646        -0.971298        0.200985      0.000124618     0.000136011
                     0.000413109     0.000131215         0.118387       0.0428427      5.57145e-05     0.000124056        -0.971451        0.200879
                       -0.970387        0.200915        4.234e-05      0.00022023       -0.0913747       0.0870378      -0.00029195     0.000342471
                     4.17982e-05     0.000200448        -0.970466        0.201082     -0.000282267     0.000342128       -0.0918475       0.0863574
281700.4                0.118227       0.0436587      0.000396201     0.000140635        -0.971293        0.201011       0.00012462     0.000136006
                     0.000413119     0.000131209         0.118386       0.0428367      5.57159e-05     0.000124052        -0.971446        0.200905
                       -0.970382        0.200941      4.23446e-05     0.000220231       -0.0913716       0.0870368     -0.000291937     0.000342488
                      4.1791e-05     0.000200448        -0.970461        0.201108     -0.000282255     0.000342145       -0.0918445       0.0863564
281700.5                0.118226       0.0436527      0.000396211     0.000140623        -0.971288        0.201037      0.000124622     0.000136002
                     0.000413129     0.000131203         0.118386       0.0428307      5.57172e-05     0.000124049        -0.971441         0.20093
                       -0.970377        0.200967      4.23492e-05     0.000220232       -0.0913686       0.0870357     -0.000291924     0.000342505
                     4.17839e-05     0.000200448        -0.970456        0.201134     -0.000282244     0.000342163       -0.0918414       0.0863554
281700.6                0.118225       0.0436467      0.000396221     0.000140612        -0.971283        0.201063      0.000124625     0.000135997
                      0.00041314     0.000131197         0.118385       0.0428247      5.57186e-05     0.000124045        -0.971436        0.200956
                       -0.970372        0.200992      4.23538e-05     0.000220234       -0.0913655       0.0870347     -0.000291912     0.000342523
                     4.17767e-05     0.000200448        -0.970451         0.20116     -0.000282233     0.000342181       -0.0918384       0.0863544
281700.7                0.118224       0.0436407      0.000396231     0.000140601        -0.971278        0.201088      0.000124627     0.000135992
                      0.00041315     0.000131191         0.118384       0.0428187        5.572e-05     0.000124041        -0.971431        0.200982
                       -0.970367        0.201018      4.23583e-05     0.000220235       -0.0913625       0.0870337     -0.000291899      0.00034254
                     4.17696e-05     0.000200447        -0.970446        0.201185     -0.000282222     0.000342198       -0.0918354       0.0863534
281700.8                0.118223       0.0436347      0.000396242      0.00014059        -0.971273        0.201114      0.000124629     0.000135987
                      0.00041316     0.000131185         0.118383       0.0428127      5.57213e-05     0.000124037        -0.971426        0.201008
                       -0.970362        0.201044      4.23629e-05     0.000220236       -0.0913595       0.0870327     -0.000291887     0.000342557
                     4.17624e-05     0.000200447        -0.970441        0.201211     -0.000282211     0.000342216       -0.0918324       0.0863524
281700.9                0.118222       0.0436287      0.000396252     0.000140578        -0.971268         0.20114      0.000124632     0.000135983
                     0.000413171     0.000131179         0.118382       0.0428067      5.57227e-05     0.000124033        -0.971421        0.201034
                       -0.970357         0.20107      4.23675e-05     0.000220237       -0.0913564       0.0870317     -0.000291874     0.000342575
                     4.17552e-05     0.000200447        -0.970436        0.201237     -0.000282199     0.000342234       -0.0918294       0.0863514
281701                  0.118222       0.0436227      0.000396262     0.000140567        -0.971263        0.201166      0.000124634     0.000135978
                     0.000413181     0.000131173         0.118381       0.0428007      5.57241e-05     0.000124029        -0.971416         0.20106
                       -0.970352        0.201096      4.23721e-05     0.000220238       -0.0913534       0.0870307     -0.000291861     0.000342592
                     4.17481e-05     0.000200447        -0.970431        0.201263     -0.000282188     0.000342251       -0.0918264       0.0863504
281701.1                0.118221       0.0436167      0.000396272     0.000140556        -0.971258        0.201192      0.000124636     0.000135973
                     0.000413191     0.000131167          0.11838       0.0427947      5.57254e-05     0.000124025        -0.971411        0.201085
                       -0.970347        0.201121      4.23766e-05      0.00022024       -0.0913503       0.0870297     -0.000291849     0.000342609
                     4.17409e-05     0.000200447        -0.970426        0.201288     -0.000282177     0.000342269       -0.0918234       0.0863495
281701.2                 0.11822       0.0436107      0.000396283     0.000140545        -0.971253        0.201217      0.000124639     0.000135968
                     0.000413201     0.000131161         0.118379       0.0427887      5.57268e-05     0.000124021        -0.971406        0.201111
                       -0.970342        0.201147      4.23812e-05     0.000220241       -0.0913473       0.0870287     -0.000291836     0.000342626
                     4.17338e-05     0.000200447        -0.970421        0.201314     -0.000282166     0.000342286       -0.0918204       0.0863485
281701.3                0.118219       0.0436047      0.000396293     0.000140533        -0.971248        0.201243      0.000124641     0.000135964
                     0.000413212     0.000131156         0.118378       0.0427827      5.57282e-05     0.000124017        -0.971402        0.201137
                       -0.970337        0.201173      4.23858e-05     0.000220242       -0.0913443       0.0870276     -0.000291824     0.000342644
                     4.17266e-05     0.000200447        -0.970416         0.20134     -0.000282155     0.000342304       -0.0918174       0.0863475
281701.4                0.118218       0.0435987      0.000396303     0.000140522        -0.971243        0.201269      0.000124643     0.000135959
                     0.000413222      0.00013115         0.118378       0.0427767      5.57295e-05     0.000124014        -0.971397        0.201163
                       -0.970332        0.201199      4.23904e-05     0.000220243       -0.0913412       0.0870266     -0.000291811     0.000342661
                     4.17195e-05     0.000200447        -0.970411        0.201366     -0.000282143     0.000342322       -0.0918144       0.0863465
281701.5                0.118217       0.0435928      0.000396313     0.000140511        -0.971238        0.201295      0.000124646     0.000135954
                     0.000413232     0.000131144         0.118377       0.0427707      5.57309e-05      0.00012401        -0.971392        0.201189
                       -0.970327        0.201224       4.2395e-05     0.000220244       -0.0913382       0.0870256     -0.000291798     0.000342678
                     4.17123e-05     0.000200447        -0.970406        0.201392     -0.000282132     0.000342339       -0.0918114       0.0863455
281701.6                0.118216       0.0435868      0.000396324       0.0001405        -0.971233        0.201321      0.000124648      0.00013595
                     0.000413243     0.000131138         0.118376       0.0427647      5.57323e-05     0.000124006        -0.971387        0.201214
                       -0.970322         0.20125      4.23995e-05     0.000220246       -0.0913352       0.0870246     -0.000291786     0.000342696
                     4.17052e-05     0.000200447        -0.970401        0.201417     -0.000282121     0.000342357       -0.0918083       0.0863445
281701.7                0.118215       0.0435808      0.000396334     0.000140489        -0.971228        0.201346       0.00012465     0.000135945
                     0.000413253     0.000131132         0.118375       0.0427587      5.57336e-05     0.000124002        -0.971382         0.20124
                       -0.970317        0.201276      4.24041e-05     0.000220247       -0.0913321       0.0870236     -0.000291773     0.000342713
                      4.1698e-05     0.000200447        -0.970396        0.201443      -0.00028211     0.000342375       -0.0918053       0.0863435
281701.8                0.118214       0.0435748      0.000396344     0.000140477        -0.971223        0.201372      0.000124653      0.00013594
                     0.000413263     0.000131126         0.118374       0.0427527       5.5735e-05     0.000123998        -0.971377        0.201266
                       -0.970312        0.201302      4.24087e-05     0.000220248       -0.0913291       0.0870226      -0.00029176      0.00034273
                     4.16909e-05     0.000200447        -0.970391        0.201469     -0.000282099     0.000342392       -0.0918023       0.0863425
281701.9                0.118214       0.0435688      0.000396354     0.000140466        -0.971218        0.201398      0.000124655     0.000135935
                     0.000413273      0.00013112         0.118373       0.0427467      5.57364e-05     0.000123994        -0.971372        0.201292
                       -0.970308        0.201328      4.24133e-05     0.000220249        -0.091326       0.0870216     -0.000291748     0.000342747
                     4.16837e-05     0.000200446        -0.970386        0.201495     -0.000282087      0.00034241       -0.0917993       0.0863415
281702                  0.118213       0.0435628      0.000396364     0.000140455        -0.971213        0.201424      0.000124657     0.000135931
                     0.000413284     0.000131114         0.118372       0.0427407      5.57378e-05      0.00012399        -0.971367        0.201318
                       -0.970303        0.201353      4.24178e-05      0.00022025        -0.091323       0.0870205     -0.000291735     0.000342765
                     4.16766e-05     0.000200446        -0.970381        0.201521     -0.000282076     0.000342427       -0.0917963       0.0863405
281702.1                0.118212       0.0435568      0.000396375     0.000140444        -0.971208         0.20145      0.000124659     0.000135926
                     0.000413294     0.000131108         0.118371       0.0427347      5.57391e-05     0.000123986        -0.971362        0.201343
                       -0.970298        0.201379      4.24224e-05     0.000220251         -0.09132       0.0870195     -0.000291723     0.000342782
                     4.16694e-05     0.000200446        -0.970376        0.201546     -0.000282065     0.000342445       -0.0917933       0.0863395
281702.2                0.118211       0.0435508      0.000396385     0.000140432        -0.971203        0.201476      0.000124662     0.000135921
                     0.000413304     0.000131102          0.11837       0.0427287      5.57405e-05     0.000123983        -0.971357        0.201369
                       -0.970293        0.201405       4.2427e-05     0.000220253       -0.0913169       0.0870185      -0.00029171     0.000342799
                     4.16623e-05     0.000200446        -0.970371        0.201572     -0.000282054     0.000342463       -0.0917903       0.0863385
281702.3                 0.11821       0.0435448      0.000396395     0.000140421        -0.971198        0.201501      0.000124664     0.000135916
                     0.000413315     0.000131096         0.118369       0.0427227      5.57419e-05     0.000123979        -0.971352        0.201395
                       -0.970288        0.201431      4.24315e-05     0.000220254       -0.0913139       0.0870175     -0.000291697     0.000342817
                     4.16551e-05     0.000200446        -0.970366        0.201598     -0.000282042      0.00034248       -0.0917873       0.0863375
281702.4                0.118209       0.0435388      0.000396405      0.00014041        -0.971193        0.201527      0.000124666     0.000135912
                     0.000413325      0.00013109         0.118369       0.0427167      5.57432e-05     0.000123975        -0.971347        0.201421
                       -0.970283        0.201456      4.24361e-05     0.000220255       -0.0913108       0.0870165     -0.000291685     0.000342834
                      4.1648e-05     0.000200446        -0.970361        0.201624     -0.000282031     0.000342498       -0.0917843       0.0863365
281702.5                0.118208       0.0435328      0.000396415     0.000140399        -0.971188        0.201553      0.000124669     0.000135907
                     0.000413335     0.000131084         0.118368       0.0427107      5.57446e-05     0.000123971        -0.971342        0.201447
                       -0.970278        0.201482      4.24407e-05     0.000220256       -0.0913078       0.0870155     -0.000291672     0.000342851
                     4.16408e-05     0.000200446        -0.970356        0.201649      -0.00028202     0.000342516       -0.0917813       0.0863355
281702.6                0.118207       0.0435268      0.000396426     0.000140388        -0.971183        0.201579      0.000124671     0.000135902
                     0.000413345     0.000131078         0.118367       0.0427048       5.5746e-05     0.000123967        -0.971337        0.201473
                       -0.970273        0.201508      4.24453e-05     0.000220257       -0.0913048       0.0870145     -0.000291659     0.000342868
                     4.16337e-05     0.000200446        -0.970351        0.201675     -0.000282009     0.000342533       -0.0917783       0.0863345
281702.7                0.118206       0.0435208      0.000396436     0.000140376        -0.971178        0.201605      0.000124673     0.000135898
                     0.000413356     0.000131072         0.118366       0.0426988      5.57473e-05     0.000123963        -0.971332        0.201498
                       -0.970268        0.201534      4.24498e-05     0.000220258       -0.0913017       0.0870134     -0.000291647     0.000342886
                     4.16265e-05     0.000200446        -0.970346        0.201701     -0.000281997     0.000342551       -0.0917752       0.0863335
281702.8                0.118206       0.0435148      0.000396446     0.000140365        -0.971173         0.20163      0.000124676     0.000135893
                     0.000413366     0.000131066         0.118365       0.0426928      5.57487e-05     0.000123959        -0.971327        0.201524
                       -0.970263         0.20156      4.24544e-05      0.00022026       -0.0912987       0.0870124     -0.000291634     0.000342903
                     4.16194e-05     0.000200446        -0.970341        0.201727     -0.000281986     0.000342568       -0.0917722       0.0863325
281702.9                0.118205       0.0435088      0.000396456     0.000140354        -0.971168        0.201656      0.000124678     0.000135888
                     0.000413376      0.00013106         0.118364       0.0426868      5.57501e-05     0.000123955        -0.971322         0.20155
                       -0.970258        0.201585       4.2459e-05     0.000220261       -0.0912957       0.0870114     -0.000291622      0.00034292
                     4.16122e-05     0.000200446        -0.970336        0.201753     -0.000281975     0.000342586       -0.0917692       0.0863315
281703                  0.118204       0.0435028      0.000396466     0.000140343        -0.971163        0.201682       0.00012468     0.000135883
                     0.000413387     0.000131054         0.118363       0.0426808      5.57514e-05     0.000123951        -0.971317        0.201576
                       -0.970253        0.201611      4.24635e-05     0.000220262       -0.0912926       0.0870104     -0.000291609     0.000342938
                     4.16051e-05     0.000200446        -0.970331        0.201778     -0.000281964     0.000342604       -0.0917662       0.0863305
281703.1                0.118203       0.0434968      0.000396477     0.000140332        -0.971158        0.201708      0.000124683     0.000135879
                     0.000413397     0.000131048         0.118362       0.0426748      5.57528e-05     0.000123948        -0.971312        0.201602
                       -0.970248        0.201637      4.24681e-05     0.000220263       -0.0912896       0.0870094     -0.000291596     0.000342955
