! TOUCHSTONE file generated by CST MICROWAVE STUDIO
! Date and time: Wed Oct  8 06:54:15 2025
! Project name: Teste_Macro_Metasurface_Nanopilar.cst
! Parameters = {H=600; L_x=100; L_y=95; Lambda=1064; Max_L=200; Min_L=70; PathPara=1; Phi=0; Step_L=10; Theta=0; p=520; phaseX=180; phaseY=0}
! Header version: 2018
! Port assignment regex: !\s*Touchstone port\s*([0-9]+)\s*=\s*(CST MWS port|CST DS port)\s*([0-9]+|Zmin|Zmax)\s*\(\"(.*)\"\)(\s*mode\s*([0-9]+))?.*
! Touchstone port assignment:
! Touchstone port 1 = CST MWS port Zmax ("") mode 1
! Touchstone port 2 = CST MWS port Zmax ("") mode 2
! Touchstone port 3 = CST MWS port Zmin ("") mode 1
! Touchstone port 4 = CST MWS port Zmin ("") mode 2
! S-Parameters are not renormalized. Each port impedance will be approximated by the real part at minimum frequency. The values are described via the [Reference] keyword.
! Default impedance is overridden by [Reference]
[Version] 2.0
# GHz S RI R 376.73
[Number of Ports] 4
[Reference]
376.73 376.73 376.73 376.73 
[Number of Frequencies] 1001
[Network Data]
281700                 0.0313251       -0.140585     -0.000566833    -0.000173546        -0.747524         0.64638      0.000665735      0.00039101
                    -0.000514513    -0.000372093       -0.0155918        -0.16497      0.000282143     0.000354714        -0.661841        0.728579
                       -0.747392        0.646348      0.000632501     0.000293836        -0.144065       0.0111477     -0.000585726    -9.76659e-05
                      0.00063423     0.000460221         -0.66175         0.72835     -0.000163903    -0.000109719         -0.16615     0.000884347
281700.1               0.0313184       -0.140587     -0.000566846    -0.000173518        -0.747507        0.646401      0.000665739     0.000390986
                    -0.000514525    -0.000372076        -0.015599        -0.16497      0.000282143     0.000354713        -0.661821        0.728597
                       -0.747374        0.646368      0.000632527     0.000293809        -0.144065       0.0111488     -0.000585693     -9.7644e-05
                     0.000634248     0.000460205         -0.66173        0.728368     -0.000163914    -0.000109703         -0.16615     0.000886346
281700.2               0.0313118       -0.140588      -0.00056686    -0.000173491        -0.747489        0.646421      0.000665744     0.000390961
                    -0.000514536     -0.00037206       -0.0156061       -0.164969      0.000282143     0.000354712        -0.661801        0.728615
                       -0.747357        0.646389      0.000632553     0.000293782        -0.144065       0.0111499      -0.00058566    -9.76221e-05
                     0.000634267     0.000460189         -0.66171        0.728387     -0.000163925    -0.000109688         -0.16615     0.000888345
281700.3               0.0313052        -0.14059     -0.000566874    -0.000173463        -0.747471        0.646442      0.000665748     0.000390936
                    -0.000514548    -0.000372043       -0.0156133       -0.164969      0.000282144     0.000354712        -0.661781        0.728634
                       -0.747339        0.646409      0.000632579     0.000293755        -0.144065        0.011151     -0.000585627    -9.76001e-05
                     0.000634285     0.000460173         -0.66169        0.728405     -0.000163937    -0.000109672        -0.166151     0.000890344
281700.4               0.0312986       -0.140591     -0.000566887    -0.000173435        -0.747453        0.646462      0.000665752     0.000390912
                    -0.000514559    -0.000372027       -0.0156204       -0.164969      0.000282144     0.000354711        -0.661761        0.728652
                       -0.747321         0.64643      0.000632605     0.000293728        -0.144065       0.0111521     -0.000585594    -9.75782e-05
                     0.000634304     0.000460157         -0.66167        0.728423     -0.000163948    -0.000109656        -0.166151     0.000892343
281700.5               0.0312919       -0.140593     -0.000566901    -0.000173408        -0.747436        0.646483      0.000665756     0.000390887
                    -0.000514571     -0.00037201       -0.0156276       -0.164969      0.000282144      0.00035471        -0.661741         0.72867
                       -0.747304         0.64645      0.000632631     0.000293701        -0.144065       0.0111532     -0.000585562    -9.75562e-05
                     0.000634322     0.000460141         -0.66165        0.728441     -0.000163959     -0.00010964        -0.166152     0.000894342
281700.6               0.0312853       -0.140594     -0.000566914     -0.00017338        -0.747418        0.646503       0.00066576     0.000390862
                    -0.000514582    -0.000371994       -0.0156347       -0.164969      0.000282144     0.000354709         -0.66172        0.728688
                       -0.747286         0.64647      0.000632657     0.000293674        -0.144065       0.0111542     -0.000585529    -9.75343e-05
                     0.000634341     0.000460126         -0.66163        0.728459      -0.00016397    -0.000109625        -0.166152     0.000896341
281700.7               0.0312787       -0.140596     -0.000566928    -0.000173353          -0.7474        0.646523      0.000665765     0.000390837
                    -0.000514594    -0.000371977       -0.0156419       -0.164968      0.000282145     0.000354708          -0.6617        0.728706
                       -0.747268        0.646491      0.000632683     0.000293647        -0.144065       0.0111553     -0.000585496    -9.75123e-05
                      0.00063436      0.00046011        -0.661609        0.728478     -0.000163981    -0.000109609        -0.166153     0.000898341
281700.8               0.0312721       -0.140597     -0.000566942    -0.000173325        -0.747383        0.646544      0.000665769     0.000390813
                    -0.000514605     -0.00037196       -0.0156491       -0.164968      0.000282145     0.000354707         -0.66168        0.728725
                       -0.747251        0.646511      0.000632709      0.00029362        -0.144065       0.0111564     -0.000585463    -9.74904e-05
                     0.000634378     0.000460094        -0.661589        0.728496     -0.000163992    -0.000109593        -0.166153      0.00090034
281700.9               0.0312655       -0.140599     -0.000566955    -0.000173297        -0.747365        0.646564      0.000665773     0.000390788
                    -0.000514617    -0.000371944       -0.0156562       -0.164968      0.000282145     0.000354706         -0.66166        0.728743
                       -0.747233        0.646532      0.000632735     0.000293593        -0.144065       0.0111575      -0.00058543    -9.74684e-05
                     0.000634397     0.000460078        -0.661569        0.728514     -0.000164004    -0.000109577        -0.166153     0.000902339
281701                 0.0312588       -0.140601     -0.000566969     -0.00017327        -0.747347        0.646585      0.000665777     0.000390763
                    -0.000514628    -0.000371927       -0.0156634       -0.164968      0.000282145     0.000354705         -0.66164        0.728761
                       -0.747215        0.646552      0.000632761     0.000293566        -0.144065       0.0111586     -0.000585397    -9.74464e-05
                     0.000634415     0.000460062        -0.661549        0.728532     -0.000164015    -0.000109561        -0.166154     0.000904339
281701.1               0.0312522       -0.140602     -0.000566982    -0.000173242        -0.747329        0.646605      0.000665782     0.000390738
                     -0.00051464    -0.000371911       -0.0156705       -0.164967      0.000282146     0.000354704         -0.66162        0.728779
                       -0.747197        0.646573      0.000632787     0.000293539        -0.144065       0.0111597     -0.000585364    -9.74245e-05
                     0.000634434     0.000460046        -0.661529         0.72855     -0.000164026    -0.000109546        -0.166154     0.000906338
281701.2               0.0312456       -0.140604     -0.000566996    -0.000173215        -0.747312        0.646626      0.000665786     0.000390714
                    -0.000514651    -0.000371894       -0.0156777       -0.164967      0.000282146     0.000354704        -0.661599        0.728797
                        -0.74718        0.646593      0.000632813     0.000293512        -0.144065       0.0111608     -0.000585331    -9.74025e-05
                     0.000634452      0.00046003        -0.661508        0.728568     -0.000164037     -0.00010953        -0.166155     0.000908338
281701.3                0.031239       -0.140605      -0.00056701    -0.000173187        -0.747294        0.646646       0.00066579     0.000390689
                    -0.000514663    -0.000371878       -0.0156849       -0.164967      0.000282146     0.000354703        -0.661579        0.728816
                       -0.747162        0.646613      0.000632839     0.000293485        -0.144065       0.0111619     -0.000585298    -9.73805e-05
                     0.000634471     0.000460014        -0.661488        0.728587     -0.000164048    -0.000109514        -0.166155     0.000910337
281701.4               0.0312323       -0.140607     -0.000567023    -0.000173159        -0.747276        0.646667      0.000665794     0.000390664
                    -0.000514674    -0.000371861        -0.015692       -0.164967      0.000282147     0.000354702        -0.661559        0.728834
                       -0.747144        0.646634      0.000632865     0.000293458        -0.144065        0.011163     -0.000585265    -9.73585e-05
                     0.000634489     0.000459999        -0.661468        0.728605      -0.00016406    -0.000109498        -0.166156     0.000912337
281701.5               0.0312257       -0.140608     -0.000567037    -0.000173132        -0.747259        0.646687      0.000665798     0.000390639
                    -0.000514686    -0.000371845       -0.0156992       -0.164967      0.000282147     0.000354701        -0.661539        0.728852
                       -0.747127        0.646654      0.000632891     0.000293431        -0.144065        0.011164     -0.000585232    -9.73365e-05
                     0.000634508     0.000459983        -0.661448        0.728623     -0.000164071    -0.000109483        -0.166156     0.000914336
281701.6               0.0312191        -0.14061      -0.00056705    -0.000173104        -0.747241        0.646707      0.000665803     0.000390615
                    -0.000514697    -0.000371828       -0.0157063       -0.164966      0.000282147       0.0003547        -0.661519         0.72887
                       -0.747109        0.646675      0.000632917     0.000293404        -0.144065       0.0111651     -0.000585199    -9.73145e-05
                     0.000634526     0.000459967        -0.661428        0.728641     -0.000164082    -0.000109467        -0.166156     0.000916336
281701.7               0.0312125       -0.140611     -0.000567064    -0.000173076        -0.747223        0.646728      0.000665807      0.00039059
                    -0.000514709    -0.000371812       -0.0157135       -0.164966      0.000282148     0.000354699        -0.661499        0.728888
                       -0.747091        0.646695      0.000632943     0.000293377        -0.144065       0.0111662     -0.000585166    -9.72925e-05
                     0.000634545     0.000459951        -0.661408        0.728659     -0.000164093    -0.000109451        -0.166157     0.000918335
281701.8               0.0312058       -0.140613     -0.000567078    -0.000173049        -0.747205        0.646748      0.000665811     0.000390565
                     -0.00051472    -0.000371795       -0.0157206       -0.164966      0.000282148     0.000354698        -0.661478        0.728907
                       -0.747073        0.646716      0.000632969      0.00029335        -0.144065       0.0111673     -0.000585133    -9.72705e-05
                     0.000634564     0.000459935        -0.661387        0.728677     -0.000164104    -0.000109435        -0.166157     0.000920335
281701.9               0.0311992       -0.140615     -0.000567091    -0.000173021        -0.747188        0.646769      0.000665815      0.00039054
                    -0.000514732    -0.000371779       -0.0157278       -0.164966      0.000282148     0.000354697        -0.661458        0.728925
                       -0.747056        0.646736      0.000632995     0.000293323        -0.144065       0.0111684       -0.0005851    -9.72485e-05
                     0.000634582     0.000459919        -0.661367        0.728696     -0.000164116     -0.00010942        -0.166158     0.000922335
281702                 0.0311926       -0.140616     -0.000567105    -0.000172994         -0.74717        0.646789       0.00066582     0.000390516
                    -0.000514743    -0.000371762        -0.015735       -0.164965      0.000282148     0.000354697        -0.661438        0.728943
                       -0.747038        0.646756      0.000633021     0.000293296        -0.144065       0.0111695     -0.000585067    -9.72265e-05
                     0.000634601     0.000459903        -0.661347        0.728714     -0.000164127    -0.000109404        -0.166158     0.000924334
281702.1                0.031186       -0.140618     -0.000567118    -0.000172966        -0.747152         0.64681      0.000665824     0.000390491
                    -0.000514755    -0.000371746       -0.0157421       -0.164965      0.000282149     0.000354696        -0.661418        0.728961
                        -0.74702        0.646777      0.000633047     0.000293269        -0.144065       0.0111706     -0.000585034    -9.72045e-05
                     0.000634619     0.000459887        -0.661327        0.728732     -0.000164138    -0.000109388        -0.166159     0.000926334
281702.2               0.0311794       -0.140619     -0.000567132    -0.000172938        -0.747134         0.64683      0.000665828     0.000390466
                    -0.000514766    -0.000371729       -0.0157493       -0.164965      0.000282149     0.000354695        -0.661398        0.728979
                       -0.747003        0.646797      0.000633073     0.000293242        -0.144065       0.0111717     -0.000585001    -9.71825e-05
                     0.000634638     0.000459871        -0.661307         0.72875     -0.000164149    -0.000109372        -0.166159     0.000928334
281702.3               0.0311727       -0.140621     -0.000567146    -0.000172911        -0.747117         0.64685      0.000665832     0.000390441
                    -0.000514778    -0.000371713       -0.0157564       -0.164965      0.000282149     0.000354694        -0.661377        0.728997
                       -0.746985        0.646818      0.000633099     0.000293215        -0.144065       0.0111727     -0.000584968    -9.71605e-05
                     0.000634656     0.000459856        -0.661287        0.728768     -0.000164161    -0.000109357        -0.166159     0.000930334
281702.4               0.0311661       -0.140622     -0.000567159    -0.000172883        -0.747099        0.646871      0.000665837     0.000390417
                    -0.000514789    -0.000371696       -0.0157636       -0.164965       0.00028215     0.000354693        -0.661357        0.729016
                       -0.746967        0.646838      0.000633125     0.000293188        -0.144065       0.0111738     -0.000584935    -9.71384e-05
                     0.000634675      0.00045984        -0.661266        0.728787     -0.000164172    -0.000109341         -0.16616     0.000932334
281702.5               0.0311595       -0.140624     -0.000567173    -0.000172855        -0.747081        0.646891      0.000665841     0.000390392
                    -0.000514801     -0.00037168       -0.0157707       -0.164964       0.00028215     0.000354692        -0.661337        0.729034
                        -0.74695        0.646859      0.000633151     0.000293161        -0.144065       0.0111749     -0.000584902    -9.71164e-05
                     0.000634693     0.000459824        -0.661246        0.728805     -0.000164183    -0.000109325         -0.16616     0.000934334
281702.6               0.0311529       -0.140625     -0.000567186    -0.000172828        -0.747064        0.646912      0.000665845     0.000390367
                    -0.000514812    -0.000371663       -0.0157779       -0.164964       0.00028215     0.000354691        -0.661317        0.729052
                       -0.746932        0.646879      0.000633177     0.000293134        -0.144065        0.011176     -0.000584869    -9.70944e-05
                     0.000634712     0.000459808        -0.661226        0.728823     -0.000164194     -0.00010931        -0.166161     0.000936333
281702.7               0.0311462       -0.140627       -0.0005672      -0.0001728        -0.747046        0.646932      0.000665849     0.000390343
                    -0.000514824    -0.000371647       -0.0157851       -0.164964      0.000282151      0.00035469        -0.661297         0.72907
                       -0.746914        0.646899      0.000633203     0.000293107        -0.144065       0.0111771     -0.000584836    -9.70723e-05
                      0.00063473     0.000459792        -0.661206        0.728841     -0.000164205    -0.000109294        -0.166161     0.000938333
281702.8               0.0311396       -0.140629     -0.000567213    -0.000172773        -0.747028        0.646953      0.000665853     0.000390318
                    -0.000514835     -0.00037163       -0.0157922       -0.164964      0.000282151      0.00035469        -0.661277        0.729088
                       -0.746896         0.64692      0.000633229      0.00029308        -0.144065       0.0111782     -0.000584803    -9.70503e-05
                     0.000634749     0.000459776        -0.661186        0.728859     -0.000164217    -0.000109278        -0.166161     0.000940333
281702.9                0.031133        -0.14063     -0.000567227    -0.000172745         -0.74701        0.646973      0.000665858     0.000390293
                    -0.000514847    -0.000371613       -0.0157994       -0.164963      0.000282152     0.000354689        -0.661256        0.729107
                       -0.746879         0.64694      0.000633255     0.000293053        -0.144065       0.0111793      -0.00058477    -9.70282e-05
                     0.000634767      0.00045976        -0.661166        0.728877     -0.000164228    -0.000109262        -0.166162     0.000942334
281703                 0.0311264       -0.140632     -0.000567241    -0.000172717        -0.746993        0.646994      0.000665862     0.000390268
                    -0.000514858    -0.000371597       -0.0158065       -0.164963      0.000282152     0.000354688        -0.661236        0.729125
                       -0.746861        0.646961      0.000633281     0.000293026        -0.144065       0.0111804     -0.000584737    -9.70062e-05
                     0.000634786     0.000459744        -0.661145        0.728896     -0.000164239    -0.000109247        -0.166162     0.000944334
281703.1               0.0311197       -0.140633     -0.000567254     -0.00017269        -0.746975        0.647014      0.000665866     0.000390244
                     -0.00051487     -0.00037158       -0.0158137       -0.164963      0.000282152     0.000354687        -0.661216        0.729143
                       -0.746843        0.646981      0.000633306     0.000292999        -0.144065       0.0111814     -0.000584704    -9.69841e-05
