! TOUCHSTONE file generated by CST MICROWAVE STUDIO
! Date and time: Wed Oct  8 06:57:06 2025
! Project name: Teste_Macro_Metasurface_Nanopilar.cst
! Parameters = {H=600; L_x=120; L_y=200; Lambda=1064; Max_L=200; Min_L=70; PathPara=1; Phi=0; Step_L=10; Theta=0; p=520; phaseX=180; phaseY=0}
! Header version: 2018
! Port assignment regex: !\s*Touchstone port\s*([0-9]+)\s*=\s*(CST MWS port|CST DS port)\s*([0-9]+|Zmin|Zmax)\s*\(\"(.*)\"\)(\s*mode\s*([0-9]+))?.*
! Touchstone port assignment:
! Touchstone port 1 = CST MWS port Zmax ("") mode 1
! Touchstone port 2 = CST MWS port Zmax ("") mode 2
! Touchstone port 3 = CST MWS port Zmin ("") mode 1
! Touchstone port 4 = CST MWS port Zmin ("") mode 2
! S-Parameters are not renormalized. Each port impedance will be approximated by the real part at minimum frequency. The values are described via the [Reference] keyword.
! Default impedance is overridden by [Reference]
[Version] 2.0
# GHz S RI R 376.73
[Number of Ports] 4
[Reference]
376.73 376.73 376.73 376.73 
[Number of Frequencies] 1001
[Network Data]
281700                 0.0039017       0.0989653     -0.000332312     0.000519654        -0.960077       -0.240448      2.13285e-05    -6.51345e-05
                    -0.000294543     0.000352848        -0.209032        0.019027      0.000247578     6.84897e-05        -0.390815       -0.891065
                       -0.959943       -0.240446      0.000152064      0.00012255       -0.0563814       0.0816602     -0.000467211     0.000410723
                      6.6719e-05    -0.000135341        -0.390731       -0.891176     -0.000390192     0.000396766        -0.156369        0.139699
281700.1              0.00390546       0.0989581     -0.000332291     0.000519669        -0.960085       -0.240419      2.13257e-05    -6.51388e-05
                     -0.00029455     0.000352867        -0.209028       0.0190331      0.000247582     6.84782e-05        -0.390842       -0.891054
                       -0.959951       -0.240417      0.000152065     0.000122543       -0.0563762       0.0816554     -0.000467198     0.000410735
                     6.67047e-05    -0.000135341        -0.390758       -0.891165     -0.000390176     0.000396781        -0.156362        0.139701
281700.2              0.00390921       0.0989509      -0.00033227     0.000519684        -0.960093        -0.24039      2.13229e-05    -6.51431e-05
                    -0.000294556     0.000352886        -0.209024       0.0190391      0.000247585     6.84668e-05        -0.390869       -0.891043
                       -0.959959       -0.240388      0.000152066     0.000122535        -0.056371       0.0816506     -0.000467186     0.000410748
                     6.66903e-05     -0.00013534        -0.390786       -0.891154     -0.000390159     0.000396796        -0.156355        0.139704
281700.3              0.00391297       0.0989437     -0.000332249     0.000519698        -0.960101        -0.24036      2.13201e-05    -6.51474e-05
                    -0.000294562     0.000352904        -0.209019       0.0190451      0.000247589     6.84553e-05        -0.390896       -0.891032
                       -0.959967       -0.240358      0.000152067     0.000122528       -0.0563657       0.0816458     -0.000467173      0.00041076
                      6.6676e-05     -0.00013534        -0.390813       -0.891143     -0.000390142     0.000396811        -0.156348        0.139706
281700.4              0.00391672       0.0989365     -0.000332228     0.000519713        -0.960109       -0.240331      2.13173e-05    -6.51517e-05
                    -0.000294568     0.000352923        -0.209015       0.0190511      0.000247592     6.84438e-05        -0.390923       -0.891021
                       -0.959975       -0.240329      0.000152068     0.000122521       -0.0563605        0.081641     -0.000467161     0.000410772
                     6.66617e-05    -0.000135339         -0.39084       -0.891132     -0.000390126     0.000396826        -0.156341        0.139708
281700.5              0.00392048       0.0989293     -0.000332206     0.000519728        -0.960117       -0.240302      2.13146e-05    -6.51561e-05
                    -0.000294575     0.000352942        -0.209011       0.0190571      0.000247596     6.84324e-05        -0.390951        -0.89101
                       -0.959983         -0.2403      0.000152069     0.000122513       -0.0563553       0.0816362     -0.000467149     0.000410784
                     6.66474e-05    -0.000135338        -0.390867       -0.891121     -0.000390109     0.000396841        -0.156334         0.13971
281700.6              0.00392423       0.0989221     -0.000332185     0.000519743        -0.960125       -0.240272      2.13118e-05    -6.51604e-05
                    -0.000294581      0.00035296        -0.209006       0.0190631        0.0002476     6.84209e-05        -0.390978       -0.890999
                       -0.959991        -0.24027       0.00015207     0.000122506       -0.0563501       0.0816314     -0.000467136     0.000410796
                      6.6633e-05    -0.000135338        -0.390894        -0.89111     -0.000390092     0.000396856        -0.156327        0.139712
281700.7              0.00392799       0.0989149     -0.000332164     0.000519757        -0.960133       -0.240243       2.1309e-05    -6.51647e-05
                    -0.000294587     0.000352979        -0.209002       0.0190691      0.000247603     6.84094e-05        -0.391005       -0.890988
                       -0.959999       -0.240241      0.000152071     0.000122499       -0.0563449       0.0816266     -0.000467124     0.000410809
                     6.66187e-05    -0.000135337        -0.390921       -0.891099     -0.000390076     0.000396872         -0.15632        0.139714
281700.8              0.00393174       0.0989077     -0.000332143     0.000519772        -0.960141       -0.240213      2.13062e-05     -6.5169e-05
                    -0.000294594     0.000352998        -0.208998       0.0190752      0.000247607      6.8398e-05        -0.391032       -0.890977
                       -0.960007       -0.240212      0.000152072     0.000122491       -0.0563397       0.0816218     -0.000467111     0.000410821
                     6.66044e-05    -0.000135337        -0.390949       -0.891088     -0.000390059     0.000396887        -0.156313        0.139716
281700.9              0.00393549       0.0989005     -0.000332122     0.000519787         -0.96015       -0.240184      2.13034e-05    -6.51733e-05
                      -0.0002946     0.000353017        -0.208993       0.0190812       0.00024761     6.83865e-05        -0.391059       -0.890966
                       -0.960015       -0.240182      0.000152074     0.000122484       -0.0563345        0.081617     -0.000467099     0.000410833
                     6.65901e-05    -0.000135336        -0.390976       -0.891077     -0.000390042     0.000396902        -0.156307        0.139718
281701                0.00393925       0.0988933     -0.000332101     0.000519802        -0.960158       -0.240155      2.13006e-05    -6.51776e-05
                    -0.000294606     0.000353035        -0.208989       0.0190872      0.000247614     6.83751e-05        -0.391086       -0.890955
                       -0.960023       -0.240153      0.000152075     0.000122477       -0.0563293       0.0816122     -0.000467087     0.000410845
                     6.65758e-05    -0.000135335        -0.391003       -0.891066     -0.000390025     0.000396917          -0.1563         0.13972
281701.1                0.003943       0.0988861      -0.00033208     0.000519816        -0.960166       -0.240125      2.12979e-05    -6.51819e-05
                    -0.000294612     0.000353054        -0.208985       0.0190932      0.000247618     6.83636e-05        -0.391114       -0.890944
                       -0.960031       -0.240124      0.000152076      0.00012247       -0.0563241       0.0816074     -0.000467074     0.000410857
                     6.65615e-05    -0.000135335         -0.39103       -0.891055     -0.000390009     0.000396932        -0.156293        0.139722
281701.2              0.00394675       0.0988789     -0.000332058     0.000519831        -0.960174       -0.240096      2.12951e-05    -6.51862e-05
                    -0.000294619     0.000353073         -0.20898       0.0190992      0.000247621     6.83522e-05        -0.391141       -0.890933
                        -0.96004       -0.240094      0.000152077     0.000122462       -0.0563189       0.0816026     -0.000467062      0.00041087
                     6.65472e-05    -0.000135334        -0.391057       -0.891044     -0.000389992     0.000396947        -0.156286        0.139725
281701.3               0.0039505       0.0988717     -0.000332037     0.000519846        -0.960182       -0.240067      2.12923e-05    -6.51905e-05
                    -0.000294625     0.000353091        -0.208976       0.0191052      0.000247625     6.83408e-05        -0.391168       -0.890922
                       -0.960048       -0.240065      0.000152078     0.000122455       -0.0563137       0.0815978     -0.000467049     0.000410882
                     6.65328e-05    -0.000135334        -0.391084       -0.891033     -0.000389975     0.000396962        -0.156279        0.139727
281701.4              0.00395425       0.0988644     -0.000332016     0.000519861         -0.96019       -0.240037      2.12895e-05    -6.51948e-05
                    -0.000294631      0.00035311        -0.208972       0.0191112      0.000247628     6.83293e-05        -0.391195       -0.890911
                       -0.960056       -0.240036      0.000152079     0.000122448       -0.0563085        0.081593     -0.000467037     0.000410894
                     6.65185e-05    -0.000135333        -0.391112       -0.891022     -0.000389959     0.000396977        -0.156272        0.139729
281701.5              0.00395801       0.0988572     -0.000331995     0.000519875        -0.960198       -0.240008      2.12867e-05    -6.51992e-05
                    -0.000294637     0.000353129        -0.208967       0.0191172      0.000247632     6.83179e-05        -0.391222         -0.8909
                       -0.960064       -0.240006       0.00015208      0.00012244       -0.0563032       0.0815882     -0.000467025     0.000410906
                     6.65042e-05    -0.000135332        -0.391139       -0.891011     -0.000389942     0.000396992        -0.156265        0.139731
281701.6              0.00396176         0.09885     -0.000331974      0.00051989        -0.960206       -0.239979      2.12839e-05    -6.52035e-05
                    -0.000294644     0.000353147        -0.208963       0.0191233      0.000247636     6.83065e-05        -0.391249       -0.890889
                       -0.960072       -0.239977      0.000152081     0.000122433        -0.056298       0.0815834     -0.000467012     0.000410918
                     6.64899e-05    -0.000135332        -0.391166          -0.891     -0.000389925     0.000397007        -0.156258        0.139733
281701.7              0.00396551       0.0988428     -0.000331953     0.000519905        -0.960214       -0.239949      2.12811e-05    -6.52078e-05
                     -0.00029465     0.000353166        -0.208959       0.0191293      0.000247639     6.82951e-05        -0.391277       -0.890878
                        -0.96008       -0.239948      0.000152082     0.000122426       -0.0562928       0.0815786        -0.000467     0.000410931
                     6.64756e-05    -0.000135331        -0.391193       -0.890989     -0.000389909     0.000397022        -0.156251        0.139735
281701.8              0.00396926       0.0988356     -0.000331931      0.00051992        -0.960222        -0.23992      2.12783e-05    -6.52121e-05
                    -0.000294656     0.000353185        -0.208954       0.0191353      0.000247643     6.82837e-05        -0.391304       -0.890867
                       -0.960088       -0.239918      0.000152083     0.000122419       -0.0562876       0.0815738     -0.000466987     0.000410943
                     6.64613e-05    -0.000135331         -0.39122       -0.890978     -0.000389892     0.000397037        -0.156244        0.139737
281701.9              0.00397301       0.0988284      -0.00033191     0.000519934         -0.96023       -0.239891      2.12756e-05    -6.52164e-05
                    -0.000294662     0.000353204         -0.20895       0.0191413      0.000247646     6.82722e-05        -0.391331       -0.890855
                       -0.960096       -0.239889      0.000152084     0.000122411       -0.0562824        0.081569     -0.000466975     0.000410955
                      6.6447e-05     -0.00013533        -0.391247       -0.890967     -0.000389875     0.000397052        -0.156237        0.139739
281702                0.00397675       0.0988212     -0.000331889     0.000519949        -0.960238       -0.239861      2.12728e-05    -6.52207e-05
                    -0.000294669     0.000353222        -0.208946       0.0191473       0.00024765     6.82608e-05        -0.391358       -0.890844
                       -0.960104        -0.23986      0.000152085     0.000122404       -0.0562772       0.0815642     -0.000466963     0.000410967
                     6.64327e-05    -0.000135329        -0.391275       -0.890956     -0.000389859     0.000397067         -0.15623        0.139741
281702.1               0.0039805        0.098814     -0.000331868     0.000519964        -0.960246       -0.239832        2.127e-05     -6.5225e-05
                    -0.000294675     0.000353241        -0.208942       0.0191533      0.000247653     6.82494e-05        -0.391385       -0.890833
                       -0.960112        -0.23983      0.000152086     0.000122397        -0.056272       0.0815594      -0.00046695      0.00041098
                     6.64184e-05    -0.000135329        -0.391302       -0.890945     -0.000389842     0.000397082        -0.156223        0.139743
281702.2              0.00398425       0.0988068     -0.000331847     0.000519979        -0.960254       -0.239803      2.12672e-05    -6.52293e-05
                    -0.000294681      0.00035326        -0.208937       0.0191593      0.000247657      6.8238e-05        -0.391412       -0.890822
                        -0.96012       -0.239801      0.000152087     0.000122389       -0.0562668       0.0815546     -0.000466938     0.000410992
                     6.64041e-05    -0.000135328        -0.391329       -0.890934     -0.000389825     0.000397097        -0.156216        0.139745
281702.3                0.003988       0.0987996     -0.000331826     0.000519993        -0.960262       -0.239773      2.12644e-05    -6.52336e-05
                    -0.000294687     0.000353278        -0.208933       0.0191653      0.000247661     6.82266e-05         -0.39144       -0.890811
                       -0.960128       -0.239772      0.000152088     0.000122382       -0.0562616       0.0815498     -0.000466925     0.000411004
                     6.63898e-05    -0.000135327        -0.391356       -0.890923     -0.000389809     0.000397112        -0.156209        0.139748
281702.4              0.00399175       0.0987924     -0.000331804     0.000520008         -0.96027       -0.239744      2.12616e-05    -6.52379e-05
                    -0.000294693     0.000353297        -0.208929       0.0191713      0.000247664     6.82152e-05        -0.391467         -0.8908
                       -0.960136       -0.239743      0.000152089     0.000122375       -0.0562564        0.081545     -0.000466913     0.000411016
                     6.63755e-05    -0.000135327        -0.391383       -0.890912     -0.000389792     0.000397127        -0.156203         0.13975
281702.5              0.00399549       0.0987852     -0.000331783     0.000520023        -0.960278       -0.239715      2.12588e-05    -6.52422e-05
                      -0.0002947     0.000353316        -0.208924       0.0191773      0.000247668     6.82039e-05        -0.391494       -0.890789
                       -0.960144       -0.239713      0.000152091     0.000122368       -0.0562512       0.0815402     -0.000466901     0.000411028
                     6.63612e-05    -0.000135326         -0.39141       -0.890901     -0.000389775     0.000397142        -0.156196        0.139752
281702.6              0.00399924        0.098778     -0.000331762     0.000520038        -0.960286       -0.239685       2.1256e-05    -6.52465e-05
                    -0.000294706     0.000353335         -0.20892       0.0191834      0.000247671     6.81925e-05        -0.391521       -0.890778
                       -0.960152       -0.239684      0.000152092      0.00012236        -0.056246       0.0815354     -0.000466888     0.000411041
                     6.63469e-05    -0.000135326        -0.391438        -0.89089     -0.000389759     0.000397157        -0.156189        0.139754
281702.7              0.00400299       0.0987708     -0.000331741     0.000520052        -0.960294       -0.239656      2.12532e-05    -6.52508e-05
                    -0.000294712     0.000353353        -0.208916       0.0191894      0.000247675     6.81811e-05        -0.391548       -0.890767
                        -0.96016       -0.239655      0.000152093     0.000122353       -0.0562408       0.0815306     -0.000466876     0.000411053
                     6.63326e-05    -0.000135325        -0.391465       -0.890878     -0.000389742     0.000397172        -0.156182        0.139756
281702.8              0.00400673       0.0987636      -0.00033172     0.000520067        -0.960302       -0.239627      2.12504e-05    -6.52552e-05
                    -0.000294718     0.000353372        -0.208911       0.0191954      0.000247678     6.81697e-05        -0.391575       -0.890756
                       -0.960168       -0.239625      0.000152094     0.000122346       -0.0562356       0.0815258     -0.000466863     0.000411065
                     6.63183e-05    -0.000135324        -0.391492       -0.890867     -0.000389725     0.000397187        -0.156175        0.139758
281702.9              0.00401048       0.0987564     -0.000331698     0.000520082         -0.96031       -0.239597      2.12476e-05    -6.52595e-05
                    -0.000294724     0.000353391        -0.208907       0.0192014      0.000247682     6.81583e-05        -0.391602       -0.890745
                       -0.960176       -0.239596      0.000152095     0.000122338       -0.0562304        0.081521     -0.000466851     0.000411077
                      6.6304e-05    -0.000135324        -0.391519       -0.890856     -0.000389709     0.000397202        -0.156168         0.13976
281703                0.00401422       0.0987492     -0.000331677     0.000520097        -0.960318       -0.239568      2.12448e-05    -6.52638e-05
                    -0.000294731      0.00035341        -0.208903       0.0192074      0.000247685      6.8147e-05         -0.39163       -0.890734
                       -0.960184       -0.239567      0.000152096     0.000122331       -0.0562252       0.0815162     -0.000466839     0.000411089
                     6.62897e-05    -0.000135323        -0.391546       -0.890845     -0.000389692     0.000397217        -0.156161        0.139762
281703.1              0.00401797        0.098742     -0.000331656     0.000520111        -0.960326       -0.239539       2.1242e-05    -6.52681e-05
                    -0.000294737     0.000353428        -0.208898       0.0192134      0.000247689     6.81356e-05        -0.391657       -0.890723
                       -0.960192       -0.239537      0.000152097     0.000122324         -0.05622       0.0815114     -0.000466826     0.000411102
