! TOUCHSTONE file generated by CST MICROWAVE STUDIO
! Date and time: Wed Oct  8 07:03:08 2025
! Project name: Teste_Macro_Metasurface_Nanopilar.cst
! Parameters = {H=600; L_x=175; L_y=80; Lambda=1064; Max_L=200; Min_L=70; PathPara=1; Phi=0; Step_L=10; Theta=0; p=520; phaseX=180; phaseY=0}
! Header version: 2018
! Port assignment regex: !\s*Touchstone port\s*([0-9]+)\s*=\s*(CST MWS port|CST DS port)\s*([0-9]+|Zmin|Zmax)\s*\(\"(.*)\"\)(\s*mode\s*([0-9]+))?.*
! Touchstone port assignment:
! Touchstone port 1 = CST MWS port Zmax ("") mode 1
! Touchstone port 2 = CST MWS port Zmax ("") mode 2
! Touchstone port 3 = CST MWS port Zmin ("") mode 1
! Touchstone port 4 = CST MWS port Zmin ("") mode 2
! S-Parameters are not renormalized. Each port impedance will be approximated by the real part at minimum frequency. The values are described via the [Reference] keyword.
! Default impedance is overridden by [Reference]
[Version] 2.0
# GHz S RI R 376.73
[Number of Ports] 4
[Reference]
376.73 376.73 376.73 376.73 
[Number of Frequencies] 1001
[Network Data]
281700                  0.030152        -0.14513      -0.00029071      0.00020567        -0.709905        0.686906     -4.26576e-05     4.72467e-05
                    -0.000420832     0.000330942        -0.181754      -0.0812474      0.000191843     3.06509e-05        -0.310952       -0.923135
                       -0.710113        0.686808      0.000112667     7.42538e-05        -0.146262       0.0256941      0.000145614     0.000286328
                    -0.000102994     0.000115449        -0.311141       -0.922912       0.00029641     0.000297787       -0.0964397        0.173572
281700.1               0.0301453       -0.145131       -0.0002907     0.000205692        -0.709886        0.686925     -4.26607e-05     4.72555e-05
                     -0.00042081     0.000330958        -0.181752      -0.0812412      0.000191842     3.06475e-05        -0.310981       -0.923126
                       -0.710094        0.686827      0.000112659     7.42514e-05        -0.146261       0.0256954      0.000145614     0.000286331
                    -0.000102988     0.000115446         -0.31117       -0.922903      0.000296407     0.000297777       -0.0964309        0.173572
281700.2               0.0301387       -0.145132     -0.000290691     0.000205713        -0.709868        0.686944     -4.26637e-05     4.72644e-05
                    -0.000420788     0.000330974         -0.18175       -0.081235      0.000191841      3.0644e-05        -0.311011       -0.923117
                       -0.710075        0.686847      0.000112651     7.42491e-05         -0.14626       0.0256967      0.000145614     0.000286333
                    -0.000102983     0.000115443          -0.3112       -0.922894      0.000296404     0.000297768       -0.0964221        0.173572
281700.3               0.0301321       -0.145133     -0.000290682     0.000205735        -0.709849        0.686964     -4.26666e-05     4.72732e-05
                    -0.000420765      0.00033099        -0.181748      -0.0812288       0.00019184     3.06406e-05        -0.311041       -0.923108
                       -0.710057        0.686866      0.000112643     7.42467e-05         -0.14626        0.025698      0.000145613     0.000286336
                    -0.000102977     0.000115439        -0.311229       -0.922885      0.000296402     0.000297758       -0.0964133        0.173572
281700.4               0.0301254       -0.145134     -0.000290673     0.000205756         -0.70983        0.686983     -4.26695e-05     4.72821e-05
                    -0.000420743     0.000331006        -0.181746      -0.0812226      0.000191839     3.06372e-05         -0.31107       -0.923099
                       -0.710038        0.686886      0.000112635     7.42444e-05        -0.146259       0.0256993      0.000145612     0.000286338
                    -0.000102971     0.000115436        -0.311259       -0.922876      0.000296399     0.000297749       -0.0964044        0.173572
281700.5               0.0301188       -0.145135     -0.000290664     0.000205778        -0.709812        0.687003     -4.26723e-05      4.7291e-05
                     -0.00042072     0.000331022        -0.181744      -0.0812164      0.000191838     3.06338e-05          -0.3111        -0.92309
                       -0.710019        0.686905      0.000112627      7.4242e-05        -0.146259       0.0257006      0.000145612     0.000286341
                    -0.000102965     0.000115432        -0.311288       -0.922867      0.000296397     0.000297739       -0.0963956        0.173572
281700.6               0.0301121       -0.145136     -0.000290655     0.000205799        -0.709793        0.687022      -4.2675e-05     4.72999e-05
                    -0.000420698     0.000331038        -0.181743      -0.0812102      0.000191837     3.06304e-05        -0.311129       -0.923081
                           -0.71        0.686925      0.000112619     7.42397e-05        -0.146258       0.0257019      0.000145611     0.000286343
                    -0.000102959     0.000115429        -0.311318       -0.922858      0.000296394     0.000297729       -0.0963868        0.173572
281700.7               0.0301055       -0.145137     -0.000290645     0.000205821        -0.709774        0.687041     -4.26776e-05     4.73088e-05
                    -0.000420676     0.000331054        -0.181741       -0.081204      0.000191837     3.06269e-05        -0.311159       -0.923072
                       -0.709982        0.686944      0.000112611     7.42373e-05        -0.146258       0.0257032       0.00014561     0.000286346
                    -0.000102953     0.000115426        -0.311348       -0.922849      0.000296392      0.00029772        -0.096378        0.173572
281700.8               0.0300989       -0.145138     -0.000290636     0.000205843        -0.709755        0.687061     -4.26801e-05     4.73177e-05
                    -0.000420653      0.00033107        -0.181739      -0.0811978      0.000191836     3.06235e-05        -0.311189       -0.923063
                       -0.709963        0.686963      0.000112603      7.4235e-05        -0.146257       0.0257045      0.000145608     0.000286348
                    -0.000102947     0.000115422        -0.311377        -0.92284      0.000296389      0.00029771       -0.0963691        0.173572
281700.9               0.0300922       -0.145139     -0.000290627     0.000205864        -0.709737         0.68708     -4.26826e-05     4.73266e-05
                    -0.000420631     0.000331086        -0.181737      -0.0811916      0.000191835     3.06201e-05        -0.311218       -0.923054
                       -0.709944        0.686983      0.000112595     7.42326e-05        -0.146257       0.0257058      0.000145607      0.00028635
                    -0.000102941     0.000115419        -0.311407       -0.922831      0.000296386     0.000297701       -0.0963603        0.173572
281701                 0.0300856        -0.14514     -0.000290618     0.000205886        -0.709718          0.6871     -4.26849e-05     4.73355e-05
                    -0.000420608     0.000331102        -0.181735      -0.0811854      0.000191834     3.06167e-05        -0.311248       -0.923045
                       -0.709926        0.687002      0.000112587     7.42303e-05        -0.146256       0.0257071      0.000145606     0.000286353
                    -0.000102935     0.000115415        -0.311436       -0.922822      0.000296384     0.000297691       -0.0963515        0.173571
281701.1               0.0300789       -0.145141     -0.000290609     0.000205907        -0.709699        0.687119     -4.26872e-05     4.73444e-05
                    -0.000420586     0.000331118        -0.181733      -0.0811792      0.000191833     3.06133e-05        -0.311278       -0.923036
                       -0.709907        0.687022      0.000112579     7.42279e-05        -0.146256       0.0257083      0.000145604     0.000286355
                    -0.000102929     0.000115412        -0.311466       -0.922813      0.000296381     0.000297682       -0.0963427        0.173571
281701.2               0.0300723       -0.145142       -0.0002906     0.000205929        -0.709681        0.687138     -4.26894e-05     4.73534e-05
                    -0.000420563     0.000331134        -0.181731       -0.081173      0.000191832     3.06099e-05        -0.311307       -0.923027
                       -0.709888        0.687041      0.000112571     7.42256e-05        -0.146255       0.0257096      0.000145602     0.000286357
                    -0.000102923     0.000115409        -0.311496       -0.922804      0.000296379     0.000297672       -0.0963338        0.173571
281701.3               0.0300657       -0.145143      -0.00029059      0.00020595        -0.709662        0.687158     -4.26915e-05     4.73623e-05
                    -0.000420541      0.00033115        -0.181729      -0.0811668      0.000191831     3.06065e-05        -0.311337       -0.923018
                       -0.709869         0.68706      0.000112563     7.42232e-05        -0.146254       0.0257109        0.0001456     0.000286359
                    -0.000102917     0.000115405        -0.311525       -0.922794      0.000296376     0.000297662        -0.096325        0.173571
281701.4                0.030059       -0.145145     -0.000290581     0.000205972        -0.709643        0.687177     -4.26936e-05     4.73713e-05
                    -0.000420519     0.000331166        -0.181727      -0.0811606       0.00019183      3.0603e-05        -0.311366       -0.923009
                       -0.709851         0.68708      0.000112554     7.42209e-05        -0.146254       0.0257122      0.000145598     0.000286361
                    -0.000102911     0.000115402        -0.311555       -0.922785      0.000296374     0.000297653       -0.0963162        0.173571
281701.5               0.0300524       -0.145146     -0.000290572     0.000205994        -0.709624        0.687196     -4.26955e-05     4.73803e-05
                    -0.000420496     0.000331182        -0.181725      -0.0811544       0.00019183     3.05996e-05        -0.311396          -0.923
                       -0.709832        0.687099      0.000112546     7.42185e-05        -0.146253       0.0257135      0.000145596     0.000286364
                    -0.000102905     0.000115398        -0.311584       -0.922776      0.000296371     0.000297643       -0.0963074        0.173571
281701.6               0.0300457       -0.145147     -0.000290563     0.000206015        -0.709606        0.687216     -4.26974e-05     4.73892e-05
                    -0.000420474     0.000331198        -0.181723      -0.0811482      0.000191829     3.05962e-05        -0.311426       -0.922991
                       -0.709813        0.687119      0.000112538     7.42162e-05        -0.146253       0.0257148      0.000145594     0.000286366
                    -0.000102899     0.000115395        -0.311614       -0.922767      0.000296368     0.000297634       -0.0962985        0.173571
281701.7               0.0300391       -0.145148     -0.000290554     0.000206037        -0.709587        0.687235     -4.26991e-05     4.73982e-05
                    -0.000420451     0.000331214        -0.181721       -0.081142      0.000191828     3.05928e-05        -0.311455       -0.922982
                       -0.709795        0.687138       0.00011253     7.42138e-05        -0.146252       0.0257161      0.000145591     0.000286368
                    -0.000102893     0.000115392        -0.311643       -0.922758      0.000296366     0.000297624       -0.0962897        0.173571
281701.8               0.0300325       -0.145149     -0.000290544     0.000206058        -0.709568        0.687255     -4.27008e-05     4.74072e-05
                    -0.000420429      0.00033123        -0.181719      -0.0811358      0.000191827     3.05894e-05        -0.311485       -0.922973
                       -0.709776        0.687157      0.000112522     7.42115e-05        -0.146252       0.0257174      0.000145589      0.00028637
                    -0.000102887     0.000115388        -0.311673       -0.922749      0.000296363     0.000297614       -0.0962809        0.173571
281701.9               0.0300258        -0.14515     -0.000290535      0.00020608         -0.70955        0.687274     -4.27024e-05     4.74163e-05
                    -0.000420407     0.000331246        -0.181717      -0.0811296      0.000191826      3.0586e-05        -0.311514       -0.922964
                       -0.709757        0.687177      0.000112514     7.42091e-05        -0.146251       0.0257187      0.000145586     0.000286372
                    -0.000102881     0.000115385        -0.311703        -0.92274      0.000296361     0.000297605        -0.096272        0.173571
281702                 0.0300192       -0.145151     -0.000290526     0.000206102        -0.709531        0.687293      -4.2704e-05     4.74253e-05
                    -0.000420384     0.000331262        -0.181715      -0.0811234      0.000191825     3.05826e-05        -0.311544       -0.922955
                       -0.709738        0.687196      0.000112506     7.42068e-05        -0.146251         0.02572      0.000145583     0.000286374
                    -0.000102875     0.000115381        -0.311732       -0.922731      0.000296358     0.000297595       -0.0962632         0.17357
281702.1               0.0300125       -0.145152     -0.000290517     0.000206123        -0.709512        0.687313     -4.27054e-05     4.74343e-05
                    -0.000420362     0.000331278        -0.181713      -0.0811172      0.000191824     3.05792e-05        -0.311574       -0.922946
                        -0.70972        0.687216      0.000112498     7.42044e-05         -0.14625       0.0257213       0.00014558     0.000286375
                    -0.000102869     0.000115378        -0.311762       -0.922722      0.000296356     0.000297586       -0.0962544         0.17357
281702.2               0.0300059       -0.145153     -0.000290508     0.000206145        -0.709493        0.687332     -4.27067e-05     4.74434e-05
                    -0.000420339     0.000331294        -0.181711       -0.081111      0.000191823     3.05758e-05        -0.311603       -0.922937
                       -0.709701        0.687235       0.00011249     7.42021e-05         -0.14625       0.0257226      0.000145577     0.000286377
                    -0.000102863     0.000115375        -0.311791       -0.922713      0.000296353     0.000297576       -0.0962456         0.17357
281702.3               0.0299992       -0.145154     -0.000290498     0.000206166        -0.709475        0.687352      -4.2708e-05     4.74524e-05
                    -0.000420317      0.00033131        -0.181709      -0.0811048      0.000191822     3.05724e-05        -0.311633       -0.922928
                       -0.709682        0.687254      0.000112482     7.41997e-05        -0.146249       0.0257239      0.000145574     0.000286379
                    -0.000102857     0.000115371        -0.311821       -0.922704       0.00029635     0.000297567       -0.0962367         0.17357
281702.4               0.0299926       -0.145155     -0.000290489     0.000206188        -0.709456        0.687371     -4.27092e-05     4.74615e-05
                    -0.000420294     0.000331326        -0.181707      -0.0810986      0.000191822      3.0569e-05        -0.311662       -0.922919
                       -0.709664        0.687274      0.000112474     7.41974e-05        -0.146248       0.0257252       0.00014557     0.000286381
                    -0.000102851     0.000115368        -0.311851       -0.922695      0.000296348     0.000297557       -0.0962279         0.17357
281702.5                0.029986       -0.145156      -0.00029048      0.00020621        -0.709437         0.68739     -4.27103e-05     4.74706e-05
                    -0.000420272     0.000331342        -0.181705      -0.0810924      0.000191821     3.05656e-05        -0.311692        -0.92291
                       -0.709645        0.687293      0.000112466      7.4195e-05        -0.146248       0.0257265      0.000145567     0.000286383
                    -0.000102845     0.000115364         -0.31188       -0.922686      0.000296345     0.000297547       -0.0962191         0.17357
281702.6               0.0299793       -0.145157     -0.000290471     0.000206231        -0.709419         0.68741     -4.27112e-05     4.74797e-05
                     -0.00042025     0.000331358        -0.181703      -0.0810862       0.00019182     3.05621e-05        -0.311722       -0.922901
                       -0.709626        0.687313      0.000112457     7.41926e-05        -0.146247       0.0257278      0.000145563     0.000286384
                    -0.000102839     0.000115361         -0.31191       -0.922677      0.000296343     0.000297538       -0.0962102         0.17357
281702.7               0.0299727       -0.145158     -0.000290462     0.000206253          -0.7094        0.687429     -4.27121e-05     4.74888e-05
                    -0.000420227     0.000331374        -0.181701        -0.08108      0.000191819     3.05587e-05        -0.311751       -0.922892
                       -0.709607        0.687332      0.000112449     7.41903e-05        -0.146247       0.0257291      0.000145559     0.000286386
                    -0.000102833     0.000115358        -0.311939       -0.922668       0.00029634     0.000297528       -0.0962014         0.17357
281702.8                0.029966       -0.145159     -0.000290452     0.000206274        -0.709381        0.687448      -4.2713e-05     4.74979e-05
                    -0.000420205      0.00033139        -0.181699      -0.0810738      0.000191818     3.05553e-05        -0.311781       -0.922882
                       -0.709589        0.687351      0.000112441     7.41879e-05        -0.146246       0.0257304      0.000145555     0.000286388
                    -0.000102827     0.000115354        -0.311969       -0.922659      0.000296338     0.000297519       -0.0961926         0.17357
281702.9               0.0299594        -0.14516     -0.000290443     0.000206296        -0.709362        0.687468     -4.27137e-05      4.7507e-05
                    -0.000420182     0.000331406        -0.181697      -0.0810676      0.000191817     3.05519e-05        -0.311811       -0.922873
                        -0.70957        0.687371      0.000112433     7.41856e-05        -0.146246       0.0257317      0.000145551     0.000286389
                    -0.000102822     0.000115351        -0.311998        -0.92265      0.000296335     0.000297509       -0.0961838        0.173569
281703                 0.0299528       -0.145162     -0.000290434     0.000206318        -0.709344        0.687487     -4.27143e-05     4.75161e-05
                     -0.00042016     0.000331422        -0.181695      -0.0810614      0.000191816     3.05485e-05         -0.31184       -0.922864
                       -0.709551         0.68739      0.000112425     7.41832e-05        -0.146245        0.025733      0.000145547     0.000286391
                    -0.000102816     0.000115347        -0.312028       -0.922641      0.000296332       0.0002975       -0.0961749        0.173569
281703.1               0.0299461       -0.145163     -0.000290425     0.000206339        -0.709325        0.687507     -4.27148e-05     4.75253e-05
                    -0.000420138     0.000331438        -0.181693      -0.0810552      0.000191815     3.05451e-05         -0.31187       -0.922855
                       -0.709532         0.68741      0.000112417     7.41809e-05        -0.146245       0.0257343      0.000145542     0.000286392
