! TOUCHSTONE file generated by CST MICROWAVE STUDIO
! Date and time: Wed Oct  8 06:54:00 2025
! Project name: Teste_Macro_Metasurface_Nanopilar.cst
! Parameters = {H=600; L_x=95; L_y=175; Lambda=1064; Max_L=200; Min_L=70; PathPara=1; Phi=0; Step_L=10; Theta=0; p=520; phaseX=180; phaseY=0}
! Header version: 2018
! Port assignment regex: !\s*Touchstone port\s*([0-9]+)\s*=\s*(CST MWS port|CST DS port)\s*([0-9]+|Zmin|Zmax)\s*\(\"(.*)\"\)(\s*mode\s*([0-9]+))?.*
! Touchstone port assignment:
! Touchstone port 1 = CST MWS port Zmax ("") mode 1
! Touchstone port 2 = CST MWS port Zmax ("") mode 2
! Touchstone port 3 = CST MWS port Zmin ("") mode 1
! Touchstone port 4 = CST MWS port Zmin ("") mode 2
! S-Parameters are not renormalized. Each port impedance will be approximated by the real part at minimum frequency. The values are described via the [Reference] keyword.
! Default impedance is overridden by [Reference]
[Version] 2.0
# GHz S RI R 376.73
[Number of Ports] 4
[Reference]
376.73 376.73 376.73 376.73 
[Number of Frequencies] 1001
[Network Data]
281700                -0.0988918       -0.196762      0.000357278     -0.00114949        -0.840608       -0.480835      0.000793921    -0.000254923
                     0.000222496     -0.00109636        -0.217859      -0.0351574     -0.000209694     0.000735601         0.272418        0.930942
                       -0.840621        -0.48075     -0.000232242     0.000848711         0.213544      -0.0206326      -0.00138146     0.000268673
                     0.000820343    -0.000213644         0.272452        0.930893       -0.0014215      0.00024593        -0.165127         0.14646
281700.1              -0.0988917       -0.196768      0.000357248     -0.00114953        -0.840624       -0.480804      0.000793922    -0.000254967
                     0.000222457     -0.00109639        -0.217857      -0.0351496     -0.000209678     0.000735626         0.272448        0.930934
                       -0.840637       -0.480719      -0.00023222     0.000848747         0.213548      -0.0206518      -0.00138148     0.000268735
                     0.000820355    -0.000213686         0.272481        0.930885      -0.00142152     0.000245994         -0.16512        0.146462
281700.2              -0.0988916       -0.196774      0.000357218     -0.00114957        -0.840641       -0.480772      0.000793922    -0.000255011
                     0.000222418     -0.00109641        -0.217855      -0.0351419     -0.000209661     0.000735652         0.272477        0.930926
                       -0.840654       -0.480687     -0.000232197     0.000848782         0.213552      -0.0206711      -0.00138149     0.000268798
                     0.000820366    -0.000213727          0.27251        0.930877      -0.00142153     0.000246058        -0.165114        0.146465
281700.3              -0.0988914        -0.19678      0.000357189     -0.00114961        -0.840657       -0.480741      0.000793923    -0.000255054
                     0.000222378     -0.00109644        -0.217853      -0.0351341     -0.000209645     0.000735677         0.272506        0.930918
                        -0.84067       -0.480656     -0.000232175     0.000848818         0.213556      -0.0206904       -0.0013815      0.00026886
                     0.000820378     -0.00021377         0.272539        0.930869      -0.00142155     0.000246121        -0.165107        0.146467
281700.4              -0.0988913       -0.196787      0.000357159     -0.00114965        -0.840673        -0.48071      0.000793923    -0.000255098
                     0.000222339     -0.00109647         -0.21785      -0.0351263     -0.000209629     0.000735702         0.272535        0.930911
                       -0.840686       -0.480624     -0.000232153     0.000848853          0.21356      -0.0207097      -0.00138151     0.000268922
                      0.00082039    -0.000213812         0.272568        0.930862      -0.00142156     0.000246185          -0.1651         0.14647
281700.5              -0.0988912       -0.196793      0.000357129     -0.00114969         -0.84069       -0.480678      0.000793924    -0.000255142
                       0.0002223     -0.00109649        -0.217848      -0.0351186     -0.000209612     0.000735727         0.272564        0.930903
                       -0.840703       -0.480593     -0.000232131     0.000848888         0.213563      -0.0207289      -0.00138152     0.000268985
                     0.000820401    -0.000213854         0.272597        0.930854      -0.00142158     0.000246249        -0.165094        0.146472
281700.6               -0.098891       -0.196799      0.000357099     -0.00114973        -0.840706       -0.480647      0.000793924    -0.000255186
                     0.000222261     -0.00109652        -0.217846      -0.0351108     -0.000209596     0.000735752         0.272593        0.930895
                       -0.840719       -0.480562     -0.000232109     0.000848924         0.213567      -0.0207482      -0.00138153     0.000269047
                     0.000820413    -0.000213896         0.272626        0.930846      -0.00142159     0.000246313        -0.165087        0.146475
281700.7              -0.0988909       -0.196805      0.000357069     -0.00114977        -0.840722       -0.480616      0.000793925    -0.000255229
                     0.000222222     -0.00109655        -0.217844       -0.035103      -0.00020958     0.000735777         0.272622        0.930887
                       -0.840735        -0.48053     -0.000232087     0.000848959         0.213571      -0.0207675      -0.00138154      0.00026911
                     0.000820424    -0.000213939         0.272655        0.930838      -0.00142161     0.000246376         -0.16508        0.146477
281700.8              -0.0988908       -0.196812      0.000357039     -0.00114981        -0.840739       -0.480584      0.000793925    -0.000255273
                     0.000222184     -0.00109657        -0.217842      -0.0350952     -0.000209563     0.000735802         0.272651         0.93088
                       -0.840752       -0.480499     -0.000232065     0.000848995         0.213575      -0.0207868      -0.00138155     0.000269172
                     0.000820435    -0.000213981         0.272684        0.930831      -0.00142162      0.00024644        -0.165074         0.14648
281700.9              -0.0988906       -0.196818      0.000357009     -0.00114985        -0.840755       -0.480553      0.000793925    -0.000255317
                     0.000222145      -0.0010966         -0.21784      -0.0350875     -0.000209547     0.000735827          0.27268        0.930872
                       -0.840768       -0.480468     -0.000232043      0.00084903         0.213579      -0.0208061      -0.00138156     0.000269234
                     0.000820447    -0.000214024         0.272713        0.930823      -0.00142164     0.000246504        -0.165067        0.146482
281701                -0.0988905       -0.196824      0.000356979     -0.00114989        -0.840771       -0.480521      0.000793926     -0.00025536
                     0.000222106     -0.00109663        -0.217838      -0.0350797     -0.000209531     0.000735852         0.272709        0.930864
                       -0.840784       -0.480436     -0.000232021     0.000849065         0.213582      -0.0208253      -0.00138158     0.000269297
                     0.000820458    -0.000214066         0.272742        0.930815      -0.00142165     0.000246568         -0.16506        0.146485
281701.1              -0.0988904        -0.19683      0.000356949     -0.00114993        -0.840788        -0.48049      0.000793926    -0.000255404
                     0.000222067     -0.00109666        -0.217836      -0.0350719     -0.000209514     0.000735877         0.272738        0.930856
                       -0.840801       -0.480405     -0.000231999     0.000849101         0.213586      -0.0208446      -0.00138159     0.000269359
                     0.000820469    -0.000214109         0.272772        0.930807      -0.00142167     0.000246632        -0.165054        0.146487
281701.2              -0.0988902       -0.196837      0.000356919     -0.00114997        -0.840804       -0.480459      0.000793927    -0.000255448
                     0.000222029     -0.00109668        -0.217833      -0.0350642     -0.000209498     0.000735903         0.272768        0.930849
                       -0.840817       -0.480374     -0.000231977     0.000849136          0.21359      -0.0208639       -0.0013816     0.000269422
                      0.00082048    -0.000214152         0.272801          0.9308      -0.00142168     0.000246695        -0.165047         0.14649
281701.3              -0.0988901       -0.196843      0.000356889        -0.00115         -0.84082       -0.480427      0.000793927    -0.000255492
                      0.00022199     -0.00109671        -0.217831      -0.0350564     -0.000209482     0.000735928         0.272797        0.930841
                       -0.840833       -0.480342     -0.000231955     0.000849172         0.213594      -0.0208832      -0.00138161     0.000269484
                     0.000820492    -0.000214195          0.27283        0.930792       -0.0014217     0.000246759         -0.16504        0.146492
281701.4                -0.09889       -0.196849      0.000356859     -0.00115004        -0.840837       -0.480396      0.000793928    -0.000255535
                     0.000221952     -0.00109674        -0.217829      -0.0350486     -0.000209465     0.000735953         0.272826        0.930833
                        -0.84085       -0.480311     -0.000231933     0.000849207         0.213598      -0.0209025      -0.00138162     0.000269546
                     0.000820503    -0.000214237         0.272859        0.930784      -0.00142171     0.000246823        -0.165033        0.146494
281701.5              -0.0988899       -0.196855      0.000356829     -0.00115008        -0.840853       -0.480365      0.000793928    -0.000255579
                     0.000221913     -0.00109677        -0.217827      -0.0350409     -0.000209449     0.000735978         0.272855        0.930825
                       -0.840866       -0.480279     -0.000231911     0.000849242         0.213602      -0.0209217      -0.00138163     0.000269609
                     0.000820514     -0.00021428         0.272888        0.930776      -0.00142173     0.000246887        -0.165027        0.146497
281701.6              -0.0988897       -0.196862      0.000356799     -0.00115012        -0.840869       -0.480333      0.000793929    -0.000255623
                     0.000221875     -0.00109679        -0.217825      -0.0350331     -0.000209433     0.000736003         0.272884        0.930818
                       -0.840882       -0.480248     -0.000231889     0.000849278         0.213605       -0.020941      -0.00138164     0.000269671
                     0.000820525    -0.000214323         0.272917        0.930769      -0.00142174     0.000246951         -0.16502        0.146499
281701.7              -0.0988896       -0.196868      0.000356769     -0.00115016        -0.840886       -0.480302      0.000793929    -0.000255667
                     0.000221837     -0.00109682        -0.217823      -0.0350253     -0.000209416     0.000736028         0.272913         0.93081
                       -0.840899       -0.480217     -0.000231866     0.000849313         0.213609      -0.0209603      -0.00138165     0.000269734
                     0.000820536    -0.000214366         0.272946        0.930761      -0.00142176     0.000247014        -0.165013        0.146502
281701.8              -0.0988895       -0.196874      0.000356739      -0.0011502        -0.840902       -0.480271       0.00079393     -0.00025571
                     0.000221798     -0.00109685        -0.217821      -0.0350175       -0.0002094     0.000736053         0.272942        0.930802
                       -0.840915       -0.480185     -0.000231844     0.000849349         0.213613      -0.0209796      -0.00138166     0.000269796
                     0.000820547     -0.00021441         0.272975        0.930753      -0.00142177     0.000247078        -0.165007        0.146504
281701.9              -0.0988894        -0.19688      0.000356709     -0.00115024        -0.840918       -0.480239       0.00079393    -0.000255754
                      0.00022176     -0.00109688        -0.217819      -0.0350098     -0.000209384     0.000736078         0.272971        0.930794
                       -0.840931       -0.480154     -0.000231822     0.000849384         0.213617      -0.0209989      -0.00138167     0.000269859
                     0.000820558    -0.000214453         0.273004        0.930745      -0.00142179     0.000247142           -0.165        0.146507
281702                -0.0988892       -0.196887      0.000356679     -0.00115028        -0.840935       -0.480208       0.00079393    -0.000255798
                     0.000221721     -0.00109691        -0.217816       -0.035002     -0.000209367     0.000736103            0.273        0.930787
                       -0.840948       -0.480123       -0.0002318     0.000849419          0.21362      -0.0210182      -0.00138169     0.000269921
                     0.000820569    -0.000214496         0.273033        0.930738       -0.0014218     0.000247206        -0.164993        0.146509
281702.1              -0.0988891       -0.196893      0.000356649     -0.00115032        -0.840951       -0.480176      0.000793931    -0.000255842
                     0.000221683     -0.00109694        -0.217814      -0.0349942     -0.000209351     0.000736129         0.273029        0.930779
                       -0.840964       -0.480091     -0.000231778     0.000849455         0.213624      -0.0210374       -0.0013817     0.000269983
                      0.00082058    -0.000214539         0.273062         0.93073      -0.00142182      0.00024727        -0.164987        0.146512
281702.2               -0.098889       -0.196899      0.000356619     -0.00115036        -0.840967       -0.480145      0.000793931    -0.000255885
                     0.000221645     -0.00109696        -0.217812      -0.0349865     -0.000209335     0.000736154         0.273058        0.930771
                        -0.84098        -0.48006     -0.000231756      0.00084949         0.213628      -0.0210567      -0.00138171     0.000270046
                     0.000820591    -0.000214583         0.273091        0.930722      -0.00142183     0.000247334         -0.16498        0.146514
281702.3              -0.0988889       -0.196905      0.000356589      -0.0011504        -0.840984       -0.480114      0.000793932    -0.000255929
                     0.000221607     -0.00109699         -0.21781      -0.0349787     -0.000209318     0.000736179         0.273087        0.930763
                       -0.840997       -0.480028     -0.000231734     0.000849526         0.213632       -0.021076      -0.00138172     0.000270108
                     0.000820602    -0.000214626          0.27312        0.930714      -0.00142185     0.000247397        -0.164973        0.146517
281702.4              -0.0988887       -0.196912      0.000356559     -0.00115044           -0.841       -0.480082      0.000793932    -0.000255973
                     0.000221568     -0.00109702        -0.217808      -0.0349709     -0.000209302     0.000736204         0.273117        0.930755
                       -0.841013       -0.479997     -0.000231712     0.000849561         0.213636      -0.0210953      -0.00138173     0.000270171
                     0.000820613    -0.000214669         0.273149        0.930706      -0.00142186     0.000247461        -0.164967        0.146519
281702.5              -0.0988886       -0.196918      0.000356529     -0.00115048        -0.841016       -0.480051      0.000793933    -0.000256017
                      0.00022153     -0.00109705        -0.217806      -0.0349632     -0.000209286     0.000736229         0.273146        0.930748
                       -0.841029       -0.479966     -0.000231689     0.000849596         0.213639      -0.0211146      -0.00138174     0.000270233
                     0.000820624    -0.000214713         0.273179        0.930699      -0.00142187     0.000247525         -0.16496        0.146522
281702.6              -0.0988885       -0.196924      0.000356499     -0.00115052        -0.841033        -0.48002      0.000793933     -0.00025606
                     0.000221492     -0.00109708        -0.217804      -0.0349554     -0.000209269     0.000736254         0.273175         0.93074
                       -0.841046       -0.479934     -0.000231667     0.000849632         0.213643      -0.0211339      -0.00138175     0.000270295
                     0.000820635    -0.000214756         0.273208        0.930691      -0.00142189     0.000247589        -0.164953        0.146524
281702.7              -0.0988884        -0.19693      0.000356469     -0.00115056        -0.841049       -0.479988      0.000793933    -0.000256104
                     0.000221454      -0.0010971        -0.217801      -0.0349476     -0.000209253     0.000736279         0.273204        0.930732
                       -0.841062       -0.479903     -0.000231645     0.000849667         0.213647      -0.0211532      -0.00138176     0.000270358
                     0.000820646      -0.0002148         0.273237        0.930683       -0.0014219     0.000247653        -0.164947        0.146527
281702.8              -0.0988883       -0.196937      0.000356439      -0.0011506        -0.841065       -0.479957      0.000793934    -0.000256148
                     0.000221416     -0.00109713        -0.217799      -0.0349399     -0.000209237     0.000736304         0.273233        0.930724
                       -0.841078       -0.479872     -0.000231623     0.000849703         0.213651      -0.0211725      -0.00138177      0.00027042
                     0.000820657    -0.000214843         0.273266        0.930675      -0.00142192     0.000247717         -0.16494        0.146529
281702.9              -0.0988881       -0.196943      0.000356409     -0.00115064        -0.841082       -0.479925      0.000793934    -0.000256192
                     0.000221377     -0.00109716        -0.217797      -0.0349321      -0.00020922     0.000736329         0.273262        0.930717
                       -0.841095        -0.47984     -0.000231601     0.000849738         0.213655      -0.0211917      -0.00138178     0.000270483
                     0.000820668    -0.000214887         0.273295        0.930668      -0.00142193      0.00024778        -0.164933        0.146532
281703                 -0.098888       -0.196949      0.000356379     -0.00115067        -0.841098       -0.479894      0.000793935    -0.000256235
                     0.000221339     -0.00109719        -0.217795      -0.0349243     -0.000209204     0.000736355         0.273291        0.930709
                       -0.841111       -0.479809     -0.000231579     0.000849773         0.213658       -0.021211      -0.00138179     0.000270545
                     0.000820679     -0.00021493         0.273324         0.93066      -0.00142195     0.000247844        -0.164927        0.146534
281703.1              -0.0988879       -0.196956      0.000356349     -0.00115071        -0.841114       -0.479863      0.000793935    -0.000256279
                     0.000221301     -0.00109722        -0.217793      -0.0349166     -0.000209188      0.00073638          0.27332        0.930701
                       -0.841127       -0.479777     -0.000231556     0.000849809         0.213662      -0.0212303      -0.00138181     0.000270608
