! TOUCHSTONE file generated by CST MICROWAVE STUDIO
! Date and time: Wed Oct  8 07:06:14 2025
! Project name: Teste_Macro_Metasurface_Nanopilar.cst
! Parameters = {H=600; L_x=200; L_y=105; Lambda=1064; Max_L=200; Min_L=70; PathPara=1; Phi=0; Step_L=10; Theta=0; p=520; phaseX=180; phaseY=0}
! Header version: 2018
! Port assignment regex: !\s*Touchstone port\s*([0-9]+)\s*=\s*(CST MWS port|CST DS port)\s*([0-9]+|Zmin|Zmax)\s*\(\"(.*)\"\)(\s*mode\s*([0-9]+))?.*
! Touchstone port assignment:
! Touchstone port 1 = CST MWS port Zmax ("") mode 1
! Touchstone port 2 = CST MWS port Zmax ("") mode 2
! Touchstone port 3 = CST MWS port Zmin ("") mode 1
! Touchstone port 4 = CST MWS port Zmin ("") mode 2
! S-Parameters are not renormalized. Each port impedance will be approximated by the real part at minimum frequency. The values are described via the [Reference] keyword.
! Default impedance is overridden by [Reference]
[Version] 2.0
# GHz S RI R 376.73
[Number of Ports] 4
[Reference]
376.73 376.73 376.73 376.73 
[Number of Frequencies] 1001
[Network Data]
281700                  -0.09377       -0.162139     -0.000281873    -5.51366e-05         0.764384       -0.602856     -0.000645098     0.000135363
                    -0.000309634    -6.43226e-05        -0.143882        0.368284      -0.00024975    -2.28896e-05        -0.704596       -0.576408
                        0.764661       -0.602781      4.20859e-05    -1.09531e-05        -0.137999       -0.126304     -0.000646679     0.000279441
                    -9.50043e-05     0.000176407         -0.70462       -0.576384     -0.000663016     0.000375743        -0.338415        0.203703
281700.1              -0.0937777        -0.16214     -0.000283285    -5.46678e-05         0.764363       -0.602881     -0.000645072     0.000135449
                    -0.000311006    -6.39626e-05        -0.143869        0.368282     -0.000249756    -2.28932e-05        -0.704616       -0.576388
                        0.764642       -0.602806      4.27949e-05    -9.53799e-06        -0.138006       -0.126303     -0.000646637      0.00027949
                    -9.41061e-05     0.000175621         -0.70464       -0.576364     -0.000663059     0.000375762        -0.338402        0.203711
281700.2              -0.0937855       -0.162141      -0.00028465    -5.42202e-05         0.764343       -0.602906     -0.000645045     0.000135534
                    -0.000312352    -6.35443e-05        -0.143856        0.368279     -0.000249761    -2.28967e-05        -0.704637       -0.576367
                        0.764624       -0.602831      4.34747e-05    -8.12916e-06        -0.138013       -0.126302     -0.000646595     0.000279538
                    -9.32058e-05     0.000174866        -0.704661       -0.576343     -0.000663102     0.000375782        -0.338389        0.203719
281700.3              -0.0937932       -0.162142     -0.000285969    -5.37925e-05         0.764322       -0.602931     -0.000645019     0.000135619
                    -0.000313669    -6.30701e-05        -0.143843        0.368277     -0.000249767    -2.29003e-05        -0.704657       -0.576347
                        0.764605       -0.602856      4.41258e-05    -6.72764e-06         -0.13802       -0.126301     -0.000646553     0.000279587
                    -9.23046e-05      0.00017414        -0.704681       -0.576322     -0.000663145     0.000375801        -0.338377        0.203727
281700.4              -0.0938009       -0.162143     -0.000287244    -5.33836e-05         0.764301       -0.602956     -0.000644993     0.000135703
                    -0.000314953    -6.25429e-05         -0.14383        0.368275     -0.000249773    -2.29038e-05        -0.704678       -0.576327
                        0.764587        -0.60288      4.47484e-05    -5.33444e-06        -0.138027         -0.1263     -0.000646512     0.000279635
                    -9.14032e-05     0.000173444        -0.704702       -0.576301     -0.000663188      0.00037582        -0.338364        0.203735
281700.5              -0.0938087       -0.162143     -0.000288477    -5.29926e-05          0.76428       -0.602982     -0.000644967     0.000135786
                    -0.000316202    -6.19658e-05        -0.143818        0.368273     -0.000249779    -2.29074e-05        -0.704698       -0.576306
                        0.764568       -0.602905      4.53432e-05    -3.95052e-06        -0.138034       -0.126299     -0.000646471     0.000279684
                    -9.05027e-05     0.000172775        -0.704722        -0.57628     -0.000663232      0.00037584        -0.338351        0.203744
281700.6              -0.0938164       -0.162144     -0.000289669    -5.26184e-05         0.764259       -0.603007     -0.000644942     0.000135869
                    -0.000317412    -6.13419e-05        -0.143805        0.368271     -0.000249785    -2.29109e-05        -0.704718       -0.576286
                        0.764549       -0.602929      4.59107e-05    -2.57682e-06        -0.138041       -0.126298     -0.000646429     0.000279733
                    -8.96038e-05     0.000172135        -0.704743       -0.576259     -0.000663275     0.000375859        -0.338338        0.203752
281700.7              -0.0938242       -0.162145     -0.000290822    -5.22603e-05         0.764238       -0.603032     -0.000644916     0.000135952
                    -0.000318582    -6.06748e-05        -0.143792        0.368268     -0.000249791    -2.29144e-05        -0.704739       -0.576266
                         0.76453       -0.602954      4.64513e-05    -1.21428e-06        -0.138048       -0.126297     -0.000646389     0.000279781
                    -8.87073e-05     0.000171522        -0.704763       -0.576239     -0.000663318     0.000375879        -0.338325         0.20376
281700.8              -0.0938319       -0.162146     -0.000291937    -5.19175e-05         0.764217       -0.603057      -0.00064489     0.000136034
                     -0.00031971    -5.99678e-05        -0.143779        0.368266     -0.000249797    -2.29179e-05        -0.704759       -0.576245
                        0.764512       -0.602978      4.69657e-05     1.36195e-07        -0.138055       -0.126296     -0.000646348      0.00027983
                    -8.78138e-05     0.000170935        -0.704783       -0.576218     -0.000663361     0.000375898        -0.338312        0.203768
281700.9              -0.0938397       -0.162147     -0.000293015    -5.15891e-05         0.764196       -0.603083     -0.000644865     0.000136115
                    -0.000320793    -5.92245e-05        -0.143766        0.368264     -0.000249803    -2.29214e-05         -0.70478       -0.576225
                        0.764493       -0.603002      4.74544e-05     1.47373e-06        -0.138062       -0.126295     -0.000646307     0.000279878
                    -8.69242e-05     0.000170373        -0.704804       -0.576197     -0.000663404     0.000375917          -0.3383        0.203776
281701                -0.0938474       -0.162147     -0.000294058    -5.12744e-05         0.764175       -0.603108     -0.000644839     0.000136195
                    -0.000321832    -5.84485e-05        -0.143753        0.368262     -0.000249809    -2.29249e-05          -0.7048       -0.576204
                        0.764474       -0.603026       4.7918e-05     2.79745e-06        -0.138069       -0.126294     -0.000646267     0.000279927
                     -8.6039e-05     0.000169837        -0.704824       -0.576176     -0.000663447     0.000375937        -0.338287        0.203784
281701.1              -0.0938552       -0.162148     -0.000295067    -5.09729e-05         0.764154       -0.603133     -0.000644814     0.000136275
                    -0.000322824    -5.76433e-05         -0.14374         0.36826     -0.000249814    -2.29284e-05        -0.704821       -0.576184
                        0.764455        -0.60305      4.83572e-05     4.10653e-06        -0.138076       -0.126293     -0.000646227     0.000279975
                    -8.51587e-05     0.000169325        -0.704845       -0.576155     -0.000663491     0.000375956        -0.338274        0.203793
281701.2              -0.0938629       -0.162149     -0.000296044    -5.06839e-05         0.764133       -0.603158     -0.000644789     0.000136355
                     -0.00032377    -5.68124e-05        -0.143727        0.368257      -0.00024982    -2.29319e-05        -0.704841       -0.576164
                        0.764436       -0.603074      4.87725e-05     5.40014e-06        -0.138083       -0.126292     -0.000646187     0.000280024
                    -8.42839e-05     0.000168836        -0.704865       -0.576135     -0.000663534     0.000375976        -0.338261        0.203801
281701.3              -0.0938707        -0.16215     -0.000296988    -5.04068e-05         0.764112       -0.603183     -0.000644764     0.000136434
                    -0.000324669    -5.59593e-05        -0.143714        0.368255     -0.000249826    -2.29354e-05        -0.704862       -0.576143
                        0.764417       -0.603098      4.91646e-05      6.6775e-06         -0.13809       -0.126291     -0.000646147     0.000280072
                    -8.34152e-05     0.000168369        -0.704885       -0.576114     -0.000663577     0.000375995        -0.338248        0.203809
281701.4              -0.0938784        -0.16215     -0.000297902    -5.01411e-05         0.764091       -0.603209     -0.000644739     0.000136512
                    -0.000325521    -5.50872e-05        -0.143701        0.368253     -0.000249832    -2.29389e-05        -0.704882       -0.576123
                        0.764398       -0.603122      4.95342e-05     7.93782e-06        -0.138097        -0.12629     -0.000646107      0.00028012
                    -8.25529e-05     0.000167925        -0.704906       -0.576093      -0.00066362     0.000376015        -0.338236        0.203817
281701.5              -0.0938862       -0.162151     -0.000298785    -4.98863e-05          0.76407       -0.603234     -0.000644714     0.000136589
                    -0.000326326    -5.41995e-05        -0.143688        0.368251     -0.000249838    -2.29424e-05        -0.704903       -0.576102
                        0.764378       -0.603145       4.9882e-05     9.18035e-06        -0.138104       -0.126289     -0.000646068     0.000280169
                    -8.16974e-05     0.000167502        -0.704926       -0.576072     -0.000663664     0.000376034        -0.338223        0.203825
281701.6              -0.0938939       -0.162152      -0.00029964    -4.96418e-05          0.76405       -0.603259     -0.000644689     0.000136666
                    -0.000327085    -5.32991e-05        -0.143675        0.368249     -0.000249843    -2.29458e-05        -0.704923       -0.576082
                        0.764359       -0.603169      5.02086e-05     1.04044e-05        -0.138111       -0.126288     -0.000646029     0.000280217
                    -8.08492e-05       0.0001671        -0.704947       -0.576051     -0.000663707     0.000376054         -0.33821        0.203834
281701.7              -0.0939017       -0.162152     -0.000300466    -4.94074e-05         0.764029       -0.603284     -0.000644665     0.000136743
                    -0.000327799     -5.2389e-05        -0.143662        0.368246     -0.000249849    -2.29493e-05        -0.704944       -0.576062
                         0.76434       -0.603193      5.05146e-05     1.16091e-05        -0.138118       -0.126286      -0.00064599     0.000280266
                    -8.00086e-05     0.000166718        -0.704967       -0.576031      -0.00066375     0.000376073        -0.338197        0.203842
281701.8              -0.0939095       -0.162153     -0.000301265    -4.91826e-05         0.764008       -0.603309      -0.00064464     0.000136819
                    -0.000328467     -5.1472e-05         -0.14365        0.368244     -0.000249855    -2.29527e-05        -0.704964       -0.576041
                         0.76432       -0.603216      5.08009e-05      1.2794e-05        -0.138125       -0.126285     -0.000645951     0.000280314
                    -7.91759e-05     0.000166355        -0.704988        -0.57601     -0.000663793     0.000376092        -0.338184         0.20385
281701.9              -0.0939172       -0.162154     -0.000302038    -4.89669e-05         0.763987       -0.603335     -0.000644616     0.000136894
                    -0.000329092    -5.05506e-05        -0.143637        0.368242     -0.000249861    -2.29562e-05        -0.704985       -0.576021
                          0.7643        -0.60324      5.10682e-05     1.39582e-05        -0.138132       -0.126284     -0.000645912     0.000280362
                    -7.83513e-05      0.00016601        -0.705008       -0.575989     -0.000663837     0.000376112        -0.338172        0.203858
281702                 -0.093925       -0.162155     -0.000302784      -4.876e-05         0.763966        -0.60336     -0.000644592     0.000136969
                    -0.000329675    -4.96273e-05        -0.143624         0.36824     -0.000249867    -2.29596e-05        -0.705005       -0.576001
                        0.764281       -0.603263       5.1317e-05     1.51012e-05        -0.138139       -0.126283     -0.000645874     0.000280411
                    -7.75351e-05     0.000165684        -0.705028       -0.575968      -0.00066388     0.000376131        -0.338159        0.203866
281702.1              -0.0939328       -0.162155     -0.000303505    -4.85616e-05         0.763945       -0.603385     -0.000644567     0.000137043
                    -0.000330216    -4.87043e-05        -0.143611        0.368237     -0.000249872     -2.2963e-05        -0.705026        -0.57598
                        0.764261       -0.603287      5.15482e-05     1.62222e-05        -0.138146       -0.126282     -0.000645835     0.000280459
                    -7.67275e-05     0.000165375        -0.705049       -0.575948     -0.000663923     0.000376151        -0.338146        0.203875
281702.2              -0.0939406       -0.162156     -0.000304202    -4.83714e-05         0.763924        -0.60341     -0.000644543     0.000137116
                    -0.000330717    -4.77836e-05        -0.143598        0.368235     -0.000249878    -2.29664e-05        -0.705046        -0.57596
                        0.764241        -0.60331      5.17625e-05     1.73207e-05        -0.138153       -0.126281     -0.000645797     0.000280507
                    -7.59287e-05     0.000165082        -0.705069       -0.575927     -0.000663966      0.00037617        -0.338133        0.203883
281702.3              -0.0939483       -0.162157     -0.000304874    -4.81891e-05         0.763903       -0.603436     -0.000644519     0.000137189
                     -0.00033118    -4.68672e-05        -0.143585        0.368233     -0.000249884    -2.29698e-05        -0.705067       -0.575939
                        0.764221       -0.603333      5.19605e-05     1.83961e-05         -0.13816        -0.12628     -0.000645759     0.000280556
                    -7.51389e-05     0.000164806         -0.70509       -0.575906      -0.00066401      0.00037619         -0.33812        0.203891
281702.4              -0.0939561       -0.162157     -0.000305523    -4.80143e-05         0.763882       -0.603461     -0.000644496     0.000137261
                    -0.000331605    -4.59567e-05        -0.143572        0.368231     -0.000249889    -2.29732e-05        -0.705087       -0.575919
                        0.764201       -0.603357       5.2143e-05     1.94477e-05        -0.138167       -0.126279     -0.000645722     0.000280604
                    -7.43583e-05     0.000164545         -0.70511       -0.575885     -0.000664053     0.000376209        -0.338108        0.203899
281702.5              -0.0939639       -0.162158     -0.000306148    -4.78469e-05         0.763861       -0.603486     -0.000644472     0.000137333
                    -0.000331995    -4.50538e-05        -0.143559        0.368229     -0.000249895    -2.29766e-05        -0.705107       -0.575899
                         0.76418        -0.60338      5.23108e-05     2.04749e-05        -0.138174       -0.126278     -0.000645684     0.000280652
                    -7.35869e-05     0.000164299        -0.705131       -0.575865     -0.000664096     0.000376229        -0.338095        0.203907
281702.6              -0.0939717       -0.162159     -0.000306751    -4.76865e-05          0.76384       -0.603511     -0.000644448     0.000137404
                    -0.000332351    -4.41597e-05        -0.143546        0.368226     -0.000249901      -2.298e-05        -0.705128       -0.575878
                         0.76416       -0.603404      5.24644e-05     2.14772e-05         -0.13818       -0.126277     -0.000645647       0.0002807
                    -7.28248e-05     0.000164067        -0.705151       -0.575844      -0.00066414     0.000376248        -0.338082        0.203915
281702.7              -0.0939795       -0.162159     -0.000307332     -4.7533e-05         0.763819       -0.603536     -0.000644425     0.000137474
                    -0.000332675    -4.32757e-05        -0.143533        0.368224     -0.000249906    -2.29833e-05        -0.705148       -0.575858
                         0.76414       -0.603427      5.26047e-05      2.2454e-05        -0.138187       -0.126275     -0.000645609     0.000280749
                    -7.20722e-05      0.00016385        -0.705171       -0.575823     -0.000664183     0.000376268        -0.338069        0.203924
281702.8              -0.0939873        -0.16216     -0.000307891    -4.73862e-05         0.763798       -0.603562     -0.000644402     0.000137544
                    -0.000332968    -4.24029e-05         -0.14352        0.368222     -0.000249912    -2.29867e-05        -0.705169       -0.575837
                        0.764119       -0.603451      5.27323e-05     2.34047e-05        -0.138194       -0.126274     -0.000645572     0.000280797
                     -7.1329e-05     0.000163645        -0.705192       -0.575803     -0.000664226     0.000376288        -0.338056        0.203932
281702.9              -0.0939951       -0.162161     -0.000308429    -4.72458e-05         0.763777       -0.603587     -0.000644379     0.000137613
                    -0.000333231    -4.15423e-05        -0.143507         0.36822     -0.000249917    -2.29901e-05        -0.705189       -0.575817
                        0.764099       -0.603474      5.28479e-05     2.43288e-05        -0.138201       -0.126273     -0.000645536     0.000280845
                    -7.05954e-05     0.000163453        -0.705212       -0.575782      -0.00066427     0.000376307        -0.338044         0.20394
281703                -0.0940029       -0.162161     -0.000308946    -4.71117e-05         0.763756       -0.603612     -0.000644355     0.000137681
                    -0.000333467    -4.06946e-05        -0.143495        0.368217     -0.000249923    -2.29934e-05         -0.70521       -0.575797
                        0.764078       -0.603498      5.29523e-05     2.52257e-05        -0.138208       -0.126272     -0.000645499     0.000280893
                    -6.98714e-05     0.000163274        -0.705233       -0.575761     -0.000664313     0.000376327        -0.338031        0.203948
281703.1              -0.0940107       -0.162162     -0.000309442    -4.69837e-05         0.763735       -0.603637     -0.000644333     0.000137749
                    -0.000333677    -3.98606e-05        -0.143482        0.368215     -0.000249928    -2.29967e-05         -0.70523       -0.575776
                        0.764057       -0.603521       5.3046e-05     2.60948e-05        -0.138215       -0.126271     -0.000645463     0.000280941
