! TOUCHSTONE file generated by CST MICROWAVE STUDIO
! Date and time: Wed Oct  8 06:57:07 2025
! Project name: Teste_Macro_Metasurface_Nanopilar.cst
! Parameters = {H=600; L_x=125; L_y=70; Lambda=1064; Max_L=200; Min_L=70; PathPara=1; Phi=0; Step_L=10; Theta=0; p=520; phaseX=180; phaseY=0}
! Header version: 2018
! Port assignment regex: !\s*Touchstone port\s*([0-9]+)\s*=\s*(CST MWS port|CST DS port)\s*([0-9]+|Zmin|Zmax)\s*\(\"(.*)\"\)(\s*mode\s*([0-9]+))?.*
! Touchstone port assignment:
! Touchstone port 1 = CST MWS port Zmax ("") mode 1
! Touchstone port 2 = CST MWS port Zmax ("") mode 2
! Touchstone port 3 = CST MWS port Zmin ("") mode 1
! Touchstone port 4 = CST MWS port Zmin ("") mode 2
! S-Parameters are not renormalized. Each port impedance will be approximated by the real part at minimum frequency. The values are described via the [Reference] keyword.
! Default impedance is overridden by [Reference]
[Version] 2.0
# GHz S RI R 376.73
[Number of Ports] 4
[Reference]
376.73 376.73 376.73 376.73 
[Number of Frequencies] 1001
[Network Data]
281700                  0.121536        0.026957     -0.000528941     0.000477905        -0.961997        0.241298     -0.000401307    -0.000134999
                    -6.15723e-05     0.000282088        -0.233867       -0.126787     -0.000192169    -0.000166554        -0.241659         0.92979
                       -0.962339        0.241559     -0.000223874    -0.000264368       -0.0945651       0.0811853      0.000458102    -4.66949e-05
                    -0.000572971    -0.000275995        -0.241789        0.929619      0.000432477    -0.000231139        -0.266725     -0.00229946
281700.1                0.121534       0.0269512     -0.000528938     0.000477939        -0.961991        0.241324     -0.000401316    -0.000134982
                    -6.15757e-05     0.000282068        -0.233872        -0.12678      -0.00019217    -0.000166553        -0.241633        0.929797
                       -0.962333        0.241585     -0.000223882    -0.000264364       -0.0945623       0.0811845      0.000458099    -4.67098e-05
                    -0.000572989    -0.000275972        -0.241762        0.929625      0.000432471    -0.000231148        -0.266725     -0.00229322
281700.2                0.121533       0.0269453     -0.000528935     0.000477973        -0.961985        0.241349     -0.000401325    -0.000134965
                    -6.15791e-05     0.000282049        -0.233876       -0.126772      -0.00019217    -0.000166552        -0.241606        0.929803
                       -0.962327         0.24161      -0.00022389     -0.00026436       -0.0945595       0.0811836      0.000458096    -4.67247e-05
                    -0.000573007    -0.000275948        -0.241736        0.929632      0.000432464    -0.000231157        -0.266726     -0.00228697
281700.3                0.121532       0.0269395     -0.000528932     0.000478007        -0.961979        0.241375     -0.000401333    -0.000134948
                    -6.15824e-05     0.000282029        -0.233881       -0.126764     -0.000192171    -0.000166552        -0.241579         0.92981
                       -0.962321        0.241636     -0.000223897    -0.000264356       -0.0945567       0.0811828      0.000458092    -4.67396e-05
                    -0.000573025    -0.000275924        -0.241709        0.929639      0.000432458    -0.000231166        -0.266726     -0.00228072
281700.4                 0.12153       0.0269337     -0.000528929     0.000478041        -0.961973          0.2414     -0.000401342    -0.000134931
                    -6.15858e-05      0.00028201        -0.233886       -0.126757     -0.000192171    -0.000166551        -0.241553        0.929817
                       -0.962315        0.241662     -0.000223905    -0.000264353       -0.0945538        0.081182      0.000458089    -4.67545e-05
                    -0.000573043    -0.000275901        -0.241683        0.929646      0.000432452    -0.000231176        -0.266727     -0.00227447
281700.5                0.121529       0.0269279     -0.000528927     0.000478075        -0.961967        0.241426     -0.000401351    -0.000134914
                    -6.15891e-05      0.00028199         -0.23389       -0.126749     -0.000192172     -0.00016655        -0.241526        0.929824
                       -0.962309        0.241687     -0.000223913    -0.000264349        -0.094551       0.0811812      0.000458086    -4.67694e-05
                     -0.00057306    -0.000275877        -0.241656        0.929652      0.000432445    -0.000231185        -0.266728     -0.00226823
281700.6                0.121527        0.026922     -0.000528924     0.000478109        -0.961961        0.241452      -0.00040136    -0.000134897
                    -6.15924e-05      0.00028197        -0.233895       -0.126742     -0.000192172     -0.00016655          -0.2415         0.92983
                       -0.962303        0.241713     -0.000223921    -0.000264345       -0.0945482       0.0811804      0.000458082    -4.67843e-05
                    -0.000573078    -0.000275854        -0.241629        0.929659      0.000432439    -0.000231194        -0.266728     -0.00226198
281700.7                0.121526       0.0269162     -0.000528921     0.000478143        -0.961955        0.241477     -0.000401368     -0.00013488
                    -6.15958e-05     0.000281951          -0.2339       -0.126734     -0.000192173    -0.000166549        -0.241473        0.929837
                       -0.962297        0.241738     -0.000223929    -0.000264342       -0.0945454       0.0811796      0.000458079    -4.67992e-05
                    -0.000573096     -0.00027583        -0.241603        0.929666      0.000432432    -0.000231203        -0.266729     -0.00225573
281700.8                0.121524       0.0269104     -0.000528918     0.000478177        -0.961948        0.241503     -0.000401377    -0.000134863
                    -6.15991e-05     0.000281931        -0.233904       -0.126726     -0.000192173    -0.000166548        -0.241446        0.929844
                       -0.962291        0.241764     -0.000223937    -0.000264338       -0.0945426       0.0811788      0.000458076    -4.68141e-05
                    -0.000573114    -0.000275807        -0.241576        0.929673      0.000432426    -0.000231212        -0.266729     -0.00224949
281700.9                0.121523       0.0269046     -0.000528915     0.000478211        -0.961942        0.241528     -0.000401386    -0.000134846
                    -6.16024e-05     0.000281911        -0.233909       -0.126719     -0.000192174    -0.000166548         -0.24142        0.929851
                       -0.962285         0.24179     -0.000223944    -0.000264334       -0.0945398       0.0811779      0.000458072     -4.6829e-05
                    -0.000573132    -0.000275783         -0.24155         0.92968       0.00043242    -0.000231221         -0.26673     -0.00224324
281701                  0.121521       0.0268987     -0.000528912     0.000478245        -0.961936        0.241554     -0.000401395    -0.000134829
                    -6.16057e-05     0.000281892        -0.233914       -0.126711     -0.000192174    -0.000166547        -0.241393        0.929857
                       -0.962279        0.241815     -0.000223952    -0.000264331        -0.094537       0.0811771      0.000458069    -4.68439e-05
                     -0.00057315    -0.000275759        -0.241523        0.929686      0.000432413    -0.000231231         -0.26673     -0.00223699
281701.1                 0.12152       0.0268929     -0.000528909     0.000478279         -0.96193         0.24158     -0.000401404    -0.000134812
                    -6.16091e-05     0.000281872        -0.233918       -0.126703     -0.000192174    -0.000166546        -0.241367        0.929864
                       -0.962273        0.241841      -0.00022396    -0.000264327       -0.0945341       0.0811763      0.000458066    -4.68588e-05
                    -0.000573167    -0.000275736        -0.241496        0.929693      0.000432407     -0.00023124        -0.266731     -0.00223075
281701.2                0.121519       0.0268871     -0.000528906     0.000478313        -0.961924        0.241605     -0.000401412    -0.000134795
                    -6.16124e-05     0.000281852        -0.233923       -0.126696     -0.000192175    -0.000166546         -0.24134        0.929871
                       -0.962267        0.241866     -0.000223968    -0.000264323       -0.0945313       0.0811755      0.000458062    -4.68737e-05
                    -0.000573185    -0.000275712         -0.24147          0.9297        0.0004324    -0.000231249        -0.266731      -0.0022245
281701.3                0.121517       0.0268813     -0.000528903     0.000478347        -0.961918        0.241631     -0.000401421    -0.000134778
                    -6.16157e-05     0.000281833        -0.233928       -0.126688     -0.000192175    -0.000166545        -0.241313        0.929878
                       -0.962261        0.241892     -0.000223976    -0.000264319       -0.0945285       0.0811747      0.000458059    -4.68886e-05
                    -0.000573203    -0.000275689        -0.241443        0.929707      0.000432394    -0.000231258        -0.266732     -0.00221825
281701.4                0.121516       0.0268754       -0.0005289     0.000478381        -0.961912        0.241656      -0.00040143    -0.000134761
                     -6.1619e-05     0.000281813        -0.233933        -0.12668     -0.000192176    -0.000166545        -0.241287        0.929884
                       -0.962255        0.241918     -0.000223983    -0.000264316       -0.0945257       0.0811739      0.000458055    -4.69035e-05
                    -0.000573221    -0.000275665        -0.241416        0.929713      0.000432387    -0.000231267        -0.266732       -0.002212
281701.5                0.121514       0.0268696     -0.000528897     0.000478415        -0.961906        0.241682     -0.000401439    -0.000134744
                    -6.16223e-05     0.000281793        -0.233937       -0.126673     -0.000192176    -0.000166544         -0.24126        0.929891
                       -0.962248        0.241943     -0.000223991    -0.000264312       -0.0945229       0.0811731      0.000458052    -4.69184e-05
                    -0.000573239    -0.000275642         -0.24139         0.92972      0.000432381    -0.000231276        -0.266733     -0.00220576
281701.6                0.121513       0.0268638     -0.000528894     0.000478449          -0.9619        0.241708     -0.000401448    -0.000134727
                    -6.16256e-05     0.000281774        -0.233942       -0.126665     -0.000192177    -0.000166543        -0.241234        0.929898
                       -0.962242        0.241969     -0.000223999    -0.000264308       -0.0945201       0.0811723      0.000458049    -4.69333e-05
                    -0.000573257    -0.000275618        -0.241363        0.929727      0.000432375    -0.000231286        -0.266733     -0.00219951
281701.7                0.121511        0.026858     -0.000528891     0.000478484        -0.961894        0.241733     -0.000401457     -0.00013471
                    -6.16288e-05     0.000281754        -0.233947       -0.126658     -0.000192177    -0.000166543        -0.241207        0.929905
                       -0.962236        0.241994     -0.000224007    -0.000264305       -0.0945172       0.0811714      0.000458045    -4.69482e-05
                    -0.000573274    -0.000275594        -0.241337        0.929734      0.000432368    -0.000231295        -0.266734     -0.00219326
281701.8                 0.12151       0.0268521     -0.000528888     0.000478518        -0.961888        0.241759     -0.000401465    -0.000134693
                    -6.16321e-05     0.000281734        -0.233951        -0.12665     -0.000192178    -0.000166542         -0.24118        0.929911
                        -0.96223         0.24202     -0.000224015    -0.000264301       -0.0945144       0.0811706      0.000458042    -4.69631e-05
                    -0.000573292    -0.000275571         -0.24131         0.92974      0.000432362    -0.000231304        -0.266734     -0.00218701
281701.9                0.121508       0.0268463     -0.000528885     0.000478552        -0.961882        0.241784     -0.000401474    -0.000134676
                    -6.16354e-05     0.000281714        -0.233956       -0.126642     -0.000192178    -0.000166541        -0.241154        0.929918
                       -0.962224        0.242046     -0.000224023    -0.000264297       -0.0945116       0.0811698      0.000458039     -4.6978e-05
                     -0.00057331    -0.000275547        -0.241283        0.929747      0.000432355    -0.000231313        -0.266735     -0.00218077
281702                  0.121507       0.0268405     -0.000528882     0.000478586        -0.961875         0.24181     -0.000401483    -0.000134659
                    -6.16387e-05     0.000281695        -0.233961       -0.126635     -0.000192179    -0.000166541        -0.241127        0.929925
                       -0.962218        0.242071      -0.00022403    -0.000264294       -0.0945088        0.081169      0.000458035    -4.69929e-05
                    -0.000573328    -0.000275524        -0.241257        0.929754      0.000432349    -0.000231322        -0.266736     -0.00217452
281702.1                0.121506       0.0268347     -0.000528879      0.00047862        -0.961869        0.241836     -0.000401492    -0.000134642
                    -6.16419e-05     0.000281675        -0.233965       -0.126627     -0.000192179     -0.00016654        -0.241101        0.929932
                       -0.962212        0.242097     -0.000224038     -0.00026429        -0.094506       0.0811682      0.000458032    -4.70078e-05
                    -0.000573346      -0.0002755         -0.24123        0.929761      0.000432343    -0.000231331        -0.266736     -0.00216827
281702.2                0.121504       0.0268288     -0.000528876     0.000478654        -0.961863        0.241861     -0.000401501    -0.000134625
                    -6.16452e-05     0.000281655         -0.23397       -0.126619      -0.00019218    -0.000166539        -0.241074        0.929938
                       -0.962206        0.242122     -0.000224046    -0.000264286       -0.0945032       0.0811674      0.000458029    -4.70227e-05
                    -0.000573363    -0.000275476        -0.241204        0.929767      0.000432336     -0.00023134        -0.266737     -0.00216202
281702.3                0.121503        0.026823     -0.000528873     0.000478688        -0.961857        0.241887      -0.00040151    -0.000134608
                    -6.16484e-05     0.000281635        -0.233975       -0.126612      -0.00019218    -0.000166539        -0.241047        0.929945
                         -0.9622        0.242148     -0.000224054    -0.000264282       -0.0945004       0.0811666      0.000458025    -4.70376e-05
                    -0.000573381    -0.000275453        -0.241177        0.929774       0.00043233     -0.00023135        -0.266737     -0.00215578
281702.4                0.121501       0.0268172      -0.00052887     0.000478722        -0.961851        0.241912     -0.000401519    -0.000134591
                    -6.16517e-05     0.000281616        -0.233979       -0.126604     -0.000192181    -0.000166538        -0.241021        0.929952
                       -0.962194        0.242174     -0.000224062    -0.000264279       -0.0944975       0.0811657      0.000458022    -4.70525e-05
                    -0.000573399    -0.000275429         -0.24115        0.929781      0.000432323    -0.000231359        -0.266738     -0.00214953
281702.5                  0.1215       0.0268114     -0.000528867     0.000478756        -0.961845        0.241938     -0.000401528    -0.000134574
                    -6.16549e-05     0.000281596        -0.233984       -0.126597     -0.000192181    -0.000166537        -0.240994        0.929958
                       -0.962188        0.242199     -0.000224069    -0.000264275       -0.0944947       0.0811649      0.000458018    -4.70674e-05
                    -0.000573417    -0.000275406        -0.241124        0.929788      0.000432317    -0.000231368        -0.266738     -0.00214328
281702.6                0.121498       0.0268055     -0.000528864      0.00047879        -0.961839        0.241964     -0.000401537    -0.000134557
                    -6.16582e-05     0.000281576        -0.233989       -0.126589     -0.000192182    -0.000166537        -0.240968        0.929965
                       -0.962182        0.242225     -0.000224077    -0.000264271       -0.0944919       0.0811641      0.000458015    -4.70823e-05
                    -0.000573435    -0.000275382        -0.241097        0.929794       0.00043231    -0.000231377        -0.266739     -0.00213703
281702.7                0.121497       0.0267997     -0.000528861     0.000478825        -0.961833        0.241989     -0.000401546     -0.00013454
                    -6.16614e-05     0.000281556        -0.233993       -0.126581     -0.000192182    -0.000166536        -0.240941        0.929972
                       -0.962176        0.242251     -0.000224085    -0.000264268       -0.0944891       0.0811633      0.000458012    -4.70972e-05
                    -0.000573452    -0.000275358         -0.24107        0.929801      0.000432304    -0.000231386        -0.266739     -0.00213078
281702.8                0.121495       0.0267939     -0.000528858     0.000478859        -0.961827        0.242015     -0.000401555    -0.000134523
                    -6.16646e-05     0.000281537        -0.233998       -0.126574     -0.000192183    -0.000166535        -0.240914        0.929979
                       -0.962169        0.242276     -0.000224093    -0.000264264       -0.0944863       0.0811625      0.000458008    -4.71121e-05
                     -0.00057347    -0.000275335        -0.241044        0.929808      0.000432298    -0.000231395         -0.26674     -0.00212454
281702.9                0.121494       0.0267881     -0.000528855     0.000478893        -0.961821         0.24204     -0.000401564    -0.000134506
                    -6.16678e-05     0.000281517        -0.234003       -0.126566     -0.000192183    -0.000166535        -0.240888        0.929985
                       -0.962163        0.242302     -0.000224101     -0.00026426       -0.0944835       0.0811617      0.000458005     -4.7127e-05
                    -0.000573488    -0.000275311        -0.241017        0.929815      0.000432291    -0.000231405         -0.26674     -0.00211829
281703                  0.121493       0.0267823     -0.000528852     0.000478927        -0.961815        0.242066     -0.000401573     -0.00013449
                     -6.1671e-05     0.000281497        -0.234008       -0.126558     -0.000192184    -0.000166534        -0.240861        0.929992
                       -0.962157        0.242327     -0.000224109    -0.000264256       -0.0944807       0.0811608      0.000458002    -4.71419e-05
                    -0.000573506    -0.000275288        -0.240991        0.929821      0.000432285    -0.000231414        -0.266741     -0.00211204
281703.1                0.121491       0.0267764     -0.000528849     0.000478961        -0.961808        0.242092     -0.000401582    -0.000134473
                    -6.16742e-05     0.000281477        -0.234012       -0.126551     -0.000192184    -0.000166534        -0.240835        0.929999
                       -0.962151        0.242353     -0.000224116    -0.000264253       -0.0944779         0.08116      0.000457998    -4.71568e-05
