! TOUCHSTONE file generated by CST MICROWAVE STUDIO
! Date and time: Wed Oct  8 06:54:01 2025
! Project name: Teste_Macro_Metasurface_Nanopilar.cst
! Parameters = {H=600; L_x=95; L_y=180; Lambda=1064; Max_L=200; Min_L=70; PathPara=1; Phi=0; Step_L=10; Theta=0; p=520; phaseX=180; phaseY=0}
! Header version: 2018
! Port assignment regex: !\s*Touchstone port\s*([0-9]+)\s*=\s*(CST MWS port|CST DS port)\s*([0-9]+|Zmin|Zmax)\s*\(\"(.*)\"\)(\s*mode\s*([0-9]+))?.*
! Touchstone port assignment:
! Touchstone port 1 = CST MWS port Zmax ("") mode 1
! Touchstone port 2 = CST MWS port Zmax ("") mode 2
! Touchstone port 3 = CST MWS port Zmin ("") mode 1
! Touchstone port 4 = CST MWS port Zmin ("") mode 2
! S-Parameters are not renormalized. Each port impedance will be approximated by the real part at minimum frequency. The values are described via the [Reference] keyword.
! Default impedance is overridden by [Reference]
[Version] 2.0
# GHz S RI R 376.73
[Number of Ports] 4
[Reference]
376.73 376.73 376.73 376.73 
[Number of Frequencies] 1001
[Network Data]
281700                 -0.198961       -0.392931     -8.65721e-05    -0.000323152        -0.869837       -0.166152      0.000800862    -0.000481043
                    -0.000199034    -0.000463274        -0.207174      -0.0236105     -1.83457e-05     0.000648784         0.353938        0.905424
                       -0.870524       -0.166108     -0.000126896     0.000691501          0.31228       -0.302411     -0.000471331     9.15796e-05
                     0.000504029    -0.000454606         0.353779        0.905589     -0.000739485     0.000310654        -0.137092        0.156965
281700.1               -0.198973        -0.39294     -8.65742e-05    -0.000323171        -0.869838       -0.166113      0.000800821    -0.000481102
                     -0.00019905    -0.000463274        -0.207171      -0.0236035     -1.83415e-05     0.000648794         0.353966        0.905413
                       -0.870524       -0.166069     -0.000126872     0.000691513         0.312268       -0.302443     -0.000471361     9.15829e-05
                     0.000504017     -0.00045463         0.353807        0.905579     -0.000739433     0.000310693        -0.137085        0.156967
281700.2               -0.198985       -0.392948     -8.65763e-05    -0.000323189        -0.869838       -0.166074       0.00080078    -0.000481161
                    -0.000199065    -0.000463274        -0.207168      -0.0235965     -1.83374e-05     0.000648804         0.353995        0.905403
                       -0.870525        -0.16603     -0.000126849     0.000691526         0.312256       -0.302474      -0.00047139     9.15862e-05
                     0.000504005    -0.000454654         0.353836        0.905568     -0.000739382     0.000310733        -0.137078        0.156968
281700.3               -0.198998       -0.392957     -8.65784e-05    -0.000323208        -0.869838       -0.166036      0.000800739    -0.000481221
                    -0.000199081    -0.000463274        -0.207165      -0.0235894     -1.83332e-05     0.000648814         0.354024        0.905392
                       -0.870525       -0.165992     -0.000126825     0.000691538         0.312245       -0.302506      -0.00047142     9.15896e-05
                     0.000503992    -0.000454678         0.353865        0.905558      -0.00073933     0.000310773        -0.137071        0.156969
281700.4                -0.19901       -0.392966     -8.65806e-05    -0.000323227        -0.869838       -0.165997      0.000800698     -0.00048128
                    -0.000199097    -0.000463274        -0.207162      -0.0235824      -1.8329e-05     0.000648824         0.354053        0.905382
                       -0.870525       -0.165953     -0.000126801     0.000691551         0.312233       -0.302538      -0.00047145     9.15929e-05
                      0.00050398    -0.000454702         0.353894        0.905547     -0.000739278     0.000310813        -0.137063        0.156971
281700.5               -0.199022       -0.392975     -8.65827e-05    -0.000323245        -0.869839       -0.165958      0.000800657    -0.000481339
                    -0.000199112    -0.000463274        -0.207159      -0.0235754     -1.83248e-05     0.000648834         0.354081        0.905371
                       -0.870525       -0.165914     -0.000126777     0.000691564         0.312222       -0.302569      -0.00047148     9.15963e-05
                     0.000503968    -0.000454726         0.353922        0.905537     -0.000739226     0.000310853        -0.137056        0.156972
281700.6               -0.199035       -0.392984     -8.65848e-05    -0.000323264        -0.869839        -0.16592      0.000800616    -0.000481398
                    -0.000199128    -0.000463274        -0.207156      -0.0235684     -1.83206e-05     0.000648844          0.35411        0.905361
                       -0.870526       -0.165875     -0.000126754     0.000691576          0.31221       -0.302601     -0.000471509     9.15997e-05
                     0.000503956     -0.00045475         0.353951        0.905527     -0.000739175     0.000310893        -0.137049        0.156973
281700.7               -0.199047       -0.392993      -8.6587e-05    -0.000323282        -0.869839       -0.165881      0.000800575    -0.000481458
                    -0.000199143    -0.000463275        -0.207153      -0.0235613     -1.83164e-05     0.000648854         0.354139        0.905351
                       -0.870526       -0.165837      -0.00012673     0.000691589         0.312198       -0.302632     -0.000471539      9.1603e-05
                     0.000503944    -0.000454773          0.35398        0.905516     -0.000739123     0.000310933        -0.137041        0.156975
281700.8               -0.199059       -0.393002     -8.65891e-05    -0.000323301        -0.869839       -0.165842      0.000800534    -0.000481517
                    -0.000199159    -0.000463275         -0.20715      -0.0235543     -1.83123e-05     0.000648864         0.354168         0.90534
                       -0.870526       -0.165798     -0.000126706     0.000691601         0.312187       -0.302664     -0.000471569     9.16064e-05
                     0.000503932    -0.000454797         0.354009        0.905506     -0.000739071     0.000310972        -0.137034        0.156976
281700.9               -0.199072        -0.39301     -8.65912e-05     -0.00032332         -0.86984       -0.165804      0.000800493    -0.000481576
                    -0.000199175    -0.000463275        -0.207147      -0.0235473     -1.83081e-05     0.000648874         0.354196         0.90533
                       -0.870526       -0.165759     -0.000126682     0.000691614         0.312175       -0.302696     -0.000471599     9.16098e-05
                      0.00050392    -0.000454821         0.354037        0.905495     -0.000739019     0.000311012        -0.137027        0.156977
281701                 -0.199084       -0.393019     -8.65934e-05    -0.000323338         -0.86984       -0.165765      0.000800452    -0.000481635
                     -0.00019919    -0.000463275        -0.207144      -0.0235403     -1.83039e-05     0.000648884         0.354225        0.905319
                       -0.870526       -0.165721     -0.000126659     0.000691626         0.312163       -0.302727     -0.000471628     9.16132e-05
                     0.000503907    -0.000454845         0.354066        0.905485     -0.000738968     0.000311052        -0.137019        0.156979
281701.1               -0.199096       -0.393028     -8.65955e-05    -0.000323357         -0.86984       -0.165726      0.000800411    -0.000481694
                    -0.000199206    -0.000463275        -0.207141      -0.0235332     -1.82997e-05     0.000648894         0.354254        0.905309
                       -0.870527       -0.165682     -0.000126635     0.000691639         0.312152       -0.302759     -0.000471658     9.16166e-05
                     0.000503895    -0.000454869         0.354095        0.905475     -0.000738916     0.000311092        -0.137012         0.15698
281701.2               -0.199109       -0.393037     -8.65977e-05    -0.000323376         -0.86984       -0.165688       0.00080037    -0.000481754
                    -0.000199222    -0.000463275        -0.207138      -0.0235262     -1.82955e-05     0.000648904         0.354282        0.905298
                       -0.870527       -0.165643     -0.000126611     0.000691651          0.31214        -0.30279     -0.000471688     9.16201e-05
                     0.000503883    -0.000454893         0.354123        0.905464     -0.000738864     0.000311132        -0.137005        0.156982
281701.3               -0.199121       -0.393046     -8.65998e-05    -0.000323394        -0.869841       -0.165649      0.000800329    -0.000481813
                    -0.000199237    -0.000463275        -0.207135      -0.0235192     -1.82914e-05     0.000648914         0.354311        0.905288
                       -0.870527       -0.165604     -0.000126587     0.000691664         0.312129       -0.302822     -0.000471718     9.16235e-05
                     0.000503871    -0.000454917         0.354152        0.905454     -0.000738812     0.000311172        -0.136998        0.156983
281701.4               -0.199133       -0.393055      -8.6602e-05    -0.000323413        -0.869841        -0.16561      0.000800288    -0.000481872
                    -0.000199253    -0.000463275        -0.207132      -0.0235122     -1.82872e-05     0.000648924          0.35434        0.905278
                       -0.870527       -0.165566     -0.000126563     0.000691676         0.312117       -0.302854     -0.000471747     9.16269e-05
                     0.000503859    -0.000454941         0.354181        0.905444     -0.000738761     0.000311211         -0.13699        0.156984
281701.5               -0.199146       -0.393063     -8.66041e-05    -0.000323431        -0.869841       -0.165572      0.000800247    -0.000481931
                    -0.000199268    -0.000463275        -0.207129      -0.0235051      -1.8283e-05     0.000648934         0.354369        0.905267
                       -0.870527       -0.165527      -0.00012654     0.000691689         0.312105       -0.302885     -0.000471777     9.16304e-05
                     0.000503847    -0.000454965          0.35421        0.905433     -0.000738709     0.000311251        -0.136983        0.156986
281701.6               -0.199158       -0.393072     -8.66063e-05     -0.00032345        -0.869841       -0.165533      0.000800206     -0.00048199
                    -0.000199284    -0.000463275        -0.207126      -0.0234981     -1.82788e-05     0.000648944         0.354397        0.905257
                       -0.870528       -0.165488     -0.000126516     0.000691701         0.312094       -0.302917     -0.000471807     9.16339e-05
                     0.000503834    -0.000454989         0.354238        0.905423     -0.000738657     0.000311291        -0.136976        0.156987
281701.7                -0.19917       -0.393081     -8.66084e-05    -0.000323469        -0.869842       -0.165494      0.000800165     -0.00048205
                      -0.0001993    -0.000463275        -0.207123      -0.0234911     -1.82746e-05     0.000648954         0.354426        0.905246
                       -0.870528        -0.16545     -0.000126492     0.000691714         0.312082       -0.302948     -0.000471837     9.16373e-05
                     0.000503822    -0.000455013         0.354267        0.905412     -0.000738605     0.000311331        -0.136968        0.156988
281701.8               -0.199183        -0.39309     -8.66106e-05    -0.000323487        -0.869842       -0.165456      0.000800124    -0.000482109
                    -0.000199315    -0.000463275         -0.20712      -0.0234841     -1.82704e-05     0.000648964         0.354455        0.905236
                       -0.870528       -0.165411     -0.000126468     0.000691726          0.31207        -0.30298     -0.000471867     9.16408e-05
                      0.00050381    -0.000455037         0.354296        0.905402     -0.000738554     0.000311371        -0.136961         0.15699
281701.9               -0.199195       -0.393099     -8.66128e-05    -0.000323506        -0.869842       -0.165417      0.000800082    -0.000482168
                    -0.000199331    -0.000463275        -0.207117      -0.0234771     -1.82663e-05     0.000648974         0.354484        0.905225
                       -0.870528       -0.165372     -0.000126444     0.000691739         0.312059       -0.303012     -0.000471896     9.16443e-05
                     0.000503798    -0.000455061         0.354325        0.905392     -0.000738502     0.000311411        -0.136954        0.156991
281702                 -0.199208       -0.393108      -8.6615e-05    -0.000323525        -0.869842       -0.165378      0.000800041    -0.000482227
                    -0.000199346    -0.000463275        -0.207114        -0.02347     -1.82621e-05     0.000648984         0.354512        0.905215
                       -0.870528       -0.165333     -0.000126421     0.000691751         0.312047       -0.303043     -0.000471926     9.16478e-05
                     0.000503786    -0.000455085         0.354353        0.905381      -0.00073845      0.00031145        -0.136947        0.156992
281702.1                -0.19922       -0.393116     -8.66171e-05    -0.000323543        -0.869843       -0.165339           0.0008    -0.000482286
                    -0.000199362    -0.000463275        -0.207111       -0.023463     -1.82579e-05     0.000648994         0.354541        0.905204
                       -0.870529       -0.165295     -0.000126397     0.000691764         0.312035       -0.303075     -0.000471956     9.16513e-05
                     0.000503774    -0.000455109         0.354382        0.905371     -0.000738398      0.00031149        -0.136939        0.156994
281702.2               -0.199232       -0.393125     -8.66193e-05    -0.000323562        -0.869843       -0.165301      0.000799959    -0.000482345
                    -0.000199378    -0.000463275        -0.207108       -0.023456     -1.82537e-05     0.000649004          0.35457        0.905194
                       -0.870529       -0.165256     -0.000126373     0.000691776         0.312024       -0.303106     -0.000471986     9.16548e-05
                     0.000503761    -0.000455133         0.354411         0.90536     -0.000738347      0.00031153        -0.136932        0.156995
281702.3               -0.199245       -0.393134     -8.66215e-05    -0.000323581        -0.869843       -0.165262      0.000799918    -0.000482405
                    -0.000199393    -0.000463275        -0.207105       -0.023449     -1.82495e-05     0.000649014         0.354598        0.905184
                       -0.870529       -0.165217     -0.000126349     0.000691789         0.312012       -0.303138     -0.000472016     9.16583e-05
                     0.000503749    -0.000455157          0.35444         0.90535     -0.000738295      0.00031157        -0.136925        0.156996
281702.4               -0.199257       -0.393143     -8.66237e-05    -0.000323599        -0.869843       -0.165223      0.000799877    -0.000482464
                    -0.000199409    -0.000463275        -0.207102      -0.0234419     -1.82453e-05     0.000649023         0.354627        0.905173
                       -0.870529       -0.165179     -0.000126325     0.000691801            0.312        -0.30317     -0.000472046     9.16619e-05
                     0.000503737    -0.000455181         0.354468        0.905339     -0.000738243     0.000311609        -0.136917        0.156998
281702.5               -0.199269       -0.393152     -8.66259e-05    -0.000323618        -0.869843       -0.165185      0.000799835    -0.000482523
                    -0.000199425    -0.000463275        -0.207099      -0.0234349     -1.82412e-05     0.000649033         0.354656        0.905163
                       -0.870529        -0.16514     -0.000126301     0.000691814         0.311989       -0.303201     -0.000472075     9.16654e-05
                     0.000503725    -0.000455205         0.354497        0.905329     -0.000738191     0.000311649         -0.13691        0.156999
281702.6               -0.199282       -0.393161     -8.66281e-05    -0.000323637        -0.869844       -0.165146      0.000799794    -0.000482582
                     -0.00019944    -0.000463275        -0.207096      -0.0234279      -1.8237e-05     0.000649043         0.354685        0.905152
                        -0.87053       -0.165101     -0.000126277     0.000691826         0.311977       -0.303233     -0.000472105      9.1669e-05
                     0.000503713    -0.000455228         0.354526        0.905319      -0.00073814     0.000311689        -0.136903           0.157
281702.7               -0.199294        -0.39317     -8.66303e-05    -0.000323655        -0.869844       -0.165107      0.000799753    -0.000482641
                    -0.000199456    -0.000463275        -0.207093      -0.0234209     -1.82328e-05     0.000649053         0.354713        0.905142
                        -0.87053       -0.165062     -0.000126254     0.000691839         0.311965       -0.303264     -0.000472135     9.16725e-05
                       0.0005037    -0.000455252         0.354555        0.905308     -0.000738088     0.000311729        -0.136895        0.157002
281702.8               -0.199306       -0.393178     -8.66325e-05    -0.000323674        -0.869844       -0.165069      0.000799712      -0.0004827
                    -0.000199471    -0.000463275         -0.20709      -0.0234139     -1.82286e-05     0.000649063         0.354742        0.905131
                        -0.87053       -0.165024      -0.00012623     0.000691851         0.311954       -0.303296     -0.000472165     9.16761e-05
                     0.000503688    -0.000455276         0.354583        0.905298     -0.000738036     0.000311769        -0.136888        0.157003
281702.9               -0.199319       -0.393187     -8.66347e-05    -0.000323693        -0.869844        -0.16503      0.000799671    -0.000482759
                    -0.000199487    -0.000463275        -0.207087      -0.0234068     -1.82244e-05     0.000649073         0.354771        0.905121
                        -0.87053       -0.164985     -0.000126206     0.000691864         0.311942       -0.303328     -0.000472195     9.16797e-05
                     0.000503676      -0.0004553         0.354612        0.905287     -0.000737984     0.000311808        -0.136881        0.157004
281703                 -0.199331       -0.393196     -8.66369e-05    -0.000323711        -0.869844       -0.164991      0.000799629    -0.000482818
                    -0.000199503    -0.000463276        -0.207084      -0.0233998     -1.82202e-05     0.000649083           0.3548         0.90511
                        -0.87053       -0.164946     -0.000126182     0.000691876          0.31193       -0.303359     -0.000472225     9.16832e-05
                     0.000503664    -0.000455324         0.354641        0.905277     -0.000737933     0.000311848        -0.136874        0.157006
281703.1               -0.199344       -0.393205     -8.66391e-05     -0.00032373        -0.869845       -0.164953      0.000799588    -0.000482878
                    -0.000199518    -0.000463276        -0.207081      -0.0233928     -1.82161e-05     0.000649093         0.354828          0.9051
                        -0.87053       -0.164907     -0.000126158     0.000691889         0.311919       -0.303391     -0.000472255     9.16868e-05
