! TOUCHSTONE file generated by CST MICROWAVE STUDIO
! Date and time: Wed Oct  8 06:59:56 2025
! Project name: Teste_Macro_Metasurface_Nanopilar.cst
! Parameters = {H=600; L_x=145; L_y=165; Lambda=1064; Max_L=200; Min_L=70; PathPara=1; Phi=0; Step_L=10; Theta=0; p=520; phaseX=180; phaseY=0}
! Header version: 2018
! Port assignment regex: !\s*Touchstone port\s*([0-9]+)\s*=\s*(CST MWS port|CST DS port)\s*([0-9]+|Zmin|Zmax)\s*\(\"(.*)\"\)(\s*mode\s*([0-9]+))?.*
! Touchstone port assignment:
! Touchstone port 1 = CST MWS port Zmax ("") mode 1
! Touchstone port 2 = CST MWS port Zmax ("") mode 2
! Touchstone port 3 = CST MWS port Zmin ("") mode 1
! Touchstone port 4 = CST MWS port Zmin ("") mode 2
! S-Parameters are not renormalized. Each port impedance will be approximated by the real part at minimum frequency. The values are described via the [Reference] keyword.
! Default impedance is overridden by [Reference]
[Version] 2.0
# GHz S RI R 376.73
[Number of Ports] 4
[Reference]
376.73 376.73 376.73 376.73 
[Number of Frequencies] 1001
[Network Data]
281700                -0.0834557        0.200084      0.000300143    -0.000341974        -0.827934       -0.506442      -0.00024839    -2.22954e-05
                     0.000295447    -0.000268673        -0.372805        0.336579     -0.000235542     2.51058e-05        -0.432783       -0.726799
                       -0.828174       -0.506683     -0.000297469     1.23209e-05        -0.144962        0.160221      0.000495835    -0.000136008
                    -0.000264652    -0.000100973        -0.432571       -0.726925      0.000421954    -0.000153948        -0.480131        0.132831
281700.1              -0.0834473        0.200081      0.000300118    -0.000341986         -0.82795       -0.506417     -0.000248369    -2.22702e-05
                     0.000295431    -0.000268687        -0.372783        0.336582     -0.000235531     2.51197e-05        -0.432817       -0.726789
                       -0.828191       -0.506659     -0.000297442     1.23421e-05        -0.144953        0.160221      0.000495865    -0.000136028
                    -0.000264649    -0.000100961        -0.432606       -0.726915      0.000421945    -0.000153971        -0.480111        0.132851
281700.2              -0.0834388        0.200077      0.000300092    -0.000341998        -0.827967       -0.506393     -0.000248348     -2.2245e-05
                     0.000295416      -0.0002687        -0.372761        0.336586     -0.000235521     2.51336e-05        -0.432851       -0.726779
                       -0.828208       -0.506634     -0.000297416     1.23632e-05        -0.144944        0.160221      0.000495895    -0.000136049
                    -0.000264647    -0.000100949         -0.43264       -0.726905      0.000421936    -0.000153995        -0.480092        0.132872
281700.3              -0.0834303        0.200074      0.000300067     -0.00034201        -0.827983       -0.506369     -0.000248327    -2.22198e-05
                     0.000295401    -0.000268713        -0.372739        0.336589      -0.00023551     2.51475e-05        -0.432886       -0.726769
                       -0.828224        -0.50661     -0.000297389     1.23844e-05        -0.144935         0.16022      0.000495925     -0.00013607
                    -0.000264644    -0.000100937        -0.432674       -0.726895      0.000421927    -0.000154019        -0.480072        0.132892
281700.4              -0.0834218        0.200071      0.000300041    -0.000342022           -0.828       -0.506344     -0.000248306    -2.21946e-05
                     0.000295386    -0.000268726        -0.372717        0.336593     -0.000235499     2.51615e-05         -0.43292       -0.726759
                       -0.828241       -0.506586     -0.000297362     1.24055e-05        -0.144926         0.16022      0.000495955    -0.000136091
                    -0.000264642    -0.000100924        -0.432709       -0.726885      0.000421918    -0.000154043        -0.480052        0.132912
281700.5              -0.0834134        0.200067      0.000300016    -0.000342035        -0.828017        -0.50632     -0.000248284    -2.21695e-05
                     0.000295371    -0.000268739        -0.372695        0.336596     -0.000235488     2.51754e-05        -0.432954       -0.726749
                       -0.828257       -0.506561     -0.000297336     1.24266e-05        -0.144917         0.16022      0.000495985    -0.000136112
                    -0.000264639    -0.000100912        -0.432743       -0.726875       0.00042191    -0.000154067        -0.480033        0.132932
281700.6              -0.0834049        0.200064       0.00029999    -0.000342047        -0.828033       -0.506295     -0.000248263    -2.21443e-05
                     0.000295355    -0.000268752        -0.372673          0.3366     -0.000235477     2.51893e-05        -0.432989       -0.726739
                       -0.828274       -0.506537     -0.000297309     1.24478e-05        -0.144908        0.160219      0.000496015    -0.000136133
                    -0.000264637      -0.0001009        -0.432777       -0.726865      0.000421901    -0.000154091        -0.480013        0.132952
281700.7              -0.0833964        0.200061      0.000299965    -0.000342059         -0.82805       -0.506271     -0.000248241    -2.21193e-05
                      0.00029534    -0.000268765        -0.372651        0.336603     -0.000235467     2.52032e-05        -0.433023       -0.726729
                        -0.82829       -0.506512     -0.000297282     1.24689e-05        -0.144899        0.160219      0.000496045    -0.000136154
                    -0.000264634    -0.000100888        -0.432812       -0.726855      0.000421892    -0.000154114        -0.479993        0.132973
281700.8               -0.083388        0.200057      0.000299939    -0.000342071        -0.828066       -0.506247      -0.00024822    -2.20942e-05
                     0.000295325    -0.000268778        -0.372629        0.336607     -0.000235456     2.52171e-05        -0.433057       -0.726719
                       -0.828307       -0.506488     -0.000297256       1.249e-05         -0.14489        0.160219      0.000496075    -0.000136174
                    -0.000264632    -0.000100876        -0.432846       -0.726845      0.000421883    -0.000154138        -0.479974        0.132993
281700.9              -0.0833795        0.200054      0.000299914    -0.000342083        -0.828083       -0.506222     -0.000248198    -2.20692e-05
                     0.000295309    -0.000268791        -0.372607         0.33661     -0.000235445      2.5231e-05        -0.433092       -0.726709
                       -0.828324       -0.506464     -0.000297229     1.25111e-05        -0.144881        0.160218      0.000496105    -0.000136195
                     -0.00026463    -0.000100864        -0.432881       -0.726835      0.000421874    -0.000154162        -0.479954        0.133013
281701                 -0.083371        0.200051      0.000299888    -0.000342095          -0.8281       -0.506198     -0.000248176    -2.20442e-05
                     0.000295294    -0.000268805        -0.372585        0.336614     -0.000235434      2.5245e-05        -0.433126         -0.7267
                        -0.82834       -0.506439     -0.000297202     1.25322e-05        -0.144872        0.160218      0.000496135    -0.000136216
                    -0.000264627    -0.000100852        -0.432915       -0.726826      0.000421865    -0.000154186        -0.479934        0.133033
281701.1              -0.0833626        0.200047      0.000299863    -0.000342107        -0.828116       -0.506174     -0.000248154    -2.20193e-05
                     0.000295279    -0.000268818        -0.372563        0.336617     -0.000235423     2.52589e-05         -0.43316        -0.72669
                       -0.828357       -0.506415     -0.000297175     1.25533e-05        -0.144863        0.160218      0.000496165    -0.000136237
                    -0.000264625    -0.000100839        -0.432949       -0.726816      0.000421856     -0.00015421        -0.479915        0.133053
281701.2              -0.0833541        0.200044      0.000299837    -0.000342119        -0.828133       -0.506149     -0.000248132    -2.19944e-05
                     0.000295263    -0.000268831        -0.372541        0.336621     -0.000235413     2.52728e-05        -0.433195        -0.72668
                       -0.828373        -0.50639     -0.000297149     1.25744e-05        -0.144854        0.160217      0.000496195    -0.000136258
                    -0.000264622    -0.000100827        -0.432984       -0.726806      0.000421848    -0.000154233        -0.479895        0.133074
281701.3              -0.0833456        0.200041      0.000299812    -0.000342131        -0.828149       -0.506125     -0.000248109    -2.19695e-05
                     0.000295248    -0.000268844        -0.372519        0.336624     -0.000235402     2.52867e-05        -0.433229        -0.72667
                        -0.82839       -0.506366     -0.000297122     1.25955e-05        -0.144845        0.160217      0.000496225    -0.000136279
                     -0.00026462    -0.000100815        -0.433018       -0.726796      0.000421839    -0.000154257        -0.479875        0.133094
281701.4              -0.0833371        0.200037      0.000299786    -0.000342143        -0.828166         -0.5061     -0.000248087    -2.19447e-05
                     0.000295233    -0.000268857        -0.372497        0.336628     -0.000235391     2.53006e-05        -0.433263        -0.72666
                       -0.828407       -0.506341     -0.000297095     1.26165e-05        -0.144836        0.160217      0.000496255      -0.0001363
                    -0.000264617    -0.000100803        -0.433052       -0.726786       0.00042183    -0.000154281        -0.479856        0.133114
281701.5              -0.0833287        0.200034      0.000299761    -0.000342155        -0.828182       -0.506076     -0.000248064    -2.19199e-05
                     0.000295217     -0.00026887        -0.372475        0.336632      -0.00023538     2.53145e-05        -0.433298        -0.72665
                       -0.828423       -0.506317     -0.000297069     1.26376e-05        -0.144827        0.160216      0.000496285    -0.000136321
                    -0.000264615    -0.000100791        -0.433087       -0.726776      0.000421821    -0.000154305        -0.479836        0.133134
281701.6              -0.0833202        0.200031      0.000299735    -0.000342167        -0.828199       -0.506052     -0.000248041    -2.18951e-05
                     0.000295202    -0.000268883        -0.372453        0.336635     -0.000235369     2.53284e-05        -0.433332        -0.72664
                        -0.82844       -0.506293     -0.000297042     1.26587e-05        -0.144818        0.160216      0.000496315    -0.000136342
                    -0.000264612    -0.000100779        -0.433121       -0.726766      0.000421812    -0.000154329        -0.479816        0.133154
281701.7              -0.0833117        0.200028       0.00029971    -0.000342179        -0.828216       -0.506027     -0.000248017    -2.18704e-05
                     0.000295187    -0.000268896        -0.372431        0.336639     -0.000235359     2.53424e-05        -0.433366        -0.72663
                       -0.828456       -0.506268     -0.000297015     1.26797e-05        -0.144809        0.160216      0.000496345    -0.000136363
                     -0.00026461    -0.000100767        -0.433155       -0.726756      0.000421803    -0.000154352        -0.479796        0.133175
281701.8              -0.0833033        0.200024      0.000299684    -0.000342191        -0.828232       -0.506003     -0.000247994    -2.18457e-05
                     0.000295171    -0.000268909         -0.37241        0.336642     -0.000235348     2.53563e-05        -0.433401        -0.72662
                       -0.828473       -0.506244     -0.000296988     1.27008e-05          -0.1448        0.160215      0.000496375    -0.000136384
                    -0.000264607    -0.000100755         -0.43319       -0.726746      0.000421794    -0.000154376        -0.479777        0.133195
281701.9              -0.0832948        0.200021      0.000299659    -0.000342203        -0.828249       -0.505979      -0.00024797     -2.1821e-05
                     0.000295156    -0.000268922        -0.372388        0.336646     -0.000235337     2.53702e-05        -0.433435        -0.72661
                       -0.828489       -0.506219     -0.000296962     1.27218e-05        -0.144791        0.160215      0.000496405    -0.000136405
                    -0.000264605    -0.000100742        -0.433224       -0.726736      0.000421786      -0.0001544        -0.479757        0.133215
281702                -0.0832863        0.200018      0.000299633    -0.000342215        -0.828265       -0.505954     -0.000247945    -2.17963e-05
                      0.00029514    -0.000268935        -0.372366        0.336649     -0.000235326     2.53841e-05        -0.433469         -0.7266
                       -0.828506       -0.506195     -0.000296935     1.27429e-05        -0.144782        0.160215      0.000496436    -0.000136426
                    -0.000264602     -0.00010073        -0.433258       -0.726726      0.000421777    -0.000154424        -0.479737        0.133235
281702.1              -0.0832779        0.200014      0.000299608    -0.000342227        -0.828282        -0.50593      -0.00024792    -2.17716e-05
                     0.000295125    -0.000268948        -0.372344        0.336653     -0.000235315      2.5398e-05        -0.433504        -0.72659
                       -0.828523       -0.506171     -0.000296908     1.27639e-05        -0.144773        0.160214      0.000496466    -0.000136447
                      -0.0002646    -0.000100718        -0.433293       -0.726717      0.000421768    -0.000154448        -0.479718        0.133255
281702.2              -0.0832694        0.200011      0.000299582    -0.000342239        -0.828298       -0.505905     -0.000247894    -2.17469e-05
                     0.000295109    -0.000268961        -0.372322        0.336656     -0.000235304     2.54119e-05        -0.433538        -0.72658
                       -0.828539       -0.506146     -0.000296881     1.27849e-05        -0.144764        0.160214      0.000496496    -0.000136468
                    -0.000264597    -0.000100706        -0.433327       -0.726707      0.000421759    -0.000154471        -0.479698        0.133276
281702.3              -0.0832609        0.200008      0.000299556    -0.000342251        -0.828315       -0.505881     -0.000247868    -2.17221e-05
                     0.000295094    -0.000268974          -0.3723         0.33666     -0.000235294     2.54258e-05        -0.433572        -0.72657
                       -0.828556       -0.506122     -0.000296855     1.28059e-05        -0.144755        0.160214      0.000496526    -0.000136489
                    -0.000264595    -0.000100694        -0.433361       -0.726697       0.00042175    -0.000154495        -0.479678        0.133296
281702.4              -0.0832525        0.200004      0.000299531    -0.000342263        -0.828332       -0.505857     -0.000247841    -2.16972e-05
                     0.000295078    -0.000268987        -0.372278        0.336663     -0.000235283     2.54398e-05        -0.433606        -0.72656
                       -0.828572       -0.506097     -0.000296828     1.28269e-05        -0.144746        0.160213      0.000496556     -0.00013651
                    -0.000264592    -0.000100682        -0.433396       -0.726687      0.000421741    -0.000154519        -0.479659        0.133316
281702.5               -0.083244        0.200001      0.000299505    -0.000342275        -0.828348       -0.505832     -0.000247813     -2.1672e-05
                     0.000295063       -0.000269        -0.372256        0.336667     -0.000235272     2.54537e-05        -0.433641        -0.72655
                       -0.828589       -0.506073     -0.000296801     1.28479e-05        -0.144737        0.160213      0.000496586    -0.000136531
                     -0.00026459     -0.00010067         -0.43343       -0.726677      0.000421732    -0.000154543        -0.479639        0.133336
281702.6              -0.0832355        0.199998       0.00029948    -0.000342287        -0.828365       -0.505808     -0.000247783    -2.16466e-05
                     0.000295048    -0.000269013        -0.372234         0.33667     -0.000235261     2.54676e-05        -0.433675        -0.72654
                       -0.828605       -0.506049     -0.000296774     1.28689e-05        -0.144729        0.160213      0.000496617    -0.000136552
                    -0.000264587    -0.000100658        -0.433464       -0.726667      0.000421723    -0.000154567        -0.479619        0.133356
281702.7              -0.0832271        0.199994      0.000299454    -0.000342299        -0.828381       -0.505784     -0.000247753    -2.16208e-05
                     0.000295032    -0.000269027        -0.372212        0.336674      -0.00023525     2.54815e-05        -0.433709        -0.72653
                       -0.828622       -0.506024     -0.000296748     1.28899e-05         -0.14472        0.160212      0.000496647    -0.000136573
                    -0.000264585    -0.000100645        -0.433499       -0.726657      0.000421715     -0.00015459          -0.4796        0.133376
281702.8              -0.0832186        0.199991      0.000299429    -0.000342311        -0.828398       -0.505759     -0.000247721    -2.15942e-05
                     0.000295016     -0.00026904         -0.37219        0.336677      -0.00023524     2.54954e-05        -0.433744        -0.72652
                       -0.828639          -0.506     -0.000296721     1.29109e-05        -0.144711        0.160212      0.000496677    -0.000136594
                    -0.000264583    -0.000100633        -0.433533       -0.726647      0.000421706    -0.000154614         -0.47958        0.133397
281702.9              -0.0832101        0.199988      0.000299403    -0.000342323        -0.828414       -0.505735     -0.000247687    -2.15667e-05
                     0.000295001    -0.000269053        -0.372168        0.336681     -0.000235229     2.55093e-05        -0.433778        -0.72651
                       -0.828655       -0.505975     -0.000296694     1.29319e-05        -0.144702        0.160212      0.000496707    -0.000136615
                     -0.00026458    -0.000100621        -0.433567       -0.726637      0.000421697    -0.000154638         -0.47956        0.133417
281703                -0.0832017        0.199984      0.000299378    -0.000342335        -0.828431        -0.50571     -0.000247651    -2.15377e-05
                     0.000294985    -0.000269066        -0.372146        0.336684     -0.000235218     2.55232e-05        -0.433812         -0.7265
                       -0.828672       -0.505951     -0.000296667     1.29529e-05        -0.144693        0.160211      0.000496738    -0.000136636
                    -0.000264578    -0.000100609        -0.433602       -0.726627      0.000421688    -0.000154662        -0.479541        0.133437
281703.1              -0.0831932        0.199981      0.000299352    -0.000342347        -0.828448       -0.505686     -0.000247612    -2.15066e-05
                      0.00029497    -0.000269079        -0.372124        0.336688     -0.000235207     2.55372e-05        -0.433847        -0.72649
                       -0.828688       -0.505927      -0.00029664     1.29738e-05        -0.144684        0.160211      0.000496768    -0.000136657
