! TOUCHSTONE file generated by CST MICROWAVE STUDIO
! Date and time: Wed Oct  8 06:52:29 2025
! Project name: Teste_Macro_Metasurface_Nanopilar.cst
! Parameters = {H=600; L_x=85; L_y=100; Lambda=1064; Max_L=200; Min_L=70; PathPara=1; Phi=0; Step_L=10; Theta=0; p=520; phaseX=180; phaseY=0}
! Header version: 2018
! Port assignment regex: !\s*Touchstone port\s*([0-9]+)\s*=\s*(CST MWS port|CST DS port)\s*([0-9]+|Zmin|Zmax)\s*\(\"(.*)\"\)(\s*mode\s*([0-9]+))?.*
! Touchstone port assignment:
! Touchstone port 1 = CST MWS port Zmax ("") mode 1
! Touchstone port 2 = CST MWS port Zmax ("") mode 2
! Touchstone port 3 = CST MWS port Zmin ("") mode 1
! Touchstone port 4 = CST MWS port Zmin ("") mode 2
! S-Parameters are not renormalized. Each port impedance will be approximated by the real part at minimum frequency. The values are described via the [Reference] keyword.
! Default impedance is overridden by [Reference]
[Version] 2.0
# GHz S RI R 376.73
[Number of Ports] 4
[Reference]
376.73 376.73 376.73 376.73 
[Number of Frequencies] 1001
[Network Data]
281700                 0.0370239       -0.133381      0.000168368    -0.000531823        -0.771688        0.619523      7.65873e-05     4.56485e-05
                     0.000173474    -0.000456072         0.105332      -0.0472718       0.00018871    -6.21453e-05        -0.905725        0.406222
                       -0.770971        0.619102      0.000360522    -8.17832e-05        -0.138661      0.00779174     -0.000679187     8.79988e-05
                    -4.93205e-05     5.98668e-06        -0.905842        0.406209      -0.00058047    -1.79224e-06        -0.105611       0.0473464
281700.1               0.0370175       -0.133383      0.000168367     -0.00053182        -0.771671        0.619544      7.65826e-05       4.565e-05
                     0.000173463    -0.000456073         0.105328      -0.0472767      0.000188705    -6.21496e-05        -0.905714        0.406246
                       -0.770954        0.619123      0.000360507    -8.18021e-05        -0.138661       0.0077926     -0.000679175     8.80203e-05
                     -4.9326e-05     5.98418e-06        -0.905832        0.406233      -0.00058048    -1.77908e-06        -0.105609        0.047346
281700.2                0.037011       -0.133385      0.000168366    -0.000531816        -0.771654        0.619565       7.6578e-05     4.56515e-05
                     0.000173452    -0.000456074         0.105324      -0.0472815        0.0001887    -6.21538e-05        -0.905703         0.40627
                       -0.770937        0.619144      0.000360492    -8.18211e-05        -0.138661      0.00779347     -0.000679162     8.80417e-05
                    -4.93316e-05     5.98169e-06        -0.905821        0.406258     -0.000580489    -1.76591e-06        -0.105608       0.0473455
281700.3               0.0370046       -0.133387      0.000168364    -0.000531813        -0.771637        0.619586      7.65733e-05     4.56531e-05
                     0.000173441    -0.000456075         0.105321      -0.0472863      0.000188695    -6.21581e-05        -0.905693        0.406295
                        -0.77092        0.619165      0.000360477    -8.18401e-05        -0.138661      0.00779434      -0.00067915     8.80631e-05
                    -4.93371e-05     5.97919e-06         -0.90581        0.406282     -0.000580499    -1.75274e-06        -0.105606        0.047345
281700.4               0.0369982       -0.133389      0.000168363     -0.00053181         -0.77162        0.619607      7.65686e-05     4.56546e-05
                      0.00017343    -0.000456077         0.105317      -0.0472912       0.00018869    -6.21623e-05        -0.905682        0.406319
                       -0.770903        0.619186      0.000360463     -8.1859e-05        -0.138661       0.0077952     -0.000679137     8.80846e-05
                    -4.93427e-05      5.9767e-06          -0.9058        0.406306     -0.000580508    -1.73957e-06        -0.105605       0.0473446
281700.5               0.0369918       -0.133391      0.000168361    -0.000531807        -0.771603        0.619629      7.65639e-05     4.56561e-05
                     0.000173419    -0.000456078         0.105313       -0.047296      0.000188685    -6.21666e-05        -0.905671        0.406343
                       -0.770886        0.619207      0.000360448     -8.1878e-05        -0.138661      0.00779607     -0.000679124      8.8106e-05
                    -4.93482e-05      5.9742e-06        -0.905789        0.406331     -0.000580517     -1.7264e-06        -0.105603       0.0473441
281700.6               0.0369854       -0.133393       0.00016836    -0.000531803        -0.771586         0.61965      7.65593e-05     4.56576e-05
                     0.000173408    -0.000456079         0.105309      -0.0473008       0.00018868    -6.21708e-05         -0.90566        0.406368
                       -0.770869        0.619228      0.000360433     -8.1897e-05        -0.138661      0.00779694     -0.000679112     8.81275e-05
                    -4.93538e-05     5.97171e-06        -0.905778        0.406355     -0.000580527    -1.71323e-06        -0.105602       0.0473437
281700.7                0.036979       -0.133395      0.000168359      -0.0005318        -0.771569        0.619671      7.65546e-05     4.56591e-05
                     0.000173397     -0.00045608         0.105305      -0.0473057      0.000188675    -6.21751e-05         -0.90565        0.406392
                       -0.770852        0.619249      0.000360418     -8.1916e-05        -0.138661       0.0077978     -0.000679099     8.81489e-05
                    -4.93593e-05     5.96921e-06        -0.905767        0.406379     -0.000580536    -1.70005e-06          -0.1056       0.0473432
281700.8               0.0369726       -0.133397      0.000168357    -0.000531797        -0.771552        0.619692      7.65499e-05     4.56606e-05
                     0.000173386    -0.000456081         0.105301      -0.0473105       0.00018867    -6.21793e-05        -0.905639        0.406416
                       -0.770835         0.61927      0.000360403    -8.19349e-05        -0.138662      0.00779867     -0.000679087     8.81704e-05
                    -4.93649e-05     5.96672e-06        -0.905757        0.406404     -0.000580546    -1.68688e-06        -0.105599       0.0473428
281700.9               0.0369661       -0.133399      0.000168356    -0.000531793        -0.771536        0.619713      7.65452e-05     4.56621e-05
                     0.000173375    -0.000456082         0.105297      -0.0473153      0.000188665    -6.21836e-05        -0.905628        0.406441
                       -0.770819        0.619291      0.000360388    -8.19539e-05        -0.138662      0.00779954     -0.000679074     8.81918e-05
                    -4.93704e-05     5.96423e-06        -0.905746        0.406428     -0.000580555     -1.6737e-06        -0.105597       0.0473423
281701                 0.0369597       -0.133401      0.000168354     -0.00053179        -0.771519        0.619734      7.65405e-05     4.56636e-05
                     0.000173364    -0.000456084         0.105293      -0.0473202       0.00018866    -6.21878e-05        -0.905618        0.406465
                       -0.770802        0.619313      0.000360373    -8.19729e-05        -0.138662       0.0078004     -0.000679061     8.82133e-05
                     -4.9376e-05     5.96174e-06        -0.905735        0.406453     -0.000580565    -1.66053e-06        -0.105596       0.0473419
281701.1               0.0369533       -0.133403      0.000168353    -0.000531787        -0.771502        0.619755      7.65359e-05     4.56651e-05
                     0.000173353    -0.000456085          0.10529       -0.047325      0.000188656    -6.21921e-05        -0.905607         0.40649
                       -0.770785        0.619334      0.000360358    -8.19918e-05        -0.138662      0.00780127     -0.000679049     8.82347e-05
                    -4.93815e-05     5.95925e-06        -0.905725        0.406477     -0.000580574    -1.64735e-06        -0.105594       0.0473414
281701.2               0.0369469       -0.133405      0.000168352    -0.000531783        -0.771485        0.619776      7.65312e-05     4.56666e-05
                     0.000173342    -0.000456086         0.105286      -0.0473299      0.000188651    -6.21963e-05        -0.905596        0.406514
                       -0.770768        0.619355      0.000360343    -8.20108e-05        -0.138662      0.00780214     -0.000679036     8.82562e-05
                    -4.93871e-05     5.95675e-06        -0.905714        0.406501     -0.000580583    -1.63417e-06        -0.105593        0.047341
281701.3               0.0369405       -0.133407       0.00016835     -0.00053178        -0.771468        0.619797      7.65265e-05     4.56682e-05
                     0.000173331    -0.000456087         0.105282      -0.0473347      0.000188646    -6.22006e-05        -0.905585        0.406538
                       -0.770751        0.619376      0.000360328    -8.20297e-05        -0.138662        0.007803     -0.000679023     8.82776e-05
                    -4.93927e-05     5.95426e-06        -0.905703        0.406526     -0.000580593      -1.621e-06        -0.105591       0.0473405
281701.4               0.0369341       -0.133409      0.000168349    -0.000531777        -0.771451        0.619818      7.65218e-05     4.56697e-05
                      0.00017332    -0.000456088         0.105278      -0.0473395      0.000188641    -6.22048e-05        -0.905575        0.406563
                       -0.770734        0.619397      0.000360313    -8.20487e-05        -0.138662      0.00780387     -0.000679011      8.8299e-05
                    -4.93982e-05     5.95177e-06        -0.905692         0.40655     -0.000580602    -1.60782e-06         -0.10559       0.0473401
281701.5               0.0369276       -0.133411      0.000168348    -0.000531773        -0.771434        0.619839      7.65172e-05     4.56712e-05
                     0.000173309    -0.000456089         0.105274      -0.0473444      0.000188636    -6.22091e-05        -0.905564        0.406587
                       -0.770717        0.619418      0.000360298    -8.20677e-05        -0.138662      0.00780474     -0.000678998     8.83205e-05
                    -4.94038e-05     5.94928e-06        -0.905682        0.406574     -0.000580612    -1.59464e-06        -0.105588       0.0473396
281701.6               0.0369212       -0.133413      0.000168346     -0.00053177        -0.771417         0.61986      7.65125e-05     4.56727e-05
                     0.000173298     -0.00045609          0.10527      -0.0473492      0.000188631    -6.22133e-05        -0.905553        0.406611
                         -0.7707        0.619439      0.000360283    -8.20866e-05        -0.138662       0.0078056     -0.000678986     8.83419e-05
                    -4.94093e-05      5.9468e-06        -0.905671        0.406599     -0.000580621    -1.58145e-06        -0.105587       0.0473391
281701.7               0.0369148       -0.133415      0.000168345    -0.000531767          -0.7714        0.619881      7.65078e-05     4.56742e-05
                     0.000173287    -0.000456092         0.105266       -0.047354      0.000188626    -6.22176e-05        -0.905542        0.406636
                       -0.770683         0.61946      0.000360268    -8.21056e-05        -0.138662      0.00780647     -0.000678973     8.83634e-05
                    -4.94149e-05     5.94431e-06         -0.90566        0.406623     -0.000580631    -1.56827e-06        -0.105585       0.0473387
281701.8               0.0369084       -0.133416      0.000168343    -0.000531764        -0.771383        0.619902      7.65032e-05     4.56757e-05
                     0.000173276    -0.000456093         0.105262      -0.0473589      0.000188621    -6.22218e-05        -0.905532         0.40666
                       -0.770666        0.619481      0.000360253    -8.21246e-05        -0.138663      0.00780734      -0.00067896     8.83848e-05
                    -4.94205e-05     5.94182e-06         -0.90565        0.406647      -0.00058064    -1.55509e-06        -0.105584       0.0473382
281701.9                0.036902       -0.133418      0.000168342     -0.00053176        -0.771366        0.619923      7.64985e-05     4.56772e-05
                     0.000173265    -0.000456094         0.105259      -0.0473637      0.000188616    -6.22261e-05        -0.905521        0.406684
                       -0.770649        0.619502      0.000360238    -8.21435e-05        -0.138663       0.0078082     -0.000678948     8.84063e-05
                     -4.9426e-05     5.93933e-06        -0.905639        0.406672     -0.000580649    -1.54191e-06        -0.105582       0.0473378
281702                 0.0368956        -0.13342      0.000168341    -0.000531757        -0.771349        0.619944      7.64938e-05     4.56787e-05
                     0.000173254    -0.000456095         0.105255      -0.0473685      0.000188611    -6.22303e-05         -0.90551        0.406709
                       -0.770632        0.619523      0.000360224    -8.21625e-05        -0.138663      0.00780907     -0.000678935     8.84277e-05
                    -4.94316e-05     5.93685e-06        -0.905628        0.406696     -0.000580659    -1.52872e-06        -0.105581       0.0473373
281702.1               0.0368891       -0.133422      0.000168339    -0.000531754        -0.771333        0.619965      7.64891e-05     4.56802e-05
                     0.000173243    -0.000456096         0.105251      -0.0473734      0.000188606    -6.22345e-05        -0.905499        0.406733
                       -0.770615        0.619544      0.000360209    -8.21814e-05        -0.138663      0.00780994     -0.000678922     8.84491e-05
                    -4.94371e-05     5.93436e-06        -0.905617        0.406721     -0.000580668    -1.51553e-06        -0.105579       0.0473369
281702.2               0.0368827       -0.133424      0.000168338     -0.00053175        -0.771316        0.619986      7.64845e-05     4.56817e-05
                     0.000173232    -0.000456097         0.105247      -0.0473782      0.000188601    -6.22388e-05        -0.905489        0.406757
                       -0.770599        0.619565      0.000360194    -8.22004e-05        -0.138663       0.0078108      -0.00067891     8.84706e-05
                    -4.94427e-05     5.93187e-06        -0.905607        0.406745     -0.000580678    -1.50235e-06        -0.105578       0.0473364
281702.3               0.0368763       -0.133426      0.000168336    -0.000531747        -0.771299        0.620007      7.64798e-05     4.56833e-05
                     0.000173221    -0.000456099         0.105243       -0.047383      0.000188596     -6.2243e-05        -0.905478        0.406782
                       -0.770582        0.619586      0.000360179    -8.22193e-05        -0.138663      0.00781167     -0.000678897      8.8492e-05
                    -4.94483e-05     5.92939e-06        -0.905596        0.406769     -0.000580687    -1.48916e-06        -0.105576        0.047336
281702.4               0.0368699       -0.133428      0.000168335    -0.000531744        -0.771282        0.620028      7.64751e-05     4.56848e-05
                      0.00017321      -0.0004561         0.105239      -0.0473879      0.000188591    -6.22473e-05        -0.905467        0.406806
                       -0.770565        0.619607      0.000360164    -8.22383e-05        -0.138663      0.00781254     -0.000678885     8.85134e-05
                    -4.94538e-05      5.9269e-06        -0.905585        0.406794     -0.000580697    -1.47597e-06        -0.105574       0.0473355
281702.5               0.0368635        -0.13343      0.000168334     -0.00053174        -0.771265        0.620049      7.64705e-05     4.56863e-05
                     0.000173199    -0.000456101         0.105235      -0.0473927      0.000188586    -6.22515e-05        -0.905456         0.40683
                       -0.770548        0.619628      0.000360149    -8.22573e-05        -0.138663       0.0078134     -0.000678872     8.85349e-05
                    -4.94594e-05     5.92442e-06        -0.905574        0.406818     -0.000580706    -1.46278e-06        -0.105573       0.0473351
281702.6               0.0368571       -0.133432      0.000168332    -0.000531737        -0.771248         0.62007      7.64658e-05     4.56878e-05
                     0.000173188    -0.000456102         0.105231      -0.0473975      0.000188581    -6.22557e-05        -0.905446        0.406855
                       -0.770531        0.619649      0.000360134    -8.22762e-05        -0.138663      0.00781427     -0.000678859     8.85563e-05
                     -4.9465e-05     5.92194e-06        -0.905564        0.406842     -0.000580716    -1.44959e-06        -0.105571       0.0473346
281702.7               0.0368506       -0.133434      0.000168331    -0.000531734        -0.771231        0.620091      7.64611e-05     4.56893e-05
                     0.000173177    -0.000456103         0.105227      -0.0474024      0.000188576      -6.226e-05        -0.905435        0.406879
                       -0.770514         0.61967      0.000360119    -8.22952e-05        -0.138664      0.00781514     -0.000678847     8.85778e-05
                    -4.94706e-05     5.91945e-06        -0.905553        0.406867     -0.000580725     -1.4364e-06         -0.10557       0.0473341
281702.8               0.0368442       -0.133436       0.00016833    -0.000531731        -0.771214        0.620112      7.64564e-05     4.56908e-05
                     0.000173166    -0.000456104         0.105224      -0.0474072      0.000188571    -6.22642e-05        -0.905424        0.406904
                       -0.770497        0.619691      0.000360104    -8.23141e-05        -0.138664        0.007816     -0.000678834     8.85992e-05
                    -4.94761e-05     5.91697e-06        -0.905542        0.406891     -0.000580734    -1.42321e-06        -0.105568       0.0473337
281702.9               0.0368378       -0.133438      0.000168328    -0.000531727        -0.771197        0.620133      7.64518e-05     4.56923e-05
                     0.000173155    -0.000456105          0.10522       -0.047412      0.000188566    -6.22684e-05        -0.905413        0.406928
                        -0.77048        0.619712      0.000360089    -8.23331e-05        -0.138664      0.00781687     -0.000678821     8.86206e-05
                    -4.94817e-05     5.91449e-06        -0.905532        0.406915     -0.000580744    -1.41002e-06        -0.105567       0.0473332
281703                 0.0368314        -0.13344      0.000168327    -0.000531724         -0.77118        0.620154      7.64471e-05     4.56938e-05
                     0.000173144    -0.000456107         0.105216      -0.0474169      0.000188561    -6.22727e-05        -0.905403        0.406952
                       -0.770463        0.619733      0.000360074     -8.2352e-05        -0.138664      0.00781774     -0.000678809     8.86421e-05
                    -4.94873e-05     5.91201e-06        -0.905521         0.40694     -0.000580753    -1.39682e-06        -0.105565       0.0473328
281703.1                0.036825       -0.133442      0.000168326    -0.000531721        -0.771163        0.620175      7.64424e-05     4.56953e-05
                     0.000173133    -0.000456108         0.105212      -0.0474217      0.000188556    -6.22769e-05        -0.905392        0.406977
                       -0.770446        0.619754      0.000360059     -8.2371e-05        -0.138664       0.0078186     -0.000678796     8.86635e-05
