! TOUCHSTONE file generated by CST MICROWAVE STUDIO
! Date and time: Wed Oct  8 06:51:04 2025
! Project name: Teste_Macro_Metasurface_Nanopilar.cst
! Parameters = {H=600; L_x=70; L_y=185; Lambda=1064; Max_L=200; Min_L=70; PathPara=1; Phi=0; Step_L=10; Theta=0; p=520; phaseX=180; phaseY=0}
! Header version: 2018
! Port assignment regex: !\s*Touchstone port\s*([0-9]+)\s*=\s*(CST MWS port|CST DS port)\s*([0-9]+|Zmin|Zmax)\s*\(\"(.*)\"\)(\s*mode\s*([0-9]+))?.*
! Touchstone port assignment:
! Touchstone port 1 = CST MWS port Zmax ("") mode 1
! Touchstone port 2 = CST MWS port Zmax ("") mode 2
! Touchstone port 3 = CST MWS port Zmin ("") mode 1
! Touchstone port 4 = CST MWS port Zmin ("") mode 2
! S-Parameters are not renormalized. Each port impedance will be approximated by the real part at minimum frequency. The values are described via the [Reference] keyword.
! Default impedance is overridden by [Reference]
[Version] 2.0
# GHz S RI R 376.73
[Number of Ports] 4
[Reference]
376.73 376.73 376.73 376.73 
[Number of Frequencies] 1001
[Network Data]
281700                  -0.15031       -0.143915     -0.000200334     7.60336e-06       -0.0515223       -0.969885     -0.000148683     0.000353124
                    -0.000178596    -7.86932e-06        0.0991882      -0.0599781      -0.00018584     0.000306933         -0.88357        0.452336
                       -0.051558       -0.969762     -0.000159847      0.00024502        -0.134825        0.158984      0.000175298     0.000190929
                    -0.000124739     0.000294009        -0.883595        0.452018      0.000139601     0.000158899        -0.106847       0.0455243
281700.1               -0.150312       -0.143908     -0.000200326      7.5897e-06       -0.0515536       -0.969884     -0.000148664     0.000353132
                    -0.000178599     -7.8749e-06        0.0991839      -0.0599824     -0.000185841     0.000306939        -0.883559        0.452359
                      -0.0515893       -0.969761     -0.000159838     0.000245009        -0.134818        0.158986      0.000175315     0.000190915
                     -0.00012473     0.000294013        -0.883583        0.452042      0.000139623     0.000158894        -0.106846        0.045524
281700.2               -0.150314       -0.143901     -0.000200317     7.57604e-06       -0.0515849       -0.969883     -0.000148644      0.00035314
                    -0.000178603    -7.88049e-06        0.0991796      -0.0599868     -0.000185841     0.000306944        -0.883547        0.452383
                      -0.0516206        -0.96976     -0.000159828     0.000244998         -0.13481        0.158988      0.000175333       0.0001909
                     -0.00012472     0.000294018        -0.883571        0.452066      0.000139644     0.000158888        -0.106844       0.0455236
281700.3               -0.150316       -0.143895     -0.000200308     7.56237e-06       -0.0516163       -0.969882     -0.000148625     0.000353148
                    -0.000178606    -7.88608e-06        0.0991753      -0.0599912     -0.000185842      0.00030695        -0.883535        0.452407
                      -0.0516519       -0.969759     -0.000159819     0.000244987        -0.134803         0.15899      0.000175351     0.000190886
                    -0.000124711     0.000294023        -0.883559         0.45209      0.000139666     0.000158882        -0.106843       0.0455233
281700.4               -0.150318       -0.143888     -0.000200299      7.5487e-06       -0.0516476       -0.969881     -0.000148606     0.000353156
                     -0.00017861    -7.89166e-06        0.0991709      -0.0599955     -0.000185843     0.000306956        -0.883523         0.45243
                      -0.0516832       -0.969758      -0.00015981     0.000244976        -0.134795        0.158992      0.000175369     0.000190872
                    -0.000124701     0.000294028        -0.883547        0.452113      0.000139687     0.000158877        -0.106841        0.045523
281700.5                -0.15032       -0.143881      -0.00020029     7.53502e-06       -0.0516789        -0.96988     -0.000148587     0.000353164
                    -0.000178613    -7.89725e-06        0.0991666      -0.0599999     -0.000185844     0.000306962        -0.883511        0.452454
                      -0.0517146       -0.969757       -0.0001598     0.000244965        -0.134788        0.158994      0.000175387     0.000190857
                    -0.000124692     0.000294032        -0.883535        0.452137      0.000139708     0.000158871         -0.10684       0.0455226
281700.6               -0.150322       -0.143874     -0.000200281     7.52134e-06       -0.0517102       -0.969879     -0.000148567     0.000353172
                    -0.000178616    -7.90283e-06        0.0991623      -0.0600042     -0.000185845     0.000306968        -0.883499        0.452478
                      -0.0517459       -0.969756     -0.000159791     0.000244954         -0.13478        0.158996      0.000175404     0.000190843
                    -0.000124682     0.000294037        -0.883523        0.452161       0.00013973     0.000158865        -0.106838       0.0455223
281700.7               -0.150324       -0.143867     -0.000200272     7.50765e-06       -0.0517415       -0.969878     -0.000148548      0.00035318
                     -0.00017862    -7.90842e-06         0.099158      -0.0600086     -0.000185846     0.000306974        -0.883487        0.452502
                      -0.0517772       -0.969755     -0.000159782     0.000244942        -0.134773        0.158998      0.000175422     0.000190828
                    -0.000124673     0.000294042        -0.883511        0.452184      0.000139751      0.00015886        -0.106837        0.045522
281700.8               -0.150326        -0.14386     -0.000200263     7.49396e-06       -0.0517728       -0.969877     -0.000148529     0.000353188
                    -0.000178623      -7.914e-06        0.0991537       -0.060013     -0.000185847     0.000306979        -0.883475        0.452525
                      -0.0518085       -0.969754     -0.000159772     0.000244931        -0.134765           0.159       0.00017544     0.000190814
                    -0.000124663     0.000294047        -0.883499        0.452208      0.000139773     0.000158854        -0.106836       0.0455216
281700.9               -0.150328       -0.143853     -0.000200254     7.48026e-06       -0.0518041       -0.969876     -0.000148509     0.000353196
                    -0.000178627    -7.91959e-06        0.0991494      -0.0600173     -0.000185848     0.000306985        -0.883463        0.452549
                      -0.0518398       -0.969753     -0.000159763      0.00024492        -0.134758        0.159001      0.000175458     0.000190799
                    -0.000124654     0.000294052        -0.883487        0.452232      0.000139794     0.000158848        -0.106834       0.0455213
281701                  -0.15033       -0.143846     -0.000200245     7.46656e-06       -0.0518354       -0.969875      -0.00014849     0.000353204
                     -0.00017863    -7.92517e-06         0.099145      -0.0600217     -0.000185849     0.000306991        -0.883451        0.452573
                      -0.0518711       -0.969752     -0.000159754     0.000244909         -0.13475        0.159003      0.000175475     0.000190785
                    -0.000124644     0.000294056        -0.883475        0.452255      0.000139816     0.000158843        -0.106833        0.045521
281701.1               -0.150332       -0.143839     -0.000200237     7.45286e-06       -0.0518667       -0.969874     -0.000148471     0.000353212
                    -0.000178633    -7.93075e-06        0.0991407       -0.060026      -0.00018585     0.000306997        -0.883439        0.452597
                      -0.0519024       -0.969751     -0.000159744     0.000244898        -0.134743        0.159005      0.000175493     0.000190771
                    -0.000124635     0.000294061        -0.883463        0.452279      0.000139837     0.000158837        -0.106831       0.0455206
281701.2               -0.150334       -0.143832     -0.000200228     7.43915e-06        -0.051898       -0.969873     -0.000148452      0.00035322
                    -0.000178637    -7.93634e-06        0.0991364      -0.0600304     -0.000185851     0.000307003        -0.883427         0.45262
                      -0.0519337        -0.96975     -0.000159735     0.000244887        -0.134735        0.159007      0.000175511     0.000190756
                    -0.000124625     0.000294066        -0.883451        0.452303      0.000139859     0.000158831         -0.10683       0.0455203
281701.3               -0.150336       -0.143825     -0.000200219     7.42543e-06       -0.0519294       -0.969872     -0.000148432     0.000353228
                     -0.00017864    -7.94192e-06        0.0991321      -0.0600348     -0.000185852     0.000307009        -0.883415        0.452644
                       -0.051965       -0.969749     -0.000159725     0.000244875        -0.134728        0.159009      0.000175529     0.000190742
                    -0.000124616     0.000294071        -0.883439        0.452327       0.00013988     0.000158826        -0.106828       0.0455199
281701.4               -0.150339       -0.143819      -0.00020021     7.41171e-06       -0.0519607       -0.969871     -0.000148413     0.000353236
                    -0.000178644     -7.9475e-06        0.0991278      -0.0600391     -0.000185853     0.000307015        -0.883403        0.452668
                      -0.0519963       -0.969748     -0.000159716     0.000244864         -0.13472        0.159011      0.000175546     0.000190727
                    -0.000124606     0.000294075        -0.883427         0.45235      0.000139902      0.00015882        -0.106827       0.0455196
281701.5               -0.150341       -0.143812     -0.000200201     7.39799e-06        -0.051992        -0.96987     -0.000148394     0.000353244
                    -0.000178647    -7.95308e-06        0.0991234      -0.0600435     -0.000185853      0.00030702        -0.883391        0.452691
                      -0.0520276       -0.969747     -0.000159707     0.000244853        -0.134713        0.159013      0.000175564     0.000190713
                    -0.000124597      0.00029408        -0.883415        0.452374      0.000139923     0.000158814        -0.106826       0.0455193
281701.6               -0.150343       -0.143805     -0.000200192     7.38426e-06       -0.0520233        -0.96987     -0.000148374     0.000353252
                     -0.00017865    -7.95866e-06        0.0991191      -0.0600478     -0.000185854     0.000307026        -0.883379        0.452715
                      -0.0520589       -0.969747     -0.000159698     0.000244842        -0.134705        0.159015      0.000175582     0.000190698
                    -0.000124587     0.000294085        -0.883404        0.452398      0.000139944     0.000158809        -0.106824       0.0455189
281701.7               -0.150345       -0.143798     -0.000200183     7.37052e-06       -0.0520546       -0.969869     -0.000148355      0.00035326
                    -0.000178654    -7.96424e-06        0.0991148      -0.0600522     -0.000185855     0.000307032        -0.883367        0.452739
                      -0.0520902       -0.969746     -0.000159688     0.000244831        -0.134698        0.159017      0.000175599     0.000190684
                    -0.000124578      0.00029409        -0.883392        0.452421      0.000139966     0.000158803        -0.106823       0.0455186
281701.8               -0.150347       -0.143791     -0.000200174     7.35679e-06       -0.0520859       -0.969868     -0.000148336     0.000353268
                    -0.000178657    -7.96983e-06        0.0991105      -0.0600566     -0.000185856     0.000307038        -0.883355        0.452762
                      -0.0521215       -0.969745     -0.000159679     0.000244819         -0.13469        0.159019      0.000175617     0.000190669
                    -0.000124568     0.000294095         -0.88338        0.452445      0.000139987     0.000158797        -0.106821       0.0455183
281701.9               -0.150349       -0.143784     -0.000200165     7.34304e-06       -0.0521172       -0.969867     -0.000148316     0.000353276
                    -0.000178661    -7.97541e-06        0.0991062      -0.0600609     -0.000185857     0.000307044        -0.883343        0.452786
                      -0.0521529       -0.969744      -0.00015967     0.000244808        -0.134683        0.159021      0.000175635     0.000190655
                    -0.000124558     0.000294099        -0.883368        0.452469      0.000140009     0.000158792         -0.10682       0.0455179
281702                 -0.150351       -0.143777     -0.000200157     7.32929e-06       -0.0521485       -0.969866     -0.000148297     0.000353284
                    -0.000178664    -7.98099e-06        0.0991018      -0.0600653     -0.000185858      0.00030705        -0.883331         0.45281
                      -0.0521842       -0.969743      -0.00015966     0.000244797        -0.134675        0.159023      0.000175653     0.000190641
                    -0.000124549     0.000294104        -0.883356        0.452493       0.00014003     0.000158786        -0.106818       0.0455176
281702.1               -0.150353        -0.14377     -0.000200148     7.31554e-06       -0.0521798       -0.969865     -0.000148278     0.000353292
                    -0.000178667    -7.98657e-06        0.0990975      -0.0600696     -0.000185859     0.000307055        -0.883319        0.452834
                      -0.0522155       -0.969742     -0.000159651     0.000244786        -0.134668        0.159025       0.00017567     0.000190626
                    -0.000124539     0.000294109        -0.883344        0.452516      0.000140052      0.00015878        -0.106817       0.0455173
281702.2               -0.150355       -0.143763     -0.000200139     7.30178e-06       -0.0522112       -0.969864     -0.000148259       0.0003533
                    -0.000178671    -7.99214e-06        0.0990932       -0.060074      -0.00018586     0.000307061        -0.883307        0.452857
                      -0.0522468       -0.969741     -0.000159642     0.000244774         -0.13466        0.159026      0.000175688     0.000190612
                     -0.00012453     0.000294114        -0.883332         0.45254      0.000140073     0.000158774        -0.106816       0.0455169
281702.3               -0.150357       -0.143756      -0.00020013     7.28802e-06       -0.0522425       -0.969863     -0.000148239     0.000353308
                    -0.000178674    -7.99772e-06        0.0990889      -0.0600783     -0.000185861     0.000307067        -0.883295        0.452881
                      -0.0522781        -0.96974     -0.000159632     0.000244763        -0.134653        0.159028      0.000175706     0.000190597
                     -0.00012452     0.000294118         -0.88332        0.452564      0.000140095     0.000158769        -0.106814       0.0455166
281702.4               -0.150359       -0.143749     -0.000200121     7.27426e-06       -0.0522738       -0.969862      -0.00014822     0.000353316
                    -0.000178678     -8.0033e-06        0.0990846      -0.0600827     -0.000185862     0.000307073        -0.883283        0.452905
                      -0.0523094       -0.969739     -0.000159623     0.000244752        -0.134646         0.15903      0.000175724     0.000190583
                    -0.000124511     0.000294123        -0.883308        0.452587      0.000140116     0.000158763        -0.106813       0.0455162
281702.5               -0.150361       -0.143743     -0.000200112     7.26048e-06       -0.0523051       -0.969861     -0.000148201     0.000353324
                    -0.000178681    -8.00888e-06        0.0990802      -0.0600871     -0.000185863     0.000307079        -0.883271        0.452928
                      -0.0523407       -0.969738     -0.000159614     0.000244741        -0.134638        0.159032      0.000175741     0.000190568
                    -0.000124501     0.000294128        -0.883296        0.452611      0.000140138     0.000158757        -0.106811       0.0455159
281702.6               -0.150363       -0.143736     -0.000200103     7.24671e-06       -0.0523364        -0.96986     -0.000148181     0.000353332
                    -0.000178684    -8.01446e-06        0.0990759      -0.0600914     -0.000185864     0.000307085         -0.88326        0.452952
                       -0.052372       -0.969737     -0.000159604      0.00024473        -0.134631        0.159034      0.000175759     0.000190554
                    -0.000124492     0.000294133        -0.883284        0.452635      0.000140159     0.000158752         -0.10681       0.0455156
281702.7               -0.150365       -0.143729     -0.000200094     7.23293e-06       -0.0523677       -0.969859     -0.000148162      0.00035334
                    -0.000178688    -8.02003e-06        0.0990716      -0.0600958     -0.000185864     0.000307091        -0.883248        0.452976
                      -0.0524033       -0.969736     -0.000159595     0.000244718        -0.134623        0.159036      0.000175777     0.000190539
                    -0.000124482     0.000294138        -0.883272        0.452659       0.00014018     0.000158746        -0.106809       0.0455152
281702.8               -0.150367       -0.143722     -0.000200086     7.21914e-06        -0.052399       -0.969858     -0.000148143     0.000353348
                    -0.000178691    -8.02561e-06        0.0990673      -0.0601001     -0.000185865     0.000307096        -0.883236           0.453
                      -0.0524346       -0.969735     -0.000159586     0.000244707        -0.134616        0.159038      0.000175794     0.000190525
                    -0.000124473     0.000294142         -0.88326        0.452682      0.000140202      0.00015874        -0.106807       0.0455149
281702.9               -0.150369       -0.143715     -0.000200077     7.20535e-06       -0.0524303       -0.969857     -0.000148124     0.000353355
                    -0.000178695    -8.03119e-06         0.099063      -0.0601045     -0.000185866     0.000307102        -0.883224        0.453023
                      -0.0524659       -0.969734     -0.000159576     0.000244696        -0.134608         0.15904      0.000175812     0.000190511
                    -0.000124463     0.000294147        -0.883248        0.452706      0.000140223     0.000158735        -0.106806       0.0455146
281703                 -0.150371       -0.143708     -0.000200068     7.19156e-06       -0.0524616       -0.969856     -0.000148104     0.000353363
                    -0.000178698    -8.03676e-06        0.0990586      -0.0601088     -0.000185867     0.000307108        -0.883212        0.453047
                      -0.0524972       -0.969733     -0.000159567     0.000244685        -0.134601        0.159042       0.00017583     0.000190496
                    -0.000124454     0.000294152        -0.883236         0.45273      0.000140245     0.000158729        -0.106804       0.0455142
281703.1               -0.150373       -0.143701     -0.000200059     7.17776e-06        -0.052493       -0.969855     -0.000148085     0.000353371
                    -0.000178701    -8.04234e-06        0.0990543      -0.0601132     -0.000185868     0.000307114          -0.8832        0.453071
                      -0.0525285       -0.969732     -0.000159558     0.000244673        -0.134593        0.159044      0.000175847     0.000190482
