! TOUCHSTONE file generated by CST MICROWAVE STUDIO
! Date and time: Wed Oct  8 06:56:15 2025
! Project name: Teste_Macro_Metasurface_Nanopilar.cst
! Parameters = {H=600; L_x=115; L_y=145; Lambda=1064; Max_L=200; Min_L=70; PathPara=1; Phi=0; Step_L=10; Theta=0; p=520; phaseX=180; phaseY=0}
! Header version: 2018
! Port assignment regex: !\s*Touchstone port\s*([0-9]+)\s*=\s*(CST MWS port|CST DS port)\s*([0-9]+|Zmin|Zmax)\s*\(\"(.*)\"\)(\s*mode\s*([0-9]+))?.*
! Touchstone port assignment:
! Touchstone port 1 = CST MWS port Zmax ("") mode 1
! Touchstone port 2 = CST MWS port Zmax ("") mode 2
! Touchstone port 3 = CST MWS port Zmin ("") mode 1
! Touchstone port 4 = CST MWS port Zmin ("") mode 2
! S-Parameters are not renormalized. Each port impedance will be approximated by the real part at minimum frequency. The values are described via the [Reference] keyword.
! Default impedance is overridden by [Reference]
[Version] 2.0
# GHz S RI R 376.73
[Number of Ports] 4
[Reference]
376.73 376.73 376.73 376.73 
[Number of Frequencies] 1001
[Network Data]
281700                 -0.196047      -0.0135504     -0.000360816    -0.000551781        -0.403564       -0.888044       0.00040667    -0.000203724
                    -0.000199722    -0.000651213       -0.0333859       -0.147564      0.000319506     0.000690967         0.766075       -0.609811
                        -0.40352       -0.887891      0.000267498     0.000630552        -0.119768        0.155513     -0.000597435     0.000233712
                     0.000538311    -0.000304159         0.765857       -0.609916     -0.000678432     0.000291892        -0.139356      -0.0626569
281700.1               -0.196043      -0.0135446     -0.000360827    -0.000551763        -0.403591       -0.888032      0.000406665    -0.000203741
                    -0.000199739     -0.00065122       -0.0333943       -0.147566      0.000319536     0.000690957         0.766054       -0.609836
                       -0.403547       -0.887879      0.000267524      0.00063055         -0.11976        0.155513     -0.000597421     0.000233733
                     0.000538303    -0.000304186         0.765836       -0.609942     -0.000678419     0.000291917        -0.139361      -0.0626561
281700.2               -0.196039      -0.0135388     -0.000360838    -0.000551744        -0.403619       -0.888021      0.000406659    -0.000203757
                    -0.000199756    -0.000651228       -0.0334027       -0.147568      0.000319567     0.000690947         0.766032       -0.609862
                       -0.403575       -0.887867       0.00026755     0.000630548        -0.119752        0.155514     -0.000597408     0.000233753
                     0.000538296    -0.000304213         0.765814       -0.609968     -0.000678406     0.000291943        -0.139365      -0.0626554
281700.3               -0.196035       -0.013533     -0.000360849    -0.000551725        -0.403647       -0.888009      0.000406653    -0.000203774
                    -0.000199773    -0.000651235       -0.0334111        -0.14757      0.000319597     0.000690936         0.766011       -0.609888
                       -0.403603       -0.887856      0.000267576     0.000630546        -0.119745        0.155515     -0.000597395     0.000233774
                     0.000538289    -0.000304239         0.765793       -0.609994     -0.000678392     0.000291968        -0.139369      -0.0626547
281700.4               -0.196031      -0.0135273      -0.00036086    -0.000551706        -0.403674       -0.887998      0.000406648    -0.000203791
                     -0.00019979    -0.000651242       -0.0334195       -0.147572      0.000319628     0.000690926          0.76599       -0.609914
                        -0.40363       -0.887844      0.000267602     0.000630544        -0.119737        0.155515     -0.000597382     0.000233794
                     0.000538282    -0.000304266         0.765772       -0.610019     -0.000678379     0.000291994        -0.139373      -0.0626539
281700.5               -0.196027      -0.0135215     -0.000360871    -0.000551687        -0.403702       -0.887986      0.000406642    -0.000203807
                    -0.000199807    -0.000651249       -0.0334279       -0.147574      0.000319658     0.000690916         0.765969        -0.60994
                       -0.403658       -0.887833      0.000267628     0.000630541        -0.119729        0.155516     -0.000597369     0.000233815
                     0.000538274    -0.000304292         0.765751       -0.610045     -0.000678365     0.000292019        -0.139378      -0.0626532
281700.6               -0.196023      -0.0135157     -0.000360882    -0.000551668         -0.40373       -0.887974      0.000406636    -0.000203824
                    -0.000199824    -0.000651256       -0.0334363       -0.147576      0.000319689     0.000690906         0.765947       -0.609966
                       -0.403685       -0.887821      0.000267654     0.000630539        -0.119721        0.155516     -0.000597356     0.000233836
                     0.000538267    -0.000304319         0.765729       -0.610071     -0.000678352     0.000292044        -0.139382      -0.0626525
281700.7                -0.19602      -0.0135099     -0.000360892     -0.00055165        -0.403757       -0.887963       0.00040663     -0.00020384
                    -0.000199841    -0.000651263       -0.0334447       -0.147578      0.000319719     0.000690895         0.765926       -0.609992
                       -0.403713       -0.887809       0.00026768     0.000630537        -0.119714        0.155517     -0.000597343     0.000233856
                      0.00053826    -0.000304345         0.765708       -0.610097     -0.000678339      0.00029207        -0.139386      -0.0626517
281700.8               -0.196016      -0.0135042     -0.000360903    -0.000551631        -0.403785       -0.887951      0.000406625    -0.000203857
                    -0.000199858    -0.000651271       -0.0334531        -0.14758       0.00031975     0.000690885         0.765905       -0.610017
                       -0.403741       -0.887798      0.000267706     0.000630535        -0.119706        0.155517     -0.000597329     0.000233877
                     0.000538253    -0.000304372         0.765687       -0.610123     -0.000678325     0.000292095        -0.139391       -0.062651
281700.9               -0.196012      -0.0134984     -0.000360914    -0.000551612        -0.403812       -0.887939      0.000406619    -0.000203874
                    -0.000199875    -0.000651278       -0.0334615       -0.147581       0.00031978     0.000690875         0.765883       -0.610043
                       -0.403768       -0.887786      0.000267732     0.000630533        -0.119698        0.155518     -0.000597316     0.000233897
                     0.000538245    -0.000304399         0.765665       -0.610149     -0.000678312     0.000292121        -0.139395      -0.0626503
281701                 -0.196008      -0.0134926     -0.000360925    -0.000551593         -0.40384       -0.887928      0.000406613     -0.00020389
                    -0.000199892    -0.000651285       -0.0334699       -0.147583       0.00031981     0.000690864         0.765862       -0.610069
                       -0.403796       -0.887775      0.000267758     0.000630531         -0.11969        0.155518     -0.000597303     0.000233918
                     0.000538238    -0.000304425         0.765644       -0.610174     -0.000678298     0.000292146        -0.139399      -0.0626495
281701.1               -0.196004      -0.0134868     -0.000360936    -0.000551574        -0.403868       -0.887916      0.000406608    -0.000203907
                    -0.000199909    -0.000651292       -0.0334783       -0.147585      0.000319841     0.000690854         0.765841       -0.610095
                       -0.403824       -0.887763      0.000267784     0.000630529        -0.119683        0.155519      -0.00059729     0.000233938
                     0.000538231    -0.000304452         0.765623         -0.6102     -0.000678285     0.000292172        -0.139404      -0.0626488
281701.2                  -0.196      -0.0134811     -0.000360947    -0.000551556        -0.403895       -0.887905      0.000406602    -0.000203923
                    -0.000199926    -0.000651299       -0.0334867       -0.147587      0.000319871     0.000690844          0.76582       -0.610121
                       -0.403851       -0.887751       0.00026781     0.000630527        -0.119675        0.155519     -0.000597277     0.000233959
                     0.000538224    -0.000304478         0.765601       -0.610226     -0.000678272     0.000292197        -0.139408      -0.0626481
281701.3               -0.195996      -0.0134753     -0.000360958    -0.000551537        -0.403923       -0.887893      0.000406596     -0.00020394
                    -0.000199943    -0.000651306       -0.0334951       -0.147589      0.000319902     0.000690833         0.765798       -0.610147
                       -0.403879        -0.88774      0.000267836     0.000630525        -0.119667         0.15552     -0.000597264     0.000233979
                     0.000538216    -0.000304505          0.76558       -0.610252     -0.000678258     0.000292222        -0.139412      -0.0626473
281701.4               -0.195992      -0.0134695     -0.000360969    -0.000551518        -0.403951       -0.887881      0.000406591    -0.000203956
                     -0.00019996    -0.000651313       -0.0335035       -0.147591      0.000319932     0.000690823         0.765777       -0.610172
                       -0.403907       -0.887728      0.000267862     0.000630523        -0.119659         0.15552      -0.00059725        0.000234
                     0.000538209    -0.000304532         0.765559       -0.610278     -0.000678245     0.000292248        -0.139417      -0.0626466
281701.5               -0.195988      -0.0134637      -0.00036098    -0.000551499        -0.403978        -0.88787      0.000406585    -0.000203973
                    -0.000199977    -0.000651321       -0.0335119       -0.147593      0.000319963     0.000690813         0.765756       -0.610198
                       -0.403934       -0.887717      0.000267888     0.000630521        -0.119651        0.155521     -0.000597237      0.00023402
                     0.000538202    -0.000304558         0.765538       -0.610304     -0.000678231     0.000292273        -0.139421      -0.0626458
281701.6               -0.195985       -0.013458      -0.00036099     -0.00055148        -0.404006       -0.887858      0.000406579     -0.00020399
                    -0.000199994    -0.000651328       -0.0335203       -0.147595      0.000319993     0.000690802         0.765734       -0.610224
                       -0.403962       -0.887705      0.000267914     0.000630518        -0.119644        0.155522     -0.000597224     0.000234041
                     0.000538195    -0.000304585         0.765516       -0.610329     -0.000678218     0.000292299        -0.139425      -0.0626451
281701.7               -0.195981      -0.0134522     -0.000361001    -0.000551462        -0.404034       -0.887847      0.000406574    -0.000204006
                    -0.000200011    -0.000651335       -0.0335287       -0.147597      0.000320024     0.000690792         0.765713        -0.61025
                       -0.403989       -0.887693       0.00026794     0.000630516        -0.119636        0.155522     -0.000597211     0.000234061
                     0.000538187    -0.000304611         0.765495       -0.610355     -0.000678205     0.000292324         -0.13943      -0.0626444
281701.8               -0.195977      -0.0134464     -0.000361012    -0.000551443        -0.404061       -0.887835      0.000406568    -0.000204023
                    -0.000200028    -0.000651342       -0.0335371       -0.147599      0.000320054     0.000690781         0.765692       -0.610276
                       -0.404017       -0.887682      0.000267966     0.000630514        -0.119628        0.155523     -0.000597198     0.000234082
                      0.00053818    -0.000304638         0.765474       -0.610381     -0.000678191      0.00029235        -0.139434      -0.0626436
281701.9               -0.195973      -0.0134407     -0.000361023    -0.000551424        -0.404089       -0.887823      0.000406562    -0.000204039
                    -0.000200045    -0.000651349       -0.0335455       -0.147601      0.000320085     0.000690771         0.765671       -0.610302
                       -0.404045        -0.88767      0.000267991     0.000630512         -0.11962        0.155523     -0.000597185     0.000234102
                     0.000538173    -0.000304664         0.765452       -0.610407     -0.000678178     0.000292375        -0.139438      -0.0626429
281702                 -0.195969      -0.0134349     -0.000361034    -0.000551405        -0.404117       -0.887812      0.000406557    -0.000204056
                    -0.000200062    -0.000651356       -0.0335539       -0.147602      0.000320115     0.000690761         0.765649       -0.610327
                       -0.404072       -0.887658      0.000268017      0.00063051        -0.119613        0.155524     -0.000597172     0.000234123
                     0.000538166    -0.000304691         0.765431       -0.610433     -0.000678164       0.0002924        -0.139443      -0.0626422
281702.1               -0.195965      -0.0134291     -0.000361045    -0.000551386        -0.404144         -0.8878      0.000406551    -0.000204073
                    -0.000200079    -0.000651363       -0.0335623       -0.147604      0.000320146      0.00069075         0.765628       -0.610353
                         -0.4041       -0.887647      0.000268043     0.000630508        -0.119605        0.155524     -0.000597158     0.000234143
                     0.000538158    -0.000304717          0.76541       -0.610458     -0.000678151     0.000292426        -0.139447      -0.0626414
281702.2               -0.195961      -0.0134233     -0.000361056    -0.000551367        -0.404172       -0.887788      0.000406545    -0.000204089
                    -0.000200096    -0.000651371       -0.0335707       -0.147606      0.000320176      0.00069074         0.765607       -0.610379
                       -0.404128       -0.887635      0.000268069     0.000630506        -0.119597        0.155525     -0.000597145     0.000234164
                     0.000538151    -0.000304744         0.765388       -0.610484     -0.000678138     0.000292451        -0.139451      -0.0626407
281702.3               -0.195957      -0.0134176     -0.000361067    -0.000551349        -0.404199       -0.887777       0.00040654    -0.000204106
                    -0.000200113    -0.000651378       -0.0335791       -0.147608      0.000320206      0.00069073         0.765585       -0.610405
                       -0.404155       -0.887624      0.000268095     0.000630504        -0.119589        0.155525     -0.000597132     0.000234185
                     0.000538144    -0.000304771         0.765367        -0.61051     -0.000678124     0.000292477        -0.139456      -0.0626399
281702.4               -0.195953      -0.0134118     -0.000361078     -0.00055133        -0.404227       -0.887765      0.000406534    -0.000204122
                     -0.00020013    -0.000651385       -0.0335875        -0.14761      0.000320237     0.000690719         0.765564       -0.610431
                       -0.404183       -0.887612      0.000268121     0.000630502        -0.119581        0.155526     -0.000597119     0.000234205
                     0.000538137    -0.000304797         0.765346       -0.610536     -0.000678111     0.000292502         -0.13946      -0.0626392
281702.5                -0.19595       -0.013406     -0.000361088    -0.000551311        -0.404255       -0.887754      0.000406528    -0.000204139
                    -0.000200147    -0.000651392       -0.0335959       -0.147612      0.000320267     0.000690709         0.765543       -0.610457
                       -0.404211         -0.8876      0.000268147       0.0006305        -0.119574        0.155526     -0.000597106     0.000234226
                     0.000538129    -0.000304824         0.765324       -0.610562     -0.000678097     0.000292528        -0.139464      -0.0626385
281702.6               -0.195946      -0.0134003     -0.000361099    -0.000551292        -0.404282       -0.887742      0.000406523    -0.000204156
                    -0.000200164    -0.000651399       -0.0336043       -0.147614      0.000320298     0.000690699         0.765522       -0.610482
                       -0.404238       -0.887589      0.000268173     0.000630498        -0.119566        0.155527     -0.000597093     0.000234246
                     0.000538122     -0.00030485         0.765303       -0.610588     -0.000678084     0.000292553        -0.139469      -0.0626377
281702.7               -0.195942      -0.0133945      -0.00036111    -0.000551273         -0.40431        -0.88773      0.000406517    -0.000204172
                    -0.000200181    -0.000651406       -0.0336127       -0.147616      0.000320328     0.000690688           0.7655       -0.610508
                       -0.404266       -0.887577      0.000268199     0.000630495        -0.119558        0.155527     -0.000597079     0.000234267
                     0.000538115    -0.000304877         0.765282       -0.610613     -0.000678071     0.000292578        -0.139473       -0.062637
281702.8               -0.195938      -0.0133887     -0.000361121    -0.000551255        -0.404338       -0.887719      0.000406512    -0.000204189
                    -0.000200198    -0.000651413       -0.0336211       -0.147618      0.000320359     0.000690678         0.765479       -0.610534
                       -0.404293       -0.887565      0.000268225     0.000630493         -0.11955        0.155528     -0.000597066     0.000234287
                     0.000538107    -0.000304903         0.765261       -0.610639     -0.000678057     0.000292604        -0.139477      -0.0626363
281702.9               -0.195934       -0.013383     -0.000361132    -0.000551236        -0.404365       -0.887707      0.000406506    -0.000204205
                    -0.000200215     -0.00065142       -0.0336295        -0.14762      0.000320389     0.000690668         0.765458        -0.61056
                       -0.404321       -0.887554      0.000268251     0.000630491        -0.119543        0.155528     -0.000597053     0.000234308
                       0.0005381     -0.00030493         0.765239       -0.610665     -0.000678044     0.000292629        -0.139481      -0.0626355
281703                  -0.19593      -0.0133772     -0.000361143    -0.000551217        -0.404393       -0.887695        0.0004065    -0.000204222
                    -0.000200232    -0.000651427       -0.0336379       -0.147622       0.00032042     0.000690657         0.765436       -0.610586
                       -0.404349       -0.887542      0.000268277     0.000630489        -0.119535        0.155529      -0.00059704     0.000234328
                     0.000538093    -0.000304957         0.765218       -0.610691      -0.00067803     0.000292655        -0.139486      -0.0626348
281703.1               -0.195926      -0.0133714     -0.000361154    -0.000551198        -0.404421       -0.887684      0.000406495    -0.000204239
                    -0.000200249    -0.000651435       -0.0336463       -0.147623       0.00032045     0.000690647         0.765415       -0.610612
                       -0.404376       -0.887531      0.000268303     0.000630487        -0.119527        0.155529     -0.000597027     0.000234349
