! TOUCHSTONE file generated by CST MICROWAVE STUDIO
! Date and time: Wed Oct  8 06:58:16 2025
! Project name: Teste_Macro_Metasurface_Nanopilar.cst
! Parameters = {H=600; L_x=130; L_y=195; Lambda=1064; Max_L=200; Min_L=70; PathPara=1; Phi=0; Step_L=10; Theta=0; p=520; phaseX=180; phaseY=0}
! Header version: 2018
! Port assignment regex: !\s*Touchstone port\s*([0-9]+)\s*=\s*(CST MWS port|CST DS port)\s*([0-9]+|Zmin|Zmax)\s*\(\"(.*)\"\)(\s*mode\s*([0-9]+))?.*
! Touchstone port assignment:
! Touchstone port 1 = CST MWS port Zmax ("") mode 1
! Touchstone port 2 = CST MWS port Zmax ("") mode 2
! Touchstone port 3 = CST MWS port Zmin ("") mode 1
! Touchstone port 4 = CST MWS port Zmin ("") mode 2
! S-Parameters are not renormalized. Each port impedance will be approximated by the real part at minimum frequency. The values are described via the [Reference] keyword.
! Default impedance is overridden by [Reference]
[Version] 2.0
# GHz S RI R 376.73
[Number of Ports] 4
[Reference]
376.73 376.73 376.73 376.73 
[Number of Frequencies] 1001
[Network Data]
281700               -0.00393461       0.0243991      6.16239e-05      0.00149957        -0.982674       -0.155033      0.000506508       -0.001276
                     1.48527e-05      0.00155442        -0.079935        -0.13571      0.000265093     -0.00127531         -0.82093       -0.530881
                       -0.982752       -0.155003      9.55461e-05     -0.00131758      -0.00933692       0.0219487     -0.000857344      0.00129088
                     0.000579896     -0.00130685        -0.820866       -0.530969      -0.00103362      0.00141024         0.146098      0.00538003
281700.1             -0.00393313       0.0243921      6.16589e-05      0.00149965        -0.982679       -0.155003      0.000506469     -0.00127608
                     1.49036e-05      0.00155448       -0.0799326        -0.13572       0.00026495     -0.00127542        -0.820949       -0.530847
                       -0.982757       -0.154973      9.55153e-05     -0.00131767       -0.0093344       0.0219419     -0.000857301      0.00129096
                     0.000579866     -0.00130694        -0.820886       -0.530935      -0.00103346      0.00141038         0.146106      0.00536063
281700.2             -0.00393166       0.0243851       6.1694e-05      0.00149973        -0.982684       -0.154973       0.00050643     -0.00127615
                     1.49545e-05      0.00155455       -0.0799301       -0.135731      0.000264806     -0.00127553        -0.820969       -0.530813
                       -0.982762       -0.154943      9.54844e-05     -0.00131777      -0.00933189       0.0219352     -0.000857258      0.00129105
                     0.000579836     -0.00130703        -0.820905       -0.530902      -0.00103329      0.00141053         0.146114      0.00534124
281700.3             -0.00393018       0.0243782      6.17291e-05      0.00149981         -0.98269       -0.154944       0.00050639     -0.00127622
                     1.50054e-05      0.00155461       -0.0799277       -0.135741      0.000264662     -0.00127564        -0.820989       -0.530779
                       -0.982767       -0.154913      9.54535e-05     -0.00131786      -0.00932937       0.0219284     -0.000857216      0.00129113
                     0.000579806     -0.00130711        -0.820925       -0.530868      -0.00103313      0.00141067         0.146122      0.00532184
281700.4             -0.00392871       0.0243712      6.17643e-05      0.00149989        -0.982695       -0.154914      0.000506351     -0.00127629
                     1.50563e-05      0.00155468       -0.0799253       -0.135751      0.000264518     -0.00127575        -0.821009       -0.530746
                       -0.982772       -0.154883      9.54225e-05     -0.00131795      -0.00932686       0.0219216     -0.000857173      0.00129121
                     0.000579776      -0.0013072        -0.820945       -0.530834      -0.00103296      0.00141082         0.146131      0.00530244
281700.5             -0.00392724       0.0243642      6.17994e-05      0.00149997          -0.9827       -0.154884      0.000506312     -0.00127636
                     1.51072e-05      0.00155474       -0.0799228       -0.135761      0.000264373     -0.00127586        -0.821028       -0.530712
                       -0.982777       -0.154853      9.53916e-05     -0.00131804      -0.00932435       0.0219149     -0.000857131      0.00129129
                     0.000579746     -0.00130729        -0.820965         -0.5308       -0.0010328      0.00141097         0.146139      0.00528303
281700.6             -0.00392577       0.0243573      6.18346e-05      0.00150005        -0.982705       -0.154854      0.000506272     -0.00127643
                     1.51581e-05      0.00155481       -0.0799204       -0.135771      0.000264228     -0.00127597        -0.821048       -0.530678
                       -0.982781       -0.154824      9.53606e-05     -0.00131813      -0.00932184       0.0219081     -0.000857088      0.00129137
                     0.000579715     -0.00130737        -0.820985       -0.530766      -0.00103263      0.00141111         0.146147      0.00526363
281700.7             -0.00392429       0.0243503      6.18698e-05      0.00150014         -0.98271       -0.154824      0.000506233      -0.0012765
                     1.52091e-05      0.00155487        -0.079918       -0.135781      0.000264083     -0.00127607        -0.821068       -0.530644
                       -0.982786       -0.154794      9.53296e-05     -0.00131822      -0.00931934       0.0219013     -0.000857045      0.00129146
                     0.000579685     -0.00130746        -0.821004       -0.530732      -0.00103246      0.00141126         0.146155      0.00524422
281700.8             -0.00392282       0.0243433       6.1905e-05      0.00150022        -0.982715       -0.154794      0.000506193     -0.00127658
                     1.52601e-05      0.00155494       -0.0799156       -0.135792      0.000263937     -0.00127618        -0.821087        -0.53061
                       -0.982791       -0.154764      9.52986e-05     -0.00131831      -0.00931683       0.0218946     -0.000857003      0.00129154
                     0.000579655     -0.00130755        -0.821024       -0.530699      -0.00103229       0.0014114         0.146164      0.00522482
281700.9             -0.00392135       0.0243364      6.19402e-05       0.0015003         -0.98272       -0.154764      0.000506154     -0.00127665
                      1.5311e-05        0.001555       -0.0799131       -0.135802       0.00026379     -0.00127629        -0.821107       -0.530576
                       -0.982796       -0.154734      9.52675e-05      -0.0013184      -0.00931433       0.0218878      -0.00085696      0.00129162
                     0.000579625     -0.00130764        -0.821044       -0.530665      -0.00103212      0.00141155         0.146172      0.00520541
281701               -0.00391988       0.0243294      6.19754e-05      0.00150038        -0.982725       -0.154734      0.000506115     -0.00127672
                      1.5362e-05      0.00155507       -0.0799107       -0.135812      0.000263644      -0.0012764        -0.821127       -0.530542
                       -0.982801       -0.154704      9.52364e-05     -0.00131849      -0.00931183        0.021881     -0.000856917       0.0012917
                     0.000579595     -0.00130772        -0.821064       -0.530631      -0.00103195      0.00141169          0.14618        0.005186
281701.1             -0.00391841       0.0243224      6.20107e-05      0.00150046         -0.98273       -0.154705      0.000506075     -0.00127679
                     1.54131e-05      0.00155513       -0.0799083       -0.135822      0.000263497     -0.00127651        -0.821147       -0.530508
                       -0.982806       -0.154674      9.52053e-05     -0.00131858      -0.00930934       0.0218743     -0.000856875      0.00129178
                     0.000579565     -0.00130781        -0.821084       -0.530597      -0.00103178      0.00141184         0.146188      0.00516659
281701.2             -0.00391694       0.0243155       6.2046e-05      0.00150054        -0.982736       -0.154675      0.000506036     -0.00127686
                     1.54641e-05       0.0015552       -0.0799059       -0.135832      0.000263349     -0.00127662        -0.821166       -0.530474
                       -0.982811       -0.154645      9.51741e-05     -0.00131867      -0.00930684       0.0218675     -0.000856832      0.00129187
                     0.000579534      -0.0013079        -0.821103       -0.530563      -0.00103161      0.00141199         0.146196      0.00514717
281701.3             -0.00391547       0.0243085      6.20813e-05      0.00150062        -0.982741       -0.154645      0.000505996     -0.00127693
                     1.55152e-05      0.00155526       -0.0799034       -0.135842      0.000263201     -0.00127673        -0.821186       -0.530441
                       -0.982816       -0.154615       9.5143e-05     -0.00131876      -0.00930435       0.0218607     -0.000856789      0.00129195
                     0.000579504     -0.00130799        -0.821123       -0.530529      -0.00103144      0.00141213         0.146205      0.00512776
281701.4               -0.003914       0.0243015      6.21166e-05      0.00150071        -0.982746       -0.154615      0.000505957       -0.001277
                     1.55662e-05      0.00155533        -0.079901       -0.135853      0.000263053     -0.00127684        -0.821206       -0.530407
                       -0.982821       -0.154585      9.51118e-05     -0.00131885      -0.00930186        0.021854     -0.000856746      0.00129203
                     0.000579474     -0.00130808        -0.821143       -0.530495      -0.00103127      0.00141228         0.146213      0.00510834
281701.5             -0.00391253       0.0242946      6.21519e-05      0.00150079        -0.982751       -0.154585      0.000505917     -0.00127708
                     1.56173e-05      0.00155539       -0.0798986       -0.135863      0.000262904     -0.00127695        -0.821226       -0.530373
                       -0.982826       -0.154555      9.50806e-05     -0.00131894      -0.00929937       0.0218472     -0.000856703      0.00129211
                     0.000579444     -0.00130816        -0.821163       -0.530462       -0.0010311      0.00141242         0.146221      0.00508893
281701.6             -0.00391106       0.0242876      6.21873e-05      0.00150087        -0.982756       -0.154555      0.000505878     -0.00127715
                     1.56684e-05      0.00155546       -0.0798962       -0.135873      0.000262755     -0.00127705        -0.821245       -0.530339
                        -0.98283       -0.154525      9.50493e-05     -0.00131903      -0.00929689       0.0218404     -0.000856661      0.00129219
                     0.000579414     -0.00130825        -0.821183       -0.530428      -0.00103093      0.00141257         0.146229      0.00506951
281701.7              -0.0039096       0.0242806      6.22227e-05      0.00150095        -0.982761       -0.154525      0.000505838     -0.00127722
                     1.57195e-05      0.00155552       -0.0798938       -0.135883      0.000262605     -0.00127716        -0.821265       -0.530305
                       -0.982835       -0.154495      9.50181e-05     -0.00131912       -0.0092944       0.0218337     -0.000856618      0.00129228
                     0.000579383     -0.00130834        -0.821202       -0.530394      -0.00103075      0.00141271         0.146238      0.00505009
281701.8             -0.00390813       0.0242737      6.22581e-05      0.00150103        -0.982766       -0.154495      0.000505798     -0.00127729
                     1.57707e-05      0.00155559       -0.0798913       -0.135893      0.000262455     -0.00127727        -0.821285       -0.530271
                        -0.98284       -0.154466      9.49868e-05     -0.00131922      -0.00929192       0.0218269     -0.000856575      0.00129236
                     0.000579353     -0.00130843        -0.821222        -0.53036      -0.00103058      0.00141286         0.146246      0.00503067
281701.9             -0.00390666       0.0242667      6.22935e-05      0.00150111        -0.982771       -0.154466      0.000505759     -0.00127736
                     1.58218e-05      0.00155565       -0.0798889       -0.135904      0.000262304     -0.00127738        -0.821304       -0.530237
                       -0.982845       -0.154436      9.49554e-05     -0.00131931      -0.00928944       0.0218202     -0.000856532      0.00129244
                     0.000579323     -0.00130851        -0.821242       -0.530326       -0.0010304      0.00141301         0.146254      0.00501124
281702               -0.00390519       0.0242597      6.23289e-05      0.00150119        -0.982776       -0.154436      0.000505719     -0.00127743
                      1.5873e-05      0.00155572       -0.0798865       -0.135914      0.000262153     -0.00127749        -0.821324       -0.530203
                        -0.98285       -0.154406      9.49241e-05      -0.0013194      -0.00928696       0.0218134     -0.000856489      0.00129252
                     0.000579293      -0.0013086        -0.821262       -0.530292      -0.00103023      0.00141315         0.146262      0.00499182
281702.1             -0.00390373       0.0242528      6.23644e-05      0.00150128        -0.982781       -0.154406      0.000505679      -0.0012775
                     1.59242e-05      0.00155578       -0.0798841       -0.135924      0.000262002      -0.0012776        -0.821344       -0.530169
                       -0.982855       -0.154376      9.48927e-05     -0.00131949      -0.00928449       0.0218066     -0.000856446       0.0012926
                     0.000579263     -0.00130869        -0.821282       -0.530258      -0.00103005       0.0014133         0.146271      0.00497239
281702.2             -0.00390226       0.0242458      6.23998e-05      0.00150136        -0.982787       -0.154376       0.00050564     -0.00127758
                     1.59754e-05      0.00155585       -0.0798817       -0.135934       0.00026185     -0.00127771        -0.821364       -0.530135
                        -0.98286       -0.154346      9.48613e-05     -0.00131958      -0.00928202       0.0217999     -0.000856403      0.00129268
                     0.000579232     -0.00130878        -0.821301       -0.530225      -0.00102987      0.00141344         0.146279      0.00495297
281702.3             -0.00390079       0.0242388      6.24353e-05      0.00150144        -0.982792       -0.154346        0.0005056     -0.00127765
                     1.60266e-05      0.00155591       -0.0798793       -0.135944      0.000261698     -0.00127782        -0.821383       -0.530102
                       -0.982865       -0.154316      9.48299e-05     -0.00131967      -0.00927954       0.0217931      -0.00085636      0.00129277
                     0.000579202     -0.00130887        -0.821321       -0.530191       -0.0010297      0.00141359         0.146287      0.00493354
281702.4             -0.00389933       0.0242318      6.24708e-05      0.00150152        -0.982797       -0.154316       0.00050556     -0.00127772
                     1.60779e-05      0.00155598       -0.0798769       -0.135955      0.000261545     -0.00127793        -0.821403       -0.530068
                        -0.98287       -0.154287      9.47984e-05     -0.00131976      -0.00927708       0.0217864     -0.000856317      0.00129285
                     0.000579172     -0.00130895        -0.821341       -0.530157      -0.00102952      0.00141373         0.146295      0.00491411
281702.5             -0.00389786       0.0242249      6.25064e-05       0.0015016        -0.982802       -0.154286      0.000505521     -0.00127779
                     1.61291e-05      0.00155605       -0.0798744       -0.135965      0.000261392     -0.00127804        -0.821423       -0.530034
                       -0.982875       -0.154257      9.47669e-05     -0.00131985      -0.00927461       0.0217796     -0.000856274      0.00129293
                     0.000579142     -0.00130904        -0.821361       -0.530123      -0.00102934      0.00141388         0.146304      0.00489467
281702.6              -0.0038964       0.0242179      6.25419e-05      0.00150168        -0.982807       -0.154256      0.000505481     -0.00127786
                     1.61804e-05      0.00155611        -0.079872       -0.135975      0.000261238     -0.00127815        -0.821442           -0.53
                       -0.982879       -0.154227      9.47354e-05     -0.00131994      -0.00927214       0.0217728     -0.000856231      0.00129301
                     0.000579111     -0.00130913        -0.821381       -0.530089      -0.00102916      0.00141402         0.146312      0.00487524
281702.7             -0.00389493       0.0242109      6.25775e-05      0.00150176        -0.982812       -0.154226      0.000505441     -0.00127793
                     1.62317e-05      0.00155618       -0.0798696       -0.135985      0.000261084     -0.00127826        -0.821462       -0.529966
                       -0.982884       -0.154197      9.47039e-05     -0.00132003      -0.00926968       0.0217661     -0.000856188      0.00129309
                     0.000579081     -0.00130922          -0.8214       -0.530055      -0.00102898      0.00141417          0.14632      0.00485581
281702.8             -0.00389347        0.024204      6.26131e-05      0.00150185        -0.982817       -0.154197      0.000505401       -0.001278
                      1.6283e-05      0.00155624       -0.0798672       -0.135995      0.000260929     -0.00127837        -0.821482       -0.529932
                       -0.982889       -0.154167      9.46723e-05     -0.00132012      -0.00926722       0.0217593     -0.000856144      0.00129318
                     0.000579051     -0.00130931         -0.82142       -0.530021       -0.0010288      0.00141431         0.146328      0.00483637
281702.9               -0.003892        0.024197      6.26487e-05      0.00150193        -0.982822       -0.154167      0.000505361     -0.00127808
                     1.63344e-05      0.00155631       -0.0798648       -0.136006      0.000260774     -0.00127848        -0.821501       -0.529898
                       -0.982894       -0.154137      9.46407e-05     -0.00132021      -0.00926476       0.0217526     -0.000856101      0.00129326
                     0.000579021     -0.00130939         -0.82144       -0.529987      -0.00102862      0.00141446         0.146337      0.00481693
281703               -0.00389054         0.02419      6.26843e-05      0.00150201        -0.982827       -0.154137      0.000505322     -0.00127815
                     1.63857e-05      0.00155637       -0.0798624       -0.136016      0.000260618     -0.00127858        -0.821521       -0.529864
                       -0.982899       -0.154108      9.46091e-05      -0.0013203      -0.00926231       0.0217458     -0.000856058      0.00129334
                     0.000578991     -0.00130948         -0.82146       -0.529954      -0.00102844      0.00141461         0.146345      0.00479749
281703.1             -0.00388908       0.0241831        6.272e-05      0.00150209        -0.982832       -0.154107      0.000505282     -0.00127822
                     1.64371e-05      0.00155644         -0.07986       -0.136026      0.000260462     -0.00127869        -0.821541        -0.52983
                       -0.982904       -0.154078      9.45775e-05     -0.00132039      -0.00925985       0.0217391     -0.000856015      0.00129342
