! TOUCHSTONE file generated by CST MICROWAVE STUDIO
! Date and time: Wed Oct  8 07:05:13 2025
! Project name: Teste_Macro_Metasurface_Nanopilar.cst
! Parameters = {H=600; L_x=190; L_y=145; Lambda=1064; Max_L=200; Min_L=70; PathPara=1; Phi=0; Step_L=10; Theta=0; p=520; phaseX=180; phaseY=0}
! Header version: 2018
! Port assignment regex: !\s*Touchstone port\s*([0-9]+)\s*=\s*(CST MWS port|CST DS port)\s*([0-9]+|Zmin|Zmax)\s*\(\"(.*)\"\)(\s*mode\s*([0-9]+))?.*
! Touchstone port assignment:
! Touchstone port 1 = CST MWS port Zmax ("") mode 1
! Touchstone port 2 = CST MWS port Zmax ("") mode 2
! Touchstone port 3 = CST MWS port Zmin ("") mode 1
! Touchstone port 4 = CST MWS port Zmin ("") mode 2
! S-Parameters are not renormalized. Each port impedance will be approximated by the real part at minimum frequency. The values are described via the [Reference] keyword.
! Default impedance is overridden by [Reference]
[Version] 2.0
# GHz S RI R 376.73
[Number of Ports] 4
[Reference]
376.73 376.73 376.73 376.73 
[Number of Frequencies] 1001
[Network Data]
281700                -0.0928027        0.158195     -0.000798623     0.000491882        -0.820902       -0.530582      9.42426e-05    -0.000789141
                    -0.000649339     0.000343495       -0.0225119       -0.062867      0.000268831    -0.000795648        -0.993377      -0.0208013
                       -0.821099       -0.531051      0.000361104    -0.000741629        -0.110484        0.145499      0.000201886     0.000867219
                    -0.000124058    -0.000748632        -0.993231       -0.020893      0.000227668      0.00115196         0.020392      -0.0630195
281700.1              -0.0927949        0.158193     -0.000798601     0.000491887        -0.820919       -0.530558       9.4323e-05      -0.0007891
                    -0.000649306     0.000343505       -0.0225133      -0.0628732      0.000268803    -0.000795683        -0.993377      -0.0207714
                       -0.821116       -0.531027      0.000361067    -0.000741632        -0.110476        0.145498      0.000201956     0.000867281
                    -0.000124089    -0.000748664        -0.993232      -0.0208631      0.000227676      0.00115192          0.02039       -0.063027
281700.2              -0.0927871         0.15819      -0.00079858     0.000491892        -0.820937       -0.530533      9.44034e-05     -0.00078906
                    -0.000649274     0.000343515       -0.0225148      -0.0628794      0.000268775    -0.000795718        -0.993377      -0.0207416
                       -0.821133       -0.531003      0.000361029    -0.000741634        -0.110468        0.145496      0.000202026     0.000867342
                    -0.000124121    -0.000748696        -0.993232      -0.0208333      0.000227684      0.00115187        0.0203879      -0.0630344
281700.3              -0.0927793        0.158188     -0.000798559     0.000491898        -0.820954       -0.530509      9.44837e-05     -0.00078902
                    -0.000649241     0.000343525       -0.0225162      -0.0628856      0.000268747    -0.000795752        -0.993377      -0.0207117
                        -0.82115       -0.530978      0.000360991    -0.000741637         -0.11046        0.145495      0.000202096     0.000867404
                    -0.000124152    -0.000748728        -0.993232      -0.0208035      0.000227692      0.00115183        0.0203859      -0.0630419
281700.4              -0.0927715        0.158185     -0.000798538     0.000491903        -0.820971       -0.530485      9.45641e-05     -0.00078898
                    -0.000649208     0.000343535       -0.0225177      -0.0628918      0.000268719    -0.000795787        -0.993377      -0.0206819
                       -0.821167       -0.530954      0.000360953    -0.000741639        -0.110453        0.145493      0.000202165     0.000867466
                    -0.000124184     -0.00074876        -0.993232      -0.0207737        0.0002277      0.00115178        0.0203839      -0.0630494
281700.5              -0.0927637        0.158183     -0.000798516     0.000491908        -0.820988       -0.530461      9.46444e-05    -0.000788939
                    -0.000649176     0.000343545       -0.0225191       -0.062898       0.00026869    -0.000795822        -0.993377       -0.020652
                       -0.821184        -0.53093      0.000360916    -0.000741642        -0.110445        0.145492      0.000202235     0.000867528
                    -0.000124215    -0.000748792        -0.993232      -0.0207439      0.000227708      0.00115174        0.0203819      -0.0630568
281700.6              -0.0927559         0.15818     -0.000798495     0.000491914        -0.821005       -0.530437      9.47247e-05    -0.000788899
                    -0.000649143     0.000343556       -0.0225206      -0.0629042      0.000268662    -0.000795856        -0.993377      -0.0206222
                       -0.821201       -0.530906      0.000360878    -0.000741644        -0.110437         0.14549      0.000202305     0.000867589
                    -0.000124247    -0.000748824        -0.993232      -0.0207141      0.000227716      0.00115169        0.0203798      -0.0630643
281700.7              -0.0927481        0.158178     -0.000798474     0.000491919        -0.821022       -0.530412       9.4805e-05    -0.000788859
                    -0.000649111     0.000343566        -0.022522      -0.0629104      0.000268634    -0.000795891        -0.993378      -0.0205923
                       -0.821218       -0.530882       0.00036084    -0.000741647        -0.110429        0.145489      0.000202375     0.000867651
                    -0.000124278    -0.000748856        -0.993233      -0.0206843      0.000227724      0.00115165        0.0203778      -0.0630718
281700.8              -0.0927403        0.158176     -0.000798453     0.000491924        -0.821039       -0.530388      9.48853e-05    -0.000788818
                    -0.000649078     0.000343576       -0.0225235      -0.0629166      0.000268606    -0.000795926        -0.993378      -0.0205625
                       -0.821235       -0.530858      0.000360802    -0.000741649        -0.110421        0.145488      0.000202445     0.000867713
                    -0.000124309    -0.000748888        -0.993233      -0.0206544      0.000227732       0.0011516        0.0203758      -0.0630792
281700.9              -0.0927326        0.158173     -0.000798431      0.00049193        -0.821057       -0.530364      9.49656e-05    -0.000788778
                    -0.000649046     0.000343586       -0.0225249      -0.0629228      0.000268578     -0.00079596        -0.993378      -0.0205327
                       -0.821252       -0.530833      0.000360764    -0.000741652        -0.110413        0.145486      0.000202515     0.000867774
                    -0.000124341     -0.00074892        -0.993233      -0.0206246       0.00022774      0.00115156        0.0203738      -0.0630867
281701                -0.0927248        0.158171      -0.00079841     0.000491935        -0.821074        -0.53034      9.50458e-05    -0.000788738
                    -0.000649013     0.000343596       -0.0225264       -0.062929      0.000268549    -0.000795995        -0.993378      -0.0205028
                       -0.821269       -0.530809      0.000360727    -0.000741655        -0.110405        0.145485      0.000202585     0.000867836
                    -0.000124372    -0.000748952        -0.993233      -0.0205948      0.000227748      0.00115151        0.0203717      -0.0630942
281701.1               -0.092717        0.158168     -0.000798389      0.00049194        -0.821091       -0.530316      9.51261e-05    -0.000788698
                     -0.00064898     0.000343606       -0.0225278      -0.0629352      0.000268521     -0.00079603        -0.993378       -0.020473
                       -0.821286       -0.530785      0.000360689    -0.000741657        -0.110397        0.145483      0.000202655     0.000867898
                    -0.000124404    -0.000748984        -0.993233       -0.020565      0.000227756      0.00115147        0.0203697      -0.0631016
281701.2              -0.0927092        0.158166     -0.000798368     0.000491946        -0.821108       -0.530292      9.52063e-05    -0.000788658
                    -0.000648948     0.000343616       -0.0225293      -0.0629414      0.000268493    -0.000796065        -0.993378      -0.0204431
                       -0.821303       -0.530761      0.000360651     -0.00074166        -0.110389        0.145482      0.000202725     0.000867959
                    -0.000124435    -0.000749016        -0.993234      -0.0205352      0.000227764      0.00115142        0.0203677      -0.0631091
281701.3              -0.0927014        0.158163     -0.000798346     0.000491951        -0.821125       -0.530267      9.52865e-05    -0.000788617
                    -0.000648915     0.000343627       -0.0225307      -0.0629475      0.000268465    -0.000796099        -0.993378      -0.0204133
                        -0.82132       -0.530737      0.000360613    -0.000741662        -0.110381         0.14548      0.000202794     0.000868021
                    -0.000124466    -0.000749048        -0.993234      -0.0205054      0.000227772      0.00115138        0.0203657      -0.0631166
281701.4              -0.0926936        0.158161     -0.000798325     0.000491956        -0.821142       -0.530243      9.53667e-05    -0.000788577
                    -0.000648882     0.000343637       -0.0225322      -0.0629537      0.000268436    -0.000796134        -0.993378      -0.0203835
                       -0.821337       -0.530712      0.000360576    -0.000741665        -0.110373        0.145479      0.000202864     0.000868083
                    -0.000124498    -0.000749081        -0.993234      -0.0204756       0.00022778      0.00115133        0.0203636       -0.063124
281701.5              -0.0926858        0.158159     -0.000798304     0.000491962        -0.821159       -0.530219      9.54469e-05    -0.000788537
                     -0.00064885     0.000343647       -0.0225336      -0.0629599      0.000268408    -0.000796169        -0.993378      -0.0203536
                       -0.821354       -0.530688      0.000360538    -0.000741667        -0.110365        0.145477      0.000202934     0.000868144
                    -0.000124529    -0.000749113        -0.993234      -0.0204457      0.000227788      0.00115129        0.0203616      -0.0631315
281701.6               -0.092678        0.158156     -0.000798283     0.000491967        -0.821176       -0.530195      9.55271e-05    -0.000788497
                    -0.000648817     0.000343657       -0.0225351      -0.0629661       0.00026838    -0.000796203        -0.993378      -0.0203238
                       -0.821371       -0.530664        0.0003605     -0.00074167        -0.110357        0.145476      0.000203004     0.000868206
                     -0.00012456    -0.000749145        -0.993234      -0.0204159      0.000227796      0.00115124        0.0203596       -0.063139
281701.7              -0.0926703        0.158154     -0.000798261     0.000491972        -0.821194       -0.530171      9.56072e-05    -0.000788456
                    -0.000648785     0.000343668       -0.0225365      -0.0629723      0.000268351    -0.000796238        -0.993378      -0.0202939
                       -0.821388        -0.53064      0.000360462    -0.000741672        -0.110349        0.145474      0.000203074     0.000868268
                    -0.000124592    -0.000749177        -0.993234      -0.0203861      0.000227804      0.00115119        0.0203575      -0.0631464
281701.8              -0.0926625        0.158151      -0.00079824     0.000491978        -0.821211       -0.530147      9.56873e-05    -0.000788416
                    -0.000648752     0.000343678        -0.022538      -0.0629785      0.000268323    -0.000796273        -0.993379      -0.0202641
                       -0.821405       -0.530616      0.000360424    -0.000741675        -0.110341        0.145473      0.000203144     0.000868329
                    -0.000124623    -0.000749209        -0.993235      -0.0203563      0.000227813      0.00115115        0.0203555      -0.0631539
281701.9              -0.0926547        0.158149     -0.000798219     0.000491983        -0.821228       -0.530122      9.57675e-05    -0.000788376
                    -0.000648719     0.000343688       -0.0225394      -0.0629847      0.000268295    -0.000796307        -0.993379      -0.0202343
                       -0.821422       -0.530591      0.000360387    -0.000741677        -0.110333        0.145471      0.000203214     0.000868391
                    -0.000124654    -0.000749241        -0.993235      -0.0203265      0.000227821       0.0011511        0.0203535      -0.0631614
281702                -0.0926469        0.158146     -0.000798197     0.000491988        -0.821245       -0.530098      9.58476e-05    -0.000788336
                    -0.000648687     0.000343698       -0.0225409      -0.0629909      0.000268267    -0.000796342        -0.993379      -0.0202044
                       -0.821439       -0.530567      0.000360349     -0.00074168        -0.110325         0.14547      0.000203284     0.000868452
                    -0.000124685    -0.000749273        -0.993235      -0.0202967      0.000227829      0.00115106        0.0203515      -0.0631688
281702.1              -0.0926391        0.158144     -0.000798176     0.000491994        -0.821262       -0.530074      9.59277e-05    -0.000788296
                    -0.000648654     0.000343709       -0.0225423      -0.0629971      0.000268238    -0.000796376        -0.993379      -0.0201746
                       -0.821456       -0.530543      0.000360311    -0.000741682        -0.110318        0.145468      0.000203354     0.000868514
                    -0.000124717    -0.000749305        -0.993235      -0.0202669      0.000227837      0.00115101        0.0203494      -0.0631763
281702.2              -0.0926313        0.158142     -0.000798155     0.000491999        -0.821279        -0.53005      9.60077e-05    -0.000788256
                    -0.000648621     0.000343719       -0.0225438      -0.0630033       0.00026821    -0.000796411        -0.993379      -0.0201448
                       -0.821473       -0.530519      0.000360273    -0.000741685         -0.11031        0.145467      0.000203424     0.000868576
                    -0.000124748    -0.000749337        -0.993235       -0.020237      0.000227845      0.00115097        0.0203474      -0.0631838
281702.3              -0.0926235        0.158139     -0.000798134     0.000492004        -0.821296       -0.530026      9.60878e-05    -0.000788215
                    -0.000648589     0.000343729       -0.0225452      -0.0630095      0.000268182    -0.000796446        -0.993379      -0.0201149
                        -0.82149       -0.530495      0.000360235    -0.000741687        -0.110302        0.145465      0.000203494     0.000868637
                    -0.000124779     -0.00074937        -0.993235      -0.0202072      0.000227853      0.00115092        0.0203454      -0.0631912
281702.4              -0.0926158        0.158137     -0.000798112      0.00049201        -0.821313       -0.530001      9.61678e-05    -0.000788175
                    -0.000648556     0.000343739       -0.0225467      -0.0630157      0.000268153     -0.00079648        -0.993379      -0.0200851
                       -0.821507        -0.53047      0.000360198     -0.00074169        -0.110294        0.145464      0.000203565     0.000868699
                    -0.000124811    -0.000749402        -0.993236      -0.0201774      0.000227861      0.00115088        0.0203433      -0.0631987
281702.5               -0.092608        0.158134     -0.000798091     0.000492015        -0.821331       -0.529977      9.62479e-05    -0.000788135
                    -0.000648523      0.00034375       -0.0225481      -0.0630219      0.000268125    -0.000796515        -0.993379      -0.0200553
                       -0.821524       -0.530446       0.00036016    -0.000741692        -0.110286        0.145462      0.000203635      0.00086876
                    -0.000124842    -0.000749434        -0.993236      -0.0201476      0.000227869      0.00115083        0.0203413      -0.0632062
281702.6              -0.0926002        0.158132      -0.00079807     0.000492021        -0.821348       -0.529953      9.63279e-05    -0.000788095
                    -0.000648491      0.00034376       -0.0225496       -0.063028      0.000268097     -0.00079655        -0.993379      -0.0200255
                       -0.821541       -0.530422      0.000360122    -0.000741695        -0.110278        0.145461      0.000203705     0.000868822
                    -0.000124873    -0.000749466        -0.993236      -0.0201178      0.000227877      0.00115079        0.0203393      -0.0632136
281702.7              -0.0925924        0.158129     -0.000798049     0.000492026        -0.821365       -0.529929      9.64079e-05    -0.000788055
                    -0.000648458      0.00034377        -0.022551      -0.0630342      0.000268069    -0.000796584        -0.993379      -0.0199956
                       -0.821558       -0.530398      0.000360084    -0.000741697         -0.11027        0.145459      0.000203775     0.000868883
                    -0.000124904    -0.000749498        -0.993236       -0.020088      0.000227886      0.00115074        0.0203372      -0.0632211
281702.8              -0.0925846        0.158127     -0.000798027     0.000492031        -0.821382       -0.529905      9.64879e-05    -0.000788015
                    -0.000648425     0.000343781       -0.0225525      -0.0630404       0.00026804    -0.000796619        -0.993379      -0.0199658
                       -0.821575       -0.530374      0.000360047      -0.0007417        -0.110262        0.145458      0.000203845     0.000868945
                    -0.000124935     -0.00074953        -0.993236      -0.0200582      0.000227894       0.0011507        0.0203352      -0.0632286
281702.9              -0.0925768        0.158124     -0.000798006     0.000492037        -0.821399        -0.52988      9.65678e-05    -0.000787975
                    -0.000648393     0.000343791        -0.022554      -0.0630466      0.000268012    -0.000796654        -0.993379       -0.019936
                       -0.821592       -0.530349      0.000360009    -0.000741702        -0.110254        0.145457      0.000203915     0.000869006
                    -0.000124967    -0.000749563        -0.993236      -0.0200283      0.000227902      0.00115065        0.0203332       -0.063236
281703                 -0.092569        0.158122     -0.000797985     0.000492042        -0.821416       -0.529856      9.66478e-05    -0.000787935
                     -0.00064836     0.000343801       -0.0225554      -0.0630528      0.000267984    -0.000796688        -0.993379      -0.0199061
                       -0.821609       -0.530325      0.000359971    -0.000741705        -0.110246        0.145455      0.000203985     0.000869068
                    -0.000124998    -0.000749595        -0.993237      -0.0199985       0.00022791      0.00115061        0.0203311      -0.0632435
281703.1              -0.0925613         0.15812     -0.000797963     0.000492047        -0.821433       -0.529832      9.67277e-05    -0.000787895
                    -0.000648327     0.000343812       -0.0225569       -0.063059      0.000267955    -0.000796723         -0.99338      -0.0198763
                       -0.821627       -0.530301      0.000359933    -0.000741707        -0.110238        0.145454      0.000204055     0.000869129
