! TOUCHSTONE file generated by CST MICROWAVE STUDIO
! Date and time: Wed Oct  8 06:51:44 2025
! Project name: Teste_Macro_Metasurface_Nanopilar.cst
! Parameters = {H=600; L_x=75; L_y=200; Lambda=1064; Max_L=200; Min_L=70; PathPara=1; Phi=0; Step_L=10; Theta=0; p=520; phaseX=180; phaseY=0}
! Header version: 2018
! Port assignment regex: !\s*Touchstone port\s*([0-9]+)\s*=\s*(CST MWS port|CST DS port)\s*([0-9]+|Zmin|Zmax)\s*\(\"(.*)\"\)(\s*mode\s*([0-9]+))?.*
! Touchstone port assignment:
! Touchstone port 1 = CST MWS port Zmax ("") mode 1
! Touchstone port 2 = CST MWS port Zmax ("") mode 2
! Touchstone port 3 = CST MWS port Zmin ("") mode 1
! Touchstone port 4 = CST MWS port Zmin ("") mode 2
! S-Parameters are not renormalized. Each port impedance will be approximated by the real part at minimum frequency. The values are described via the [Reference] keyword.
! Default impedance is overridden by [Reference]
[Version] 2.0
# GHz S RI R 376.73
[Number of Ports] 4
[Reference]
376.73 376.73 376.73 376.73 
[Number of Frequencies] 1001
[Network Data]
281700                 -0.108679       -0.251099      0.000478513      0.00012694        -0.774539       -0.557017     -0.000325337    -0.000284799
                     0.000475431     0.000170571         0.049852        -0.13235     -1.87067e-05     -0.00037087         -0.75437        0.638905
                        -0.77464       -0.556957       4.3902e-05    -0.000466596         0.267242       0.0163752     -0.000181297     0.000230118
                    -0.000162437    -0.000300087        -0.755077          0.6389     -0.000324348      0.00025606        -0.138936       0.0276543
281700.1               -0.108679       -0.251104      0.000478523     0.000126911        -0.774559       -0.556988     -0.000325349    -0.000284797
                     0.000475432     0.000170555        0.0498456       -0.132352     -1.87164e-05    -0.000370862        -0.754353        0.638925
                        -0.77466       -0.556927      4.38823e-05    -0.000466593         0.267248       0.0163537     -0.000181297     0.000230124
                    -0.000162441    -0.000300086        -0.755059         0.63892     -0.000324342     0.000256064        -0.138936       0.0276552
281700.2                -0.10868       -0.251109      0.000478532     0.000126882        -0.774579       -0.556958     -0.000325362    -0.000284795
                     0.000475433      0.00017054        0.0498392       -0.132354     -1.87261e-05    -0.000370855        -0.754336        0.638945
                       -0.774679       -0.556897      4.38625e-05     -0.00046659         0.267254       0.0163323     -0.000181296      0.00023013
                    -0.000162444    -0.000300084        -0.755042        0.638941     -0.000324336     0.000256069        -0.138935        0.027656
281700.3                -0.10868       -0.251114      0.000478542     0.000126853        -0.774598       -0.556928     -0.000325374    -0.000284794
                     0.000475434     0.000170525        0.0498327       -0.132355     -1.87358e-05    -0.000370848        -0.754319        0.638966
                       -0.774699       -0.556867      4.38428e-05    -0.000466587          0.26726       0.0163109     -0.000181296     0.000230136
                    -0.000162448    -0.000300082        -0.755025        0.638961     -0.000324329     0.000256074        -0.138934       0.0276569
281700.4               -0.108681       -0.251118      0.000478552     0.000126824        -0.774618       -0.556899     -0.000325386    -0.000284792
                     0.000475435      0.00017051        0.0498263       -0.132357     -1.87455e-05     -0.00037084        -0.754301        0.638986
                       -0.774719       -0.556838       4.3823e-05    -0.000466584         0.267266       0.0162895     -0.000181295     0.000230142
                    -0.000162451    -0.000300081        -0.755008        0.638982     -0.000324323     0.000256078        -0.138934       0.0276577
281700.5               -0.108681       -0.251123      0.000478562     0.000126795        -0.774638       -0.556869     -0.000325399     -0.00028479
                     0.000475436     0.000170494        0.0498198       -0.132359     -1.87552e-05    -0.000370833        -0.754284        0.639007
                       -0.774738       -0.556808      4.38033e-05    -0.000466581         0.267272       0.0162681     -0.000181294     0.000230148
                    -0.000162455    -0.000300079         -0.75499        0.639002     -0.000324317     0.000256083        -0.138933       0.0276585
281700.6               -0.108682       -0.251128      0.000478571     0.000126765        -0.774658       -0.556839     -0.000325411    -0.000284788
                     0.000475437     0.000170479        0.0498134       -0.132361      -1.8765e-05    -0.000370825        -0.754267        0.639027
                       -0.774758       -0.556778      4.37835e-05    -0.000466577         0.267278       0.0162467     -0.000181294     0.000230154
                    -0.000162458    -0.000300078        -0.754973        0.639023     -0.000324311     0.000256088        -0.138932       0.0276594
281700.7               -0.108682       -0.251133      0.000478581     0.000126736        -0.774677       -0.556809     -0.000325423    -0.000284787
                     0.000475438     0.000170464        0.0498069       -0.132363     -1.87747e-05    -0.000370818         -0.75425        0.639048
                       -0.774778       -0.556748      4.37638e-05    -0.000466574         0.267284       0.0162252     -0.000181293     0.000230159
                    -0.000162461    -0.000300076        -0.754956        0.639043     -0.000324305     0.000256092        -0.138932       0.0276602
281700.8               -0.108682       -0.251138      0.000478591     0.000126707        -0.774697        -0.55678     -0.000325436    -0.000284785
                     0.000475439     0.000170448        0.0498005       -0.132365     -1.87844e-05    -0.000370811        -0.754232        0.639068
                       -0.774797       -0.556719       4.3744e-05    -0.000466571          0.26729       0.0162038     -0.000181293     0.000230165
                    -0.000162465    -0.000300074        -0.754939        0.639064     -0.000324298     0.000256097        -0.138931       0.0276611
281700.9               -0.108683       -0.251142      0.000478601     0.000126678        -0.774717        -0.55675     -0.000325448    -0.000284783
                      0.00047544     0.000170433        0.0497941       -0.132367     -1.87941e-05    -0.000370803        -0.754215        0.639089
                       -0.774817       -0.556689      4.37243e-05    -0.000466568         0.267296       0.0161824     -0.000181292     0.000230171
                    -0.000162468    -0.000300073        -0.754921        0.639084     -0.000324292     0.000256102         -0.13893       0.0276619
281701                 -0.108683       -0.251147       0.00047861     0.000126649        -0.774736        -0.55672      -0.00032546    -0.000284782
                     0.000475441     0.000170418        0.0497876       -0.132369     -1.88038e-05    -0.000370796        -0.754198        0.639109
                       -0.774837       -0.556659      4.37046e-05    -0.000466565         0.267302        0.016161     -0.000181292     0.000230177
                    -0.000162472    -0.000300071        -0.754904        0.639105     -0.000324286     0.000256107         -0.13893       0.0276628
281701.1               -0.108684       -0.251152       0.00047862      0.00012662        -0.774756        -0.55669     -0.000325472     -0.00028478
                     0.000475442     0.000170403        0.0497812       -0.132371     -1.88135e-05    -0.000370788         -0.75418         0.63913
                       -0.774856        -0.55663      4.36848e-05    -0.000466562         0.267308       0.0161396     -0.000181291     0.000230183
                    -0.000162475     -0.00030007        -0.754887        0.639125      -0.00032428     0.000256111        -0.138929       0.0276636
281701.2               -0.108684       -0.251157       0.00047863     0.000126591        -0.774776       -0.556661     -0.000325485    -0.000284778
                     0.000475443     0.000170387        0.0497747       -0.132372     -1.88232e-05    -0.000370781        -0.754163         0.63915
                       -0.774876         -0.5566      4.36651e-05    -0.000466559         0.267314       0.0161181     -0.000181291     0.000230189
                    -0.000162478    -0.000300068        -0.754869        0.639146     -0.000324274     0.000256116        -0.138928       0.0276645
281701.3               -0.108685       -0.251161       0.00047864     0.000126562        -0.774795       -0.556631     -0.000325497    -0.000284777
                     0.000475444     0.000170372        0.0497683       -0.132374     -1.88329e-05    -0.000370774        -0.754146        0.639171
                       -0.774896        -0.55657      4.36453e-05    -0.000466556          0.26732       0.0160967      -0.00018129     0.000230195
                    -0.000162482    -0.000300066        -0.754852        0.639166     -0.000324267     0.000256121        -0.138928       0.0276653
281701.4               -0.108685       -0.251166      0.000478649     0.000126533        -0.774815       -0.556601     -0.000325509    -0.000284775
                     0.000475445     0.000170357        0.0497618       -0.132376     -1.88426e-05    -0.000370766        -0.754129        0.639191
                       -0.774915        -0.55654      4.36256e-05    -0.000466553         0.267326       0.0160753      -0.00018129     0.000230201
                    -0.000162485    -0.000300065        -0.754835        0.639187     -0.000324261     0.000256125        -0.138927       0.0276662
281701.5               -0.108685       -0.251171      0.000478659     0.000126504        -0.774835       -0.556571     -0.000325522    -0.000284773
                     0.000475446     0.000170341        0.0497554       -0.132378     -1.88523e-05    -0.000370759        -0.754111        0.639212
                       -0.774935       -0.556511      4.36059e-05     -0.00046655         0.267331       0.0160539     -0.000181289     0.000230207
                    -0.000162489    -0.000300063        -0.754818        0.639207     -0.000324255      0.00025613        -0.138926        0.027667
281701.6               -0.108686       -0.251176      0.000478669     0.000126475        -0.774854       -0.556542     -0.000325534    -0.000284771
                     0.000475447     0.000170326         0.049749        -0.13238      -1.8862e-05    -0.000370751        -0.754094        0.639232
                       -0.774955       -0.556481      4.35861e-05    -0.000466547         0.267337       0.0160324     -0.000181289     0.000230213
                    -0.000162492    -0.000300062          -0.7548        0.639228     -0.000324249     0.000256135        -0.138926       0.0276679
281701.7               -0.108686       -0.251181      0.000478679     0.000126446        -0.774874       -0.556512     -0.000325546     -0.00028477
                     0.000475448     0.000170311        0.0497425       -0.132382     -1.88718e-05    -0.000370744        -0.754077        0.639252
                       -0.774974       -0.556451      4.35664e-05    -0.000466544         0.267343        0.016011     -0.000181289     0.000230219
                    -0.000162495     -0.00030006        -0.754783        0.639248     -0.000324243     0.000256139        -0.138925       0.0276687
281701.8               -0.108687       -0.251185      0.000478688     0.000126417        -0.774894       -0.556482     -0.000325558    -0.000284768
                     0.000475449     0.000170296        0.0497361       -0.132384     -1.88815e-05    -0.000370737        -0.754059        0.639273
                       -0.774994       -0.556421      4.35467e-05    -0.000466541         0.267349       0.0159896     -0.000181288     0.000230225
                    -0.000162499    -0.000300058        -0.754766        0.639269     -0.000324236     0.000256144        -0.138924       0.0276696
281701.9               -0.108687        -0.25119      0.000478698     0.000126388        -0.774913       -0.556452     -0.000325571    -0.000284766
                      0.00047545      0.00017028        0.0497296       -0.132386     -1.88912e-05    -0.000370729        -0.754042        0.639293
                       -0.775014       -0.556392      4.35269e-05    -0.000466538         0.267355       0.0159682     -0.000181288     0.000230231
                    -0.000162502    -0.000300057        -0.754748        0.639289      -0.00032423     0.000256149        -0.138923       0.0276704
281702                 -0.108688       -0.251195      0.000478708     0.000126359        -0.774933       -0.556423     -0.000325583    -0.000284765
                     0.000475451     0.000170265        0.0497232       -0.132388     -1.89009e-05    -0.000370722        -0.754025        0.639314
                       -0.775033       -0.556362      4.35072e-05    -0.000466535         0.267361       0.0159467     -0.000181287     0.000230237
                    -0.000162505    -0.000300055        -0.754731         0.63931     -0.000324224     0.000256153        -0.138923       0.0276713
281702.1               -0.108688         -0.2512      0.000478717      0.00012633        -0.774953       -0.556393     -0.000325595    -0.000284763
                     0.000475451      0.00017025        0.0497167        -0.13239     -1.89106e-05    -0.000370714        -0.754008        0.639334
                       -0.775053       -0.556332      4.34875e-05    -0.000466532         0.267367       0.0159253     -0.000181287     0.000230243
                    -0.000162509    -0.000300054        -0.754714         0.63933     -0.000324218     0.000256158        -0.138922       0.0276721
281702.2               -0.108689       -0.251204      0.000478727     0.000126301        -0.774972       -0.556363     -0.000325607    -0.000284761
                     0.000475452     0.000170235        0.0497103       -0.132391     -1.89203e-05    -0.000370707         -0.75399        0.639355
                       -0.775072       -0.556302      4.34677e-05    -0.000466529         0.267373       0.0159039     -0.000181286     0.000230249
                    -0.000162512    -0.000300052        -0.754697         0.63935     -0.000324212     0.000256163        -0.138921        0.027673
281702.3               -0.108689       -0.251209      0.000478737     0.000126272        -0.774992       -0.556333     -0.000325619    -0.000284759
                     0.000475453     0.000170219        0.0497039       -0.132393       -1.893e-05      -0.0003707        -0.753973        0.639375
                       -0.775092       -0.556273       4.3448e-05    -0.000466526         0.267379       0.0158825     -0.000181286     0.000230255
                    -0.000162515     -0.00030005        -0.754679        0.639371     -0.000324205     0.000256168        -0.138921       0.0276738
281702.4               -0.108689       -0.251214      0.000478747     0.000126242        -0.775011       -0.556304     -0.000325632    -0.000284758
                     0.000475454     0.000170204        0.0496974       -0.132395     -1.89397e-05    -0.000370692        -0.753956        0.639396
                       -0.775112       -0.556243      4.34283e-05    -0.000466522         0.267385        0.015861     -0.000181285     0.000230261
                    -0.000162519    -0.000300049        -0.754662        0.639391     -0.000324199     0.000256172         -0.13892       0.0276747
281702.5                -0.10869       -0.251219      0.000478756     0.000126213        -0.775031       -0.556274     -0.000325644    -0.000284756
                     0.000475455     0.000170189         0.049691       -0.132397     -1.89494e-05    -0.000370685        -0.753938        0.639416
                       -0.775131       -0.556213      4.34085e-05    -0.000466519         0.267391       0.0158396     -0.000181285     0.000230267
                    -0.000162522    -0.000300047        -0.754645        0.639412     -0.000324193     0.000256177        -0.138919       0.0276755
281702.6                -0.10869       -0.251224      0.000478766     0.000126184        -0.775051       -0.556244     -0.000325656    -0.000284754
                     0.000475456     0.000170174        0.0496845       -0.132399     -1.89591e-05    -0.000370677        -0.753921        0.639437
                       -0.775151       -0.556183      4.33888e-05    -0.000466516         0.267397       0.0158182     -0.000181285     0.000230273
                    -0.000162526    -0.000300046        -0.754628        0.639432     -0.000324187     0.000256182        -0.138919       0.0276764
281702.7               -0.108691       -0.251228      0.000478776     0.000126155         -0.77507       -0.556214     -0.000325668    -0.000284753
                     0.000475457     0.000170158        0.0496781       -0.132401     -1.89688e-05     -0.00037067        -0.753904        0.639457
                       -0.775171       -0.556154      4.33691e-05    -0.000466513         0.267403       0.0157967     -0.000181284     0.000230279
                    -0.000162529    -0.000300044         -0.75461        0.639453     -0.000324181     0.000256186        -0.138918       0.0276772
281702.8               -0.108691       -0.251233      0.000478786     0.000126126         -0.77509       -0.556185      -0.00032568    -0.000284751
                     0.000475458     0.000170143        0.0496716       -0.132403     -1.89785e-05    -0.000370663        -0.753887        0.639478
                        -0.77519       -0.556124      4.33494e-05     -0.00046651         0.267409       0.0157753     -0.000181284     0.000230285
                    -0.000162532    -0.000300042        -0.754593        0.639473     -0.000324174     0.000256191        -0.138917        0.027678
281702.9               -0.108692       -0.251238      0.000478795     0.000126097         -0.77511       -0.556155     -0.000325693    -0.000284749
                     0.000475459     0.000170128        0.0496652       -0.132405     -1.89882e-05    -0.000370655        -0.753869        0.639498
                        -0.77521       -0.556094      4.33296e-05    -0.000466507         0.267415       0.0157539     -0.000181283     0.000230291
                    -0.000162536    -0.000300041        -0.754576        0.639494     -0.000324168     0.000256196        -0.138917       0.0276789
281703                 -0.108692       -0.251243      0.000478805     0.000126068        -0.775129       -0.556125     -0.000325705    -0.000284747
                      0.00047546     0.000170113        0.0496588       -0.132407     -1.89979e-05    -0.000370648        -0.753852        0.639518
                        -0.77523       -0.556064      4.33099e-05    -0.000466504          0.26742       0.0157324     -0.000181283     0.000230297
                    -0.000162539    -0.000300039        -0.754558        0.639514     -0.000324162       0.0002562        -0.138916       0.0276797
281703.1               -0.108693       -0.251247      0.000478815     0.000126039        -0.775149       -0.556095     -0.000325717    -0.000284746
                     0.000475461     0.000170097        0.0496523       -0.132408     -1.90076e-05     -0.00037064        -0.753835        0.639539
                       -0.775249       -0.556035      4.32902e-05    -0.000466501         0.267426        0.015711     -0.000181283     0.000230303
