! TOUCHSTONE file generated by CST MICROWAVE STUDIO
! Date and time: Wed Oct  8 06:52:20 2025
! Project name: Teste_Macro_Metasurface_Nanopilar.cst
! Parameters = {H=600; L_x=80; L_y=200; Lambda=1064; Max_L=200; Min_L=70; PathPara=1; Phi=0; Step_L=10; Theta=0; p=520; phaseX=180; phaseY=0}
! Header version: 2018
! Port assignment regex: !\s*Touchstone port\s*([0-9]+)\s*=\s*(CST MWS port|CST DS port)\s*([0-9]+|Zmin|Zmax)\s*\(\"(.*)\"\)(\s*mode\s*([0-9]+))?.*
! Touchstone port assignment:
! Touchstone port 1 = CST MWS port Zmax ("") mode 1
! Touchstone port 2 = CST MWS port Zmax ("") mode 2
! Touchstone port 3 = CST MWS port Zmin ("") mode 1
! Touchstone port 4 = CST MWS port Zmin ("") mode 2
! S-Parameters are not renormalized. Each port impedance will be approximated by the real part at minimum frequency. The values are described via the [Reference] keyword.
! Default impedance is overridden by [Reference]
[Version] 2.0
# GHz S RI R 376.73
[Number of Ports] 4
[Reference]
376.73 376.73 376.73 376.73 
[Number of Frequencies] 1001
[Network Data]
281700                 -0.262314       -0.472279      0.000101395     0.000656537        -0.822275       -0.106166     -0.000486983     0.000206142
                     2.64663e-05     0.000683196       -0.0189007       -0.169173      0.000321009    -0.000641345        -0.585339        0.790943
                       -0.822266       -0.107073      0.000117273    -0.000531735         0.357011       -0.398594      0.000610417     0.000347756
                    -0.000497217     0.000231999        -0.585356         0.79062      0.000525514     0.000306403        -0.167422       0.0318169
281700.1               -0.262329       -0.472284      0.000101418     0.000656541        -0.822272        -0.10613     -0.000486994     0.000206174
                     2.64817e-05     0.000683198       -0.0189076       -0.169172      0.000320973    -0.000641369        -0.585317        0.790959
                       -0.822263       -0.107037      0.000117232    -0.000531755         0.356993       -0.398627      0.000610463     0.000347705
                    -0.000497215      0.00023203        -0.585334        0.790636      0.000525557     0.000306387        -0.167421       0.0318192
281700.2               -0.262344       -0.472289       0.00010144     0.000656546        -0.822268       -0.106094     -0.000487004     0.000206205
                     2.64971e-05       0.0006832       -0.0189145       -0.169171      0.000320936    -0.000641394        -0.585296        0.790975
                        -0.82226       -0.107001      0.000117192    -0.000531775         0.356975       -0.398659      0.000610508     0.000347653
                    -0.000497212     0.000232062        -0.585312        0.790652      0.000525599     0.000306372         -0.16742       0.0318214
281700.3               -0.262359       -0.472295      0.000101463      0.00065655        -0.822265       -0.106058     -0.000487015     0.000206236
                     2.65124e-05     0.000683202       -0.0189214        -0.16917      0.000320899    -0.000641418        -0.585274        0.790991
                       -0.822256       -0.106965      0.000117152    -0.000531795         0.356956       -0.398692      0.000610553     0.000347602
                     -0.00049721     0.000232094        -0.585291        0.790668      0.000525642     0.000306356         -0.16742       0.0318237
281700.4               -0.262375         -0.4723      0.000101486     0.000656555        -0.822262       -0.106021     -0.000487026     0.000206268
                     2.65278e-05     0.000683204       -0.0189283       -0.169168      0.000320863    -0.000641442        -0.585252        0.791008
                       -0.822253       -0.106929      0.000117111    -0.000531814         0.356938       -0.398725      0.000610599      0.00034755
                    -0.000497207     0.000232126        -0.585269        0.790684      0.000525685      0.00030634        -0.167419       0.0318259
281700.5                -0.26239       -0.472306      0.000101509     0.000656559        -0.822258       -0.105985     -0.000487036     0.000206299
                     2.65432e-05     0.000683206       -0.0189352       -0.169167      0.000320826    -0.000641467         -0.58523        0.791024
                       -0.822249       -0.106893      0.000117071    -0.000531834          0.35692       -0.398758      0.000610644     0.000347499
                    -0.000497204     0.000232158        -0.585247        0.790701      0.000525727     0.000306324        -0.167418       0.0318282
281700.6               -0.262405       -0.472311      0.000101532     0.000656563        -0.822255       -0.105949     -0.000487047      0.00020633
                     2.65586e-05     0.000683208       -0.0189421       -0.169166      0.000320789    -0.000641491        -0.585209         0.79104
                       -0.822246       -0.106856      0.000117031    -0.000531854         0.356902        -0.39879      0.000610689     0.000347447
                    -0.000497202      0.00023219        -0.585225        0.790717       0.00052577     0.000306309        -0.167417       0.0318305
281700.7                -0.26242       -0.472316      0.000101555     0.000656568        -0.822252       -0.105913     -0.000487058     0.000206361
                     2.65739e-05      0.00068321        -0.018949       -0.169165      0.000320752    -0.000641516        -0.585187        0.791056
                       -0.822243        -0.10682       0.00011699    -0.000531873         0.356883       -0.398823      0.000610734     0.000347396
                    -0.000497199     0.000232222        -0.585204        0.790733      0.000525812     0.000306293        -0.167416       0.0318327
281700.8               -0.262435       -0.472322      0.000101578     0.000656572        -0.822248       -0.105877     -0.000487068     0.000206393
                     2.65893e-05     0.000683212       -0.0189559       -0.169164      0.000320716     -0.00064154        -0.585165        0.791072
                       -0.822239       -0.106784       0.00011695    -0.000531893         0.356865       -0.398856       0.00061078     0.000347344
                    -0.000497196     0.000232254        -0.585182        0.790749      0.000525855     0.000306277        -0.167415        0.031835
281700.9                -0.26245       -0.472327      0.000101601     0.000656577        -0.822245       -0.105841     -0.000487079     0.000206424
                     2.66047e-05     0.000683213       -0.0189628       -0.169162      0.000320679    -0.000641564        -0.585143        0.791088
                       -0.822236       -0.106748       0.00011691    -0.000531913         0.356847       -0.398888      0.000610825     0.000347293
                    -0.000497194     0.000232286         -0.58516        0.790765      0.000525898     0.000306262        -0.167414       0.0318372
281701                 -0.262465       -0.472332      0.000101624     0.000656581        -0.822242       -0.105805     -0.000487089     0.000206455
                     2.66201e-05     0.000683215       -0.0189697       -0.169161      0.000320642    -0.000641589        -0.585122        0.791105
                       -0.822232       -0.106712      0.000116869    -0.000531933         0.356829       -0.398921       0.00061087     0.000347241
                    -0.000497191     0.000232318        -0.585138        0.790782       0.00052594     0.000306246        -0.167414       0.0318395
281701.1                -0.26248       -0.472338      0.000101647     0.000656586        -0.822238       -0.105768       -0.0004871     0.000206487
                     2.66355e-05     0.000683217       -0.0189766        -0.16916      0.000320605    -0.000641613          -0.5851        0.791121
                       -0.822229       -0.106676      0.000116829    -0.000531952          0.35681       -0.398954      0.000610915      0.00034719
                    -0.000497189      0.00023235        -0.585117        0.790798      0.000525983      0.00030623        -0.167413       0.0318417
281701.2               -0.262496       -0.472343      0.000101669      0.00065659        -0.822235       -0.105732     -0.000487111     0.000206518
                     2.66509e-05     0.000683219       -0.0189835       -0.169159      0.000320569    -0.000641637        -0.585078        0.791137
                       -0.822226        -0.10664      0.000116788    -0.000531972         0.356792       -0.398986      0.000610961     0.000347138
                    -0.000497186     0.000232382        -0.585095        0.790814      0.000526026     0.000306214        -0.167412        0.031844
281701.3               -0.262511       -0.472348      0.000101692     0.000656594        -0.822231       -0.105696     -0.000487121     0.000206549
                     2.66662e-05     0.000683221       -0.0189904       -0.169158      0.000320532    -0.000641662        -0.585056        0.791153
                       -0.822222       -0.106604      0.000116748    -0.000531992         0.356774       -0.399019      0.000611006     0.000347087
                    -0.000497183     0.000232414        -0.585073         0.79083      0.000526068     0.000306199        -0.167411       0.0318462
281701.4               -0.262526       -0.472354      0.000101715     0.000656599        -0.822228        -0.10566     -0.000487132     0.000206581
                     2.66816e-05     0.000683223       -0.0189973       -0.169156      0.000320495    -0.000641686        -0.585035        0.791169
                       -0.822219       -0.106567      0.000116708    -0.000532012         0.356756       -0.399052      0.000611051     0.000347035
                    -0.000497181     0.000232445        -0.585051        0.790846      0.000526111     0.000306183         -0.16741       0.0318485
281701.5               -0.262541       -0.472359      0.000101738     0.000656603        -0.822225       -0.105624     -0.000487142     0.000206612
                      2.6697e-05     0.000683225       -0.0190042       -0.169155      0.000320458     -0.00064171        -0.585013        0.791185
                       -0.822215       -0.106531      0.000116667    -0.000532031         0.356737       -0.399084      0.000611096     0.000346983
                    -0.000497178     0.000232477         -0.58503        0.790862      0.000526153     0.000306167        -0.167409       0.0318508
281701.6               -0.262556       -0.472364      0.000101761     0.000656608        -0.822221       -0.105588     -0.000487153     0.000206643
                     2.67124e-05     0.000683227       -0.0190111       -0.169154      0.000320422    -0.000641735        -0.584991        0.791202
                       -0.822212       -0.106495      0.000116627    -0.000532051         0.356719       -0.399117      0.000611141     0.000346932
                    -0.000497175     0.000232509        -0.585008        0.790878      0.000526196     0.000306152        -0.167408        0.031853
281701.7               -0.262571        -0.47237      0.000101784     0.000656612        -0.822218       -0.105551     -0.000487163     0.000206675
                     2.67278e-05     0.000683229        -0.019018       -0.169153      0.000320385    -0.000641759        -0.584969        0.791218
                       -0.822209       -0.106459      0.000116587    -0.000532071         0.356701        -0.39915      0.000611187      0.00034688
                    -0.000497173     0.000232541        -0.584986        0.790895      0.000526239     0.000306136        -0.167407       0.0318553
281701.8               -0.262586       -0.472375      0.000101807     0.000656617        -0.822215       -0.105515     -0.000487174     0.000206706
                     2.67432e-05     0.000683231       -0.0190249       -0.169152      0.000320348    -0.000641783        -0.584948        0.791234
                       -0.822205       -0.106423      0.000116546    -0.000532091         0.356683       -0.399183      0.000611232     0.000346829
                     -0.00049717     0.000232573        -0.584964        0.790911      0.000526281      0.00030612        -0.167407       0.0318575
281701.9               -0.262601       -0.472381       0.00010183     0.000656621        -0.822211       -0.105479     -0.000487184     0.000206737
                     2.67586e-05     0.000683233       -0.0190318        -0.16915      0.000320311    -0.000641808        -0.584926         0.79125
                       -0.822202       -0.106387      0.000116506    -0.000532111         0.356664       -0.399215      0.000611277     0.000346777
                    -0.000497168     0.000232605        -0.584943        0.790927      0.000526324     0.000306104        -0.167406       0.0318598
281702                 -0.262616       -0.472386      0.000101853     0.000656626        -0.822208       -0.105443     -0.000487195     0.000206769
                      2.6774e-05     0.000683235       -0.0190387       -0.169149      0.000320275    -0.000641832        -0.584904        0.791266
                       -0.822198       -0.106351      0.000116466     -0.00053213         0.356646       -0.399248      0.000611322     0.000346725
                    -0.000497165     0.000232637        -0.584921        0.790943      0.000526367     0.000306088        -0.167405        0.031862
281702.1               -0.262632       -0.472391      0.000101876      0.00065663        -0.822205       -0.105407     -0.000487205       0.0002068
                     2.67894e-05     0.000683237       -0.0190456       -0.169148      0.000320238    -0.000641856        -0.584882        0.791282
                       -0.822195       -0.106315      0.000116425     -0.00053215         0.356628       -0.399281      0.000611367     0.000346674
                    -0.000497162     0.000232669        -0.584899        0.790959      0.000526409     0.000306073        -0.167404       0.0318643
281702.2               -0.262647       -0.472397      0.000101899     0.000656635        -0.822201       -0.105371     -0.000487216     0.000206831
                     2.68047e-05     0.000683239       -0.0190525       -0.169147      0.000320201    -0.000641881        -0.584861        0.791299
                       -0.822191       -0.106278      0.000116385     -0.00053217          0.35661       -0.399313      0.000611412     0.000346622
                     -0.00049716     0.000232701        -0.584877        0.790975      0.000526452     0.000306057        -0.167403       0.0318666
281702.3               -0.262662       -0.472402      0.000101922     0.000656639        -0.822198       -0.105334     -0.000487226     0.000206863
                     2.68201e-05     0.000683241       -0.0190594       -0.169146      0.000320164    -0.000641905        -0.584839        0.791315
                       -0.822188       -0.106242      0.000116344     -0.00053219         0.356591       -0.399346      0.000611458      0.00034657
                    -0.000497157     0.000232733        -0.584856        0.790992      0.000526495     0.000306041        -0.167402       0.0318688
281702.4               -0.262677       -0.472407      0.000101944     0.000656643        -0.822195       -0.105298     -0.000487237     0.000206894
                     2.68355e-05     0.000683243       -0.0190663       -0.169144      0.000320127    -0.000641929        -0.584817        0.791331
                       -0.822185       -0.106206      0.000116304    -0.000532209         0.356573       -0.399379      0.000611503     0.000346519
                    -0.000497154     0.000232765        -0.584834        0.791008      0.000526537     0.000306025        -0.167401       0.0318711
281702.5               -0.262692       -0.472413      0.000101967     0.000656648        -0.822191       -0.105262     -0.000487247     0.000206925
                     2.68509e-05     0.000683245       -0.0190731       -0.169143      0.000320091    -0.000641953        -0.584795        0.791347
                       -0.822181        -0.10617      0.000116264    -0.000532229         0.356555       -0.399411      0.000611548     0.000346467
                    -0.000497152     0.000232797        -0.584812        0.791024       0.00052658     0.000306009          -0.1674       0.0318733
281702.6               -0.262707       -0.472418       0.00010199     0.000656652        -0.822188       -0.105226     -0.000487258     0.000206957
                     2.68663e-05     0.000683247         -0.01908       -0.169142      0.000320054    -0.000641978        -0.584774        0.791363
                       -0.822178       -0.106134      0.000116223    -0.000532249         0.356536       -0.399444      0.000611593     0.000346415
                    -0.000497149     0.000232829         -0.58479         0.79104      0.000526623     0.000305994          -0.1674       0.0318756
281702.7               -0.262722       -0.472423      0.000102013     0.000656657        -0.822184        -0.10519     -0.000487268     0.000206988
                     2.68817e-05     0.000683249       -0.0190869       -0.169141      0.000320017    -0.000642002        -0.584752        0.791379
                       -0.822174       -0.106098      0.000116183    -0.000532269         0.356518       -0.399477      0.000611638     0.000346364
                    -0.000497146     0.000232861        -0.584769        0.791056      0.000526665     0.000305978        -0.167399       0.0318778
281702.8               -0.262738       -0.472429      0.000102036     0.000656661        -0.822181       -0.105154     -0.000487279     0.000207019
                     2.68971e-05     0.000683251       -0.0190938        -0.16914       0.00031998    -0.000642026         -0.58473        0.791396
                       -0.822171       -0.106062      0.000116143    -0.000532289           0.3565       -0.399509      0.000611683     0.000346312
                    -0.000497144     0.000232893        -0.584747        0.791072      0.000526708     0.000305962        -0.167398       0.0318801
281702.9               -0.262753       -0.472434      0.000102059     0.000656666        -0.822178       -0.105117     -0.000487289     0.000207051
                     2.69125e-05     0.000683253       -0.0191007       -0.169138      0.000319944     -0.00064205        -0.584708        0.791412
                       -0.822167       -0.106026      0.000116102    -0.000532308         0.356482       -0.399542      0.000611728      0.00034626
                    -0.000497141     0.000232925        -0.584725        0.791089      0.000526751     0.000305946        -0.167397       0.0318823
281703                 -0.262768       -0.472439      0.000102082      0.00065667        -0.822174       -0.105081       -0.0004873     0.000207082
                     2.69279e-05     0.000683255       -0.0191076       -0.169137      0.000319907    -0.000642075        -0.584687        0.791428
                       -0.822164        -0.10599      0.000116062    -0.000532328         0.356463       -0.399575      0.000611773     0.000346209
                    -0.000497138     0.000232957        -0.584703        0.791105      0.000526793      0.00030593        -0.167396       0.0318846
281703.1               -0.262783       -0.472445      0.000102105     0.000656675        -0.822171       -0.105045      -0.00048731     0.000207113
                     2.69433e-05     0.000683257       -0.0191145       -0.169136       0.00031987    -0.000642099        -0.584665        0.791444
                       -0.822161       -0.105953      0.000116022    -0.000532348         0.356445       -0.399607      0.000611818     0.000346157
