! TOUCHSTONE file generated by CST MICROWAVE STUDIO
! Date and time: Wed Oct  8 06:53:36 2025
! Project name: Teste_Macro_Metasurface_Nanopilar.cst
! Parameters = {H=600; L_x=95; L_y=80; Lambda=1064; Max_L=200; Min_L=70; PathPara=1; Phi=0; Step_L=10; Theta=0; p=520; phaseX=180; phaseY=0}
! Header version: 2018
! Port assignment regex: !\s*Touchstone port\s*([0-9]+)\s*=\s*(CST MWS port|CST DS port)\s*([0-9]+|Zmin|Zmax)\s*\(\"(.*)\"\)(\s*mode\s*([0-9]+))?.*
! Touchstone port assignment:
! Touchstone port 1 = CST MWS port Zmax ("") mode 1
! Touchstone port 2 = CST MWS port Zmax ("") mode 2
! Touchstone port 3 = CST MWS port Zmin ("") mode 1
! Touchstone port 4 = CST MWS port Zmin ("") mode 2
! S-Parameters are not renormalized. Each port impedance will be approximated by the real part at minimum frequency. The values are described via the [Reference] keyword.
! Default impedance is overridden by [Reference]
[Version] 2.0
# GHz S RI R 376.73
[Number of Ports] 4
[Reference]
376.73 376.73 376.73 376.73 
[Number of Frequencies] 1001
[Network Data]
281700                  0.119976      0.00788044     -0.000166251     0.000124269        -0.951825        0.280622     -0.000140741    -0.000290238
                    -0.000129613     0.000128891         0.090505       -0.070374     -0.000116361    -0.000178292        -0.880697        0.458261
                       -0.951847        0.280778     -8.36091e-05    -0.000295823       -0.0966725       0.0718545      0.000136804    -1.28985e-05
                    -0.000188483    -0.000242343        -0.880743        0.457764      5.11189e-05    -0.000138538        -0.109931       0.0338938
281700.1                0.119974      0.00787472     -0.000166252     0.000124274        -0.951817        0.280647     -0.000140744    -0.000290241
                    -0.000129612     0.000128893        0.0905004      -0.0703783      -0.00011637    -0.000178311        -0.880685        0.458285
                        -0.95184        0.280803     -8.36129e-05     -0.00029582         -0.09667       0.0718537      0.000136808    -1.28954e-05
                    -0.000188487    -0.000242336        -0.880731        0.457788      5.11476e-05    -0.000138543         -0.10993       0.0338935
281700.2                0.119972      0.00786901     -0.000166253     0.000124278         -0.95181        0.280673     -0.000140747    -0.000290244
                     -0.00012961     0.000128894        0.0904959      -0.0703825     -0.000116379    -0.000178329        -0.880673        0.458309
                       -0.951833        0.280829     -8.36167e-05    -0.000295817       -0.0966676       0.0718529      0.000136812    -1.28924e-05
                    -0.000188491    -0.000242328        -0.880718        0.457812      5.11764e-05    -0.000138547        -0.109929       0.0338933
281700.3                 0.11997      0.00786329     -0.000166254     0.000124282        -0.951803        0.280698      -0.00014075    -0.000290247
                    -0.000129609     0.000128896        0.0904913      -0.0703868     -0.000116389    -0.000178348         -0.88066        0.458332
                       -0.951825        0.280854     -8.36205e-05    -0.000295813       -0.0966651       0.0718522      0.000136816    -1.28894e-05
                    -0.000188495    -0.000242321        -0.880706        0.457836      5.12051e-05    -0.000138551        -0.109928        0.033893
281700.4                0.119968      0.00785758     -0.000166255     0.000124287        -0.951796        0.280723     -0.000140753     -0.00029025
                    -0.000129607     0.000128897        0.0904868      -0.0703911     -0.000116398    -0.000178366        -0.880648        0.458356
                       -0.951818         0.28088     -8.36242e-05     -0.00029581       -0.0966627       0.0718514       0.00013682    -1.28864e-05
                    -0.000188499    -0.000242313        -0.880694        0.457859      5.12339e-05    -0.000138556        -0.109927       0.0338927
281700.5                0.119966      0.00785186     -0.000166256     0.000124291        -0.951788        0.280749     -0.000140756    -0.000290253
                    -0.000129605     0.000128899        0.0904822      -0.0703953     -0.000116407    -0.000178385        -0.880636         0.45838
                       -0.951811        0.280905      -8.3628e-05    -0.000295807       -0.0966602       0.0718506      0.000136824    -1.28834e-05
                    -0.000188503    -0.000242306        -0.880682        0.457883      5.12626e-05     -0.00013856        -0.109926       0.0338925
281700.6                0.119964      0.00784615     -0.000166258     0.000124295        -0.951781        0.280774     -0.000140759    -0.000290256
                    -0.000129604       0.0001289        0.0904776      -0.0703996     -0.000116416    -0.000178403        -0.880624        0.458404
                       -0.951804        0.280931     -8.36318e-05    -0.000295804       -0.0966578       0.0718499      0.000136828    -1.28804e-05
                    -0.000188507    -0.000242298         -0.88067        0.457907      5.12914e-05    -0.000138564        -0.109926       0.0338922
281700.7                0.119962      0.00784043     -0.000166259       0.0001243        -0.951774        0.280799     -0.000140762    -0.000290258
                    -0.000129602     0.000128901        0.0904731      -0.0704039     -0.000116425    -0.000178422        -0.880612        0.458428
                       -0.951797        0.280956     -8.36356e-05    -0.000295801       -0.0966553       0.0718491      0.000136832    -1.28774e-05
                    -0.000188511    -0.000242291        -0.880657        0.457931      5.13201e-05    -0.000138569        -0.109925       0.0338919
281700.8                 0.11996      0.00783472      -0.00016626     0.000124304        -0.951767        0.280825     -0.000140765    -0.000290261
                    -0.000129601     0.000128903        0.0904685      -0.0704081     -0.000116434    -0.000178441        -0.880599        0.458451
                       -0.951789        0.280981     -8.36394e-05    -0.000295798       -0.0966529       0.0718483      0.000136836    -1.28744e-05
                    -0.000188515    -0.000242283        -0.880645        0.457954      5.13489e-05    -0.000138573        -0.109924       0.0338917
281700.9                0.119958      0.00782901     -0.000166261     0.000124309         -0.95176         0.28085     -0.000140768    -0.000290264
                    -0.000129599     0.000128904         0.090464      -0.0704124     -0.000116443    -0.000178459        -0.880587        0.458475
                       -0.951782        0.281007     -8.36432e-05    -0.000295795       -0.0966504       0.0718475       0.00013684    -1.28713e-05
                     -0.00018852    -0.000242276        -0.880633        0.457978      5.13776e-05    -0.000138577        -0.109923       0.0338914
281701                  0.119956      0.00782329     -0.000166262     0.000124313        -0.951752        0.280876     -0.000140771    -0.000290267
                    -0.000129597     0.000128906        0.0904594      -0.0704166     -0.000116452    -0.000178478        -0.880575        0.458499
                       -0.951775        0.281032      -8.3647e-05    -0.000295792        -0.096648       0.0718468      0.000136844    -1.28683e-05
                    -0.000188524    -0.000242268        -0.880621        0.458002      5.14064e-05    -0.000138582        -0.109922       0.0338911
281701.1                0.119954      0.00781758     -0.000166264     0.000124317        -0.951745        0.280901     -0.000140774     -0.00029027
                    -0.000129596     0.000128907        0.0904548      -0.0704209     -0.000116461    -0.000178496        -0.880563        0.458523
                       -0.951768        0.281058     -8.36507e-05    -0.000295789       -0.0966455        0.071846      0.000136848    -1.28653e-05
                    -0.000188528     -0.00024226        -0.880609        0.458026      5.14351e-05    -0.000138586        -0.109921       0.0338908
281701.2                0.119951      0.00781186     -0.000166265     0.000124322        -0.951738        0.280926     -0.000140777    -0.000290273
                    -0.000129594     0.000128909        0.0904503      -0.0704252     -0.000116471    -0.000178515         -0.88055        0.458546
                       -0.951761        0.281083     -8.36545e-05    -0.000295785       -0.0966431       0.0718452      0.000136852    -1.28623e-05
                    -0.000188532    -0.000242253        -0.880596         0.45805      5.14639e-05     -0.00013859         -0.10992       0.0338906
281701.3                0.119949      0.00780615     -0.000166266     0.000124326        -0.951731        0.280952      -0.00014078    -0.000290276
                    -0.000129593      0.00012891        0.0904457      -0.0704294      -0.00011648    -0.000178534        -0.880538         0.45857
                       -0.951754        0.281108     -8.36583e-05    -0.000295782       -0.0966406       0.0718444      0.000136856    -1.28593e-05
                    -0.000188536    -0.000242245        -0.880584        0.458073      5.14926e-05    -0.000138595        -0.109919       0.0338903
281701.4                0.119947      0.00780044     -0.000166267      0.00012433        -0.951723        0.280977     -0.000140783    -0.000290278
                    -0.000129591     0.000128911        0.0904412      -0.0704337     -0.000116489    -0.000178552        -0.880526        0.458594
                       -0.951746        0.281134     -8.36621e-05    -0.000295779       -0.0966382       0.0718437       0.00013686    -1.28563e-05
                     -0.00018854    -0.000242238        -0.880572        0.458097      5.15214e-05    -0.000138599        -0.109918         0.03389
281701.5                0.119945      0.00779472     -0.000166268     0.000124335        -0.951716        0.281003     -0.000140786    -0.000290281
                    -0.000129589     0.000128913        0.0904366       -0.070438     -0.000116498    -0.000178571        -0.880514        0.458618
                       -0.951739        0.281159     -8.36659e-05    -0.000295776       -0.0966357       0.0718429      0.000136864    -1.28533e-05
                    -0.000188544     -0.00024223         -0.88056        0.458121      5.15501e-05    -0.000138603        -0.109917       0.0338898
281701.6                0.119943      0.00778901     -0.000166269     0.000124339        -0.951709        0.281028     -0.000140789    -0.000290284
                    -0.000129588     0.000128914         0.090432      -0.0704422     -0.000116507    -0.000178589        -0.880501        0.458641
                       -0.951732        0.281185     -8.36696e-05    -0.000295773       -0.0966333       0.0718421      0.000136868    -1.28503e-05
                    -0.000188548    -0.000242223        -0.880548        0.458145      5.15789e-05    -0.000138607        -0.109916       0.0338895
281701.7                0.119941       0.0077833     -0.000166271     0.000124343        -0.951702        0.281053     -0.000140792    -0.000290287
                    -0.000129586     0.000128916        0.0904275      -0.0704465     -0.000116516    -0.000178608        -0.880489        0.458665
                       -0.951725         0.28121     -8.36734e-05     -0.00029577       -0.0966308       0.0718413      0.000136872    -1.28473e-05
                    -0.000188552    -0.000242215        -0.880535        0.458168      5.16077e-05    -0.000138612        -0.109915       0.0338892
281701.8                0.119939      0.00777758     -0.000166272     0.000124348        -0.951694        0.281079     -0.000140795     -0.00029029
                    -0.000129585     0.000128917        0.0904229      -0.0704507     -0.000116525    -0.000178626        -0.880477        0.458689
                       -0.951718        0.281235     -8.36772e-05    -0.000295767       -0.0966284       0.0718406      0.000136876    -1.28443e-05
                    -0.000188556    -0.000242208        -0.880523        0.458192      5.16364e-05    -0.000138616        -0.109914       0.0338889
281701.9                0.119937      0.00777187     -0.000166273     0.000124352        -0.951687        0.281104     -0.000140798    -0.000290293
                    -0.000129583     0.000128918        0.0904183       -0.070455     -0.000116534    -0.000178645        -0.880465        0.458713
                        -0.95171        0.281261      -8.3681e-05    -0.000295764       -0.0966259       0.0718398       0.00013688    -1.28413e-05
                     -0.00018856      -0.0002422        -0.880511        0.458216      5.16652e-05     -0.00013862        -0.109913       0.0338887
281702                  0.119935      0.00776616     -0.000166274     0.000124356         -0.95168        0.281129     -0.000140801    -0.000290296
                    -0.000129582      0.00012892        0.0904138      -0.0704593     -0.000116543    -0.000178664        -0.880452        0.458736
                       -0.951703        0.281286     -8.36848e-05    -0.000295761       -0.0966235        0.071839      0.000136884    -1.28383e-05
                    -0.000188564    -0.000242192        -0.880499         0.45824      5.16939e-05    -0.000138624        -0.109912       0.0338884
281702.1                0.119933      0.00776044     -0.000166275     0.000124361        -0.951673        0.281155     -0.000140804    -0.000290298
                     -0.00012958     0.000128921        0.0904092      -0.0704635     -0.000116552    -0.000178682         -0.88044         0.45876
                       -0.951696        0.281311     -8.36885e-05    -0.000295758       -0.0966211       0.0718382      0.000136888    -1.28353e-05
                    -0.000188568    -0.000242185        -0.880486        0.458264      5.17227e-05    -0.000138628        -0.109911       0.0338881
281702.2                0.119931      0.00775473     -0.000166277     0.000124365        -0.951666         0.28118     -0.000140807    -0.000290301
                    -0.000129578     0.000128923        0.0904047      -0.0704678     -0.000116561    -0.000178701        -0.880428        0.458784
                       -0.951689        0.281337     -8.36923e-05    -0.000295754       -0.0966186       0.0718375      0.000136892    -1.28323e-05
                    -0.000188572    -0.000242177        -0.880474        0.458287      5.17514e-05    -0.000138633         -0.10991       0.0338879
281702.3                0.119929      0.00774902     -0.000166278      0.00012437        -0.951658        0.281206      -0.00014081    -0.000290304
                    -0.000129577     0.000128924        0.0904001       -0.070472      -0.00011657    -0.000178719        -0.880416        0.458808
                       -0.951682        0.281362     -8.36961e-05    -0.000295751       -0.0966162       0.0718367      0.000136896    -1.28293e-05
                    -0.000188576     -0.00024217        -0.880462        0.458311      5.17802e-05    -0.000138637        -0.109909       0.0338876
281702.4                0.119927      0.00774331     -0.000166279     0.000124374        -0.951651        0.281231     -0.000140813    -0.000290307
                    -0.000129575     0.000128925        0.0903955      -0.0704763     -0.000116579    -0.000178738        -0.880403        0.458831
                       -0.951674        0.281388     -8.36999e-05    -0.000295748       -0.0966137       0.0718359        0.0001369    -1.28263e-05
                    -0.000188581    -0.000242162         -0.88045        0.458335       5.1809e-05    -0.000138641        -0.109908       0.0338873
281702.5                0.119925      0.00773759      -0.00016628     0.000124378        -0.951644        0.281256     -0.000140816     -0.00029031
                    -0.000129574     0.000128927         0.090391      -0.0704805     -0.000116588    -0.000178757        -0.880391        0.458855
                       -0.951667        0.281413     -8.37037e-05    -0.000295745       -0.0966113       0.0718351      0.000136904    -1.28233e-05
                    -0.000188585    -0.000242155        -0.880438        0.458359      5.18377e-05    -0.000138645        -0.109907        0.033887
281702.6                0.119923      0.00773188     -0.000166281     0.000124383        -0.951637        0.281282     -0.000140819    -0.000290313
                    -0.000129572     0.000128928        0.0903864      -0.0704848     -0.000116597    -0.000178775        -0.880379        0.458879
                        -0.95166        0.281438     -8.37074e-05    -0.000295742       -0.0966088       0.0718344      0.000136908    -1.28203e-05
                    -0.000188589    -0.000242147        -0.880425        0.458382      5.18665e-05    -0.000138649        -0.109907       0.0338868
281702.7                0.119921      0.00772617     -0.000166282     0.000124387        -0.951629        0.281307     -0.000140822    -0.000290316
                     -0.00012957      0.00012893        0.0903818      -0.0704891     -0.000116606    -0.000178794        -0.880367        0.458903
                       -0.951653        0.281464     -8.37112e-05    -0.000295739       -0.0966064       0.0718336      0.000136912    -1.28174e-05
                    -0.000188593     -0.00024214        -0.880413        0.458406      5.18952e-05    -0.000138654        -0.109906       0.0338865
281702.8                0.119919      0.00772046     -0.000166284     0.000124391        -0.951622        0.281332     -0.000140825    -0.000290318
                    -0.000129569     0.000128931        0.0903773      -0.0704933     -0.000116615    -0.000178812        -0.880355        0.458926
                       -0.951646        0.281489      -8.3715e-05    -0.000295736       -0.0966039       0.0718328      0.000136916    -1.28144e-05
                    -0.000188597    -0.000242132        -0.880401         0.45843       5.1924e-05    -0.000138658        -0.109905       0.0338862
281702.9                0.119916      0.00771474     -0.000166285     0.000124396        -0.951615        0.281358     -0.000140828    -0.000290321
                    -0.000129567     0.000128933        0.0903727      -0.0704976     -0.000116624    -0.000178831        -0.880342         0.45895
                       -0.951638        0.281515     -8.37188e-05    -0.000295733       -0.0966015        0.071832       0.00013692    -1.28114e-05
                    -0.000188601    -0.000242124        -0.880389        0.458454      5.19528e-05    -0.000138662        -0.109904        0.033886
281703                  0.119914      0.00770903     -0.000166286       0.0001244        -0.951608        0.281383     -0.000140831    -0.000290324
                    -0.000129566     0.000128934        0.0903681      -0.0705018     -0.000116633     -0.00017885         -0.88033        0.458974
                       -0.951631         0.28154     -8.37225e-05     -0.00029573        -0.096599       0.0718312      0.000136924    -1.28084e-05
                    -0.000188605    -0.000242117        -0.880376        0.458477      5.19815e-05    -0.000138666        -0.109903       0.0338857
281703.1                0.119912      0.00770332     -0.000166287     0.000124404          -0.9516        0.281409     -0.000140834    -0.000290327
                    -0.000129564     0.000128935        0.0903636      -0.0705061     -0.000116642    -0.000178868        -0.880318        0.458998
                       -0.951624        0.281565     -8.37263e-05    -0.000295727       -0.0965966       0.0718305      0.000136928    -1.28054e-05
