! TOUCHSTONE file generated by CST MICROWAVE STUDIO
! Date and time: Wed Oct  8 06:51:40 2025
! Project name: Teste_Macro_Metasurface_Nanopilar.cst
! Parameters = {H=600; L_x=75; L_y=185; Lambda=1064; Max_L=200; Min_L=70; PathPara=1; Phi=0; Step_L=10; Theta=0; p=520; phaseX=180; phaseY=0}
! Header version: 2018
! Port assignment regex: !\s*Touchstone port\s*([0-9]+)\s*=\s*(CST MWS port|CST DS port)\s*([0-9]+|Zmin|Zmax)\s*\(\"(.*)\"\)(\s*mode\s*([0-9]+))?.*
! Touchstone port assignment:
! Touchstone port 1 = CST MWS port Zmax ("") mode 1
! Touchstone port 2 = CST MWS port Zmax ("") mode 2
! Touchstone port 3 = CST MWS port Zmin ("") mode 1
! Touchstone port 4 = CST MWS port Zmin ("") mode 2
! S-Parameters are not renormalized. Each port impedance will be approximated by the real part at minimum frequency. The values are described via the [Reference] keyword.
! Default impedance is overridden by [Reference]
[Version] 2.0
# GHz S RI R 376.73
[Number of Ports] 4
[Reference]
376.73 376.73 376.73 376.73 
[Number of Frequencies] 1001
[Network Data]
281700                 -0.158279      -0.0938776      0.000925887    -2.81804e-05        -0.365349       -0.905936     -0.000256366     0.000252145
                     0.000974215     0.000129772        0.0666748       -0.110638      0.000255827     0.000391211        -0.800482        0.583911
                       -0.365416       -0.905899      5.20189e-05     0.000209833        -0.049784         0.17568     -0.000741717    -0.000407418
                    -0.000380575     0.000208973        -0.800452        0.583818      -0.00103554    -0.000404464        -0.125883       0.0299833
281700.1               -0.158277      -0.0938726      0.000925888    -2.82111e-05        -0.365379       -0.905924     -0.000256356     0.000252149
                      0.00097422     0.000129745         0.066669       -0.110641      0.000255838     0.000391199        -0.800466        0.583933
                       -0.365446       -0.905888      5.20191e-05     0.000209824       -0.0497744        0.175678     -0.000741731    -0.000407397
                    -0.000380572     0.000208983        -0.800437         0.58384      -0.00103555    -0.000404435        -0.125882       0.0299838
281700.2               -0.158274      -0.0938675       0.00092589    -2.82417e-05        -0.365409       -0.905913     -0.000256347     0.000252154
                     0.000974225     0.000129718        0.0666632       -0.110644      0.000255849     0.000391187        -0.800451        0.583955
                       -0.365476       -0.905877      5.20194e-05     0.000209816       -0.0497648        0.175676     -0.000741744    -0.000407377
                    -0.000380569     0.000208992        -0.800421        0.583861      -0.00103557    -0.000404405        -0.125881       0.0299842
281700.3               -0.158272      -0.0938625      0.000925891    -2.82724e-05        -0.365438       -0.905902     -0.000256337     0.000252159
                     0.000974229     0.000129691        0.0666574       -0.110646      0.000255859     0.000391175        -0.800435        0.583976
                       -0.365506       -0.905866      5.20196e-05     0.000209807       -0.0497551        0.175674     -0.000741757    -0.000407356
                    -0.000380566     0.000209002        -0.800405        0.583883      -0.00103559    -0.000404376        -0.125881       0.0299847
281700.4                -0.15827      -0.0938574      0.000925893    -2.83031e-05        -0.365468       -0.905891     -0.000256328     0.000252164
                     0.000974234     0.000129664        0.0666516       -0.110649       0.00025587     0.000391163        -0.800419        0.583998
                       -0.365535       -0.905855      5.20199e-05     0.000209799       -0.0497455        0.175672     -0.000741771    -0.000407335
                    -0.000380564     0.000209012         -0.80039        0.583905      -0.00103561    -0.000404346         -0.12588       0.0299851
281700.5               -0.158267      -0.0938524      0.000925894    -2.83337e-05        -0.365498        -0.90588     -0.000256318     0.000252169
                     0.000974239     0.000129636        0.0666459       -0.110652       0.00025588     0.000391151        -0.800403         0.58402
                       -0.365565       -0.905844      5.20201e-05     0.000209791       -0.0497359        0.175669     -0.000741784    -0.000407314
                    -0.000380561     0.000209021        -0.800374        0.583926      -0.00103562    -0.000404316        -0.125879       0.0299856
281700.6               -0.158265      -0.0938473      0.000925896    -2.83644e-05        -0.365527       -0.905869     -0.000256309     0.000252174
                     0.000974243     0.000129609        0.0666401       -0.110654      0.000255891     0.000391139        -0.800388        0.584041
                       -0.365595       -0.905833      5.20203e-05     0.000209782       -0.0497262        0.175667     -0.000741798    -0.000407294
                    -0.000380558     0.000209031        -0.800358        0.583948      -0.00103564    -0.000404287        -0.125878        0.029986
281700.7               -0.158263      -0.0938423      0.000925897    -2.83951e-05        -0.365557       -0.905858     -0.000256299     0.000252179
                     0.000974248     0.000129582        0.0666343       -0.110657      0.000255902     0.000391127        -0.800372        0.584063
                       -0.365624       -0.905822      5.20206e-05     0.000209774       -0.0497166        0.175665     -0.000741811    -0.000407273
                    -0.000380555     0.000209041        -0.800342         0.58397      -0.00103566    -0.000404257        -0.125877       0.0299865
281700.8                -0.15826      -0.0938372      0.000925899    -2.84258e-05        -0.365587       -0.905847      -0.00025629     0.000252184
                     0.000974253     0.000129555        0.0666285        -0.11066      0.000255912     0.000391115        -0.800356        0.584085
                       -0.365654        -0.90581      5.20208e-05     0.000209765        -0.049707        0.175663     -0.000741824    -0.000407252
                    -0.000380552      0.00020905        -0.800327        0.583991      -0.00103568    -0.000404227        -0.125877       0.0299869
281700.9               -0.158258      -0.0938322        0.0009259    -2.84564e-05        -0.365616       -0.905836      -0.00025628     0.000252188
                     0.000974257     0.000129528        0.0666227       -0.110663      0.000255923     0.000391102        -0.800341        0.584106
                       -0.365684       -0.905799      5.20211e-05     0.000209757       -0.0496973        0.175661     -0.000741838    -0.000407231
                    -0.000380549      0.00020906        -0.800311        0.584013       -0.0010357    -0.000404198        -0.125876       0.0299874
281701                 -0.158255      -0.0938272      0.000925902    -2.84871e-05        -0.365646       -0.905825     -0.000256271     0.000252193
                     0.000974262       0.0001295        0.0666169       -0.110665      0.000255933      0.00039109        -0.800325        0.584128
                       -0.365713       -0.905788      5.20213e-05     0.000209749       -0.0496877        0.175658     -0.000741851    -0.000407211
                    -0.000380546     0.000209069        -0.800295        0.584035      -0.00103571    -0.000404168        -0.125875       0.0299878
281701.1               -0.158253      -0.0938221      0.000925903    -2.85178e-05        -0.365676       -0.905814     -0.000256261     0.000252198
                     0.000974267     0.000129473        0.0666111       -0.110668      0.000255944     0.000391078        -0.800309         0.58415
                       -0.365743       -0.905777      5.20216e-05      0.00020974        -0.049678        0.175656     -0.000741865     -0.00040719
                    -0.000380543     0.000209079         -0.80028        0.584056      -0.00103573    -0.000404138        -0.125874       0.0299883
281701.2               -0.158251      -0.0938171      0.000925905    -2.85485e-05        -0.365706       -0.905803     -0.000256252     0.000252203
                     0.000974271     0.000129446        0.0666054       -0.110671      0.000255955     0.000391066        -0.800294        0.584171
                       -0.365773       -0.905766      5.20218e-05     0.000209732       -0.0496684        0.175654     -0.000741878    -0.000407169
                     -0.00038054     0.000209089        -0.800264        0.584078      -0.00103575    -0.000404109        -0.125873       0.0299888
281701.3               -0.158248       -0.093812      0.000925906    -2.85792e-05        -0.365735       -0.905792     -0.000256242     0.000252208
                     0.000974276     0.000129419        0.0665996       -0.110673      0.000255965     0.000391054        -0.800278        0.584193
                       -0.365803       -0.905755       5.2022e-05     0.000209723       -0.0496588        0.175652     -0.000741891    -0.000407148
                    -0.000380537     0.000209098        -0.800248          0.5841      -0.00103577    -0.000404079        -0.125873       0.0299892
281701.4               -0.158246       -0.093807      0.000925908    -2.86098e-05        -0.365765       -0.905781     -0.000256232     0.000252213
                     0.000974281     0.000129392        0.0665938       -0.110676      0.000255976     0.000391042        -0.800262        0.584215
                       -0.365832       -0.905744      5.20223e-05     0.000209715       -0.0496491         0.17565     -0.000741905    -0.000407128
                    -0.000380534     0.000209108        -0.800233        0.584121      -0.00103579    -0.000404049        -0.125872       0.0299897
281701.5               -0.158244      -0.0938019       0.00092591    -2.86405e-05        -0.365795        -0.90577     -0.000256223     0.000252218
                     0.000974285     0.000129364         0.066588       -0.110679      0.000255986      0.00039103        -0.800246        0.584236
                       -0.365862       -0.905733      5.20225e-05     0.000209707       -0.0496395        0.175648     -0.000741918    -0.000407107
                    -0.000380531     0.000209118        -0.800217        0.584143       -0.0010358     -0.00040402        -0.125871       0.0299901
281701.6               -0.158241      -0.0937969      0.000925911    -2.86712e-05        -0.365824       -0.905758     -0.000256213     0.000252222
                      0.00097429     0.000129337        0.0665822       -0.110681      0.000255997     0.000391018        -0.800231        0.584258
                       -0.365892       -0.905722      5.20228e-05     0.000209698       -0.0496299        0.175645     -0.000741932    -0.000407086
                    -0.000380529     0.000209127        -0.800201        0.584165      -0.00103582     -0.00040399         -0.12587       0.0299906
281701.7               -0.158239      -0.0937918      0.000925913    -2.87019e-05        -0.365854       -0.905747     -0.000256204     0.000252227
                     0.000974295      0.00012931        0.0665764       -0.110684      0.000256008     0.000391006        -0.800215        0.584279
                       -0.365921       -0.905711       5.2023e-05      0.00020969       -0.0496202        0.175643     -0.000741945    -0.000407065
                    -0.000380526     0.000209137        -0.800185        0.584186      -0.00103584     -0.00040396        -0.125869        0.029991
281701.8               -0.158236      -0.0937868      0.000925914    -2.87326e-05        -0.365884       -0.905736     -0.000256194     0.000252232
                     0.000974299     0.000129283        0.0665706       -0.110687      0.000256018     0.000390994        -0.800199        0.584301
                       -0.365951         -0.9057      5.20233e-05     0.000209681       -0.0496106        0.175641     -0.000741958    -0.000407045
                    -0.000380523     0.000209147         -0.80017        0.584208      -0.00103586     -0.00040393        -0.125868       0.0299915
281701.9               -0.158234      -0.0937818      0.000925916    -2.87633e-05        -0.365913       -0.905725     -0.000256185     0.000252237
                     0.000974304     0.000129255        0.0665648       -0.110689      0.000256029     0.000390981        -0.800184        0.584323
                       -0.365981       -0.905689      5.20235e-05     0.000209673        -0.049601        0.175639     -0.000741972    -0.000407024
                     -0.00038052     0.000209156        -0.800154        0.584229      -0.00103587    -0.000403901        -0.125868       0.0299919
281702                 -0.158232      -0.0937767      0.000925917    -2.87939e-05        -0.365943       -0.905714     -0.000256175     0.000252242
                     0.000974308     0.000129228        0.0665591       -0.110692      0.000256039     0.000390969        -0.800168        0.584344
                        -0.36601       -0.905678      5.20237e-05     0.000209665       -0.0495913        0.175637     -0.000741985    -0.000407003
                    -0.000380517     0.000209166        -0.800138        0.584251      -0.00103589    -0.000403871        -0.125867       0.0299924
281702.1               -0.158229      -0.0937717      0.000925918    -2.88246e-05        -0.365973       -0.905703     -0.000256166     0.000252247
                     0.000974313     0.000129201        0.0665533       -0.110695       0.00025605     0.000390957        -0.800152        0.584366
                        -0.36604       -0.905667       5.2024e-05     0.000209656       -0.0495817        0.175634     -0.000741999    -0.000406982
                    -0.000380514     0.000209176        -0.800123        0.584273      -0.00103591    -0.000403841        -0.125866       0.0299928
281702.2               -0.158227      -0.0937666       0.00092592    -2.88553e-05        -0.366002       -0.905692     -0.000256156     0.000252252
                     0.000974318     0.000129174        0.0665475       -0.110698      0.000256061     0.000390945        -0.800137        0.584388
                        -0.36607       -0.905656      5.20242e-05     0.000209648       -0.0495721        0.175632     -0.000742012    -0.000406961
                    -0.000380511     0.000209185        -0.800107        0.584294      -0.00103593    -0.000403812        -0.125865       0.0299933
281702.3               -0.158224      -0.0937616      0.000925921     -2.8886e-05        -0.366032       -0.905681     -0.000256147     0.000252257
                     0.000974322     0.000129147        0.0665417         -0.1107      0.000256071     0.000390933        -0.800121        0.584409
                       -0.366099       -0.905645      5.20245e-05     0.000209639       -0.0495624         0.17563     -0.000742025    -0.000406941
                    -0.000380508     0.000209195        -0.800091        0.584316      -0.00103595    -0.000403782        -0.125864       0.0299938
281702.4               -0.158222      -0.0937565      0.000925923    -2.89167e-05        -0.366062        -0.90567     -0.000256137     0.000252261
                     0.000974327     0.000129119        0.0665359       -0.110703      0.000256082     0.000390921        -0.800105        0.584431
                       -0.366129       -0.905634      5.20247e-05     0.000209631       -0.0495528        0.175628     -0.000742039     -0.00040692
                    -0.000380505     0.000209205        -0.800076        0.584338      -0.00103596    -0.000403752        -0.125864       0.0299942
281702.5                -0.15822      -0.0937515      0.000925924    -2.89474e-05        -0.366092       -0.905659     -0.000256128     0.000252266
                     0.000974331     0.000129092        0.0665301       -0.110706      0.000256092     0.000390909        -0.800089        0.584453
                       -0.366159       -0.905622       5.2025e-05     0.000209623       -0.0495431        0.175626     -0.000742052    -0.000406899
                    -0.000380502     0.000209214         -0.80006        0.584359      -0.00103598    -0.000403722        -0.125863       0.0299947
281702.6               -0.158217      -0.0937465      0.000925926    -2.89781e-05        -0.366121       -0.905648     -0.000256118     0.000252271
                     0.000974336     0.000129065        0.0665243       -0.110708      0.000256103     0.000390897        -0.800074        0.584474
                       -0.366189       -0.905611      5.20252e-05     0.000209614       -0.0495335        0.175623     -0.000742065    -0.000406878
                    -0.000380499     0.000209224        -0.800044        0.584381        -0.001036    -0.000403693        -0.125862       0.0299951
281702.7               -0.158215      -0.0937414      0.000925927    -2.90088e-05        -0.366151       -0.905637     -0.000256109     0.000252276
                     0.000974341     0.000129038        0.0665185       -0.110711      0.000256113     0.000390884        -0.800058        0.584496
                       -0.366218         -0.9056      5.20254e-05     0.000209606       -0.0495239        0.175621     -0.000742079    -0.000406858
                    -0.000380496     0.000209233        -0.800028        0.584403      -0.00103602    -0.000403663        -0.125861       0.0299956
281702.8               -0.158213      -0.0937364      0.000925929    -2.90395e-05        -0.366181       -0.905626     -0.000256099     0.000252281
                     0.000974345      0.00012901        0.0665128       -0.110714      0.000256124     0.000390872        -0.800042        0.584518
                       -0.366248       -0.905589      5.20257e-05     0.000209597       -0.0495142        0.175619     -0.000742092    -0.000406837
                    -0.000380493     0.000209243        -0.800013        0.584424      -0.00103604    -0.000403633         -0.12586        0.029996
281702.9                -0.15821      -0.0937313       0.00092593    -2.90702e-05         -0.36621       -0.905614      -0.00025609     0.000252286
                      0.00097435     0.000128983         0.066507       -0.110716      0.000256135      0.00039086        -0.800027        0.584539
                       -0.366278       -0.905578      5.20259e-05     0.000209589       -0.0495046        0.175617     -0.000742105    -0.000406816
                     -0.00038049     0.000209253        -0.799997        0.584446      -0.00103605    -0.000403603        -0.125859       0.0299965
281703                 -0.158208      -0.0937263      0.000925932    -2.91009e-05         -0.36624       -0.905603      -0.00025608     0.000252291
                     0.000974354     0.000128956        0.0665012       -0.110719      0.000256145     0.000390848        -0.800011        0.584561
                       -0.366307       -0.905567      5.20262e-05     0.000209581        -0.049495        0.175615     -0.000742119    -0.000406795
                    -0.000380487     0.000209262        -0.799981        0.584468      -0.00103607    -0.000403574        -0.125859       0.0299969
281703.1               -0.158205      -0.0937213      0.000925933    -2.91316e-05         -0.36627       -0.905592     -0.000256071     0.000252296
                     0.000974359     0.000128929        0.0664954       -0.110722      0.000256156     0.000390836        -0.799995        0.584583
                       -0.366337       -0.905556      5.20264e-05     0.000209572       -0.0494853        0.175612     -0.000742132    -0.000406774
