! TOUCHSTONE file generated by CST MICROWAVE STUDIO
! Date and time: Wed Oct  8 07:03:12 2025
! Project name: Teste_Macro_Metasurface_Nanopilar.cst
! Parameters = {H=600; L_x=175; L_y=95; Lambda=1064; Max_L=200; Min_L=70; PathPara=1; Phi=0; Step_L=10; Theta=0; p=520; phaseX=180; phaseY=0}
! Header version: 2018
! Port assignment regex: !\s*Touchstone port\s*([0-9]+)\s*=\s*(CST MWS port|CST DS port)\s*([0-9]+|Zmin|Zmax)\s*\(\"(.*)\"\)(\s*mode\s*([0-9]+))?.*
! Touchstone port assignment:
! Touchstone port 1 = CST MWS port Zmax ("") mode 1
! Touchstone port 2 = CST MWS port Zmax ("") mode 2
! Touchstone port 3 = CST MWS port Zmin ("") mode 1
! Touchstone port 4 = CST MWS port Zmin ("") mode 2
! S-Parameters are not renormalized. Each port impedance will be approximated by the real part at minimum frequency. The values are described via the [Reference] keyword.
! Default impedance is overridden by [Reference]
[Version] 2.0
# GHz S RI R 376.73
[Number of Ports] 4
[Reference]
376.73 376.73 376.73 376.73 
[Number of Frequencies] 1001
[Network Data]
281700                 -0.209947      -0.0349293     -0.000678503     -0.00030514         0.282178        0.929919      3.07066e-05     4.15569e-05
                      -0.0006341    -0.000343916       -0.0994149       -0.201076      4.62817e-05    -0.000314707         -0.84333       -0.474275
                        0.281801        0.930181      4.41852e-05    -0.000253677        -0.155734        0.144985     -0.000167328    -0.000701172
                     3.10796e-06    -3.37504e-05        -0.843529       -0.473731     -5.57286e-05    -0.000829892         0.217252      -0.0257679
281700.1               -0.209945      -0.0349218     -0.000678522    -0.000305136         0.282207        0.929911      3.06949e-05     4.15387e-05
                    -0.000634115      -0.0003439       -0.0994151       -0.201082      4.62843e-05    -0.000314707        -0.843346       -0.474243
                         0.28183        0.930173      4.41829e-05    -0.000253681        -0.155728        0.144987     -0.000167388    -0.000701184
                     3.11913e-06    -3.37525e-05        -0.843545         -0.4737     -5.57751e-05    -0.000829884         0.217255      -0.0257872
281700.2               -0.209943      -0.0349144     -0.000678541    -0.000305131         0.282236        0.929903      3.06831e-05     4.15204e-05
                     -0.00063413    -0.000343885       -0.0994153       -0.201089      4.62869e-05    -0.000314707        -0.843362       -0.474212
                        0.281859        0.930165      4.41806e-05    -0.000253684        -0.155721        0.144989     -0.000167447    -0.000701197
                      3.1303e-06    -3.37546e-05        -0.843561       -0.473668     -5.58216e-05    -0.000829877         0.217259      -0.0258065
281700.3               -0.209941      -0.0349069     -0.000678561    -0.000305127         0.282265        0.929895      3.06714e-05     4.15022e-05
                    -0.000634145    -0.000343869       -0.0994155       -0.201095      4.62894e-05    -0.000314707        -0.843378        -0.47418
                        0.281888        0.930157      4.41783e-05    -0.000253687        -0.155714        0.144992     -0.000167507    -0.000701209
                     3.14147e-06    -3.37567e-05        -0.843577       -0.473637      -5.5868e-05    -0.000829869         0.217262      -0.0258258
281700.4               -0.209939      -0.0348994      -0.00067858    -0.000305122         0.282294        0.929887      3.06598e-05     4.14839e-05
                    -0.000634159    -0.000343853       -0.0994157       -0.201101       4.6292e-05    -0.000314707        -0.843394       -0.474149
                        0.281917        0.930149       4.4176e-05    -0.000253691        -0.155708        0.144994     -0.000167567    -0.000701221
                     3.15264e-06    -3.37587e-05        -0.843593       -0.473605     -5.59145e-05    -0.000829861         0.217266      -0.0258451
281700.5               -0.209937      -0.0348919     -0.000678599    -0.000305118         0.282323        0.929879      3.06481e-05     4.14657e-05
                    -0.000634174    -0.000343838       -0.0994159       -0.201107      4.62946e-05    -0.000314708         -0.84341       -0.474117
                        0.281946        0.930141      4.41736e-05    -0.000253694        -0.155701        0.144996     -0.000167627    -0.000701233
                     3.16381e-06    -3.37608e-05        -0.843609       -0.473574     -5.59609e-05    -0.000829853         0.217269      -0.0258645
281700.6               -0.209934      -0.0348845     -0.000678618    -0.000305113         0.282353        0.929871      3.06365e-05     4.14474e-05
                    -0.000634189    -0.000343822       -0.0994161       -0.201114      4.62972e-05    -0.000314708        -0.843426       -0.474086
                        0.281975        0.930133      4.41713e-05    -0.000253697        -0.155694        0.144998     -0.000167687    -0.000701245
                     3.17498e-06    -3.37629e-05        -0.843625       -0.473543     -5.60074e-05    -0.000829845         0.217273      -0.0258838
281700.7               -0.209932       -0.034877     -0.000678638    -0.000305109         0.282382        0.929863       3.0625e-05     4.14291e-05
                    -0.000634204    -0.000343807       -0.0994163        -0.20112      4.62998e-05    -0.000314708        -0.843442       -0.474054
                        0.282004        0.930125       4.4169e-05    -0.000253701        -0.155688           0.145     -0.000167747    -0.000701257
                     3.18616e-06     -3.3765e-05        -0.843641       -0.473511     -5.60539e-05    -0.000829837         0.217277      -0.0259031
281700.8                -0.20993      -0.0348695     -0.000678657    -0.000305104         0.282411        0.929855      3.06135e-05     4.14108e-05
                    -0.000634218    -0.000343791       -0.0994165       -0.201126      4.63024e-05    -0.000314708        -0.843458       -0.474023
                        0.282034        0.930117      4.41667e-05    -0.000253704        -0.155681        0.145002     -0.000167807    -0.000701269
                     3.19733e-06    -3.37671e-05        -0.843657        -0.47348     -5.61003e-05    -0.000829829          0.21728      -0.0259224
281700.9               -0.209928      -0.0348621     -0.000678676      -0.0003051          0.28244        0.929847       3.0602e-05     4.13925e-05
                    -0.000634233    -0.000343775       -0.0994167       -0.201132       4.6305e-05    -0.000314708        -0.843474       -0.473991
                        0.282063        0.930109      4.41644e-05    -0.000253708        -0.155674        0.145005     -0.000167866    -0.000701281
                      3.2085e-06    -3.37691e-05        -0.843673       -0.473448     -5.61468e-05    -0.000829821         0.217284      -0.0259417
281701                 -0.209926      -0.0348546     -0.000678695    -0.000305095         0.282469        0.929839      3.05905e-05     4.13742e-05
                    -0.000634248     -0.00034376       -0.0994169       -0.201139      4.63076e-05    -0.000314708         -0.84349        -0.47396
                        0.282092        0.930101      4.41621e-05    -0.000253711        -0.155668        0.145007     -0.000167926    -0.000701293
                     3.21967e-06    -3.37712e-05        -0.843689       -0.473417     -5.61932e-05    -0.000829813         0.217287      -0.0259611
281701.1               -0.209924      -0.0348471     -0.000678715    -0.000305091         0.282498         0.92983      3.05791e-05     4.13559e-05
                    -0.000634263    -0.000343744       -0.0994171       -0.201145      4.63102e-05    -0.000314708        -0.843506       -0.473928
                        0.282121        0.930092      4.41598e-05    -0.000253714        -0.155661        0.145009     -0.000167986    -0.000701305
                     3.23085e-06    -3.37733e-05        -0.843705       -0.473385     -5.62397e-05    -0.000829805         0.217291      -0.0259804
281701.2               -0.209921      -0.0348396     -0.000678734    -0.000305086         0.282527        0.929822      3.05677e-05     4.13376e-05
                    -0.000634277    -0.000343728       -0.0994173       -0.201151      4.63128e-05    -0.000314708        -0.843522       -0.473897
                         0.28215        0.930084      4.41574e-05    -0.000253718        -0.155654        0.145011     -0.000168046    -0.000701317
                     3.24202e-06    -3.37754e-05        -0.843721       -0.473354     -5.62862e-05    -0.000829797         0.217294      -0.0259997
281701.3               -0.209919      -0.0348322     -0.000678753    -0.000305082         0.282556        0.929814      3.05563e-05     4.13193e-05
                    -0.000634292    -0.000343713       -0.0994175       -0.201157      4.63154e-05    -0.000314708        -0.843538       -0.473865
                        0.282179        0.930076      4.41551e-05    -0.000253721        -0.155648        0.145013     -0.000168106     -0.00070133
                      3.2532e-06    -3.37774e-05        -0.843737       -0.473322     -5.63326e-05    -0.000829789         0.217298       -0.026019
281701.4               -0.209917      -0.0348247     -0.000678772    -0.000305077         0.282585        0.929806       3.0545e-05      4.1301e-05
                    -0.000634307    -0.000343697       -0.0994177       -0.201164       4.6318e-05    -0.000314708        -0.843554       -0.473834
                        0.282208        0.930068      4.41528e-05    -0.000253724        -0.155641        0.145016     -0.000168165    -0.000701342
                     3.26437e-06    -3.37795e-05        -0.843753       -0.473291     -5.63791e-05    -0.000829781         0.217301      -0.0260384
281701.5               -0.209915      -0.0348172     -0.000678792    -0.000305073         0.282614        0.929798      3.05337e-05     4.12827e-05
                    -0.000634322    -0.000343682       -0.0994179        -0.20117      4.63206e-05    -0.000314708         -0.84357       -0.473802
                        0.282237         0.93006      4.41505e-05    -0.000253728        -0.155635        0.145018     -0.000168225    -0.000701354
                     3.27555e-06    -3.37816e-05        -0.843769       -0.473259     -5.64255e-05    -0.000829773         0.217305      -0.0260577
281701.6               -0.209913      -0.0348098     -0.000678811    -0.000305068         0.282643         0.92979      3.05224e-05     4.12643e-05
                    -0.000634336    -0.000343666       -0.0994181       -0.201176      4.63232e-05    -0.000314709        -0.843585       -0.473771
                        0.282266        0.930052      4.41482e-05    -0.000253731        -0.155628         0.14502     -0.000168285    -0.000701366
                     3.28672e-06    -3.37837e-05        -0.843785       -0.473228      -5.6472e-05    -0.000829765         0.217309       -0.026077
281701.7               -0.209911      -0.0348023      -0.00067883    -0.000305064         0.282672        0.929782      3.05112e-05      4.1246e-05
                    -0.000634351     -0.00034365       -0.0994183       -0.201182      4.63257e-05    -0.000314709        -0.843601       -0.473739
                        0.282296        0.930044      4.41459e-05    -0.000253735        -0.155621        0.145022     -0.000168344    -0.000701378
                      3.2979e-06    -3.37858e-05        -0.843801       -0.473196     -5.65184e-05    -0.000829757         0.217312      -0.0260963
281701.8               -0.209909      -0.0347948     -0.000678849    -0.000305059         0.282702        0.929774         3.05e-05     4.12276e-05
                    -0.000634366    -0.000343635       -0.0994185       -0.201189      4.63283e-05    -0.000314709        -0.843617       -0.473708
                        0.282325        0.930036      4.41436e-05    -0.000253738        -0.155615        0.145024     -0.000168404     -0.00070139
                     3.30907e-06    -3.37878e-05        -0.843817       -0.473165     -5.65649e-05    -0.000829749         0.217316      -0.0261157
281701.9               -0.209906      -0.0347873     -0.000678869    -0.000305055         0.282731        0.929766      3.04889e-05     4.12093e-05
                    -0.000634381    -0.000343619       -0.0994187       -0.201195      4.63309e-05    -0.000314709        -0.843633       -0.473676
                        0.282354        0.930028      4.41413e-05    -0.000253741        -0.155608        0.145027     -0.000168464    -0.000701402
                     3.32025e-06    -3.37899e-05        -0.843833       -0.473134     -5.66114e-05    -0.000829741         0.217319       -0.026135
281702                 -0.209904      -0.0347799     -0.000678888     -0.00030505          0.28276        0.929758      3.04777e-05     4.11909e-05
                    -0.000634395    -0.000343603       -0.0994189       -0.201201      4.63335e-05    -0.000314709        -0.843649       -0.473645
                        0.282383         0.93002       4.4139e-05    -0.000253745        -0.155601        0.145029     -0.000168523    -0.000701415
                     3.33142e-06     -3.3792e-05        -0.843849       -0.473102     -5.66578e-05    -0.000829733         0.217323      -0.0261543
281702.1               -0.209902      -0.0347724     -0.000678907    -0.000305046         0.282789         0.92975      3.04667e-05     4.11725e-05
                     -0.00063441    -0.000343588       -0.0994192       -0.201207      4.63361e-05    -0.000314709        -0.843665       -0.473613
                        0.282412        0.930012      4.41367e-05    -0.000253748        -0.155595        0.145031     -0.000168583    -0.000701427
                      3.3426e-06    -3.37941e-05        -0.843865       -0.473071     -5.67043e-05    -0.000829725         0.217326      -0.0261736
281702.2                 -0.2099      -0.0347649     -0.000678926    -0.000305041         0.282818        0.929741      3.04556e-05     4.11541e-05
                    -0.000634425    -0.000343572       -0.0994194       -0.201214      4.63387e-05    -0.000314709        -0.843681       -0.473582
                        0.282441        0.930004      4.41344e-05    -0.000253752        -0.155588        0.145033     -0.000168642    -0.000701439
                     3.35378e-06    -3.37961e-05        -0.843881       -0.473039     -5.67507e-05    -0.000829717          0.21733       -0.026193
281702.3               -0.209898      -0.0347575     -0.000678946    -0.000305037         0.282847        0.929733      3.04446e-05     4.11358e-05
                     -0.00063444    -0.000343557       -0.0994196        -0.20122      4.63413e-05    -0.000314709        -0.843697        -0.47355
                         0.28247        0.929995       4.4132e-05    -0.000253755        -0.155581        0.145035     -0.000168702    -0.000701451
                     3.36495e-06    -3.37982e-05        -0.843897       -0.473008     -5.67972e-05    -0.000829709         0.217333      -0.0262123
281702.4               -0.209896        -0.03475     -0.000678965    -0.000305032         0.282876        0.929725      3.04336e-05     4.11174e-05
                    -0.000634454    -0.000343541       -0.0994198       -0.201226      4.63439e-05    -0.000314709        -0.843713       -0.473519
                        0.282499        0.929987      4.41297e-05    -0.000253758        -0.155575        0.145038     -0.000168761    -0.000701463
                     3.37613e-06    -3.38003e-05        -0.843913       -0.472976     -5.68436e-05    -0.000829701         0.217337      -0.0262316
281702.5               -0.209894      -0.0347425     -0.000678984    -0.000305028         0.282905        0.929717      3.04226e-05      4.1099e-05
                    -0.000634469    -0.000343525         -0.09942       -0.201232      4.63465e-05    -0.000314709        -0.843729       -0.473487
                        0.282528        0.929979      4.41274e-05    -0.000253762        -0.155568         0.14504     -0.000168821    -0.000701475
                     3.38731e-06    -3.38024e-05        -0.843929       -0.472945     -5.68901e-05    -0.000829693          0.21734       -0.026251
281702.6               -0.209891      -0.0347351     -0.000679003    -0.000305023         0.282934        0.929709      3.04117e-05     4.10806e-05
                    -0.000634484     -0.00034351       -0.0994202       -0.201239      4.63491e-05    -0.000314709        -0.843745       -0.473456
                        0.282558        0.929971      4.41251e-05    -0.000253765        -0.155561        0.145042     -0.000168881    -0.000701488
                     3.39849e-06    -3.38045e-05        -0.843945       -0.472913     -5.69365e-05    -0.000829685         0.217344      -0.0262703
281702.7               -0.209889      -0.0347276     -0.000679023    -0.000305019         0.282963        0.929701      3.04008e-05     4.10621e-05
                    -0.000634499    -0.000343494       -0.0994204       -0.201245      4.63517e-05    -0.000314709        -0.843761       -0.473424
                        0.282587        0.929963      4.41228e-05    -0.000253768        -0.155555        0.145044      -0.00016894      -0.0007015
                     3.40967e-06    -3.38065e-05        -0.843961       -0.472882      -5.6983e-05    -0.000829677         0.217347      -0.0262896
281702.8               -0.209887      -0.0347201     -0.000679042    -0.000305014         0.282992        0.929693        3.039e-05     4.10437e-05
                    -0.000634513    -0.000343479       -0.0994206       -0.201251      4.63543e-05     -0.00031471        -0.843777       -0.473393
                        0.282616        0.929955      4.41205e-05    -0.000253772        -0.155548        0.145046     -0.000168999    -0.000701512
                     3.42084e-06    -3.38086e-05        -0.843977        -0.47285     -5.70294e-05    -0.000829669         0.217351       -0.026309
281702.9               -0.209885      -0.0347127     -0.000679061     -0.00030501         0.283021        0.929685      3.03792e-05     4.10253e-05
                    -0.000634528    -0.000343463       -0.0994208       -0.201257      4.63569e-05     -0.00031471        -0.843793       -0.473361
                        0.282645        0.929947      4.41182e-05    -0.000253775        -0.155541        0.145049     -0.000169059    -0.000701524
                     3.43202e-06    -3.38107e-05        -0.843993       -0.472819     -5.70759e-05    -0.000829661         0.217354      -0.0263283
281703                 -0.209883      -0.0347052     -0.000679081    -0.000305005          0.28305        0.929677      3.03684e-05     4.10069e-05
                    -0.000634543    -0.000343447       -0.0994211       -0.201264      4.63594e-05     -0.00031471        -0.843809        -0.47333
                        0.282674        0.929939      4.41159e-05    -0.000253779        -0.155535        0.145051     -0.000169118    -0.000701537
                      3.4432e-06    -3.38128e-05        -0.844009       -0.472787     -5.71223e-05    -0.000829653         0.217358      -0.0263476
281703.1               -0.209881      -0.0346977       -0.0006791    -0.000305001          0.28308        0.929669      3.03576e-05     4.09884e-05
                    -0.000634558    -0.000343432       -0.0994213        -0.20127       4.6362e-05     -0.00031471        -0.843825       -0.473298
                        0.282703        0.929931      4.41136e-05    -0.000253782        -0.155528        0.145053     -0.000169178    -0.000701549
