! TOUCHSTONE file generated by CST MICROWAVE STUDIO
! Date and time: Wed Oct  8 06:53:19 2025
! Project name: Teste_Macro_Metasurface_Nanopilar.cst
! Parameters = {H=600; L_x=90; L_y=150; Lambda=1064; Max_L=200; Min_L=70; PathPara=1; Phi=0; Step_L=10; Theta=0; p=520; phaseX=180; phaseY=0}
! Header version: 2018
! Port assignment regex: !\s*Touchstone port\s*([0-9]+)\s*=\s*(CST MWS port|CST DS port)\s*([0-9]+|Zmin|Zmax)\s*\(\"(.*)\"\)(\s*mode\s*([0-9]+))?.*
! Touchstone port assignment:
! Touchstone port 1 = CST MWS port Zmax ("") mode 1
! Touchstone port 2 = CST MWS port Zmax ("") mode 2
! Touchstone port 3 = CST MWS port Zmin ("") mode 1
! Touchstone port 4 = CST MWS port Zmin ("") mode 2
! S-Parameters are not renormalized. Each port impedance will be approximated by the real part at minimum frequency. The values are described via the [Reference] keyword.
! Default impedance is overridden by [Reference]
[Version] 2.0
# GHz S RI R 376.73
[Number of Ports] 4
[Reference]
376.73 376.73 376.73 376.73 
[Number of Frequencies] 1001
[Network Data]
281700                  -0.14902       -0.163034     -0.000630926    -0.000188375         0.203541       -0.946359       0.00036556    -0.000462954
                    -0.000636939     -0.00021029       -0.0707979        -0.17753     -0.000124302    -0.000482857        -0.470426        0.858719
                        0.203444        -0.94605     -0.000171614    -0.000301387        -0.204032       0.0889395      0.000535075     0.000209941
                     0.000347141    -0.000225489        -0.470601         0.85865      0.000477966     0.000407372        -0.187952       0.0363771
281700.1               -0.149025       -0.163027     -0.000630933    -0.000188365          0.20351       -0.946366      0.000365531    -0.000462973
                    -0.000636952    -0.000210288       -0.0708047       -0.177527     -0.000124312    -0.000482848        -0.470401        0.858732
                        0.203413       -0.946057     -0.000171621    -0.000301372        -0.204029       0.0889439      0.000535082     0.000209908
                     0.000347148    -0.000225497        -0.470577        0.858663      0.000477988     0.000407347        -0.187951       0.0363803
281700.2               -0.149031        -0.16302     -0.000630939    -0.000188355          0.20348       -0.946373      0.000365503    -0.000462993
                    -0.000636964    -0.000210286       -0.0708114       -0.177524     -0.000124322    -0.000482838        -0.470377        0.858745
                        0.203383       -0.946064     -0.000171627    -0.000301357        -0.204026       0.0889483      0.000535089     0.000209874
                     0.000347154    -0.000225505        -0.470553        0.858676       0.00047801     0.000407322         -0.18795       0.0363835
281700.3               -0.149037       -0.163014     -0.000630946    -0.000188345          0.20345       -0.946379      0.000365474    -0.000463012
                    -0.000636977    -0.000210285       -0.0708182       -0.177521     -0.000124332    -0.000482829        -0.470353        0.858758
                        0.203353       -0.946071     -0.000171634    -0.000301342        -0.204023       0.0889528      0.000535096     0.000209841
                      0.00034716    -0.000225513        -0.470529         0.85869      0.000478032     0.000407297        -0.187949       0.0363867
281700.4               -0.149042       -0.163007     -0.000630953    -0.000188335          0.20342       -0.946386      0.000365446    -0.000463032
                    -0.000636989    -0.000210283       -0.0708249       -0.177518     -0.000124342     -0.00048282        -0.470329        0.858772
                        0.203323       -0.946077     -0.000171641    -0.000301327        -0.204019       0.0889572      0.000535103     0.000209807
                     0.000347167     -0.00022552        -0.470505        0.858703      0.000478054     0.000407271        -0.187948       0.0363899
281700.5               -0.149048          -0.163     -0.000630959    -0.000188325          0.20339       -0.946393      0.000365417    -0.000463051
                    -0.000637002    -0.000210282       -0.0708317       -0.177515     -0.000124351     -0.00048281        -0.470305        0.858785
                        0.203293       -0.946084     -0.000171647    -0.000301312        -0.204016       0.0889616       0.00053511     0.000209774
                     0.000347173    -0.000225528        -0.470481        0.858716      0.000478076     0.000407246        -0.187947       0.0363931
281700.6               -0.149054       -0.162993     -0.000630966    -0.000188315         0.203359         -0.9464      0.000365388    -0.000463071
                    -0.000637014     -0.00021028       -0.0708385       -0.177511     -0.000124361    -0.000482801        -0.470281        0.858798
                        0.203262       -0.946091     -0.000171654    -0.000301298        -0.204013       0.0889661      0.000535117     0.000209741
                      0.00034718    -0.000225536        -0.470456         0.85873      0.000478098     0.000407221        -0.187946       0.0363962
281700.7                -0.14906       -0.162987     -0.000630973    -0.000188305         0.203329       -0.946407       0.00036536     -0.00046309
                    -0.000637026    -0.000210278       -0.0708452       -0.177508     -0.000124371    -0.000482792        -0.470257        0.858812
                        0.203232       -0.946098     -0.000171661    -0.000301283         -0.20401       0.0889705      0.000535124     0.000209707
                     0.000347186    -0.000225544        -0.470432        0.858743       0.00047812     0.000407196        -0.187945       0.0363994
281700.8               -0.149065        -0.16298     -0.000630979    -0.000188295         0.203299       -0.946413      0.000365331     -0.00046311
                    -0.000637039    -0.000210277        -0.070852       -0.177505     -0.000124381    -0.000482782        -0.470233        0.858825
                        0.203202       -0.946105     -0.000171667    -0.000301268        -0.204007       0.0889749      0.000535131     0.000209674
                     0.000347192    -0.000225552        -0.470408        0.858756      0.000478142     0.000407171        -0.187944       0.0364026
281700.9               -0.149071       -0.162973     -0.000630986    -0.000188285         0.203269        -0.94642      0.000365303    -0.000463129
                    -0.000637051    -0.000210275       -0.0708588       -0.177502     -0.000124391    -0.000482773        -0.470209        0.858838
                        0.203172       -0.946111     -0.000171674    -0.000301253        -0.204003       0.0889793      0.000535138      0.00020964
                     0.000347199    -0.000225559        -0.470384        0.858769      0.000478163     0.000407146        -0.187943       0.0364058
281701                 -0.149077       -0.162966     -0.000630993    -0.000188275         0.203239       -0.946427      0.000365274    -0.000463149
                    -0.000637064    -0.000210274       -0.0708655       -0.177499     -0.000124401    -0.000482763        -0.470184        0.858851
                        0.203142       -0.946118      -0.00017168    -0.000301238           -0.204       0.0889838      0.000535145     0.000209607
                     0.000347205    -0.000225567         -0.47036        0.858783      0.000478185      0.00040712        -0.187942        0.036409
281701.1               -0.149082        -0.16296     -0.000630999    -0.000188265         0.203208       -0.946434      0.000365246    -0.000463168
                    -0.000637076    -0.000210272       -0.0708723       -0.177496     -0.000124411    -0.000482754         -0.47016        0.858865
                        0.203111       -0.946125     -0.000171687    -0.000301223        -0.203997       0.0889882      0.000535152     0.000209573
                     0.000347212    -0.000225575        -0.470336        0.858796      0.000478207     0.000407095        -0.187941       0.0364122
281701.2               -0.149088       -0.162953     -0.000631006    -0.000188255         0.203178        -0.94644      0.000365217    -0.000463188
                    -0.000637089     -0.00021027        -0.070879       -0.177493     -0.000124421    -0.000482745        -0.470136        0.858878
                        0.203081       -0.946132     -0.000171694    -0.000301209        -0.203994       0.0889926      0.000535159      0.00020954
                     0.000347218    -0.000225583        -0.470312        0.858809      0.000478229      0.00040707         -0.18794       0.0364153
281701.3               -0.149094       -0.162946     -0.000631013    -0.000188245         0.203148       -0.946447      0.000365189    -0.000463207
                    -0.000637101    -0.000210269       -0.0708858        -0.17749      -0.00012443    -0.000482735        -0.470112        0.858891
                        0.203051       -0.946139       -0.0001717    -0.000301194         -0.20399        0.088997      0.000535166     0.000209507
                     0.000347224    -0.000225591        -0.470288        0.858823      0.000478251     0.000407045        -0.187939       0.0364185
281701.4                 -0.1491       -0.162939     -0.000631019    -0.000188235         0.203118       -0.946454       0.00036516    -0.000463227
                    -0.000637114    -0.000210267       -0.0708926       -0.177487      -0.00012444    -0.000482726        -0.470088        0.858904
                        0.203021       -0.946145     -0.000171707    -0.000301179        -0.203987       0.0890015      0.000535173     0.000209473
                     0.000347231    -0.000225598        -0.470264        0.858836      0.000478273      0.00040702        -0.187938       0.0364217
281701.5               -0.149105       -0.162933     -0.000631026    -0.000188225         0.203088       -0.946461      0.000365131    -0.000463246
                    -0.000637126    -0.000210266       -0.0708993       -0.177484      -0.00012445    -0.000482717        -0.470064        0.858918
                        0.202991       -0.946152     -0.000171714    -0.000301164        -0.203984       0.0890059       0.00053518      0.00020944
                     0.000347237    -0.000225606        -0.470239        0.858849      0.000478295     0.000406995        -0.187937       0.0364249
281701.6               -0.149111       -0.162926     -0.000631033    -0.000188215         0.203057       -0.946468      0.000365103    -0.000463266
                    -0.000637138    -0.000210264       -0.0709061       -0.177481      -0.00012446    -0.000482707         -0.47004        0.858931
                         0.20296       -0.946159      -0.00017172    -0.000301149        -0.203981       0.0890103      0.000535187     0.000209406
                     0.000347244    -0.000225614        -0.470215        0.858862      0.000478317     0.000406969        -0.187936       0.0364281
281701.7               -0.149117       -0.162919     -0.000631039    -0.000188205         0.203027       -0.946474      0.000365074    -0.000463285
                    -0.000637151    -0.000210262       -0.0709128       -0.177477      -0.00012447    -0.000482698        -0.470016        0.858944
                         0.20293       -0.946166     -0.000171727    -0.000301134        -0.203977       0.0890147      0.000535194     0.000209373
                      0.00034725    -0.000225622        -0.470191        0.858876      0.000478339     0.000406944        -0.187935       0.0364312
281701.8               -0.149122       -0.162912     -0.000631046    -0.000188195         0.202997       -0.946481      0.000365046    -0.000463305
                    -0.000637163    -0.000210261       -0.0709196       -0.177474      -0.00012448    -0.000482688        -0.469992        0.858958
                          0.2029       -0.946173     -0.000171733     -0.00030112        -0.203974       0.0890192      0.000535201      0.00020934
                     0.000347256     -0.00022563        -0.470167        0.858889      0.000478361     0.000406919        -0.187934       0.0364344
281701.9               -0.149128       -0.162906     -0.000631053    -0.000188185         0.202967       -0.946488      0.000365017    -0.000463324
                    -0.000637176    -0.000210259       -0.0709264       -0.177471      -0.00012449    -0.000482679        -0.469968        0.858971
                         0.20287       -0.946179      -0.00017174    -0.000301105        -0.203971       0.0890236      0.000535208     0.000209306
                     0.000347263    -0.000225638        -0.470143        0.858902      0.000478383     0.000406894        -0.187933       0.0364376
281702                 -0.149134       -0.162899     -0.000631059    -0.000188175         0.202937       -0.946495      0.000364989    -0.000463344
                    -0.000637188    -0.000210258       -0.0709331       -0.177468       -0.0001245     -0.00048267        -0.469943        0.858984
                         0.20284       -0.946186     -0.000171747     -0.00030109        -0.203968        0.089028      0.000535215     0.000209273
                     0.000347269    -0.000225646        -0.470119        0.858915      0.000478405     0.000406869        -0.187932       0.0364408
281702.1               -0.149139       -0.162892     -0.000631066    -0.000188165         0.202906       -0.946501       0.00036496    -0.000463363
                    -0.000637201    -0.000210256       -0.0709399       -0.177465     -0.000124509     -0.00048266        -0.469919        0.858997
                        0.202809       -0.946193     -0.000171753    -0.000301075        -0.203964       0.0890324      0.000535222     0.000209239
                     0.000347276    -0.000225653        -0.470095        0.858929      0.000478427     0.000406843        -0.187931        0.036444
281702.2               -0.149145       -0.162885     -0.000631073    -0.000188155         0.202876       -0.946508      0.000364932    -0.000463383
                    -0.000637213    -0.000210254       -0.0709466       -0.177462     -0.000124519    -0.000482651        -0.469895        0.859011
                        0.202779         -0.9462      -0.00017176     -0.00030106        -0.203961       0.0890369      0.000535229     0.000209206
                     0.000347282    -0.000225661        -0.470071        0.858942      0.000478449     0.000406818         -0.18793       0.0364472
281702.3               -0.149151       -0.162879     -0.000631079    -0.000188145         0.202846       -0.946515      0.000364903    -0.000463402
                    -0.000637226    -0.000210253       -0.0709534       -0.177459     -0.000124529    -0.000482641        -0.469871        0.859024
                        0.202749       -0.946207     -0.000171766    -0.000301045        -0.203958       0.0890413      0.000535236     0.000209173
                     0.000347289    -0.000225669        -0.470047        0.858955      0.000478471     0.000406793        -0.187929       0.0364503
281702.4               -0.149157       -0.162872     -0.000631086    -0.000188135         0.202816       -0.946522      0.000364875    -0.000463422
                    -0.000637238    -0.000210251       -0.0709602       -0.177456     -0.000124539    -0.000482632        -0.469847        0.859037
                        0.202719       -0.946213     -0.000171773    -0.000301031        -0.203955       0.0890457      0.000535243     0.000209139
                     0.000347295    -0.000225677        -0.470022        0.858969      0.000478493     0.000406768        -0.187928       0.0364535
281702.5               -0.149162       -0.162865     -0.000631093    -0.000188124         0.202786       -0.946529      0.000364846    -0.000463441
                    -0.000637251     -0.00021025       -0.0709669       -0.177453     -0.000124549    -0.000482622        -0.469823        0.859051
                        0.202689        -0.94622      -0.00017178    -0.000301016        -0.203951       0.0890502       0.00053525     0.000209106
                     0.000347301    -0.000225685        -0.469998        0.858982      0.000478515     0.000406742        -0.187927       0.0364567
281702.6               -0.149168       -0.162858     -0.000631099    -0.000188114         0.202755       -0.946535      0.000364817    -0.000463461
                    -0.000637263    -0.000210248       -0.0709737        -0.17745     -0.000124559    -0.000482613        -0.469799        0.859064
                        0.202658       -0.946227     -0.000171786    -0.000301001        -0.203948       0.0890546      0.000535257     0.000209073
                     0.000347308    -0.000225693        -0.469974        0.858995      0.000478536     0.000406717        -0.187926       0.0364599
281702.7               -0.149174       -0.162852     -0.000631106    -0.000188104         0.202725       -0.946542      0.000364789     -0.00046348
                    -0.000637276    -0.000210246       -0.0709804       -0.177447     -0.000124569    -0.000482604        -0.469775        0.859077
                        0.202628       -0.946234     -0.000171793    -0.000300986        -0.203945        0.089059      0.000535264     0.000209039
                     0.000347314    -0.000225701         -0.46995        0.859008      0.000478558     0.000406692        -0.187925       0.0364631
281702.8               -0.149179       -0.162845     -0.000631113    -0.000188094         0.202695       -0.946549       0.00036476      -0.0004635
                    -0.000637288    -0.000210245       -0.0709872       -0.177443     -0.000124579    -0.000482594         -0.46975         0.85909
                        0.202598       -0.946241       -0.0001718    -0.000300971        -0.203942       0.0890634      0.000535271     0.000209006
                     0.000347321    -0.000225709        -0.469926        0.859022       0.00047858     0.000406667        -0.187924       0.0364662
281702.9               -0.149185       -0.162838     -0.000631119    -0.000188084         0.202665       -0.946556      0.000364732    -0.000463519
                    -0.000637301    -0.000210243        -0.070994        -0.17744     -0.000124588    -0.000482585        -0.469726        0.859104
                        0.202568       -0.946247     -0.000171806    -0.000300956        -0.203938       0.0890678      0.000535278     0.000208972
                     0.000347327    -0.000225716        -0.469902        0.859035      0.000478602     0.000406641        -0.187923       0.0364694
281703                 -0.149191       -0.162831     -0.000631126    -0.000188074         0.202635       -0.946562      0.000364703    -0.000463539
                    -0.000637313    -0.000210242       -0.0710007       -0.177437     -0.000124598    -0.000482575        -0.469702        0.859117
                        0.202538       -0.946254     -0.000171813    -0.000300942        -0.203935       0.0890723      0.000535285     0.000208939
                     0.000347334    -0.000225724        -0.469878        0.859048      0.000478624     0.000406616        -0.187922       0.0364726
281703.1               -0.149196       -0.162825     -0.000631133    -0.000188064         0.202604       -0.946569      0.000364675    -0.000463558
                    -0.000637326     -0.00021024       -0.0710075       -0.177434     -0.000124608    -0.000482566        -0.469678         0.85913
                        0.202507       -0.946261     -0.000171819    -0.000300927        -0.203932       0.0890767      0.000535292     0.000208906
