! TOUCHSTONE file generated by CST MICROWAVE STUDIO
! Date and time: Wed Oct  8 07:05:14 2025
! Project name: Teste_Macro_Metasurface_Nanopilar.cst
! Parameters = {H=600; L_x=190; L_y=150; Lambda=1064; Max_L=200; Min_L=70; PathPara=1; Phi=0; Step_L=10; Theta=0; p=520; phaseX=180; phaseY=0}
! Header version: 2018
! Port assignment regex: !\s*Touchstone port\s*([0-9]+)\s*=\s*(CST MWS port|CST DS port)\s*([0-9]+|Zmin|Zmax)\s*\(\"(.*)\"\)(\s*mode\s*([0-9]+))?.*
! Touchstone port assignment:
! Touchstone port 1 = CST MWS port Zmax ("") mode 1
! Touchstone port 2 = CST MWS port Zmax ("") mode 2
! Touchstone port 3 = CST MWS port Zmin ("") mode 1
! Touchstone port 4 = CST MWS port Zmin ("") mode 2
! S-Parameters are not renormalized. Each port impedance will be approximated by the real part at minimum frequency. The values are described via the [Reference] keyword.
! Default impedance is overridden by [Reference]
[Version] 2.0
# GHz S RI R 376.73
[Number of Ports] 4
[Reference]
376.73 376.73 376.73 376.73 
[Number of Frequencies] 1001
[Network Data]
281700                -0.0457475        0.109637      0.000441293      0.00103475        -0.898505       -0.411252      0.000138465     -0.00108765
                     0.000422845        0.001065        -0.034646      -0.0949555       8.5636e-05     -0.00122057        -0.990151       0.0347405
                       -0.898789       -0.411479      0.000316441     -0.00114322       -0.0569126        0.104378      -0.00056577     0.000947539
                     0.000222531      -0.0010496        -0.990328       0.0346473     -0.000597896      0.00095692        0.0232694       -0.097944
281700.1              -0.0457415        0.109633       0.00044133      0.00103474        -0.898518       -0.411226      0.000138447     -0.00108767
                     0.000422886      0.00106498       -0.0346486      -0.0949614      8.55946e-05     -0.00122058        -0.990149       0.0347701
                       -0.898802       -0.411452      0.000316387     -0.00114324       -0.0569073        0.104374     -0.000565747     0.000947592
                     0.000222489     -0.00104961        -0.990326        0.034677     -0.000597849     0.000956934        0.0232657      -0.0979516
281700.2              -0.0457354        0.109629      0.000441366      0.00103473        -0.898531       -0.411199      0.000138429      -0.0010877
                     0.000422927      0.00106496       -0.0346511      -0.0949673      8.55531e-05     -0.00122059        -0.990147       0.0347998
                       -0.898815       -0.411426      0.000316334     -0.00114325        -0.056902         0.10437     -0.000565725     0.000947644
                     0.000222447     -0.00104961        -0.990325       0.0347067     -0.000597803     0.000956949         0.023262      -0.0979592
281700.3              -0.0457294        0.109625      0.000441403      0.00103472        -0.898544       -0.411172      0.000138412     -0.00108772
                     0.000422968      0.00106494       -0.0346536      -0.0949732      8.55117e-05      -0.0012206        -0.990146       0.0348295
                       -0.898828       -0.411399      0.000316281     -0.00114326       -0.0568968        0.104366     -0.000565702     0.000947696
                     0.000222405     -0.00104961        -0.990323       0.0347364     -0.000597757     0.000956963        0.0232583      -0.0979668
281700.4              -0.0457233        0.109622      0.000441439      0.00103471        -0.898557       -0.411146      0.000138394     -0.00108775
                     0.000423008      0.00106491       -0.0346562      -0.0949791      8.54703e-05     -0.00122061        -0.990144       0.0348591
                       -0.898841       -0.411372      0.000316227     -0.00114327       -0.0568915        0.104363     -0.000565679     0.000947748
                     0.000222363     -0.00104961        -0.990321        0.034766     -0.000597711     0.000956977        0.0232545      -0.0979744
281700.5              -0.0457173        0.109618      0.000441476       0.0010347         -0.89857       -0.411119      0.000138376     -0.00108777
                     0.000423049      0.00106489       -0.0346587      -0.0949851      8.54289e-05     -0.00122063        -0.990142       0.0348888
                       -0.898854       -0.411346      0.000316174     -0.00114329       -0.0568862        0.104359     -0.000565656       0.0009478
                     0.000222321     -0.00104961         -0.99032       0.0347957     -0.000597664     0.000956992        0.0232508       -0.097982
281700.6              -0.0457112        0.109614      0.000441512      0.00103469        -0.898583       -0.411092      0.000138359      -0.0010878
                      0.00042309      0.00106487       -0.0346613       -0.094991      8.53875e-05     -0.00122064         -0.99014       0.0349184
                       -0.898867       -0.411319       0.00031612      -0.0011433       -0.0568809        0.104355     -0.000565633     0.000947852
                     0.000222279     -0.00104962        -0.990318       0.0348254     -0.000597618     0.000957006        0.0232471      -0.0979896
281700.7              -0.0457052         0.10961      0.000441548      0.00103468        -0.898596       -0.411066      0.000138341     -0.00108782
                     0.000423131      0.00106485       -0.0346638      -0.0949969      8.53461e-05     -0.00122065        -0.990139       0.0349481
                        -0.89888       -0.411293      0.000316067     -0.00114331       -0.0568756        0.104351     -0.000565611     0.000947904
                     0.000222237     -0.00104962        -0.990316        0.034855     -0.000597572      0.00095702        0.0232434      -0.0979972
281700.8              -0.0456991        0.109606      0.000441585      0.00103467        -0.898609       -0.411039      0.000138323     -0.00108785
                     0.000423172      0.00106483       -0.0346663      -0.0950028      8.53046e-05     -0.00122066        -0.990137       0.0349778
                       -0.898893       -0.411266      0.000316013     -0.00114333       -0.0568704        0.104347     -0.000565588     0.000947956
                     0.000222195     -0.00104962        -0.990314       0.0348847     -0.000597525     0.000957035        0.0232396      -0.0980048
281700.9              -0.0456931        0.109602      0.000441621      0.00103466        -0.898622       -0.411013      0.000138306     -0.00108787
                     0.000423213       0.0010648       -0.0346689      -0.0950087      8.52632e-05     -0.00122067        -0.990135       0.0350074
                       -0.898906       -0.411239       0.00031596     -0.00114334       -0.0568651        0.104344     -0.000565565     0.000948008
                     0.000222153     -0.00104962        -0.990313       0.0349144     -0.000597479     0.000957049        0.0232359      -0.0980124
281701                 -0.045687        0.109598      0.000441658      0.00103466        -0.898635       -0.410986      0.000138288      -0.0010879
                     0.000423254      0.00106478       -0.0346714      -0.0950147      8.52218e-05     -0.00122069        -0.990134       0.0350371
                       -0.898919       -0.411213      0.000315906     -0.00114335       -0.0568598         0.10434     -0.000565542      0.00094806
                      0.00022211     -0.00104962        -0.990311       0.0349441     -0.000597433     0.000957063        0.0232322        -0.09802
281701.1               -0.045681        0.109594      0.000441694      0.00103465        -0.898648       -0.410959       0.00013827     -0.00108792
                     0.000423295      0.00106476        -0.034674      -0.0950206      8.51804e-05      -0.0012207        -0.990132       0.0350667
                       -0.898932       -0.411186      0.000315853     -0.00114337       -0.0568545        0.104336     -0.000565519     0.000948112
                     0.000222068     -0.00104962        -0.990309       0.0349737     -0.000597386     0.000957078        0.0232284      -0.0980276
281701.2              -0.0456749        0.109591      0.000441731      0.00103464        -0.898661       -0.410933      0.000138253     -0.00108795
                     0.000423336      0.00106474       -0.0346765      -0.0950265       8.5139e-05     -0.00122071         -0.99013       0.0350964
                       -0.898945        -0.41116      0.000315799     -0.00114338       -0.0568493        0.104332     -0.000565496     0.000948164
                     0.000222026     -0.00104963        -0.990308       0.0350034      -0.00059734     0.000957092        0.0232247      -0.0980352
281701.3              -0.0456689        0.109587      0.000441767      0.00103463        -0.898674       -0.410906      0.000138235     -0.00108797
                     0.000423377      0.00106472        -0.034679      -0.0950324      8.50975e-05     -0.00122072        -0.990129       0.0351261
                       -0.898958       -0.411133      0.000315746     -0.00114339        -0.056844        0.104329     -0.000565474     0.000948216
                     0.000221984     -0.00104963        -0.990306       0.0350331     -0.000597294     0.000957106         0.023221      -0.0980428
281701.4              -0.0456628        0.109583      0.000441804      0.00103462        -0.898687        -0.41088      0.000138217       -0.001088
                     0.000423418      0.00106469       -0.0346816      -0.0950383      8.50561e-05     -0.00122073        -0.990127       0.0351557
                       -0.898971       -0.411106      0.000315692     -0.00114341       -0.0568387        0.104325     -0.000565451     0.000948268
                     0.000221942     -0.00104963        -0.990304       0.0350628     -0.000597247     0.000957121        0.0232173      -0.0980504
281701.5              -0.0456568        0.109579       0.00044184      0.00103461          -0.8987       -0.410853        0.0001382     -0.00108802
                     0.000423458      0.00106467       -0.0346841      -0.0950442      8.50147e-05     -0.00122075        -0.990125       0.0351854
                       -0.898984        -0.41108      0.000315639     -0.00114342       -0.0568334        0.104321     -0.000565428      0.00094832
                       0.0002219     -0.00104963        -0.990302       0.0350924     -0.000597201     0.000957135        0.0232135       -0.098058
281701.6              -0.0456507        0.109575      0.000441877       0.0010346        -0.898713       -0.410826      0.000138182     -0.00108805
                     0.000423499      0.00106465       -0.0346867      -0.0950502      8.49733e-05     -0.00122076        -0.990123        0.035215
                       -0.898997       -0.411053      0.000315585     -0.00114343       -0.0568282        0.104317     -0.000565405     0.000948372
                     0.000221858     -0.00104963        -0.990301       0.0351221     -0.000597155      0.00095715        0.0232098      -0.0980656
281701.7              -0.0456447        0.109571      0.000441913      0.00103459        -0.898725         -0.4108      0.000138164     -0.00108807
                      0.00042354      0.00106463       -0.0346892      -0.0950561      8.49318e-05     -0.00122077        -0.990122       0.0352447
                        -0.89901       -0.411026      0.000315532     -0.00114345       -0.0568229        0.104314     -0.000565382     0.000948424
                     0.000221816     -0.00104964        -0.990299       0.0351518     -0.000597108     0.000957164        0.0232061      -0.0980732
281701.8              -0.0456386        0.109567      0.000441949      0.00103458        -0.898738       -0.410773      0.000138147     -0.00108809
                     0.000423581      0.00106461       -0.0346918       -0.095062      8.48904e-05     -0.00122078         -0.99012       0.0352744
                       -0.899023          -0.411      0.000315478     -0.00114346       -0.0568176         0.10431     -0.000565359     0.000948476
                     0.000221774     -0.00104964        -0.990297       0.0351814     -0.000597062     0.000957178        0.0232023      -0.0980808
281701.9              -0.0456326        0.109564      0.000441986      0.00103457        -0.898751       -0.410746      0.000138129     -0.00108812
                     0.000423622      0.00106458       -0.0346943      -0.0950679       8.4849e-05     -0.00122079        -0.990118        0.035304
                       -0.899035       -0.410973      0.000315425     -0.00114347       -0.0568123        0.104306     -0.000565337     0.000948528
                     0.000221732     -0.00104964        -0.990295       0.0352111     -0.000597015     0.000957193        0.0231986      -0.0980883
281702                -0.0456265         0.10956      0.000442022      0.00103456        -0.898764        -0.41072      0.000138111     -0.00108814
                     0.000423663      0.00106456       -0.0346969      -0.0950738      8.48075e-05      -0.0012208        -0.990117       0.0353337
                       -0.899048       -0.410947      0.000315372     -0.00114349       -0.0568071        0.104302     -0.000565314      0.00094858
                      0.00022169     -0.00104964        -0.990294       0.0352408     -0.000596969     0.000957207        0.0231949      -0.0980959
281702.1              -0.0456205        0.109556      0.000442059      0.00103455        -0.898777       -0.410693      0.000138093     -0.00108817
                     0.000423704      0.00106454       -0.0346994      -0.0950798      8.47661e-05     -0.00122082        -0.990115       0.0353633
                       -0.899061        -0.41092      0.000315318      -0.0011435       -0.0568018        0.104299     -0.000565291     0.000948632
                     0.000221648     -0.00104964        -0.990292       0.0352705     -0.000596923     0.000957221        0.0231912      -0.0981035
281702.2              -0.0456145        0.109552      0.000442095      0.00103455         -0.89879       -0.410667      0.000138076     -0.00108819
                     0.000423745      0.00106452       -0.0347019      -0.0950857      8.47247e-05     -0.00122083        -0.990113        0.035393
                       -0.899074       -0.410893      0.000315265     -0.00114351       -0.0567965        0.104295     -0.000565268     0.000948684
                     0.000221606     -0.00104965         -0.99029       0.0353001     -0.000596876     0.000957235        0.0231874      -0.0981111
281702.3              -0.0456084        0.109548      0.000442132      0.00103454        -0.898803        -0.41064      0.000138058     -0.00108822
                     0.000423786       0.0010645       -0.0347045      -0.0950916      8.46832e-05     -0.00122084        -0.990111       0.0354226
                       -0.899087       -0.410867      0.000315211     -0.00114353       -0.0567912        0.104291     -0.000565245     0.000948735
                     0.000221564     -0.00104965        -0.990288       0.0353298      -0.00059683      0.00095725        0.0231837      -0.0981187
281702.4              -0.0456024        0.109544      0.000442168      0.00103453        -0.898816       -0.410613       0.00013804     -0.00108824
                     0.000423826      0.00106447        -0.034707      -0.0950975      8.46418e-05     -0.00122085         -0.99011       0.0354523
                         -0.8991        -0.41084      0.000315158     -0.00114354        -0.056786        0.104287     -0.000565222     0.000948787
                     0.000221522     -0.00104965        -0.990287       0.0353595     -0.000596783     0.000957264          0.02318      -0.0981263
281702.5              -0.0455963         0.10954      0.000442205      0.00103452        -0.898829       -0.410587      0.000138022     -0.00108827
                     0.000423867      0.00106445       -0.0347096      -0.0951034      8.46004e-05     -0.00122086        -0.990108        0.035482
                       -0.899113       -0.410813      0.000315104     -0.00114355       -0.0567807        0.104283       -0.0005652     0.000948839
                      0.00022148     -0.00104965        -0.990285       0.0353891     -0.000596737     0.000957278        0.0231762      -0.0981339
281702.6              -0.0455903        0.109536      0.000442241      0.00103451        -0.898842        -0.41056      0.000138005     -0.00108829
                     0.000423908      0.00106443       -0.0347121      -0.0951093      8.45589e-05     -0.00122088        -0.990106       0.0355116
                       -0.899126       -0.410787      0.000315051     -0.00114356       -0.0567754         0.10428     -0.000565177     0.000948891
                     0.000221437     -0.00104965        -0.990283       0.0354188     -0.000596691     0.000957293        0.0231725      -0.0981415
281702.7              -0.0455842        0.109533      0.000442278       0.0010345        -0.898855       -0.410533      0.000137987     -0.00108832
                     0.000423949      0.00106441       -0.0347147      -0.0951153      8.45175e-05     -0.00122089        -0.990104       0.0355413
                       -0.899139        -0.41076      0.000314997     -0.00114358       -0.0567701        0.104276     -0.000565154     0.000948943
                     0.000221395     -0.00104966        -0.990282       0.0354485     -0.000596644     0.000957307        0.0231688      -0.0981491
281702.8              -0.0455782        0.109529      0.000442314      0.00103449        -0.898868       -0.410507      0.000137969     -0.00108834
                      0.00042399      0.00106439       -0.0347172      -0.0951212       8.4476e-05      -0.0012209        -0.990103       0.0355709
                       -0.899152       -0.410734      0.000314944     -0.00114359       -0.0567649        0.104272     -0.000565131     0.000948994
                     0.000221353     -0.00104966         -0.99028       0.0354782     -0.000596598     0.000957321         0.023165      -0.0981567
281702.9              -0.0455721        0.109525      0.000442351      0.00103448        -0.898881        -0.41048      0.000137951     -0.00108837
                     0.000424031      0.00106436       -0.0347198      -0.0951271      8.44346e-05     -0.00122091        -0.990101       0.0356006
                       -0.899165       -0.410707       0.00031489      -0.0011436       -0.0567596        0.104268     -0.000565108     0.000949046
                     0.000221311     -0.00104966        -0.990278       0.0355078     -0.000596551     0.000957336        0.0231613      -0.0981643
281703                -0.0455661        0.109521      0.000442387      0.00103447        -0.898894       -0.410454      0.000137934     -0.00108839
                     0.000424072      0.00106434       -0.0347223       -0.095133      8.43932e-05     -0.00122092        -0.990099       0.0356303
                       -0.899178        -0.41068      0.000314837     -0.00114362       -0.0567543        0.104265     -0.000565085     0.000949098
                     0.000221269     -0.00104966        -0.990276       0.0355375     -0.000596505      0.00095735        0.0231575      -0.0981719
281703.1              -0.0455601        0.109517      0.000442424      0.00103446        -0.898907       -0.410427      0.000137916     -0.00108842
                     0.000424113      0.00106432       -0.0347249      -0.0951389      8.43517e-05     -0.00122094        -0.990098       0.0356599
                       -0.899191       -0.410654      0.000314783     -0.00114363        -0.056749        0.104261     -0.000565062     0.000949149
