! TOUCHSTONE file generated by CST MICROWAVE STUDIO
! Date and time: Wed Oct  8 07:05:25 2025
! Project name: Teste_Macro_Metasurface_Nanopilar.cst
! Parameters = {H=600; L_x=190; L_y=190; Lambda=1064; Max_L=200; Min_L=70; PathPara=1; Phi=0; Step_L=10; Theta=0; p=520; phaseX=180; phaseY=0}
! Header version: 2018
! Port assignment regex: !\s*Touchstone port\s*([0-9]+)\s*=\s*(CST MWS port|CST DS port)\s*([0-9]+|Zmin|Zmax)\s*\(\"(.*)\"\)(\s*mode\s*([0-9]+))?.*
! Touchstone port assignment:
! Touchstone port 1 = CST MWS port Zmax ("") mode 1
! Touchstone port 2 = CST MWS port Zmax ("") mode 2
! Touchstone port 3 = CST MWS port Zmin ("") mode 1
! Touchstone port 4 = CST MWS port Zmin ("") mode 2
! S-Parameters are not renormalized. Each port impedance will be approximated by the real part at minimum frequency. The values are described via the [Reference] keyword.
! Default impedance is overridden by [Reference]
[Version] 2.0
# GHz S RI R 376.73
[Number of Ports] 4
[Reference]
376.73 376.73 376.73 376.73 
[Number of Frequencies] 1001
[Network Data]
281700                 -0.238359       -0.253456       0.00139622     0.000181684        -0.888399        0.287289     -0.000913886    -0.000756693
                      0.00137312     0.000159504        -0.234896       -0.252192     -0.000642034    -0.000739434        -0.890249        0.286163
                       -0.888392        0.287367     -0.000545888    -0.000816971        0.0415867       -0.344068     -0.000186786      0.00103125
                    -0.000818089    -0.000727622        -0.890154        0.285865     -8.75661e-05     0.000927295        0.0409609       -0.340866
281700.1               -0.238366       -0.253456       0.00139626     0.000181662        -0.888388        0.287315       -0.0009139    -0.000756659
                      0.00137315     0.000159477        -0.234903       -0.252193     -0.000642069    -0.000739429        -0.890238        0.286189
                       -0.888382        0.287393     -0.000545996    -0.000816984        0.0415719       -0.344075     -0.000186747      0.00103125
                    -0.000818101    -0.000727614        -0.890144        0.285891     -8.75425e-05     0.000927311        0.0409462       -0.340873
281700.2               -0.238373       -0.253457        0.0013963      0.00018164        -0.888378        0.287341     -0.000913913    -0.000756625
                      0.00137318     0.000159449        -0.234911       -0.252193     -0.000642103    -0.000739424        -0.890228        0.286215
                       -0.888372        0.287419     -0.000546105    -0.000816997         0.041557       -0.344082     -0.000186707      0.00103126
                    -0.000818112    -0.000727606        -0.890134        0.285917     -8.75189e-05     0.000927327        0.0409315        -0.34088
281700.3                -0.23838       -0.253457       0.00139633     0.000181619        -0.888368        0.287367     -0.000913927    -0.000756591
                      0.00137321     0.000159421        -0.234918       -0.252193     -0.000642138    -0.000739419        -0.890218        0.286241
                       -0.888361        0.287445     -0.000546213     -0.00081701        0.0415422       -0.344089     -0.000186667      0.00103126
                    -0.000818124    -0.000727598        -0.890124        0.285943     -8.74953e-05     0.000927342        0.0409168       -0.340887
281700.4               -0.238388       -0.253457       0.00139637     0.000181597        -0.888357        0.287393     -0.000913941    -0.000756558
                      0.00137324     0.000159393        -0.234925       -0.252194     -0.000642173    -0.000739414        -0.890207        0.286267
                       -0.888351        0.287471     -0.000546321    -0.000817023        0.0415273       -0.344096     -0.000186627      0.00103127
                    -0.000818136    -0.000727591        -0.890114        0.285969     -8.74717e-05     0.000927358        0.0409021       -0.340894
281700.5               -0.238395       -0.253457       0.00139641     0.000181576        -0.888347        0.287419     -0.000913954    -0.000756524
                      0.00137327     0.000159364        -0.234932       -0.252194     -0.000642207    -0.000739408        -0.890197        0.286293
                        -0.88834        0.287496      -0.00054643    -0.000817036        0.0415125       -0.344103     -0.000186587      0.00103127
                    -0.000818148    -0.000727583        -0.890104        0.285995     -8.74482e-05     0.000927374        0.0408873       -0.340901
281700.6               -0.238402       -0.253458       0.00139644     0.000181555        -0.888337        0.287445     -0.000913968     -0.00075649
                       0.0013733     0.000159336        -0.234939       -0.252195     -0.000642242    -0.000739403        -0.890187        0.286319
                        -0.88833        0.287522     -0.000546538     -0.00081705        0.0414976        -0.34411     -0.000186547      0.00103127
                     -0.00081816    -0.000727575        -0.890094        0.286021     -8.74246e-05      0.00092739        0.0408726       -0.340908
281700.7               -0.238409       -0.253458       0.00139648     0.000181534        -0.888326        0.287471     -0.000913982    -0.000756456
                      0.00137334     0.000159307        -0.234947       -0.252195     -0.000642276    -0.000739398        -0.890176        0.286345
                        -0.88832        0.287548     -0.000546646    -0.000817064        0.0414828       -0.344117     -0.000186508      0.00103128
                    -0.000818172    -0.000727567        -0.890084        0.286047      -8.7401e-05     0.000927406        0.0408579       -0.340915
281700.8               -0.238416       -0.253458       0.00139652     0.000181514        -0.888316        0.287496     -0.000913995    -0.000756422
                      0.00137337     0.000159278        -0.234954       -0.252195     -0.000642311    -0.000739393        -0.890166        0.286371
                       -0.888309        0.287574     -0.000546755    -0.000817078         0.041468       -0.344124     -0.000186468      0.00103128
                    -0.000818184    -0.000727559        -0.890074        0.286073     -8.73774e-05     0.000927422        0.0408432       -0.340922
281700.9               -0.238424       -0.253459       0.00139656     0.000181493        -0.888305        0.287522     -0.000914009    -0.000756388
                      0.00137341     0.000159249        -0.234961       -0.252196     -0.000642345    -0.000739388        -0.890156        0.286397
                       -0.888299          0.2876     -0.000546863    -0.000817092        0.0414531       -0.344131     -0.000186428      0.00103129
                    -0.000818196    -0.000727551        -0.890064        0.286099     -8.73538e-05     0.000927438        0.0408285       -0.340929
281701                 -0.238431       -0.253459        0.0013966     0.000181473        -0.888295        0.287548     -0.000914023    -0.000756354
                      0.00137345     0.000159219        -0.234968       -0.252196      -0.00064238    -0.000739383        -0.890145        0.286423
                       -0.888288        0.287626     -0.000546971    -0.000817107        0.0414383       -0.344138     -0.000186388      0.00103129
                    -0.000818208    -0.000727543        -0.890054        0.286124     -8.73302e-05     0.000927454        0.0408138       -0.340936
281701.1               -0.238438       -0.253459       0.00139663     0.000181453        -0.888285        0.287574     -0.000914036    -0.000756321
                      0.00137349      0.00015919        -0.234975       -0.252197     -0.000642415    -0.000739378        -0.890135        0.286449
                       -0.888278        0.287652     -0.000547079    -0.000817121        0.0414234       -0.344145     -0.000186348      0.00103129
                     -0.00081822    -0.000727536        -0.890044         0.28615     -8.73066e-05      0.00092747        0.0407991       -0.340943
281701.2               -0.238445       -0.253459       0.00139667     0.000181433        -0.888274          0.2876      -0.00091405    -0.000756287
                      0.00137353      0.00015916        -0.234983       -0.252197     -0.000642449    -0.000739372        -0.890125        0.286475
                       -0.888268        0.287678     -0.000547187    -0.000817136        0.0414086       -0.344152     -0.000186309       0.0010313
                    -0.000818232    -0.000727528        -0.890034        0.286176      -8.7283e-05     0.000927486        0.0407844        -0.34095
281701.3               -0.238452        -0.25346       0.00139671     0.000181413        -0.888264        0.287626     -0.000914064    -0.000756253
                      0.00137357      0.00015913         -0.23499       -0.252197     -0.000642484    -0.000739367        -0.890114        0.286501
                       -0.888257        0.287704     -0.000547296    -0.000817151        0.0413937       -0.344159     -0.000186269       0.0010313
                    -0.000818244     -0.00072752        -0.890024        0.286202     -8.72594e-05     0.000927502        0.0407697       -0.340957
281701.4                -0.23846        -0.25346       0.00139675     0.000181394        -0.888253        0.287652     -0.000914077    -0.000756219
                      0.00137361       0.0001591        -0.234997       -0.252198     -0.000642518    -0.000739362        -0.890104        0.286527
                       -0.888247        0.287729     -0.000547404    -0.000817167        0.0413789       -0.344166     -0.000186229      0.00103131
                    -0.000818256    -0.000727512        -0.890014        0.286228     -8.72358e-05     0.000927518         0.040755       -0.340964
281701.5               -0.238467        -0.25346       0.00139679     0.000181375        -0.888243        0.287678     -0.000914091    -0.000756185
                      0.00137366      0.00015907        -0.235004       -0.252198     -0.000642553    -0.000739357        -0.890094        0.286553
                       -0.888236        0.287755     -0.000547512    -0.000817182         0.041364       -0.344173     -0.000186189      0.00103131
                    -0.000818268    -0.000727504        -0.890004        0.286254     -8.72121e-05     0.000927534        0.0407403       -0.340971
281701.6               -0.238474        -0.25346       0.00139683     0.000181356        -0.888233        0.287703     -0.000914104    -0.000756152
                      0.00137371     0.000159039        -0.235011       -0.252199     -0.000642588    -0.000739352        -0.890083        0.286578
                       -0.888226        0.287781      -0.00054762    -0.000817198        0.0413492        -0.34418      -0.00018615      0.00103132
                     -0.00081828    -0.000727496        -0.889994         0.28628     -8.71885e-05      0.00092755        0.0407256       -0.340978
281701.7               -0.238481       -0.253461       0.00139687     0.000181337        -0.888222        0.287729     -0.000914118    -0.000756118
                      0.00137375     0.000159008        -0.235018       -0.252199     -0.000642622    -0.000739347        -0.890073        0.286604
                       -0.888216        0.287807     -0.000547728    -0.000817214        0.0413343       -0.344187      -0.00018611      0.00103132
                    -0.000818292    -0.000727489        -0.889984        0.286306     -8.71649e-05     0.000927566        0.0407109       -0.340985
281701.8               -0.238488       -0.253461       0.00139691     0.000181318        -0.888212        0.287755     -0.000914132    -0.000756084
                       0.0013738     0.000158978        -0.235026       -0.252199     -0.000642657    -0.000739341        -0.890063         0.28663
                       -0.888205        0.287833     -0.000547836    -0.000817231        0.0413195       -0.344194      -0.00018607      0.00103132
                    -0.000818304    -0.000727481        -0.889974        0.286332     -8.71413e-05     0.000927582        0.0406962       -0.340992
281701.9               -0.238496       -0.253461       0.00139696     0.000181299        -0.888202        0.287781     -0.000914145     -0.00075605
                      0.00137386     0.000158947        -0.235033         -0.2522     -0.000642691    -0.000739336        -0.890052        0.286656
                       -0.888195        0.287859     -0.000547943    -0.000817247        0.0413046       -0.344201     -0.000186031      0.00103133
                    -0.000818316    -0.000727473        -0.889964        0.286358     -8.71177e-05     0.000927597        0.0406815       -0.340999
281702                 -0.238503       -0.253462         0.001397     0.000181281        -0.888191        0.287807     -0.000914159    -0.000756016
                      0.00137391     0.000158916         -0.23504         -0.2522     -0.000642726    -0.000739331        -0.890042        0.286682
                       -0.888184        0.287885     -0.000548051    -0.000817264        0.0412898       -0.344208     -0.000185991      0.00103133
                    -0.000818328    -0.000727465        -0.889954        0.286384     -8.70941e-05     0.000927613        0.0406668       -0.341006
281702.1                -0.23851       -0.253462       0.00139704     0.000181263        -0.888181        0.287833     -0.000914172    -0.000755983
                      0.00137397     0.000158886        -0.235047       -0.252201      -0.00064276    -0.000739326        -0.890032        0.286708
                       -0.888174        0.287911     -0.000548159    -0.000817281        0.0412749       -0.344215     -0.000185951      0.00103134
                     -0.00081834    -0.000727457        -0.889944        0.286409     -8.70704e-05     0.000927629        0.0406521       -0.341013
281702.2               -0.238517       -0.253462       0.00139708     0.000181245         -0.88817        0.287859     -0.000914186    -0.000755949
                      0.00137403     0.000158855        -0.235054       -0.252201     -0.000642795    -0.000739321        -0.890021        0.286734
                       -0.888164        0.287937     -0.000548267    -0.000817298        0.0412601       -0.344222     -0.000185911      0.00103134
                    -0.000818352    -0.000727449        -0.889934        0.286435     -8.70468e-05     0.000927645        0.0406374        -0.34102
281702.3               -0.238524       -0.253462       0.00139712     0.000181227         -0.88816        0.287884     -0.000914199    -0.000755915
                      0.00137409     0.000158824        -0.235062       -0.252201      -0.00064283    -0.000739315        -0.890011         0.28676
                       -0.888153        0.287962     -0.000548374    -0.000817315        0.0412452       -0.344229     -0.000185872      0.00103134
                    -0.000818364    -0.000727441        -0.889924        0.286461     -8.70232e-05     0.000927661        0.0406227       -0.341027
281702.4               -0.238532       -0.253463       0.00139717      0.00018121         -0.88815         0.28791     -0.000914213    -0.000755881
                      0.00137416     0.000158794        -0.235069       -0.252202     -0.000642864     -0.00073931        -0.890001        0.286786
                       -0.888143        0.287988     -0.000548482    -0.000817333        0.0412304       -0.344236     -0.000185832      0.00103135
                    -0.000818376    -0.000727434        -0.889914        0.286487     -8.69996e-05     0.000927677        0.0406079       -0.341034
281702.5               -0.238539       -0.253463       0.00139721     0.000181193        -0.888139        0.287936     -0.000914227    -0.000755847
                      0.00137423     0.000158763        -0.235076       -0.252202     -0.000642899    -0.000739305         -0.88999        0.286812
                       -0.888132        0.288014      -0.00054859    -0.000817351        0.0412155       -0.344243     -0.000185792      0.00103135
                    -0.000818388    -0.000727426        -0.889904        0.286513     -8.69759e-05     0.000927693        0.0405932       -0.341041
281702.6               -0.238546       -0.253463       0.00139725     0.000181176        -0.888129        0.287962      -0.00091424    -0.000755814
                       0.0013743     0.000158734        -0.235083       -0.252203     -0.000642933      -0.0007393         -0.88998        0.286838
                       -0.888122         0.28804     -0.000548697    -0.000817369        0.0412007        -0.34425     -0.000185753      0.00103136
                      -0.0008184    -0.000727418        -0.889893        0.286539     -8.69523e-05     0.000927709        0.0405785       -0.341048
281702.7               -0.238553       -0.253463       0.00139729     0.000181159        -0.888118        0.287988     -0.000914254     -0.00075578
                      0.00137438     0.000158704         -0.23509       -0.252203     -0.000642968    -0.000739294        -0.889969        0.286864
                       -0.888112        0.288066     -0.000548805    -0.000817387        0.0411858       -0.344257     -0.000185713      0.00103136
                    -0.000818412     -0.00072741        -0.889883        0.286565     -8.69287e-05     0.000927725        0.0405638       -0.341055
281702.8               -0.238561       -0.253464       0.00139734     0.000181142        -0.888108        0.288014     -0.000914267    -0.000755746
                      0.00137446     0.000158675        -0.235098       -0.252203     -0.000643002    -0.000739289        -0.889959         0.28689
                       -0.888101        0.288092     -0.000548912    -0.000817406         0.041171       -0.344264     -0.000185673      0.00103137
                    -0.000818424    -0.000727402        -0.889873        0.286591      -8.6905e-05     0.000927741        0.0405491       -0.341062
281702.9               -0.238568       -0.253464       0.00139738     0.000181126        -0.888098         0.28804     -0.000914281    -0.000755712
                      0.00137454     0.000158647        -0.235105       -0.252204     -0.000643037    -0.000739284        -0.889949        0.286916
                       -0.888091        0.288118      -0.00054902    -0.000817425        0.0411561       -0.344271     -0.000185634      0.00103137
                    -0.000818436    -0.000727394        -0.889863        0.286617     -8.68814e-05     0.000927757        0.0405344       -0.341069
281703                 -0.238575       -0.253464       0.00139743      0.00018111        -0.888087        0.288065     -0.000914294    -0.000755679
                      0.00137463      0.00015862        -0.235112       -0.252204     -0.000643071    -0.000739279        -0.889938        0.286942
                        -0.88808        0.288144     -0.000549127    -0.000817444        0.0411413       -0.344278     -0.000185594      0.00103137
                    -0.000818448    -0.000727386        -0.889853        0.286643     -8.68577e-05     0.000927773        0.0405197       -0.341076
281703.1               -0.238582       -0.253465       0.00139747     0.000181094        -0.888077        0.288091     -0.000914308    -0.000755645
                      0.00137473     0.000158594        -0.235119       -0.252205     -0.000643106    -0.000739274        -0.889928        0.286968
                        -0.88807        0.288169     -0.000549234    -0.000817463        0.0411264       -0.344285     -0.000185555      0.00103138
