! TOUCHSTONE file generated by CST MICROWAVE STUDIO
! Date and time: Wed Oct  8 07:04:06 2025
! Project name: Teste_Macro_Metasurface_Nanopilar.cst
! Parameters = {H=600; L_x=180; L_y=165; Lambda=1064; Max_L=200; Min_L=70; PathPara=1; Phi=0; Step_L=10; Theta=0; p=520; phaseX=180; phaseY=0}
! Header version: 2018
! Port assignment regex: !\s*Touchstone port\s*([0-9]+)\s*=\s*(CST MWS port|CST DS port)\s*([0-9]+|Zmin|Zmax)\s*\(\"(.*)\"\)(\s*mode\s*([0-9]+))?.*
! Touchstone port assignment:
! Touchstone port 1 = CST MWS port Zmax ("") mode 1
! Touchstone port 2 = CST MWS port Zmax ("") mode 2
! Touchstone port 3 = CST MWS port Zmin ("") mode 1
! Touchstone port 4 = CST MWS port Zmin ("") mode 2
! S-Parameters are not renormalized. Each port impedance will be approximated by the real part at minimum frequency. The values are described via the [Reference] keyword.
! Default impedance is overridden by [Reference]
[Version] 2.0
# GHz S RI R 376.73
[Number of Ports] 4
[Reference]
376.73 376.73 376.73 376.73 
[Number of Frequencies] 1001
[Network Data]
281700               -0.00234374      0.00321854       0.00036603     0.000902489        -0.982771       -0.159507     -0.000119207    -0.000695932
                     0.000394424     0.000877507        -0.025072      -0.0834254      0.000190136    -0.000713539        -0.992038      0.00496194
                       -0.982928       -0.159363      0.000179195    -0.000683478      -0.00222824      0.00355434     -0.000425388     0.000801502
                    -8.74987e-05    -0.000691455        -0.991919      0.00519112     -0.000513267     0.000801405        0.0203069      -0.0840887
281700.1             -0.00234186      0.00321267      0.000366051     0.000902471        -0.982776       -0.159478     -0.000119234    -0.000695924
                     0.000394448      0.00087749       -0.0250737      -0.0834313      0.000190109    -0.000713548        -0.992037      0.00499151
                       -0.982932       -0.159334      0.000179172    -0.000683482      -0.00222793      0.00354824      -0.00042536     0.000801514
                     -8.7524e-05     -0.00069145        -0.991918      0.00522067      -0.00051324     0.000801418        0.0203036      -0.0840959
281700.2             -0.00233998      0.00320679      0.000366073     0.000902453        -0.982781       -0.159449     -0.000119261    -0.000695916
                     0.000394471     0.000877473       -0.0250755      -0.0834372      0.000190081    -0.000713557        -0.992036      0.00502108
                       -0.982937       -0.159305      0.000179148    -0.000683486      -0.00222762      0.00354213     -0.000425332     0.000801527
                    -8.75493e-05    -0.000691445        -0.991917      0.00525022     -0.000513213      0.00080143        0.0203003      -0.0841031
281700.3              -0.0023381      0.00320092      0.000366094     0.000902435        -0.982786       -0.159419     -0.000119289    -0.000695907
                     0.000394495     0.000877455       -0.0250772      -0.0834431      0.000190054    -0.000713566        -0.992036      0.00505065
                       -0.982942       -0.159275      0.000179125    -0.000683491      -0.00222732      0.00353603     -0.000425303     0.000801539
                    -8.75747e-05     -0.00069144        -0.991917      0.00527978     -0.000513185     0.000801443         0.020297      -0.0841103
281700.4             -0.00233622      0.00319504      0.000366116     0.000902417        -0.982791        -0.15939     -0.000119316    -0.000695899
                     0.000394519     0.000877438        -0.025079       -0.083449      0.000190027    -0.000713574        -0.992035      0.00508023
                       -0.982947       -0.159246      0.000179101    -0.000683495      -0.00222701      0.00352993     -0.000425275     0.000801551
                       -8.76e-05    -0.000691434        -0.991916      0.00530933     -0.000513158     0.000801455        0.0202937      -0.0841176
281700.5             -0.00233435      0.00318916      0.000366137     0.000902399        -0.982795       -0.159361     -0.000119343    -0.000695891
                     0.000394542     0.000877421       -0.0250807      -0.0834549          0.00019    -0.000713583        -0.992034       0.0051098
                       -0.982952       -0.159217      0.000179077    -0.000683499       -0.0022267      0.00352382     -0.000425247     0.000801564
                    -8.76253e-05    -0.000691429        -0.991915      0.00533888      -0.00051313     0.000801468        0.0202904      -0.0841248
281700.6             -0.00233247      0.00318329      0.000366158     0.000902381          -0.9828       -0.159331      -0.00011937    -0.000695883
                     0.000394566     0.000877403       -0.0250825      -0.0834608      0.000189973    -0.000713592        -0.992034      0.00513937
                       -0.982956       -0.159187      0.000179054    -0.000683503       -0.0022264      0.00351772     -0.000425219     0.000801576
                    -8.76506e-05    -0.000691424        -0.991915      0.00536844     -0.000513103      0.00080148        0.0202871       -0.084132
281700.7             -0.00233059      0.00317741       0.00036618     0.000902363        -0.982805       -0.159302     -0.000119397    -0.000695874
                     0.000394589     0.000877386       -0.0250842      -0.0834667      0.000189946    -0.000713601        -0.992033      0.00516894
                       -0.982961       -0.159158       0.00017903    -0.000683507      -0.00222609      0.00351161     -0.000425191     0.000801588
                     -8.7676e-05    -0.000691419        -0.991914      0.00539799     -0.000513076     0.000801493        0.0202838      -0.0841392
281700.8             -0.00232872      0.00317154      0.000366201     0.000902345         -0.98281       -0.159273     -0.000119424    -0.000695866
                     0.000394613     0.000877368        -0.025086      -0.0834726      0.000189919    -0.000713609        -0.992032      0.00519851
                       -0.982966       -0.159129      0.000179007    -0.000683511      -0.00222579      0.00350551     -0.000425163       0.0008016
                    -8.77013e-05    -0.000691414        -0.991914      0.00542754     -0.000513048     0.000801505        0.0202806      -0.0841465
281700.9             -0.00232684      0.00316566      0.000366223     0.000902327        -0.982815       -0.159243     -0.000119451    -0.000695858
                     0.000394637     0.000877351       -0.0250877      -0.0834785      0.000189891    -0.000713618        -0.992031      0.00522808
                       -0.982971       -0.159099      0.000178983    -0.000683515      -0.00222548      0.00349941     -0.000425135     0.000801613
                    -8.77266e-05    -0.000691409        -0.991913       0.0054571     -0.000513021     0.000801518        0.0202773      -0.0841537
281701               -0.00232497      0.00315978      0.000366244     0.000902309        -0.982819       -0.159214     -0.000119478    -0.000695849
                      0.00039466     0.000877334       -0.0250895      -0.0834844      0.000189864    -0.000713627        -0.992031      0.00525765
                       -0.982976        -0.15907       0.00017896    -0.000683519      -0.00222518       0.0034933     -0.000425106     0.000801625
                     -8.7752e-05    -0.000691404        -0.991912      0.00548665     -0.000512993      0.00080153         0.020274      -0.0841609
281701.1             -0.00232309      0.00315391      0.000366266     0.000902291        -0.982824       -0.159184     -0.000119505    -0.000695841
                     0.000394684     0.000877316       -0.0250912      -0.0834903      0.000189837    -0.000713636         -0.99203      0.00528722
                        -0.98298        -0.15904      0.000178936    -0.000683523      -0.00222488       0.0034872     -0.000425078     0.000801637
                    -8.77773e-05    -0.000691398        -0.991912       0.0055162     -0.000512966     0.000801543        0.0202707      -0.0841682
281701.2             -0.00232122      0.00314803      0.000366287     0.000902273        -0.982829       -0.159155     -0.000119532    -0.000695833
                     0.000394708     0.000877299        -0.025093      -0.0834963       0.00018981    -0.000713644        -0.992029      0.00531679
                       -0.982985       -0.159011      0.000178912    -0.000683527      -0.00222457      0.00348109      -0.00042505      0.00080165
                    -8.78026e-05    -0.000691393        -0.991911      0.00554575     -0.000512938     0.000801555        0.0202674      -0.0841754
281701.3             -0.00231934      0.00314215      0.000366309     0.000902255        -0.982834       -0.159126     -0.000119559    -0.000695824
                     0.000394731     0.000877282       -0.0250948      -0.0835022      0.000189783    -0.000713653        -0.992029      0.00534636
                        -0.98299       -0.158982      0.000178889    -0.000683531      -0.00222427      0.00347499     -0.000425022     0.000801662
                    -8.78279e-05    -0.000691388         -0.99191      0.00557531     -0.000512911     0.000801568        0.0202641      -0.0841826
281701.4             -0.00231747      0.00313628       0.00036633     0.000902237        -0.982839       -0.159096     -0.000119587    -0.000695816
                     0.000394755     0.000877264       -0.0250965      -0.0835081      0.000189756    -0.000713662        -0.992028      0.00537593
                       -0.982995       -0.158952      0.000178865    -0.000683535      -0.00222397      0.00346889     -0.000424994     0.000801674
                    -8.78533e-05    -0.000691383         -0.99191      0.00560486     -0.000512884      0.00080158        0.0202608      -0.0841898
281701.5             -0.00231559       0.0031304      0.000366351     0.000902219        -0.982843       -0.159067     -0.000119614    -0.000695808
                     0.000394778     0.000877247       -0.0250983       -0.083514      0.000189729     -0.00071367        -0.992027      0.00540551
                       -0.982999       -0.158923      0.000178842    -0.000683539      -0.00222366      0.00346278     -0.000424966     0.000801687
                    -8.78786e-05    -0.000691378        -0.991909      0.00563441     -0.000512856     0.000801593        0.0202575      -0.0841971
281701.6             -0.00231372      0.00312452      0.000366373     0.000902201        -0.982848       -0.159038     -0.000119641      -0.0006958
                     0.000394802      0.00087723          -0.0251      -0.0835199      0.000189701    -0.000713679        -0.992027      0.00543508
                       -0.983004       -0.158894      0.000178818    -0.000683543      -0.00222336      0.00345668     -0.000424938     0.000801699
                    -8.79039e-05    -0.000691373        -0.991908      0.00566397     -0.000512829     0.000801605        0.0202542      -0.0842043
281701.7             -0.00231185      0.00311864      0.000366394     0.000902183        -0.982853       -0.159008     -0.000119668    -0.000695791
                     0.000394826     0.000877212       -0.0251018      -0.0835258      0.000189674    -0.000713688        -0.992026      0.00546465
                       -0.983009       -0.158864      0.000178795    -0.000683547      -0.00222306      0.00345057     -0.000424909     0.000801711
                    -8.79292e-05    -0.000691367        -0.991908      0.00569352     -0.000512801     0.000801618        0.0202509      -0.0842115
281701.8             -0.00230997      0.00311277      0.000366416     0.000902165        -0.982858       -0.158979     -0.000119695    -0.000695783
                     0.000394849     0.000877195       -0.0251035      -0.0835317      0.000189647    -0.000713697        -0.992025      0.00549422
                       -0.983014       -0.158835      0.000178771    -0.000683551      -0.00222276      0.00344447     -0.000424881     0.000801724
                    -8.79545e-05    -0.000691362        -0.991907      0.00572307     -0.000512774     0.000801631        0.0202476      -0.0842187
281701.9              -0.0023081      0.00310689      0.000366437     0.000902147        -0.982863        -0.15895     -0.000119722    -0.000695775
                     0.000394873     0.000877177       -0.0251053      -0.0835376       0.00018962    -0.000713705        -0.992025      0.00552379
                       -0.983019       -0.158806      0.000178747    -0.000683555      -0.00222246      0.00343837     -0.000424853     0.000801736
                    -8.79799e-05    -0.000691357        -0.991906      0.00575262     -0.000512746     0.000801643        0.0202443       -0.084226
281702               -0.00230623      0.00310101      0.000366459     0.000902129        -0.982867        -0.15892     -0.000119749    -0.000695766
                     0.000394896      0.00087716       -0.0251071      -0.0835435      0.000189593    -0.000713714        -0.992024      0.00555336
                       -0.983023       -0.158776      0.000178724    -0.000683559      -0.00222216      0.00343226     -0.000424825     0.000801748
                    -8.80052e-05    -0.000691352        -0.991906      0.00578218     -0.000512719     0.000801656         0.020241      -0.0842332
281702.1             -0.00230436      0.00309513       0.00036648     0.000902111        -0.982872       -0.158891     -0.000119776    -0.000695758
                      0.00039492     0.000877143       -0.0251088      -0.0835494      0.000189566    -0.000713723        -0.992023      0.00558293
                       -0.983028       -0.158747        0.0001787    -0.000683563      -0.00222186      0.00342616     -0.000424797      0.00080176
                    -8.80305e-05    -0.000691347        -0.991905      0.00581173     -0.000512691     0.000801668        0.0202377      -0.0842404
281702.2             -0.00230249      0.00308926      0.000366502     0.000902093        -0.982877       -0.158862     -0.000119803     -0.00069575
                     0.000394944     0.000877125       -0.0251106      -0.0835553      0.000189539    -0.000713731        -0.992022       0.0056125
                       -0.983033       -0.158718      0.000178677    -0.000683567      -0.00222156      0.00342005     -0.000424769     0.000801773
                    -8.80558e-05    -0.000691342        -0.991904      0.00584128     -0.000512664     0.000801681        0.0202344      -0.0842476
281702.3             -0.00230062      0.00308338      0.000366523     0.000902075        -0.982882       -0.158832      -0.00011983    -0.000695741
                     0.000394967     0.000877108       -0.0251123      -0.0835612      0.000189511     -0.00071374        -0.992022      0.00564207
                       -0.983038       -0.158688      0.000178653    -0.000683571      -0.00222126      0.00341395      -0.00042474     0.000801785
                    -8.80812e-05    -0.000691336        -0.991904      0.00587083     -0.000512636     0.000801693        0.0202311      -0.0842549
281702.4             -0.00229874       0.0030775      0.000366544     0.000902057        -0.982887       -0.158803     -0.000119857    -0.000695733
                     0.000394991     0.000877091       -0.0251141      -0.0835671      0.000189484    -0.000713749        -0.992021      0.00567164
                       -0.983042       -0.158659       0.00017863    -0.000683575      -0.00222096      0.00340785     -0.000424712     0.000801797
                    -8.81065e-05    -0.000691331        -0.991903      0.00590039     -0.000512609     0.000801706        0.0202278      -0.0842621
281702.5             -0.00229687      0.00307162      0.000366566     0.000902039        -0.982891       -0.158774     -0.000119884    -0.000695725
                     0.000395014     0.000877073       -0.0251159       -0.083573      0.000189457    -0.000713757         -0.99202      0.00570121
                       -0.983047        -0.15863      0.000178606    -0.000683579      -0.00222066      0.00340174     -0.000424684      0.00080181
                    -8.81318e-05    -0.000691326        -0.991902      0.00592994     -0.000512581     0.000801718        0.0202245      -0.0842693
281702.6               -0.002295      0.00306574      0.000366587     0.000902021        -0.982896       -0.158744     -0.000119912    -0.000695716
                     0.000395038     0.000877056       -0.0251176      -0.0835789       0.00018943    -0.000713766         -0.99202      0.00573078
                       -0.983052         -0.1586      0.000178582    -0.000683583      -0.00222036      0.00339564     -0.000424656     0.000801822
                    -8.81571e-05    -0.000691321        -0.991902      0.00595949     -0.000512554     0.000801731        0.0202212      -0.0842765
281702.7             -0.00229313      0.00305987      0.000366609     0.000902003        -0.982901       -0.158715     -0.000119939    -0.000695708
                     0.000395062     0.000877039       -0.0251194      -0.0835848      0.000189403    -0.000713775        -0.992019      0.00576035
                       -0.983057       -0.158571      0.000178559    -0.000683587      -0.00222007      0.00338953     -0.000424628     0.000801834
                    -8.81824e-05    -0.000691316        -0.991901      0.00598904     -0.000512527     0.000801744        0.0202179      -0.0842837
281702.8             -0.00229126      0.00305399       0.00036663     0.000901985        -0.982906       -0.158686     -0.000119966      -0.0006957
                     0.000395085     0.000877021       -0.0251211      -0.0835907      0.000189376    -0.000713784        -0.992018      0.00578992
                       -0.983061       -0.158542      0.000178535    -0.000683591      -0.00221977      0.00338343       -0.0004246     0.000801846
                    -8.82078e-05     -0.00069131          -0.9919       0.0060186     -0.000512499     0.000801756        0.0202147       -0.084291
281702.9              -0.0022894      0.00304811      0.000366651     0.000901967        -0.982911       -0.158656     -0.000119993    -0.000695692
                     0.000395109     0.000877004       -0.0251229      -0.0835966      0.000189348    -0.000713792        -0.992018      0.00581949
                       -0.983066       -0.158512      0.000178512    -0.000683595      -0.00221947      0.00337732     -0.000424572     0.000801859
                    -8.82331e-05    -0.000691305          -0.9919      0.00604815     -0.000512472     0.000801769        0.0202114      -0.0842982
281703               -0.00228753      0.00304223      0.000366673     0.000901949        -0.982915       -0.158627      -0.00012002    -0.000695683
                     0.000395132     0.000876987       -0.0251247      -0.0836025      0.000189321    -0.000713801        -0.992017      0.00584906
                       -0.983071       -0.158483      0.000178488    -0.000683599      -0.00221917      0.00337122     -0.000424543     0.000801871
                    -8.82584e-05      -0.0006913        -0.991899       0.0060777     -0.000512444     0.000801781        0.0202081      -0.0843054
281703.1             -0.00228566      0.00303635      0.000366694     0.000901931         -0.98292       -0.158597     -0.000120047    -0.000695675
                     0.000395156     0.000876969       -0.0251264      -0.0836084      0.000189294     -0.00071381        -0.992016      0.00587863
                       -0.983076       -0.158454      0.000178465    -0.000683603      -0.00221888      0.00336512     -0.000424515     0.000801883
