! TOUCHSTONE file generated by CST MICROWAVE STUDIO
! Date and time: Wed Oct  8 07:03:43 2025
! Project name: Teste_Macro_Metasurface_Nanopilar.cst
! Parameters = {H=600; L_x=180; L_y=75; Lambda=1064; Max_L=200; Min_L=70; PathPara=1; Phi=0; Step_L=10; Theta=0; p=520; phaseX=180; phaseY=0}
! Header version: 2018
! Port assignment regex: !\s*Touchstone port\s*([0-9]+)\s*=\s*(CST MWS port|CST DS port)\s*([0-9]+|Zmin|Zmax)\s*\(\"(.*)\"\)(\s*mode\s*([0-9]+))?.*
! Touchstone port assignment:
! Touchstone port 1 = CST MWS port Zmax ("") mode 1
! Touchstone port 2 = CST MWS port Zmax ("") mode 2
! Touchstone port 3 = CST MWS port Zmin ("") mode 1
! Touchstone port 4 = CST MWS port Zmin ("") mode 2
! S-Parameters are not renormalized. Each port impedance will be approximated by the real part at minimum frequency. The values are described via the [Reference] keyword.
! Default impedance is overridden by [Reference]
[Version] 2.0
# GHz S RI R 376.73
[Number of Ports] 4
[Reference]
376.73 376.73 376.73 376.73 
[Number of Frequencies] 1001
[Network Data]
281700                 0.0711951       -0.102678     -0.000257455    -0.000241881         -0.81273        0.567707     -0.000272823     0.000198722
                     -0.00024075    -0.000249391        -0.169577        -0.10666      2.33011e-05     0.000147907        -0.210632       -0.950502
                       -0.812547        0.567482      2.43584e-05     2.71388e-05        -0.121112       0.0317938      0.000292931    -0.000219644
                    -0.000256528     0.000136372          -0.2106       -0.950232      0.000260118    -0.000113325         -0.10933        0.167606
281700.1               0.0711895       -0.102681     -0.000257467    -0.000241887        -0.812715        0.567729     -0.000272822     0.000198743
                     -0.00024076     -0.00024938        -0.169577       -0.106654      2.33086e-05     0.000147907        -0.210662       -0.950496
                       -0.812532        0.567504       2.4364e-05     2.71451e-05        -0.121111       0.0317941      0.000292929    -0.000219663
                    -0.000256523     0.000136386        -0.210631       -0.950226      0.000260122    -0.000113329        -0.109322        0.167607
281700.2                0.071184       -0.102684      -0.00025748    -0.000241893        -0.812699        0.567751      -0.00027282     0.000198764
                    -0.000240771    -0.000249368        -0.169576       -0.106647      2.33161e-05     0.000147907        -0.210693        -0.95049
                       -0.812517        0.567526      2.43696e-05     2.71515e-05         -0.12111       0.0317944      0.000292928    -0.000219683
                    -0.000256518       0.0001364        -0.210661        -0.95022      0.000260126    -0.000113334        -0.109313        0.167607
281700.3               0.0711784       -0.102687     -0.000257492    -0.000241899        -0.812684        0.567773     -0.000272819     0.000198785
                    -0.000240782    -0.000249357        -0.169576        -0.10664      2.33237e-05     0.000147906        -0.210724       -0.950484
                       -0.812501        0.567548      2.43752e-05     2.71578e-05        -0.121109       0.0317947      0.000292927    -0.000219702
                    -0.000256513     0.000136414        -0.210692       -0.950215      0.000260129    -0.000113339        -0.109305        0.167608
281700.4               0.0711729        -0.10269     -0.000257504    -0.000241906        -0.812669        0.567795     -0.000272818     0.000198806
                    -0.000240793    -0.000249345        -0.169575       -0.106634      2.33312e-05     0.000147906        -0.210754       -0.950478
                       -0.812486         0.56757      2.43808e-05     2.71642e-05        -0.121108        0.031795      0.000292925    -0.000219721
                    -0.000256509     0.000136428        -0.210722       -0.950209      0.000260133    -0.000113343        -0.109297        0.167609
281700.5               0.0711673       -0.102693     -0.000257517    -0.000241912        -0.812654        0.567817     -0.000272816     0.000198827
                    -0.000240804    -0.000249334        -0.169575       -0.106627      2.33387e-05     0.000147906        -0.210785       -0.950472
                       -0.812471        0.567592      2.43864e-05     2.71706e-05        -0.121107       0.0317953      0.000292924    -0.000219741
                    -0.000256504     0.000136442        -0.210753       -0.950203      0.000260137    -0.000113348        -0.109289        0.167609
281700.6               0.0711618       -0.102696     -0.000257529    -0.000241918        -0.812638        0.567839     -0.000272815     0.000198847
                    -0.000240815    -0.000249323        -0.169575        -0.10662      2.33462e-05     0.000147906        -0.210815       -0.950466
                       -0.812456        0.567614       2.4392e-05     2.71769e-05        -0.121106       0.0317955      0.000292922     -0.00021976
                    -0.000256499     0.000136456        -0.210784       -0.950197      0.000260141    -0.000113353         -0.10928         0.16761
281700.7               0.0711562       -0.102699     -0.000257541    -0.000241924        -0.812623        0.567861     -0.000272813     0.000198868
                    -0.000240826    -0.000249311        -0.169574       -0.106614      2.33537e-05     0.000147906        -0.210846        -0.95046
                        -0.81244        0.567636      2.43976e-05     2.71833e-05        -0.121106       0.0317958      0.000292921    -0.000219779
                    -0.000256494      0.00013647        -0.210814       -0.950191      0.000260144    -0.000113358        -0.109272        0.167611
281700.8               0.0711507       -0.102702     -0.000257554    -0.000241931        -0.812608        0.567883     -0.000272812     0.000198889
                    -0.000240837      -0.0002493        -0.169574       -0.106607      2.33613e-05     0.000147905        -0.210877       -0.950454
                       -0.812425        0.567658      2.44032e-05     2.71897e-05        -0.121105       0.0317961       0.00029292    -0.000219799
                    -0.000256489     0.000136484        -0.210845       -0.950185      0.000260148    -0.000113362        -0.109264        0.167611
281700.9               0.0711451       -0.102705     -0.000257566    -0.000241937        -0.812593        0.567905      -0.00027281      0.00019891
                    -0.000240848    -0.000249288        -0.169573         -0.1066      2.33688e-05     0.000147905        -0.210907       -0.950448
                        -0.81241         0.56768      2.44088e-05     2.71961e-05        -0.121104       0.0317964      0.000292918    -0.000219818
                    -0.000256485     0.000136498        -0.210875       -0.950179      0.000260152    -0.000113367        -0.109255        0.167612
281701                 0.0711396       -0.102708     -0.000257579    -0.000241943        -0.812578        0.567927     -0.000272809     0.000198931
                    -0.000240859    -0.000249277        -0.169573       -0.106594      2.33763e-05     0.000147905        -0.210938       -0.950442
                       -0.812395        0.567702      2.44144e-05     2.72025e-05        -0.121103       0.0317967      0.000292917    -0.000219837
                     -0.00025648     0.000136512        -0.210906       -0.950173      0.000260156    -0.000113372        -0.109247        0.167613
281701.1                0.071134       -0.102711     -0.000257591    -0.000241949        -0.812562        0.567949     -0.000272807     0.000198952
                     -0.00024087    -0.000249265        -0.169572       -0.106587      2.33838e-05     0.000147905        -0.210968       -0.950436
                       -0.812379        0.567724        2.442e-05     2.72088e-05        -0.121102        0.031797      0.000292915    -0.000219857
                    -0.000256475     0.000136526        -0.210936       -0.950167      0.000260159    -0.000113376        -0.109239        0.167613
281701.2               0.0711285       -0.102714     -0.000257603    -0.000241956        -0.812547        0.567971     -0.000272806     0.000198973
                    -0.000240881    -0.000249254        -0.169572        -0.10658      2.33913e-05     0.000147905        -0.210999        -0.95043
                       -0.812364        0.567746      2.44255e-05     2.72152e-05        -0.121101       0.0317973      0.000292914    -0.000219876
                     -0.00025647      0.00013654        -0.210967       -0.950161      0.000260163    -0.000113381         -0.10923        0.167614
281701.3               0.0711229       -0.102717     -0.000257616    -0.000241962        -0.812532        0.567993     -0.000272804     0.000198994
                    -0.000240892    -0.000249242        -0.169572       -0.106574      2.33988e-05     0.000147904         -0.21103       -0.950424
                       -0.812349        0.567768      2.44311e-05     2.72216e-05        -0.121101       0.0317976      0.000292912    -0.000219895
                    -0.000256465     0.000136554        -0.210997       -0.950155      0.000260167    -0.000113386        -0.109222        0.167615
281701.4               0.0711174        -0.10272     -0.000257628    -0.000241968        -0.812517        0.568015     -0.000272803     0.000199015
                    -0.000240903    -0.000249231        -0.169571       -0.106567      2.34063e-05     0.000147904         -0.21106       -0.950418
                       -0.812334         0.56779      2.44367e-05     2.72281e-05          -0.1211       0.0317979      0.000292911    -0.000219915
                    -0.000256461     0.000136568        -0.211028       -0.950149      0.000260171    -0.000113391        -0.109214        0.167615
281701.5               0.0711118       -0.102723      -0.00025764    -0.000241974        -0.812501        0.568037     -0.000272801     0.000199036
                    -0.000240913    -0.000249219        -0.169571        -0.10656      2.34139e-05     0.000147904        -0.211091       -0.950412
                       -0.812318        0.567812      2.44423e-05     2.72345e-05        -0.121099       0.0317982       0.00029291    -0.000219934
                    -0.000256456     0.000136582        -0.211059       -0.950143      0.000260174    -0.000113395        -0.109205        0.167616
281701.6               0.0711062       -0.102726     -0.000257653     -0.00024198        -0.812486        0.568059       -0.0002728     0.000199057
                    -0.000240924    -0.000249208         -0.16957       -0.106554      2.34214e-05     0.000147904        -0.211121       -0.950407
                       -0.812303        0.567834      2.44478e-05     2.72409e-05        -0.121098       0.0317985      0.000292908    -0.000219953
                    -0.000256451     0.000136596        -0.211089       -0.950137      0.000260178      -0.0001134        -0.109197        0.167617
281701.7               0.0711007       -0.102729     -0.000257665    -0.000241987        -0.812471        0.568081     -0.000272798     0.000199077
                    -0.000240935    -0.000249196         -0.16957       -0.106547      2.34289e-05     0.000147903        -0.211152       -0.950401
                       -0.812288        0.567856      2.44534e-05     2.72473e-05        -0.121097       0.0317988      0.000292907    -0.000219972
                    -0.000256446      0.00013661         -0.21112       -0.950131      0.000260182    -0.000113405        -0.109189        0.167617
281701.8               0.0710951       -0.102731     -0.000257677    -0.000241993        -0.812456        0.568103     -0.000272797     0.000199098
                    -0.000240946    -0.000249185        -0.169569        -0.10654      2.34364e-05     0.000147903        -0.211183       -0.950395
                       -0.812273        0.567878      2.44589e-05     2.72537e-05        -0.121096       0.0317991      0.000292905    -0.000219992
                    -0.000256441     0.000136624         -0.21115       -0.950125      0.000260186     -0.00011341         -0.10918        0.167618
281701.9               0.0710896       -0.102734      -0.00025769    -0.000241999         -0.81244        0.568125     -0.000272795     0.000199119
                    -0.000240957    -0.000249173        -0.169569       -0.106534      2.34439e-05     0.000147903        -0.211213       -0.950389
                       -0.812257          0.5679      2.44645e-05     2.72602e-05        -0.121096       0.0317994      0.000292904    -0.000220011
                    -0.000256437     0.000136638        -0.211181       -0.950119      0.000260189    -0.000113414        -0.109172        0.167619
281702                  0.071084       -0.102737     -0.000257702    -0.000242005        -0.812425        0.568147     -0.000272794      0.00019914
                    -0.000240968    -0.000249162        -0.169569       -0.106527      2.34514e-05     0.000147903        -0.211244       -0.950383
                       -0.812242        0.567922        2.447e-05     2.72666e-05        -0.121095       0.0317997      0.000292903     -0.00022003
                    -0.000256432     0.000136652        -0.211211       -0.950113      0.000260193    -0.000113419        -0.109164        0.167619
281702.1               0.0710785        -0.10274     -0.000257715    -0.000242012         -0.81241        0.568169     -0.000272792     0.000199161
                    -0.000240979     -0.00024915        -0.169568        -0.10652      2.34589e-05     0.000147903        -0.211274       -0.950377
                       -0.812227        0.567944      2.44756e-05      2.7273e-05        -0.121094          0.0318      0.000292901     -0.00022005
                    -0.000256427     0.000136666        -0.211242       -0.950107      0.000260197    -0.000113424        -0.109156         0.16762
281702.2               0.0710729       -0.102743     -0.000257727    -0.000242018        -0.812395        0.568191     -0.000272791     0.000199182
                     -0.00024099    -0.000249139        -0.169568       -0.106514      2.34664e-05     0.000147902        -0.211305       -0.950371
                       -0.812212        0.567966      2.44811e-05     2.72795e-05        -0.121093       0.0318003        0.0002929    -0.000220069
                    -0.000256422      0.00013668        -0.211273       -0.950102        0.0002602    -0.000113428        -0.109147        0.167621
281702.3               0.0710674       -0.102746     -0.000257739    -0.000242024         -0.81238        0.568213     -0.000272789     0.000199203
                    -0.000241001    -0.000249127        -0.169567       -0.106507      2.34739e-05     0.000147902        -0.211335       -0.950365
                       -0.812196        0.567988      2.44867e-05     2.72859e-05        -0.121092       0.0318006      0.000292898    -0.000220088
                    -0.000256417     0.000136694        -0.211303       -0.950096      0.000260204    -0.000113433        -0.109139        0.167621
281702.4               0.0710618       -0.102749     -0.000257752     -0.00024203        -0.812364        0.568235     -0.000272788     0.000199223
                    -0.000241012    -0.000249116        -0.169567       -0.106501      2.34814e-05     0.000147902        -0.211366       -0.950359
                       -0.812181         0.56801      2.44922e-05     2.72924e-05        -0.121091       0.0318009      0.000292897    -0.000220107
                    -0.000256413     0.000136708        -0.211334        -0.95009      0.000260208    -0.000113438        -0.109131        0.167622
281702.5               0.0710563       -0.102752     -0.000257764    -0.000242037        -0.812349        0.568257     -0.000272787     0.000199244
                    -0.000241023    -0.000249104        -0.169566       -0.106494      2.34889e-05     0.000147902        -0.211397       -0.950353
                       -0.812166        0.568032      2.44977e-05     2.72988e-05         -0.12109       0.0318011      0.000292896    -0.000220127
                    -0.000256408     0.000136722        -0.211364       -0.950084      0.000260212    -0.000113443        -0.109122        0.167623
281702.6               0.0710507       -0.102755     -0.000257776    -0.000242043        -0.812334        0.568279     -0.000272785     0.000199265
                    -0.000241034    -0.000249093        -0.169566       -0.106487      2.34964e-05     0.000147901        -0.211427       -0.950347
                       -0.812151        0.568054      2.45033e-05     2.73053e-05         -0.12109       0.0318014      0.000292894    -0.000220146
                    -0.000256403     0.000136735        -0.211395       -0.950078      0.000260215    -0.000113447        -0.109114        0.167623
281702.7               0.0710452       -0.102758     -0.000257789    -0.000242049        -0.812319          0.5683     -0.000272783     0.000199286
                    -0.000241045    -0.000249081        -0.169566       -0.106481      2.35039e-05     0.000147901        -0.211458       -0.950341
                       -0.812135        0.568076      2.45088e-05     2.73118e-05        -0.121089       0.0318017      0.000292893    -0.000220165
                    -0.000256398     0.000136749        -0.211425       -0.950072      0.000260219    -0.000113452        -0.109106        0.167624
281702.8               0.0710396       -0.102761     -0.000257801    -0.000242055        -0.812303        0.568322     -0.000272782     0.000199307
                    -0.000241056     -0.00024907        -0.169565       -0.106474      2.35114e-05     0.000147901        -0.211488       -0.950335
                        -0.81212        0.568098      2.45143e-05     2.73182e-05        -0.121088        0.031802      0.000292891    -0.000220185
                    -0.000256394     0.000136763        -0.211456       -0.950066      0.000260223    -0.000113457        -0.109097        0.167625
281702.9                0.071034       -0.102764     -0.000257813    -0.000242061        -0.812288        0.568344      -0.00027278     0.000199327
                    -0.000241066    -0.000249058        -0.169565       -0.106467      2.35189e-05     0.000147901        -0.211519       -0.950329
                       -0.812105         0.56812      2.45198e-05     2.73247e-05        -0.121087       0.0318023       0.00029289    -0.000220204
                    -0.000256389     0.000136777        -0.211487        -0.95006      0.000260227    -0.000113462        -0.109089        0.167625
281703                 0.0710285       -0.102767     -0.000257826    -0.000242068        -0.812273        0.568366     -0.000272779     0.000199348
                    -0.000241077    -0.000249047        -0.169564       -0.106461      2.35265e-05       0.0001479         -0.21155       -0.950323
                        -0.81209        0.568142      2.45254e-05     2.73312e-05        -0.121086       0.0318026      0.000292889    -0.000220223
                    -0.000256384     0.000136791        -0.211517       -0.950054       0.00026023    -0.000113466        -0.109081        0.167626
281703.1               0.0710229        -0.10277     -0.000257838    -0.000242074        -0.812258        0.568388     -0.000272777     0.000199369
                    -0.000241088    -0.000249035        -0.169564       -0.106454       2.3534e-05       0.0001479         -0.21158       -0.950317
                       -0.812074        0.568164      2.45309e-05     2.73377e-05        -0.121085       0.0318029      0.000292887    -0.000220242
