! TOUCHSTONE file generated by CST MICROWAVE STUDIO
! Date and time: Wed Oct  8 06:56:43 2025
! Project name: Teste_Macro_Metasurface_Nanopilar.cst
! Parameters = {H=600; L_x=120; L_y=115; Lambda=1064; Max_L=200; Min_L=70; PathPara=1; Phi=0; Step_L=10; Theta=0; p=520; phaseX=180; phaseY=0}
! Header version: 2018
! Port assignment regex: !\s*Touchstone port\s*([0-9]+)\s*=\s*(CST MWS port|CST DS port)\s*([0-9]+|Zmin|Zmax)\s*\(\"(.*)\"\)(\s*mode\s*([0-9]+))?.*
! Touchstone port assignment:
! Touchstone port 1 = CST MWS port Zmax ("") mode 1
! Touchstone port 2 = CST MWS port Zmax ("") mode 2
! Touchstone port 3 = CST MWS port Zmin ("") mode 1
! Touchstone port 4 = CST MWS port Zmin ("") mode 2
! S-Parameters are not renormalized. Each port impedance will be approximated by the real part at minimum frequency. The values are described via the [Reference] keyword.
! Default impedance is overridden by [Reference]
[Version] 2.0
# GHz S RI R 376.73
[Number of Ports] 4
[Reference]
376.73 376.73 376.73 376.73 
[Number of Frequencies] 1001
[Network Data]
281700                -0.0148822        0.131528     -5.57747e-05    -6.19896e-05         0.931886        0.307562      -3.0127e-05     6.16313e-05
                    -0.000130058    -1.90121e-05        0.0694742       0.0338797      1.29367e-05     8.62949e-05         0.982698      -0.0887943
                        0.932043        0.307719     -4.20718e-05      6.9303e-05       -0.0710741        0.114435       8.8261e-05    -3.29219e-05
                    -6.82833e-05     4.55401e-06         0.982704      -0.0888257      9.16249e-05    -8.09095e-05       -0.0677126       0.0473213
281700.1              -0.0148752        0.131523     -5.57765e-05    -6.19983e-05         0.931897         0.30753     -3.01189e-05     6.16338e-05
                    -0.000130058    -1.90264e-05        0.0694745        0.033871      1.29383e-05     8.62892e-05         0.982695      -0.0888293
                        0.932055        0.307687     -4.20696e-05     6.93016e-05       -0.0710686        0.114431        8.827e-05     -3.2932e-05
                    -6.82872e-05     4.54976e-06         0.982701      -0.0888607      9.16262e-05    -8.09228e-05       -0.0677111       0.0473174
281700.2              -0.0148682        0.131518     -5.57784e-05     -6.2007e-05         0.931909        0.307497     -3.01107e-05     6.16362e-05
                    -0.000130058    -1.90407e-05        0.0694749       0.0338623        1.294e-05     8.62835e-05         0.982693      -0.0888643
                        0.932066        0.307654     -4.20675e-05     6.93002e-05       -0.0710631        0.114428       8.8279e-05     -3.2942e-05
                    -6.82912e-05      4.5455e-06         0.982699      -0.0888956      9.16276e-05    -8.09361e-05       -0.0677097       0.0473135
281700.3              -0.0148613        0.131512     -5.57803e-05    -6.20157e-05          0.93192        0.307465     -3.01026e-05     6.16386e-05
                    -0.000130058    -1.90551e-05        0.0694752       0.0338536      1.29417e-05     8.62779e-05          0.98269      -0.0888993
                        0.932078        0.307622     -4.20654e-05     6.92989e-05       -0.0710577        0.114424       8.8288e-05    -3.29521e-05
                    -6.82951e-05     4.54124e-06         0.982696      -0.0889306      9.16289e-05    -8.09493e-05       -0.0677083       0.0473097
281700.4              -0.0148543        0.131507     -5.57821e-05    -6.20244e-05         0.931932        0.307432     -3.00944e-05     6.16411e-05
                    -0.000130058    -1.90694e-05        0.0694755       0.0338449      1.29433e-05     8.62722e-05         0.982687      -0.0889342
                        0.932089        0.307589     -4.20633e-05     6.92975e-05       -0.0710522        0.114421      8.82969e-05    -3.29622e-05
                    -6.82991e-05     4.53698e-06         0.982693      -0.0889656      9.16303e-05    -8.09626e-05       -0.0677069       0.0473058
281700.5              -0.0148473        0.131502      -5.5784e-05    -6.20331e-05         0.931943          0.3074     -3.00863e-05     6.16435e-05
                    -0.000130057    -1.90837e-05        0.0694759       0.0338362       1.2945e-05     8.62665e-05         0.982684      -0.0889692
                        0.932101        0.307557     -4.20611e-05     6.92962e-05       -0.0710467        0.114417      8.83059e-05    -3.29722e-05
                     -6.8303e-05     4.53272e-06          0.98269      -0.0890005      9.16316e-05    -8.09759e-05       -0.0677054       0.0473019
281700.6              -0.0148403        0.131497     -5.57858e-05    -6.20418e-05         0.931955        0.307367     -3.00782e-05      6.1646e-05
                    -0.000130057     -1.9098e-05        0.0694762       0.0338275      1.29466e-05     8.62608e-05         0.982681      -0.0890042
                        0.932112        0.307524      -4.2059e-05     6.92948e-05       -0.0710413        0.114414      8.83148e-05    -3.29823e-05
                     -6.8307e-05     4.52846e-06         0.982687      -0.0890355       9.1633e-05    -8.09892e-05        -0.067704        0.047298
281700.7              -0.0148333        0.131492     -5.57877e-05    -6.20504e-05         0.931966        0.307335       -3.007e-05     6.16485e-05
                    -0.000130057    -1.91123e-05        0.0694766       0.0338188      1.29483e-05     8.62552e-05         0.982678      -0.0890391
                        0.932124        0.307492     -4.20569e-05     6.92934e-05       -0.0710358         0.11441      8.83237e-05    -3.29923e-05
                     -6.8311e-05      4.5242e-06         0.982684      -0.0890705      9.16343e-05    -8.10025e-05       -0.0677026       0.0472941
281700.8              -0.0148263        0.131487     -5.57896e-05    -6.20591e-05         0.931978        0.307302     -3.00619e-05     6.16509e-05
                    -0.000130057    -1.91266e-05        0.0694769       0.0338101      1.29499e-05     8.62495e-05         0.982675      -0.0890741
                        0.932135        0.307459     -4.20548e-05     6.92921e-05       -0.0710303        0.114407      8.83327e-05    -3.30023e-05
                    -6.83149e-05     4.51993e-06         0.982681      -0.0891055      9.16357e-05    -8.10158e-05       -0.0677011       0.0472902
281700.9              -0.0148194        0.131482     -5.57914e-05    -6.20678e-05         0.931989         0.30727     -3.00538e-05     6.16534e-05
                    -0.000130057     -1.9141e-05        0.0694772       0.0338015      1.29516e-05     8.62438e-05         0.982672      -0.0891091
                        0.932147        0.307427     -4.20526e-05     6.92907e-05       -0.0710249        0.114403      8.83416e-05    -3.30123e-05
                    -6.83189e-05     4.51566e-06         0.982678      -0.0891404       9.1637e-05    -8.10291e-05       -0.0676997       0.0472863
281701                -0.0148124        0.131476     -5.57933e-05    -6.20765e-05         0.932001        0.307237     -3.00456e-05     6.16559e-05
                    -0.000130056    -1.91553e-05        0.0694776       0.0337928      1.29532e-05     8.62381e-05         0.982669       -0.089144
                        0.932158        0.307394     -4.20505e-05     6.92894e-05       -0.0710194          0.1144      8.83505e-05    -3.30222e-05
                    -6.83229e-05      4.5114e-06         0.982675      -0.0891754      9.16383e-05    -8.10423e-05       -0.0676983       0.0472824
281701.1              -0.0148054        0.131471     -5.57952e-05    -6.20852e-05         0.932012        0.307205     -3.00375e-05     6.16584e-05
                    -0.000130056    -1.91696e-05        0.0694779       0.0337841      1.29549e-05     8.62325e-05         0.982667       -0.089179
                         0.93217        0.307362     -4.20484e-05      6.9288e-05       -0.0710139        0.114396      8.83594e-05    -3.30322e-05
                    -6.83268e-05     4.50713e-06         0.982672      -0.0892104      9.16397e-05    -8.10556e-05       -0.0676969       0.0472785
281701.2              -0.0147984        0.131466      -5.5797e-05    -6.20939e-05         0.932024        0.307172     -3.00294e-05     6.16609e-05
                    -0.000130056    -1.91839e-05        0.0694782       0.0337754      1.29565e-05     8.62268e-05         0.982664       -0.089214
                        0.932181        0.307329     -4.20463e-05     6.92867e-05       -0.0710085        0.114393      8.83683e-05    -3.30421e-05
                    -6.83308e-05     4.50285e-06          0.98267      -0.0892453       9.1641e-05    -8.10689e-05       -0.0676954       0.0472746
281701.3              -0.0147914        0.131461     -5.57989e-05    -6.21026e-05         0.932035         0.30714     -3.00213e-05     6.16634e-05
                    -0.000130056    -1.91982e-05        0.0694786       0.0337667      1.29581e-05     8.62211e-05         0.982661       -0.089249
                        0.932193        0.307296     -4.20441e-05     6.92853e-05        -0.071003        0.114389      8.83772e-05     -3.3052e-05
                    -6.83348e-05     4.49858e-06         0.982667      -0.0892803      9.16424e-05    -8.10822e-05        -0.067694       0.0472708
281701.4              -0.0147845        0.131456     -5.58007e-05    -6.21113e-05         0.932047        0.307107     -3.00132e-05     6.16659e-05
                    -0.000130056    -1.92126e-05        0.0694789        0.033758      1.29598e-05     8.62154e-05         0.982658      -0.0892839
                        0.932204        0.307264      -4.2042e-05     6.92839e-05       -0.0709976        0.114386      8.83861e-05     -3.3062e-05
                    -6.83388e-05     4.49431e-06         0.982664      -0.0893153      9.16437e-05    -8.10955e-05       -0.0676926       0.0472669
281701.5              -0.0147775        0.131451     -5.58026e-05      -6.212e-05         0.932058        0.307075      -3.0005e-05     6.16684e-05
                    -0.000130055    -1.92269e-05        0.0694792       0.0337493      1.29614e-05     8.62098e-05         0.982655      -0.0893189
                        0.932216        0.307231     -4.20399e-05     6.92826e-05       -0.0709921        0.114382       8.8395e-05    -3.30719e-05
                    -6.83427e-05     4.49003e-06         0.982661      -0.0893503      9.16451e-05    -8.11087e-05       -0.0676912        0.047263
281701.6              -0.0147705        0.131446     -5.58045e-05    -6.21286e-05          0.93207        0.307043     -2.99969e-05     6.16709e-05
                    -0.000130055    -1.92412e-05        0.0694796       0.0337406      1.29631e-05     8.62041e-05         0.982652      -0.0893539
                        0.932227        0.307199     -4.20378e-05     6.92812e-05       -0.0709866        0.114379      8.84038e-05    -3.30817e-05
                    -6.83467e-05     4.48576e-06         0.982658      -0.0893852      9.16464e-05     -8.1122e-05       -0.0676897       0.0472591
281701.7              -0.0147635         0.13144     -5.58063e-05    -6.21373e-05         0.932081         0.30701     -2.99888e-05     6.16734e-05
                    -0.000130055    -1.92555e-05        0.0694799        0.033732      1.29647e-05     8.61984e-05         0.982649      -0.0893888
                        0.932239        0.307166     -4.20356e-05     6.92799e-05       -0.0709812        0.114375      8.84127e-05    -3.30916e-05
                    -6.83507e-05     4.48148e-06         0.982655      -0.0894202      9.16477e-05    -8.11353e-05       -0.0676883       0.0472552
281701.8              -0.0147566        0.131435     -5.58082e-05     -6.2146e-05         0.932093        0.306978     -2.99807e-05     6.16759e-05
                    -0.000130055    -1.92698e-05        0.0694802       0.0337233      1.29663e-05     8.61927e-05         0.982646      -0.0894238
                         0.93225        0.307134     -4.20335e-05     6.92785e-05       -0.0709757        0.114372      8.84216e-05    -3.31014e-05
                    -6.83547e-05      4.4772e-06         0.982652      -0.0894552      9.16491e-05    -8.11486e-05       -0.0676869       0.0472513
281701.9              -0.0147496         0.13143     -5.58101e-05    -6.21547e-05         0.932104        0.306945     -2.99726e-05     6.16784e-05
                    -0.000130055    -1.92842e-05        0.0694806       0.0337146       1.2968e-05     8.61871e-05         0.982643      -0.0894588
                        0.932262        0.307101     -4.20314e-05     6.92771e-05       -0.0709702        0.114368      8.84304e-05    -3.31113e-05
                    -6.83587e-05     4.47292e-06         0.982649      -0.0894901      9.16504e-05    -8.11618e-05       -0.0676855       0.0472474
281702                -0.0147426        0.131425     -5.58119e-05    -6.21634e-05         0.932116        0.306913     -2.99645e-05     6.16809e-05
                    -0.000130055    -1.92985e-05        0.0694809       0.0337059      1.29696e-05     8.61814e-05          0.98264      -0.0894937
                        0.932273        0.307069     -4.20293e-05     6.92758e-05       -0.0709648        0.114365      8.84392e-05    -3.31211e-05
                    -6.83627e-05     4.46864e-06         0.982646      -0.0895251      9.16517e-05    -8.11751e-05        -0.067684       0.0472435
281702.1              -0.0147356         0.13142     -5.58138e-05    -6.21721e-05         0.932127         0.30688     -2.99564e-05     6.16835e-05
                    -0.000130054    -1.93128e-05        0.0694812       0.0336972      1.29712e-05     8.61757e-05         0.982637      -0.0895287
                        0.932285        0.307036     -4.20271e-05     6.92744e-05       -0.0709593        0.114361      8.84481e-05    -3.31309e-05
                    -6.83667e-05     4.46435e-06         0.982643      -0.0895601      9.16531e-05    -8.11884e-05       -0.0676826       0.0472396
281702.2              -0.0147287        0.131415     -5.58157e-05    -6.21808e-05         0.932139        0.306848     -2.99483e-05      6.1686e-05
                    -0.000130054    -1.93271e-05        0.0694816       0.0336885      1.29729e-05       8.617e-05         0.982635      -0.0895637
                        0.932296        0.307004      -4.2025e-05     6.92731e-05       -0.0709539        0.114358      8.84569e-05    -3.31407e-05
                    -6.83707e-05     4.46007e-06          0.98264      -0.0895951      9.16544e-05    -8.12016e-05       -0.0676812       0.0472357
281702.3              -0.0147217        0.131409     -5.58175e-05    -6.21895e-05          0.93215        0.306815     -2.99402e-05     6.16885e-05
                    -0.000130054    -1.93414e-05        0.0694819       0.0336798      1.29745e-05     8.61644e-05         0.982632      -0.0895986
                        0.932308        0.306971     -4.20229e-05     6.92717e-05       -0.0709484        0.114354      8.84657e-05    -3.31505e-05
                    -6.83747e-05     4.45578e-06         0.982638        -0.08963      9.16557e-05    -8.12149e-05       -0.0676798       0.0472318
281702.4              -0.0147147        0.131404     -5.58194e-05    -6.21982e-05         0.932162        0.306783     -2.99321e-05     6.16911e-05
                    -0.000130054    -1.93558e-05        0.0694822       0.0336711      1.29761e-05     8.61587e-05         0.982629      -0.0896336
                        0.932319        0.306939     -4.20208e-05     6.92704e-05       -0.0709429        0.114351      8.84745e-05    -3.31602e-05
                    -6.83787e-05     4.45149e-06         0.982635       -0.089665      9.16571e-05    -8.12282e-05       -0.0676784        0.047228
281702.5              -0.0147077        0.131399     -5.58213e-05    -6.22069e-05         0.932173         0.30675      -2.9924e-05     6.16936e-05
                    -0.000130054    -1.93701e-05        0.0694825       0.0336625      1.29778e-05      8.6153e-05         0.982626      -0.0896686
                        0.932331        0.306906     -4.20186e-05      6.9269e-05       -0.0709375        0.114347      8.84834e-05      -3.317e-05
                    -6.83827e-05      4.4472e-06         0.982632         -0.0897      9.16584e-05    -8.12414e-05       -0.0676769       0.0472241
281702.6              -0.0147008        0.131394     -5.58231e-05    -6.22156e-05         0.932185        0.306718     -2.99159e-05     6.16962e-05
                    -0.000130054    -1.93844e-05        0.0694829       0.0336538      1.29794e-05     8.61473e-05         0.982623      -0.0897035
                        0.932342        0.306874     -4.20165e-05     6.92677e-05        -0.070932        0.114344      8.84922e-05    -3.31797e-05
                    -6.83867e-05     4.44291e-06         0.982629      -0.0897349      9.16597e-05    -8.12547e-05       -0.0676755       0.0472202
281702.7              -0.0146938        0.131389      -5.5825e-05    -6.22243e-05         0.932196        0.306685     -2.99078e-05     6.16987e-05
                    -0.000130053    -1.93987e-05        0.0694832       0.0336451       1.2981e-05     8.61416e-05          0.98262      -0.0897385
                        0.932354        0.306841     -4.20144e-05     6.92663e-05       -0.0709266         0.11434      8.85009e-05    -3.31894e-05
                    -6.83907e-05     4.43862e-06         0.982626      -0.0897699       9.1661e-05     -8.1268e-05       -0.0676741       0.0472163
281702.8              -0.0146868        0.131384     -5.58269e-05     -6.2233e-05         0.932208        0.306653     -2.98997e-05     6.17013e-05
                    -0.000130053    -1.94131e-05        0.0694835       0.0336364      1.29826e-05      8.6136e-05         0.982617      -0.0897735
                        0.932365        0.306809     -4.20123e-05     6.92649e-05       -0.0709211        0.114337      8.85097e-05    -3.31991e-05
                    -6.83947e-05     4.43433e-06         0.982623      -0.0898049      9.16624e-05    -8.12812e-05       -0.0676727       0.0472124
281702.9              -0.0146798        0.131379     -5.58287e-05    -6.22417e-05         0.932219         0.30662     -2.98916e-05     6.17039e-05
                    -0.000130053    -1.94274e-05        0.0694838       0.0336277      1.29843e-05     8.61303e-05         0.982614      -0.0898084
                        0.932377        0.306776     -4.20102e-05     6.92636e-05       -0.0709156        0.114333      8.85185e-05    -3.32088e-05
                    -6.83987e-05     4.43003e-06          0.98262      -0.0898398      9.16637e-05    -8.12945e-05       -0.0676712       0.0472085
281703                -0.0146729        0.131373     -5.58306e-05    -6.22504e-05         0.932231        0.306588     -2.98835e-05     6.17064e-05
                    -0.000130053    -1.94417e-05        0.0694842        0.033619      1.29859e-05     8.61246e-05         0.982611      -0.0898434
                        0.932388        0.306743      -4.2008e-05     6.92622e-05       -0.0709102         0.11433      8.85273e-05    -3.32185e-05
                    -6.84027e-05     4.42574e-06         0.982617      -0.0898748       9.1665e-05    -8.13077e-05       -0.0676698       0.0472046
281703.1              -0.0146659        0.131368     -5.58325e-05    -6.22591e-05         0.932242        0.306555     -2.98754e-05      6.1709e-05
                    -0.000130053     -1.9456e-05        0.0694845       0.0336103      1.29875e-05     8.61189e-05         0.982608      -0.0898784
                          0.9324        0.306711     -4.20059e-05     6.92609e-05       -0.0709047        0.114326       8.8536e-05    -3.32282e-05
