! TOUCHSTONE file generated by CST MICROWAVE STUDIO
! Date and time: Wed Oct  8 06:57:31 2025
! Project name: Teste_Macro_Metasurface_Nanopilar.cst
! Parameters = {H=600; L_x=125; L_y=160; Lambda=1064; Max_L=200; Min_L=70; PathPara=1; Phi=0; Step_L=10; Theta=0; p=520; phaseX=180; phaseY=0}
! Header version: 2018
! Port assignment regex: !\s*Touchstone port\s*([0-9]+)\s*=\s*(CST MWS port|CST DS port)\s*([0-9]+|Zmin|Zmax)\s*\(\"(.*)\"\)(\s*mode\s*([0-9]+))?.*
! Touchstone port assignment:
! Touchstone port 1 = CST MWS port Zmax ("") mode 1
! Touchstone port 2 = CST MWS port Zmax ("") mode 2
! Touchstone port 3 = CST MWS port Zmin ("") mode 1
! Touchstone port 4 = CST MWS port Zmin ("") mode 2
! S-Parameters are not renormalized. Each port impedance will be approximated by the real part at minimum frequency. The values are described via the [Reference] keyword.
! Default impedance is overridden by [Reference]
[Version] 2.0
# GHz S RI R 376.73
[Number of Ports] 4
[Reference]
376.73 376.73 376.73 376.73 
[Number of Frequencies] 1001
[Network Data]
281700                 -0.820896       -0.381628      1.57142e-06     0.000527835        -0.261036        0.158117     -0.000445527    -0.000347224
                     0.000289504     0.000198898        -0.239446      -0.0156554     -6.19181e-05    -0.000254618        -0.232267       -0.936795
                        -0.26108        0.158567      0.000787393     -0.00105296        -0.254909       -0.857866      0.000558701     0.000264508
                    -1.99409e-05    -0.000174255        -0.232298       -0.937224     -4.63732e-05    -5.22422e-05        -0.204964         0.12525
281700.1               -0.820937        -0.38158      1.59205e-06     0.000527947         -0.26098        0.158102     -0.000445596    -0.000347165
                     0.000289494     0.000198886        -0.239444      -0.0156476      -6.1909e-05    -0.000254633        -0.232295       -0.936789
                       -0.261025        0.158552      0.000787404      -0.0010532        -0.255002       -0.857857      0.000558813     0.000264466
                    -1.99434e-05    -0.000174247        -0.232326       -0.937218     -4.63719e-05     -5.2276e-05        -0.204958        0.125254
281700.2               -0.820979       -0.381531       1.6127e-06     0.000528059        -0.260924        0.158088     -0.000445665    -0.000347106
                     0.000289484     0.000198874        -0.239442      -0.0156397     -6.18999e-05    -0.000254649        -0.232324       -0.936783
                       -0.260969        0.158538      0.000787414     -0.00105343        -0.255094       -0.857848      0.000558926     0.000264423
                    -1.99459e-05    -0.000174239        -0.232355       -0.937211     -4.63707e-05    -5.23098e-05        -0.204953        0.125259
281700.3               -0.821021       -0.381483      1.63337e-06     0.000528171        -0.260868        0.158073     -0.000445734    -0.000347047
                     0.000289475     0.000198862        -0.239439      -0.0156319     -6.18909e-05    -0.000254664        -0.232352       -0.936776
                       -0.260913        0.158523      0.000787425     -0.00105367        -0.255187       -0.857839      0.000559038     0.000264381
                    -1.99484e-05    -0.000174231        -0.232383       -0.937205     -4.63694e-05    -5.23437e-05        -0.204947        0.125263
281700.4               -0.821063       -0.381434      1.65405e-06     0.000528283        -0.260812        0.158059     -0.000445803    -0.000346987
                     0.000289465      0.00019885        -0.239437       -0.015624     -6.18818e-05    -0.000254679        -0.232381        -0.93677
                       -0.260857        0.158509      0.000787435      -0.0010539         -0.25528        -0.85783      0.000559151     0.000264338
                    -1.99509e-05    -0.000174223        -0.232411       -0.937199     -4.63682e-05    -5.23775e-05        -0.204941        0.125267
281700.5               -0.821105       -0.381386      1.67474e-06     0.000528395        -0.260756        0.158044     -0.000445872    -0.000346928
                     0.000289455     0.000198838        -0.239435      -0.0156162     -6.18728e-05    -0.000254695        -0.232409       -0.936763
                       -0.260801        0.158494      0.000787445     -0.00105413        -0.255372       -0.857822      0.000559263     0.000264296
                    -1.99534e-05    -0.000174215         -0.23244       -0.937192      -4.6367e-05    -5.24113e-05        -0.204935        0.125272
281700.6               -0.821147       -0.381338      1.69545e-06     0.000528507          -0.2607         0.15803     -0.000445941    -0.000346869
                     0.000289445     0.000198827        -0.239433      -0.0156083     -6.18637e-05     -0.00025471        -0.232437       -0.936757
                       -0.260745         0.15848      0.000787456     -0.00105437        -0.255465       -0.857813      0.000559376     0.000264254
                    -1.99559e-05    -0.000174207        -0.232468       -0.937186     -4.63657e-05    -5.24452e-05        -0.204929        0.125276
281700.7               -0.821189       -0.381289      1.71617e-06     0.000528619        -0.260645        0.158015      -0.00044601     -0.00034681
                     0.000289435     0.000198815        -0.239431      -0.0156005     -6.18546e-05    -0.000254725        -0.232466        -0.93675
                       -0.260689        0.158465      0.000787466      -0.0010546        -0.255558       -0.857804      0.000559488     0.000264211
                    -1.99584e-05    -0.000174199        -0.232497        -0.93718     -4.63645e-05    -5.24791e-05        -0.204924        0.125281
281700.8                -0.82123       -0.381241       1.7369e-06     0.000528732        -0.260589        0.158001     -0.000446079    -0.000346751
                     0.000289426     0.000198803        -0.239429      -0.0155926     -6.18455e-05    -0.000254741        -0.232494       -0.936744
                       -0.260633        0.158451      0.000787476     -0.00105484        -0.255651       -0.857795      0.000559601     0.000264169
                    -1.99609e-05    -0.000174191        -0.232525       -0.937173     -4.63633e-05    -5.25129e-05        -0.204918        0.125285
281700.9               -0.821272       -0.381192      1.75765e-06     0.000528844        -0.260533        0.157986     -0.000446149    -0.000346692
                     0.000289416     0.000198791        -0.239427      -0.0155848     -6.18365e-05    -0.000254756        -0.232522       -0.936738
                       -0.260577        0.158436      0.000787486     -0.00105507        -0.255743       -0.857786      0.000559714     0.000264126
                    -1.99634e-05    -0.000174184        -0.232553       -0.937167      -4.6362e-05    -5.25468e-05        -0.204912        0.125289
281701                 -0.821314       -0.381143       1.7784e-06     0.000528956        -0.260477        0.157972     -0.000446218    -0.000346633
                     0.000289406     0.000198779        -0.239425       -0.015577     -6.18274e-05    -0.000254771        -0.232551       -0.936731
                       -0.260522        0.158422      0.000787497      -0.0010553        -0.255836       -0.857777      0.000559826     0.000264084
                    -1.99659e-05    -0.000174176        -0.232582       -0.937161     -4.63608e-05    -5.25806e-05        -0.204906        0.125294
281701.1               -0.821356       -0.381095      1.79917e-06     0.000529068        -0.260421        0.157957     -0.000446287    -0.000346574
                     0.000289396     0.000198767        -0.239422      -0.0155691     -6.18183e-05    -0.000254786        -0.232579       -0.936725
                       -0.260466        0.158407      0.000787507     -0.00105554        -0.255929       -0.857768      0.000559939     0.000264042
                    -1.99684e-05    -0.000174168         -0.23261       -0.937154     -4.63596e-05    -5.26145e-05        -0.204901        0.125298
281701.2               -0.821398       -0.381046      1.81996e-06      0.00052918        -0.260365        0.157943     -0.000446356    -0.000346515
                     0.000289386     0.000198755         -0.23942      -0.0155613     -6.18092e-05    -0.000254802        -0.232608       -0.936718
                        -0.26041        0.158393      0.000787517     -0.00105577        -0.256022       -0.857759      0.000560051     0.000263999
                    -1.99709e-05     -0.00017416        -0.232638       -0.937148     -4.63584e-05    -5.26484e-05        -0.204895        0.125302
281701.3               -0.821439       -0.380998      1.84075e-06     0.000529293         -0.26031        0.157928     -0.000446425    -0.000346456
                     0.000289376     0.000198743        -0.239418      -0.0155534     -6.18002e-05    -0.000254817        -0.232636       -0.936712
                       -0.260354        0.158378      0.000787527     -0.00105601        -0.256114        -0.85775      0.000560164     0.000263957
                    -1.99734e-05    -0.000174152        -0.232667       -0.937141     -4.63572e-05    -5.26823e-05        -0.204889        0.125307
281701.4               -0.821481       -0.380949      1.86155e-06     0.000529405        -0.260254        0.157913     -0.000446494    -0.000346397
                     0.000289367     0.000198731        -0.239416      -0.0155456     -6.17911e-05    -0.000254832        -0.232664       -0.936706
                       -0.260298        0.158363      0.000787537     -0.00105624        -0.256207       -0.857742      0.000560276     0.000263914
                    -1.99759e-05    -0.000174144        -0.232695       -0.937135      -4.6356e-05    -5.27162e-05        -0.204883        0.125311
281701.5               -0.821523       -0.380901      1.88237e-06     0.000529517        -0.260198        0.157899     -0.000446563    -0.000346337
                     0.000289357     0.000198719        -0.239414      -0.0155377      -6.1782e-05    -0.000254848        -0.232693       -0.936699
                       -0.260242        0.158349      0.000787547     -0.00105648          -0.2563       -0.857733      0.000560389     0.000263872
                    -1.99784e-05    -0.000174136        -0.232724       -0.937129     -4.63548e-05    -5.27501e-05        -0.204878        0.125315
281701.6               -0.821565       -0.380852      1.90319e-06      0.00052963        -0.260142        0.157884     -0.000446632    -0.000346278
                     0.000289347     0.000198707        -0.239412      -0.0155299     -6.17729e-05    -0.000254863        -0.232721       -0.936693
                       -0.260186        0.158334      0.000787557     -0.00105671        -0.256392       -0.857724      0.000560501      0.00026383
                    -1.99809e-05    -0.000174128        -0.232752       -0.937122     -4.63535e-05     -5.2784e-05        -0.204872         0.12532
281701.7               -0.821607       -0.380804      1.92403e-06     0.000529742        -0.260086         0.15787     -0.000446701    -0.000346219
                     0.000289337     0.000198695         -0.23941       -0.015522     -6.17638e-05    -0.000254878         -0.23275       -0.936686
                       -0.260131         0.15832      0.000787567     -0.00105694        -0.256485       -0.857715      0.000560614     0.000263787
                    -1.99834e-05     -0.00017412         -0.23278       -0.937116     -4.63523e-05    -5.28179e-05        -0.204866        0.125324
281701.8               -0.821648       -0.380755      1.94487e-06     0.000529855         -0.26003        0.157855      -0.00044677     -0.00034616
                     0.000289327     0.000198683        -0.239408      -0.0155142     -6.17547e-05    -0.000254893        -0.232778        -0.93668
                       -0.260075        0.158305      0.000787577     -0.00105718        -0.256578       -0.857706      0.000560727     0.000263745
                    -1.99859e-05    -0.000174112        -0.232809        -0.93711     -4.63511e-05    -5.28518e-05         -0.20486        0.125328
281701.9                -0.82169       -0.380707      1.96572e-06     0.000529967        -0.259975         0.15784     -0.000446839    -0.000346101
                     0.000289317     0.000198672        -0.239405      -0.0155064     -6.17457e-05    -0.000254909        -0.232806       -0.936674
                       -0.260019         0.15829      0.000787587     -0.00105741        -0.256671       -0.857697      0.000560839     0.000263703
                    -1.99884e-05    -0.000174104        -0.232837       -0.937103       -4.635e-05    -5.28857e-05        -0.204854        0.125333
281702                 -0.821732       -0.380658      1.98659e-06      0.00053008        -0.259919        0.157826     -0.000446908    -0.000346042
                     0.000289308      0.00019866        -0.239403      -0.0154985     -6.17366e-05    -0.000254924        -0.232835       -0.936667
                       -0.259963        0.158276      0.000787596     -0.00105765        -0.256763       -0.857688      0.000560952      0.00026366
                    -1.99909e-05    -0.000174096        -0.232866       -0.937097     -4.63488e-05    -5.29197e-05        -0.204849        0.125337
281702.1               -0.821774       -0.380609      2.00746e-06     0.000530192        -0.259863        0.157811     -0.000446977    -0.000345983
                     0.000289298     0.000198648        -0.239401      -0.0154907     -6.17275e-05    -0.000254939        -0.232863       -0.936661
                       -0.259907        0.158261      0.000787606     -0.00105788        -0.256856       -0.857679      0.000561064     0.000263618
                    -1.99934e-05    -0.000174088        -0.232894       -0.937091     -4.63476e-05    -5.29536e-05        -0.204843        0.125341
281702.2               -0.821816       -0.380561      2.02833e-06     0.000530305        -0.259807        0.157797     -0.000447046    -0.000345924
                     0.000289288     0.000198636        -0.239399      -0.0154828     -6.17184e-05    -0.000254954        -0.232891       -0.936654
                       -0.259851        0.158246      0.000787616     -0.00105812        -0.256949        -0.85767      0.000561177     0.000263576
                    -1.99959e-05    -0.000174081        -0.232922       -0.937084     -4.63464e-05    -5.29875e-05        -0.204837        0.125346
281702.3               -0.821857       -0.380512      2.04922e-06     0.000530417        -0.259751        0.157782     -0.000447115    -0.000345865
                     0.000289278     0.000198624        -0.239397       -0.015475     -6.17093e-05     -0.00025497         -0.23292       -0.936648
                       -0.259796        0.158232      0.000787626     -0.00105835        -0.257041       -0.857661      0.000561289     0.000263534
                    -1.99984e-05    -0.000174073        -0.232951       -0.937078     -4.63452e-05    -5.30215e-05        -0.204831         0.12535
281702.4               -0.821899       -0.380464      2.07011e-06      0.00053053        -0.259695        0.157767     -0.000447184    -0.000345806
                     0.000289268     0.000198612        -0.239395      -0.0154671     -6.17002e-05    -0.000254985        -0.232948       -0.936641
                        -0.25974        0.158217      0.000787635     -0.00105858        -0.257134       -0.857651      0.000561402     0.000263491
                    -2.00009e-05    -0.000174065        -0.232979       -0.937071      -4.6344e-05    -5.30554e-05        -0.204826        0.125354
281702.5               -0.821941       -0.380415      2.09101e-06     0.000530642         -0.25964        0.157753     -0.000447253    -0.000345747
                     0.000289258       0.0001986        -0.239393      -0.0154593     -6.16911e-05       -0.000255        -0.232977       -0.936635
                       -0.259684        0.158202      0.000787645     -0.00105882        -0.257227       -0.857642      0.000561514     0.000263449
                    -2.00034e-05    -0.000174057        -0.233007       -0.937065     -4.63428e-05    -5.30894e-05         -0.20482        0.125359
281702.6               -0.821983       -0.380366      2.11192e-06     0.000530755        -0.259584        0.157738     -0.000447323    -0.000345688
                     0.000289249     0.000198588        -0.239391      -0.0154515      -6.1682e-05    -0.000255015        -0.233005       -0.936629
                       -0.259628        0.158187      0.000787655     -0.00105905         -0.25732       -0.857633      0.000561627     0.000263407
                    -2.00058e-05    -0.000174049        -0.233036       -0.937059     -4.63417e-05    -5.31233e-05        -0.204814        0.125363
281702.7               -0.822024       -0.380318      2.13283e-06     0.000530868        -0.259528        0.157723     -0.000447392    -0.000345629
                     0.000289239     0.000198576        -0.239388      -0.0154436     -6.16729e-05    -0.000255031        -0.233033       -0.936622
                       -0.259572        0.158173      0.000787664     -0.00105929        -0.257412       -0.857624       0.00056174     0.000263364
                    -2.00083e-05    -0.000174041        -0.233064       -0.937052     -4.63405e-05    -5.31573e-05        -0.204808        0.125367
281702.8               -0.822066       -0.380269      2.15375e-06      0.00053098        -0.259472        0.157708     -0.000447461     -0.00034557
                     0.000289229     0.000198564        -0.239386      -0.0154358     -6.16638e-05    -0.000255046        -0.233062       -0.936616
                       -0.259517        0.158158      0.000787674     -0.00105952        -0.257505       -0.857615      0.000561852     0.000263322
                    -2.00108e-05    -0.000174033        -0.233093       -0.937046     -4.63393e-05    -5.31913e-05        -0.204802        0.125372
281702.9               -0.822108        -0.38022      2.17467e-06     0.000531093        -0.259417        0.157694      -0.00044753    -0.000345511
                     0.000289219     0.000198552        -0.239384      -0.0154279     -6.16546e-05    -0.000255061         -0.23309       -0.936609
                       -0.259461        0.158143      0.000787683     -0.00105976        -0.257598       -0.857606      0.000561965      0.00026328
                    -2.00133e-05    -0.000174025        -0.233121        -0.93704     -4.63381e-05    -5.32253e-05        -0.204797        0.125376
281703                 -0.822149       -0.380172       2.1956e-06     0.000531206        -0.259361        0.157679     -0.000447599    -0.000345452
                     0.000289209      0.00019854        -0.239382      -0.0154201     -6.16455e-05    -0.000255076        -0.233119       -0.936603
                       -0.259405        0.158129      0.000787693     -0.00105999         -0.25769       -0.857597      0.000562077     0.000263238
                    -2.00158e-05    -0.000174017        -0.233149       -0.937033      -4.6337e-05    -5.32592e-05        -0.204791        0.125381
281703.1               -0.822191       -0.380123      2.21654e-06     0.000531319        -0.259305        0.157664     -0.000447668    -0.000345393
                     0.000289199     0.000198528         -0.23938      -0.0154122     -6.16364e-05    -0.000255091        -0.233147       -0.936596
                       -0.259349        0.158114      0.000787702     -0.00106023        -0.257783       -0.857588       0.00056219     0.000263196
