! TOUCHSTONE file generated by CST MICROWAVE STUDIO
! Date and time: Wed Oct  8 07:00:46 2025
! Project name: Teste_Macro_Metasurface_Nanopilar.cst
! Parameters = {H=600; L_x=155; L_y=85; Lambda=1064; Max_L=200; Min_L=70; PathPara=1; Phi=0; Step_L=10; Theta=0; p=520; phaseX=180; phaseY=0}
! Header version: 2018
! Port assignment regex: !\s*Touchstone port\s*([0-9]+)\s*=\s*(CST MWS port|CST DS port)\s*([0-9]+|Zmin|Zmax)\s*\(\"(.*)\"\)(\s*mode\s*([0-9]+))?.*
! Touchstone port assignment:
! Touchstone port 1 = CST MWS port Zmax ("") mode 1
! Touchstone port 2 = CST MWS port Zmax ("") mode 2
! Touchstone port 3 = CST MWS port Zmin ("") mode 1
! Touchstone port 4 = CST MWS port Zmin ("") mode 2
! S-Parameters are not renormalized. Each port impedance will be approximated by the real part at minimum frequency. The values are described via the [Reference] keyword.
! Default impedance is overridden by [Reference]
[Version] 2.0
# GHz S RI R 376.73
[Number of Ports] 4
[Reference]
376.73 376.73 376.73 376.73 
[Number of Frequencies] 1001
[Network Data]
281700               -0.00209332       -0.164998     -0.000155053     0.000659434        -0.648013        0.741412     -0.000727694     3.71966e-05
                     0.000139127     0.000820828        -0.144659       -0.168024      0.000213954     0.000839529         0.206769       -0.945524
                       -0.648183        0.741413      0.000126241     0.000918989        -0.164063       0.0204788        -0.000645      0.00057669
                    -0.000587443     0.000213801         0.206879       -0.945231      -0.00062514     0.000457784        -0.202851       0.0937914
281700.1              -0.0021004       -0.164997     -0.000155031     0.000659446        -0.647993        0.741429      -0.00072769     3.72173e-05
                     0.000139174      0.00082084        -0.144665       -0.168018      0.000213988     0.000839518         0.206739       -0.945531
                       -0.648163        0.741431       0.00012627     0.000918982        -0.164062       0.0204807     -0.000644985     0.000576695
                     -0.00058744     0.000213808         0.206849       -0.945238     -0.000625131     0.000457807        -0.202847       0.0937957
281700.2             -0.00210748       -0.164997     -0.000155009     0.000659459        -0.647972        0.741447     -0.000727686      3.7238e-05
                     0.000139221     0.000820852         -0.14467       -0.168011      0.000214022     0.000839507         0.206709       -0.945538
                       -0.648143        0.741449        0.0001263     0.000918974        -0.164062       0.0204827     -0.000644969       0.0005767
                    -0.000587437     0.000213815         0.206819       -0.945245     -0.000625122     0.000457829        -0.202844       0.0938001
281700.3             -0.00211456       -0.164997     -0.000154986     0.000659472        -0.647952        0.741465     -0.000727681     3.72587e-05
                     0.000139268     0.000820863        -0.144676       -0.168004      0.000214056     0.000839496         0.206679       -0.945545
                       -0.648122        0.741466       0.00012633     0.000918967        -0.164062       0.0204847     -0.000644953     0.000576705
                    -0.000587433     0.000213823         0.206789       -0.945251     -0.000625113     0.000457852         -0.20284       0.0938044
281700.4             -0.00212164       -0.164997     -0.000154964     0.000659485        -0.647931        0.741483     -0.000727677     3.72794e-05
                     0.000139314     0.000820875        -0.144682       -0.167997       0.00021409     0.000839485         0.206648       -0.945552
                       -0.648102        0.741484      0.000126359     0.000918959        -0.164061       0.0204867     -0.000644938      0.00057671
                     -0.00058743      0.00021383         0.206759       -0.945258     -0.000625105     0.000457874        -0.202837       0.0938088
281700.5             -0.00212872       -0.164997     -0.000154942     0.000659497        -0.647911        0.741501     -0.000727673     3.73001e-05
                     0.000139361     0.000820887        -0.144688       -0.167991      0.000214124     0.000839474         0.206618       -0.945559
                       -0.648082        0.741502      0.000126389     0.000918952        -0.164061       0.0204886     -0.000644922     0.000576715
                    -0.000587427     0.000213837         0.206728       -0.945265     -0.000625096     0.000457897        -0.202833       0.0938131
281700.6              -0.0021358       -0.164997      -0.00015492      0.00065951        -0.647891        0.741519     -0.000727669     3.73208e-05
                     0.000139408     0.000820898        -0.144694       -0.167984      0.000214159     0.000839463         0.206588       -0.945566
                       -0.648061         0.74152      0.000126418     0.000918944        -0.164061       0.0204906     -0.000644906      0.00057672
                    -0.000587424     0.000213844         0.206698       -0.945272     -0.000625087     0.000457919         -0.20283       0.0938175
281700.7             -0.00214288       -0.164996     -0.000154898     0.000659523         -0.64787        0.741536     -0.000727665     3.73414e-05
                     0.000139455      0.00082091          -0.1447       -0.167977      0.000214193     0.000839451         0.206558       -0.945573
                       -0.648041        0.741538      0.000126448     0.000918936         -0.16406       0.0204926     -0.000644891     0.000576725
                     -0.00058742     0.000213851         0.206668       -0.945279     -0.000625078     0.000457941        -0.202826       0.0938218
281700.8             -0.00214996       -0.164996     -0.000154876     0.000659536         -0.64785        0.741554     -0.000727661     3.73621e-05
                     0.000139501     0.000820922        -0.144705       -0.167971      0.000214227      0.00083944         0.206527        -0.94558
                        -0.64802        0.741556      0.000126478     0.000918929         -0.16406       0.0204945     -0.000644875      0.00057673
                    -0.000587417     0.000213859         0.206638       -0.945286      -0.00062507     0.000457964        -0.202823       0.0938261
281700.9             -0.00215704       -0.164996     -0.000154854     0.000659548        -0.647829        0.741572     -0.000727656     3.73828e-05
                     0.000139548     0.000820934        -0.144711       -0.167964      0.000214261     0.000839429         0.206497       -0.945587
                          -0.648        0.741574      0.000126507     0.000918921         -0.16406       0.0204965     -0.000644859     0.000576735
                    -0.000587414     0.000213866         0.206607       -0.945293     -0.000625061     0.000457986        -0.202819       0.0938305
281701               -0.00216412       -0.164996     -0.000154832     0.000659561        -0.647809         0.74159     -0.000727652     3.74035e-05
                     0.000139595     0.000820945        -0.144717       -0.167957      0.000214295     0.000839418         0.206467       -0.945594
                        -0.64798        0.741591      0.000126537     0.000918914        -0.164059       0.0204985     -0.000644844      0.00057674
                     -0.00058741     0.000213873         0.206577         -0.9453     -0.000625052     0.000458009        -0.202816       0.0938348
281701.1             -0.00217119       -0.164996      -0.00015481     0.000659574        -0.647789        0.741608     -0.000727648     3.74242e-05
                     0.000139642     0.000820957        -0.144723       -0.167951      0.000214329     0.000839407         0.206437       -0.945601
                       -0.647959        0.741609      0.000126566     0.000918906        -0.164059       0.0205005     -0.000644828     0.000576745
                    -0.000587407      0.00021388         0.206547       -0.945307     -0.000625043     0.000458031        -0.202812       0.0938392
281701.2             -0.00217827       -0.164995     -0.000154788     0.000659586        -0.647768        0.741626     -0.000727644     3.74449e-05
                     0.000139688     0.000820969        -0.144729       -0.167944      0.000214364     0.000839396         0.206407       -0.945607
                       -0.647939        0.741627      0.000126596     0.000918899        -0.164059       0.0205024     -0.000644812      0.00057675
                    -0.000587404     0.000213888         0.206517       -0.945314     -0.000625034     0.000458054        -0.202809       0.0938435
281701.3             -0.00218535       -0.164995     -0.000154766     0.000659599        -0.647748        0.741643      -0.00072764     3.74656e-05
                     0.000139735      0.00082098        -0.144735       -0.167937      0.000214398     0.000839385         0.206376       -0.945614
                       -0.647918        0.741645      0.000126626     0.000918891        -0.164058       0.0205044     -0.000644797     0.000576754
                    -0.000587401     0.000213895         0.206487       -0.945321     -0.000625026     0.000458076        -0.202805       0.0938478
281701.4             -0.00219243       -0.164995     -0.000154744     0.000659612        -0.647727        0.741661     -0.000727635     3.74863e-05
                     0.000139782     0.000820992         -0.14474        -0.16793      0.000214432     0.000839373         0.206346       -0.945621
                       -0.647898        0.741663      0.000126655     0.000918884        -0.164058       0.0205064     -0.000644781     0.000576759
                    -0.000587397     0.000213902         0.206456       -0.945328     -0.000625017     0.000458099        -0.202802       0.0938522
281701.5             -0.00219951       -0.164995     -0.000154722     0.000659625        -0.647707        0.741679     -0.000727631     3.75069e-05
                     0.000139829     0.000821004        -0.144746       -0.167924      0.000214466     0.000839362         0.206316       -0.945628
                       -0.647878         0.74168      0.000126685     0.000918876        -0.164058       0.0205083     -0.000644765     0.000576764
                    -0.000587394     0.000213909         0.206426       -0.945335     -0.000625008     0.000458121        -0.202799       0.0938565
281701.6             -0.00220659       -0.164995       -0.0001547     0.000659637        -0.647687        0.741697     -0.000727627     3.75276e-05
                     0.000139875     0.000821015        -0.144752       -0.167917        0.0002145     0.000839351         0.206286       -0.945635
                       -0.647857        0.741698      0.000126714     0.000918869        -0.164057       0.0205103      -0.00064475     0.000576769
                    -0.000587391     0.000213916         0.206396       -0.945342     -0.000624999     0.000458144        -0.202795       0.0938609
281701.7             -0.00221367       -0.164995     -0.000154678      0.00065965        -0.647666        0.741715     -0.000727623     3.75483e-05
                     0.000139922     0.000821027        -0.144758        -0.16791      0.000214534      0.00083934         0.206255       -0.945642
                       -0.647837        0.741716      0.000126744     0.000918861        -0.164057       0.0205123     -0.000644734     0.000576774
                    -0.000587388     0.000213924         0.206366       -0.945349     -0.000624991     0.000458166        -0.202792       0.0938652
281701.8             -0.00222075       -0.164994     -0.000154656     0.000659663        -0.647646        0.741733     -0.000727619      3.7569e-05
                     0.000139969     0.000821039        -0.144764       -0.167904      0.000214568     0.000839329         0.206225       -0.945649
                       -0.647816        0.741734      0.000126774     0.000918853        -0.164057       0.0205143     -0.000644718     0.000576779
                    -0.000587384     0.000213931         0.206335       -0.945356     -0.000624982     0.000458189        -0.202788       0.0938695
281701.9             -0.00222783       -0.164994     -0.000154634     0.000659676        -0.647625         0.74175     -0.000727614     3.75897e-05
                     0.000140016     0.000821051         -0.14477       -0.167897      0.000214603     0.000839318         0.206195       -0.945656
                       -0.647796        0.741752      0.000126803     0.000918846        -0.164056       0.0205162     -0.000644703     0.000576784
                    -0.000587381     0.000213938         0.206305       -0.945362     -0.000624973     0.000458211        -0.202785       0.0938739
281702               -0.00223491       -0.164994     -0.000154612     0.000659688        -0.647605        0.741768      -0.00072761     3.76104e-05
                     0.000140062     0.000821062        -0.144775        -0.16789      0.000214637     0.000839307         0.206165       -0.945663
                       -0.647776         0.74177      0.000126833     0.000918838        -0.164056       0.0205182     -0.000644687     0.000576789
                    -0.000587378     0.000213945         0.206275       -0.945369     -0.000624964     0.000458234        -0.202781       0.0938782
281702.1             -0.00224199       -0.164994      -0.00015459     0.000659701        -0.647585        0.741786     -0.000727606     3.76311e-05
                     0.000140109     0.000821074        -0.144781       -0.167883      0.000214671     0.000839295         0.206135        -0.94567
                       -0.647755        0.741787      0.000126862     0.000918831        -0.164056       0.0205202     -0.000644671     0.000576794
                    -0.000587375     0.000213952         0.206245       -0.945376     -0.000624955     0.000458256        -0.202778       0.0938826
281702.2             -0.00224907       -0.164994     -0.000154568     0.000659714        -0.647564        0.741804     -0.000727602     3.76518e-05
                     0.000140156     0.000821086        -0.144787       -0.167877      0.000214705     0.000839284         0.206104       -0.945677
                       -0.647735        0.741805      0.000126892     0.000918823        -0.164055       0.0205222     -0.000644656     0.000576799
                    -0.000587371      0.00021396         0.206215       -0.945383     -0.000624947     0.000458278        -0.202774       0.0938869
281702.3             -0.00225615       -0.164993     -0.000154546     0.000659727        -0.647544        0.741822     -0.000727598     3.76725e-05
                     0.000140203     0.000821097        -0.144793        -0.16787      0.000214739     0.000839273         0.206074       -0.945684
                       -0.647714        0.741823      0.000126922     0.000918816        -0.164055       0.0205241      -0.00064464     0.000576804
                    -0.000587368     0.000213967         0.206184        -0.94539     -0.000624938     0.000458301        -0.202771       0.0938913
281702.4             -0.00226323       -0.164993     -0.000154524     0.000659739        -0.647523         0.74184     -0.000727593     3.76931e-05
                     0.000140249     0.000821109        -0.144799       -0.167863      0.000214773     0.000839262         0.206044       -0.945691
                       -0.647694        0.741841      0.000126951     0.000918808        -0.164054       0.0205261     -0.000644624     0.000576809
                    -0.000587365     0.000213974         0.206154       -0.945397     -0.000624929     0.000458323        -0.202767       0.0938956
281702.5              -0.0022703       -0.164993     -0.000154502     0.000659752        -0.647503        0.741857     -0.000727589     3.77138e-05
                     0.000140296     0.000821121        -0.144805       -0.167857      0.000214807     0.000839251         0.206014       -0.945697
                       -0.647674        0.741859      0.000126981     0.000918801        -0.164054       0.0205281     -0.000644609     0.000576814
                    -0.000587362     0.000213981         0.206124       -0.945404      -0.00062492     0.000458346        -0.202764       0.0938999
281702.6             -0.00227738       -0.164993      -0.00015448     0.000659765        -0.647483        0.741875     -0.000727585     3.77345e-05
                     0.000140343     0.000821133         -0.14481        -0.16785      0.000214841      0.00083924         0.205983       -0.945704
                       -0.647653        0.741877       0.00012701     0.000918793        -0.164054         0.02053     -0.000644593     0.000576819
                    -0.000587358     0.000213989         0.206094       -0.945411     -0.000624911     0.000458368         -0.20276       0.0939043
281702.7             -0.00228446       -0.164993     -0.000154458     0.000659778        -0.647462        0.741893     -0.000727581     3.77552e-05
                      0.00014039     0.000821144        -0.144816       -0.167843      0.000214876     0.000839228         0.205953       -0.945711
                       -0.647633        0.741894       0.00012704     0.000918785        -0.164053        0.020532     -0.000644577     0.000576823
                    -0.000587355     0.000213996         0.206063       -0.945418     -0.000624903     0.000458391        -0.202757       0.0939086
281702.8             -0.00229154       -0.164993     -0.000154436      0.00065979        -0.647442        0.741911     -0.000727576     3.77759e-05
                     0.000140436     0.000821156        -0.144822       -0.167837       0.00021491     0.000839217         0.205923       -0.945718
                       -0.647612        0.741912       0.00012707     0.000918778        -0.164053        0.020534     -0.000644562     0.000576828
                    -0.000587352     0.000214003         0.206033       -0.945425     -0.000624894     0.000458413        -0.202753       0.0939129
281702.9             -0.00229862       -0.164992     -0.000154414     0.000659803        -0.647421        0.741929     -0.000727572     3.77966e-05
                     0.000140483     0.000821168        -0.144828        -0.16783      0.000214944     0.000839206         0.205893       -0.945725
                       -0.647592         0.74193      0.000127099      0.00091877        -0.164053        0.020536     -0.000644546     0.000576833
                    -0.000587349      0.00021401         0.206003       -0.945432     -0.000624885     0.000458436         -0.20275       0.0939173
281703                -0.0023057       -0.164992     -0.000154392     0.000659816        -0.647401        0.741946     -0.000727568     3.78173e-05
                      0.00014053     0.000821179        -0.144834       -0.167823      0.000214978     0.000839195         0.205863       -0.945732
                       -0.647571        0.741948      0.000127129     0.000918763        -0.164052       0.0205379      -0.00064453     0.000576838
                    -0.000587345     0.000214017         0.205973       -0.945439     -0.000624876     0.000458458        -0.202746       0.0939216
281703.1             -0.00231278       -0.164992      -0.00015437     0.000659828        -0.647381        0.741964     -0.000727564      3.7838e-05
                     0.000140577     0.000821191         -0.14484       -0.167816      0.000215012     0.000839184         0.205832       -0.945739
                       -0.647551        0.741966      0.000127158     0.000918755        -0.164052       0.0205399     -0.000644514     0.000576843
