! TOUCHSTONE file generated by CST MICROWAVE STUDIO
! Date and time: Wed Oct  8 06:55:55 2025
! Project name: Teste_Macro_Metasurface_Nanopilar.cst
! Parameters = {H=600; L_x=115; L_y=70; Lambda=1064; Max_L=200; Min_L=70; PathPara=1; Phi=0; Step_L=10; Theta=0; p=520; phaseX=180; phaseY=0}
! Header version: 2018
! Port assignment regex: !\s*Touchstone port\s*([0-9]+)\s*=\s*(CST MWS port|CST DS port)\s*([0-9]+|Zmin|Zmax)\s*\(\"(.*)\"\)(\s*mode\s*([0-9]+))?.*
! Touchstone port assignment:
! Touchstone port 1 = CST MWS port Zmax ("") mode 1
! Touchstone port 2 = CST MWS port Zmax ("") mode 2
! Touchstone port 3 = CST MWS port Zmin ("") mode 1
! Touchstone port 4 = CST MWS port Zmin ("") mode 2
! S-Parameters are not renormalized. Each port impedance will be approximated by the real part at minimum frequency. The values are described via the [Reference] keyword.
! Default impedance is overridden by [Reference]
[Version] 2.0
# GHz S RI R 376.73
[Number of Ports] 4
[Reference]
376.73 376.73 376.73 376.73 
[Number of Frequencies] 1001
[Network Data]
281700                  0.125243       0.0420823     -0.000363954    -0.000141962        -0.969566        0.205269      0.000299891     0.000757843
                    -0.000711339    -0.000283757       -0.0584167       -0.177181      0.000514906     0.000669861        -0.611107        0.766874
                       -0.969293        0.205558      0.000486404     0.000733124       -0.0975686       0.0892889      6.88607e-05    -0.000332309
                     0.000525403     0.000733365        -0.611477        0.766873      8.01039e-05     -0.00034015        -0.186368      -0.0167593
281700.1                0.125242       0.0420762     -0.000363961    -0.000141951        -0.969561        0.205295      0.000299912     0.000757838
                    -0.000711349    -0.000283728       -0.0584241        -0.17718      0.000514924     0.000669847        -0.611085        0.766891
                       -0.969288        0.205584      0.000486431     0.000733101       -0.0975655       0.0892881      6.88504e-05    -0.000332309
                      0.00052543     0.000733345        -0.611456        0.766889      8.00952e-05    -0.000340149        -0.186369      -0.0167566
281700.2                0.125242       0.0420701     -0.000363969     -0.00014194        -0.969556         0.20532      0.000299933     0.000757833
                     -0.00071136    -0.000283699       -0.0584315       -0.177179      0.000514942     0.000669833        -0.611064        0.766908
                       -0.969283         0.20561      0.000486458     0.000733078       -0.0975624       0.0892874        6.884e-05    -0.000332309
                     0.000525457     0.000733326        -0.611435        0.766906      8.00864e-05    -0.000340147         -0.18637      -0.0167539
281700.3                0.125241        0.042064     -0.000363976    -0.000141929        -0.969551        0.205346      0.000299954     0.000757827
                    -0.000711371    -0.000283671       -0.0584389       -0.177177      0.000514959     0.000669819        -0.611043        0.766924
                       -0.969278        0.205636      0.000486484     0.000733056       -0.0975593       0.0892866      6.88297e-05    -0.000332309
                     0.000525484     0.000733306        -0.611413        0.766923      8.00777e-05    -0.000340145        -0.186371      -0.0167511
281700.4                 0.12524       0.0420579     -0.000363984    -0.000141918        -0.969546        0.205372      0.000299975     0.000757822
                    -0.000711381    -0.000283642       -0.0584463       -0.177176      0.000514977     0.000669805        -0.611021        0.766941
                       -0.969273        0.205661      0.000486511     0.000733033       -0.0975562       0.0892858      6.88193e-05    -0.000332309
                      0.00052551     0.000733287        -0.611392         0.76694       8.0069e-05    -0.000340144        -0.186372      -0.0167484
281700.5                0.125239       0.0420518     -0.000363991    -0.000141907        -0.969541        0.205397      0.000299996     0.000757817
                    -0.000711392    -0.000283613       -0.0584537       -0.177174      0.000514995     0.000669791           -0.611        0.766958
                       -0.969268        0.205687      0.000486538      0.00073301       -0.0975532        0.089285       6.8809e-05    -0.000332309
                     0.000525537     0.000733268        -0.611371        0.766957      8.00602e-05    -0.000340142        -0.186374      -0.0167456
281700.6                0.125238       0.0420456     -0.000363999    -0.000141897        -0.969536        0.205423      0.000300017     0.000757812
                    -0.000711402    -0.000283584       -0.0584611       -0.177173      0.000515013     0.000669777        -0.610979        0.766975
                       -0.969263        0.205713      0.000486565     0.000732987       -0.0975501       0.0892842      6.87987e-05    -0.000332309
                     0.000525564     0.000733248        -0.611349        0.766973      8.00515e-05    -0.000340141        -0.186375      -0.0167429
281700.7                0.125237       0.0420395     -0.000364006    -0.000141886        -0.969531        0.205449      0.000300038     0.000757807
                    -0.000711413    -0.000283555       -0.0584685       -0.177171      0.000515031     0.000669763        -0.610957        0.766991
                       -0.969258        0.205738      0.000486591     0.000732964        -0.097547       0.0892834      6.87883e-05    -0.000332309
                     0.000525591     0.000733229        -0.611328         0.76699      8.00427e-05    -0.000340139        -0.186376      -0.0167402
281700.8                0.125236       0.0420334     -0.000364014    -0.000141875        -0.969526        0.205475      0.000300059     0.000757802
                    -0.000711424    -0.000283526        -0.058476        -0.17717      0.000515049     0.000669749        -0.610936        0.767008
                       -0.969253        0.205764      0.000486618     0.000732941       -0.0975439       0.0892826       6.8778e-05    -0.000332309
                     0.000525617     0.000733209        -0.611307        0.767007       8.0034e-05    -0.000340137        -0.186377      -0.0167374
281700.9                0.125235       0.0420273     -0.000364021    -0.000141864        -0.969521          0.2055       0.00030008     0.000757797
                    -0.000711434    -0.000283497       -0.0584834       -0.177169      0.000515067     0.000669735        -0.610915        0.767025
                       -0.969248         0.20579      0.000486645     0.000732918       -0.0975408       0.0892818      6.87676e-05    -0.000332309
                     0.000525644      0.00073319        -0.611285        0.767024      8.00253e-05    -0.000340136        -0.186378      -0.0167347
281701                  0.125234       0.0420212     -0.000364029    -0.000141853        -0.969516        0.205526      0.000300101     0.000757792
                    -0.000711445    -0.000283469       -0.0584908       -0.177167      0.000515085     0.000669721        -0.610893        0.767042
                       -0.969243        0.205816      0.000486672     0.000732895       -0.0975377        0.089281      6.87573e-05    -0.000332309
                     0.000525671      0.00073317        -0.611264         0.76704      8.00165e-05    -0.000340134         -0.18638       -0.016732
281701.1                0.125233       0.0420151     -0.000364036    -0.000141842         -0.96951        0.205552      0.000300122     0.000757787
                    -0.000711456     -0.00028344       -0.0584982       -0.177166      0.000515103     0.000669707        -0.610872        0.767058
                       -0.969237        0.205841      0.000486699     0.000732873       -0.0975347       0.0892803      6.87469e-05    -0.000332309
                     0.000525698     0.000733151        -0.611243        0.767057      8.00078e-05    -0.000340132        -0.186381      -0.0167292
281701.2                0.125232        0.042009     -0.000364044    -0.000141831        -0.969505        0.205578      0.000300143     0.000757782
                    -0.000711466    -0.000283411       -0.0585056       -0.177164      0.000515121     0.000669693        -0.610851        0.767075
                       -0.969232        0.205867      0.000486725      0.00073285       -0.0975316       0.0892795      6.87366e-05    -0.000332309
                     0.000525724     0.000733132        -0.611222        0.767074      7.99991e-05    -0.000340131        -0.186382      -0.0167265
281701.3                0.125232       0.0420029     -0.000364051     -0.00014182          -0.9695        0.205603      0.000300164     0.000757777
                    -0.000711477    -0.000283382        -0.058513       -0.177163      0.000515139     0.000669679        -0.610829        0.767092
                       -0.969227        0.205893      0.000486752     0.000732827       -0.0975285       0.0892787      6.87262e-05    -0.000332309
                     0.000525751     0.000733112          -0.6112        0.767091      7.99903e-05    -0.000340129        -0.186383      -0.0167238
281701.4                0.125231       0.0419968     -0.000364059    -0.000141809        -0.969495        0.205629      0.000300185     0.000757772
                    -0.000711488    -0.000283353       -0.0585204       -0.177161      0.000515157     0.000669665        -0.610808        0.767109
                       -0.969222        0.205918      0.000486779     0.000732804       -0.0975254       0.0892779      6.87159e-05    -0.000332308
                     0.000525778     0.000733093        -0.611179        0.767107      7.99816e-05    -0.000340127        -0.186384       -0.016721
281701.5                 0.12523       0.0419907     -0.000364066    -0.000141798         -0.96949        0.205655      0.000300206     0.000757767
                    -0.000711498    -0.000283324       -0.0585278        -0.17716      0.000515175     0.000669651        -0.610787        0.767125
                       -0.969217        0.205944      0.000486806     0.000732781       -0.0975223       0.0892771      6.87056e-05    -0.000332308
                     0.000525805     0.000733073        -0.611158        0.767124      7.99728e-05    -0.000340126        -0.186386      -0.0167183
281701.6                0.125229       0.0419846     -0.000364074    -0.000141787        -0.969485        0.205681      0.000300227     0.000757762
                    -0.000711509    -0.000283295       -0.0585353       -0.177158      0.000515193     0.000669637        -0.610765        0.767142
                       -0.969212         0.20597      0.000486832     0.000732758       -0.0975192       0.0892763      6.86952e-05    -0.000332308
                     0.000525831     0.000733054        -0.611136        0.767141      7.99641e-05    -0.000340124        -0.186387      -0.0167156
281701.7                0.125228       0.0419785     -0.000364081    -0.000141776         -0.96948        0.205706      0.000300248     0.000757757
                     -0.00071152    -0.000283267       -0.0585427       -0.177157      0.000515211     0.000669623        -0.610744        0.767159
                       -0.969207        0.205996      0.000486859     0.000732735       -0.0975162       0.0892755      6.86849e-05    -0.000332308
                     0.000525858     0.000733035        -0.611115        0.767158      7.99554e-05    -0.000340123        -0.186388      -0.0167128
281701.8                0.125227       0.0419724     -0.000364089    -0.000141765        -0.969475        0.205732      0.000300269     0.000757752
                     -0.00071153    -0.000283238       -0.0585501       -0.177156      0.000515228     0.000669609        -0.610723        0.767176
                       -0.969202        0.206021      0.000486886     0.000732712       -0.0975131       0.0892747      6.86745e-05    -0.000332308
                     0.000525885     0.000733015        -0.611094        0.767175      7.99466e-05    -0.000340121        -0.186389      -0.0167101
281701.9                0.125226       0.0419663     -0.000364096    -0.000141754         -0.96947        0.205758       0.00030029     0.000757747
                    -0.000711541    -0.000283209       -0.0585575       -0.177154      0.000515246     0.000669595        -0.610701        0.767192
                       -0.969197        0.206047      0.000486913     0.000732689         -0.09751       0.0892739      6.86642e-05    -0.000332308
                     0.000525911     0.000732996        -0.611072        0.767191      7.99379e-05    -0.000340119         -0.18639      -0.0167074
281702                  0.125225       0.0419602     -0.000364104    -0.000141743        -0.969465        0.205783      0.000300311     0.000757742
                    -0.000711551     -0.00028318       -0.0585649       -0.177153      0.000515264     0.000669581         -0.61068        0.767209
                       -0.969192        0.206073      0.000486939     0.000732666       -0.0975069       0.0892731      6.86538e-05    -0.000332308
                     0.000525938     0.000732976        -0.611051        0.767208      7.99292e-05    -0.000340118        -0.186392      -0.0167046
281702.1                0.125224       0.0419541     -0.000364111    -0.000141732         -0.96946        0.205809      0.000300331     0.000757737
                    -0.000711562    -0.000283151       -0.0585723       -0.177151      0.000515282     0.000669567        -0.610659        0.767226
                       -0.969187        0.206098      0.000486966     0.000732643       -0.0975038       0.0892724      6.86435e-05    -0.000332308
                     0.000525965     0.000732957         -0.61103        0.767225      7.99204e-05    -0.000340116        -0.186393      -0.0167019
281702.2                0.125223        0.041948     -0.000364119    -0.000141721        -0.969455        0.205835      0.000300352     0.000757732
                    -0.000711573    -0.000283122       -0.0585797        -0.17715        0.0005153     0.000669553        -0.610637        0.767243
                       -0.969181        0.206124      0.000486993     0.000732621       -0.0975008       0.0892716      6.86332e-05    -0.000332308
                     0.000525992     0.000732937        -0.611008        0.767242      7.99117e-05    -0.000340114        -0.186394      -0.0166992
281702.3                0.125222       0.0419419     -0.000364126     -0.00014171        -0.969449        0.205861      0.000300373     0.000757727
                    -0.000711583    -0.000283093       -0.0585871       -0.177148      0.000515318     0.000669539        -0.610616        0.767259
                       -0.969176         0.20615       0.00048702     0.000732598       -0.0974977       0.0892708      6.86228e-05    -0.000332308
                     0.000526018     0.000732918        -0.610987        0.767258       7.9903e-05    -0.000340113        -0.186395      -0.0166964
281702.4                0.125221       0.0419358     -0.000364134    -0.000141699        -0.969444        0.205886      0.000300394     0.000757721
                    -0.000711594    -0.000283064       -0.0585945       -0.177147      0.000515336     0.000669525        -0.610595        0.767276
                       -0.969171        0.206176      0.000487046     0.000732575       -0.0974946         0.08927      6.86125e-05    -0.000332308
                     0.000526045     0.000732899        -0.610966        0.767275      7.98942e-05    -0.000340111        -0.186396      -0.0166937
281702.5                 0.12522       0.0419297     -0.000364141    -0.000141688        -0.969439        0.205912      0.000300415     0.000757716
                    -0.000711605    -0.000283036        -0.058602       -0.177146      0.000515354     0.000669511        -0.610573        0.767293
                       -0.969166        0.206201      0.000487073     0.000732552       -0.0974915       0.0892692      6.86021e-05    -0.000332308
                     0.000526072     0.000732879        -0.610944        0.767292      7.98855e-05    -0.000340109        -0.186398      -0.0166909
281702.6                 0.12522       0.0419236     -0.000364149    -0.000141677        -0.969434        0.205938      0.000300436     0.000757711
                    -0.000711615    -0.000283007       -0.0586094       -0.177144      0.000515372     0.000669497        -0.610552         0.76731
                       -0.969161        0.206227        0.0004871     0.000732529       -0.0974884       0.0892684      6.85918e-05    -0.000332308
                     0.000526098      0.00073286        -0.610923        0.767309      7.98768e-05    -0.000340108        -0.186399      -0.0166882
281702.7                0.125219       0.0419175     -0.000364156    -0.000141666        -0.969429        0.205964      0.000300457     0.000757706
                    -0.000711626    -0.000282978       -0.0586168       -0.177143       0.00051539     0.000669483        -0.610531        0.767326
                       -0.969156        0.206253      0.000487127     0.000732506       -0.0974853       0.0892676      6.85814e-05    -0.000332308
                     0.000526125      0.00073284        -0.610902        0.767325       7.9868e-05    -0.000340106          -0.1864      -0.0166855
281702.8                0.125218       0.0419114     -0.000364164    -0.000141655        -0.969424        0.205989      0.000300478     0.000757701
                    -0.000711636    -0.000282949       -0.0586242       -0.177141      0.000515408     0.000669469        -0.610509        0.767343
                       -0.969151        0.206278      0.000487153     0.000732483       -0.0974823       0.0892668      6.85711e-05    -0.000332308
                     0.000526152     0.000732821         -0.61088        0.767342      7.98593e-05    -0.000340105        -0.186401      -0.0166827
281702.9                0.125217       0.0419053     -0.000364171    -0.000141644        -0.969419        0.206015      0.000300499     0.000757696
                    -0.000711647     -0.00028292       -0.0586316        -0.17714      0.000515426     0.000669455        -0.610488         0.76736
                       -0.969146        0.206304       0.00048718      0.00073246       -0.0974792        0.089266      6.85607e-05    -0.000332308
                     0.000526179     0.000732801        -0.610859        0.767359      7.98506e-05    -0.000340103        -0.186402        -0.01668
281703                  0.125216       0.0418992     -0.000364179    -0.000141634        -0.969414        0.206041       0.00030052     0.000757691
                    -0.000711658    -0.000282891        -0.058639       -0.177138      0.000515443      0.00066944        -0.610467        0.767377
                       -0.969141         0.20633      0.000487207     0.000732437       -0.0974761       0.0892652      6.85504e-05    -0.000332308
                     0.000526205     0.000732782        -0.610838        0.767376      7.98418e-05    -0.000340101        -0.186404      -0.0166773
281703.1                0.125215       0.0418931     -0.000364186    -0.000141623        -0.969409        0.206067      0.000300541     0.000757686
                    -0.000711668    -0.000282862       -0.0586464       -0.177137      0.000515461     0.000669426        -0.610445        0.767393
                       -0.969136        0.206355      0.000487234     0.000732414        -0.097473       0.0892645      6.85401e-05    -0.000332308
