! TOUCHSTONE file generated by CST MICROWAVE STUDIO
! Date and time: Wed Oct  8 07:01:40 2025
! Project name: Teste_Macro_Metasurface_Nanopilar.cst
! Parameters = {H=600; L_x=160; L_y=150; Lambda=1064; Max_L=200; Min_L=70; PathPara=1; Phi=0; Step_L=10; Theta=0; p=520; phaseX=180; phaseY=0}
! Header version: 2018
! Port assignment regex: !\s*Touchstone port\s*([0-9]+)\s*=\s*(CST MWS port|CST DS port)\s*([0-9]+|Zmin|Zmax)\s*\(\"(.*)\"\)(\s*mode\s*([0-9]+))?.*
! Touchstone port assignment:
! Touchstone port 1 = CST MWS port Zmax ("") mode 1
! Touchstone port 2 = CST MWS port Zmax ("") mode 2
! Touchstone port 3 = CST MWS port Zmin ("") mode 1
! Touchstone port 4 = CST MWS port Zmin ("") mode 2
! S-Parameters are not renormalized. Each port impedance will be approximated by the real part at minimum frequency. The values are described via the [Reference] keyword.
! Default impedance is overridden by [Reference]
[Version] 2.0
# GHz S RI R 376.73
[Number of Ports] 4
[Reference]
376.73 376.73 376.73 376.73 
[Number of Frequencies] 1001
[Network Data]
281700                 -0.216899        0.289814      0.000536191     0.000143807        -0.627787       -0.676464     -0.000411886     0.000313739
                     0.000507189     8.08253e-05        -0.109343        0.224787     -0.000491519     0.000441436        -0.784024       -0.557742
                       -0.628092       -0.676229     -0.000355576     0.000340178        -0.311088        0.181271      0.000304482    -0.000268002
                    -0.000244068     0.000389462        -0.784299        -0.55784     -0.000189607    -0.000233212        -0.181426        0.170765
281700.1               -0.216885        0.289813      0.000536218     0.000143793        -0.627812       -0.676445     -0.000411879     0.000313748
                     0.000507206     8.08038e-05        -0.109334        0.224785     -0.000491487     0.000441456        -0.784043       -0.557719
                       -0.628117       -0.676211     -0.000355544     0.000340184        -0.311075        0.181279      0.000304446    -0.000268032
                     -0.00024407     0.000389494        -0.784317       -0.557817     -0.000189643    -0.000233208        -0.181417        0.170767
281700.2               -0.216872        0.289813      0.000536244      0.00014378        -0.627837       -0.676427     -0.000411872     0.000313757
                     0.000507224     8.07824e-05        -0.109324        0.224782     -0.000491455     0.000441476        -0.784061       -0.557696
                       -0.628141       -0.676193     -0.000355512      0.00034019        -0.311061        0.181286       0.00030441    -0.000268062
                    -0.000244073     0.000389525        -0.784336       -0.557794     -0.000189679    -0.000233205        -0.181407        0.170768
281700.3               -0.216859        0.289813      0.000536271     0.000143766        -0.627862       -0.676409     -0.000411865     0.000313767
                     0.000507241     8.07609e-05        -0.109315        0.224779     -0.000491423     0.000441495         -0.78408       -0.557673
                       -0.628166       -0.676174      -0.00035548     0.000340195        -0.311047        0.181294      0.000304374    -0.000268092
                    -0.000244075     0.000389557        -0.784354       -0.557771     -0.000189715    -0.000233201        -0.181397        0.170769
281700.4               -0.216845        0.289813      0.000536297     0.000143753        -0.627886        -0.67639     -0.000411858     0.000313776
                     0.000507258     8.07394e-05        -0.109306        0.224777     -0.000491391     0.000441515        -0.784098        -0.55765
                       -0.628191       -0.676156     -0.000355447     0.000340201        -0.311034        0.181301      0.000304339    -0.000268121
                    -0.000244077     0.000389588        -0.784373       -0.557747     -0.000189751    -0.000233198        -0.181387         0.17077
281700.5               -0.216832        0.289813      0.000536323     0.000143739        -0.627911       -0.676372     -0.000411851     0.000313786
                     0.000507276     8.07179e-05        -0.109296        0.224774     -0.000491359     0.000441534        -0.784117       -0.557627
                       -0.628216       -0.676138     -0.000355415     0.000340207         -0.31102        0.181309      0.000304303    -0.000268151
                    -0.000244079      0.00038962        -0.784391       -0.557724     -0.000189787    -0.000233194        -0.181377        0.170772
281700.6               -0.216819        0.289813       0.00053635     0.000143726        -0.627936       -0.676353     -0.000411844     0.000313795
                     0.000507293     8.06965e-05        -0.109287        0.224772     -0.000491326     0.000441554        -0.784135       -0.557604
                        -0.62824       -0.676119     -0.000355383     0.000340213        -0.311006        0.181317      0.000304267    -0.000268181
                    -0.000244081     0.000389652         -0.78441       -0.557701     -0.000189823    -0.000233191        -0.181367        0.170773
281700.7               -0.216805        0.289812      0.000536376     0.000143712        -0.627961       -0.676335     -0.000411837     0.000313805
                     0.000507311      8.0675e-05        -0.109277        0.224769     -0.000491294     0.000441574        -0.784154       -0.557581
                       -0.628265       -0.676101     -0.000355351     0.000340219        -0.310993        0.181324      0.000304231    -0.000268211
                    -0.000244083     0.000389683        -0.784428       -0.557678     -0.000189859    -0.000233187        -0.181357        0.170774
281700.8               -0.216792        0.289812      0.000536403     0.000143699        -0.627985       -0.676316      -0.00041183     0.000313814
                     0.000507328     8.06535e-05        -0.109268        0.224767     -0.000491262     0.000441593        -0.784172       -0.557558
                        -0.62829       -0.676082     -0.000355319     0.000340225        -0.310979        0.181332      0.000304195     -0.00026824
                    -0.000244086     0.000389715        -0.784447       -0.557655     -0.000189895    -0.000233184        -0.181347        0.170776
281700.9               -0.216778        0.289812      0.000536429     0.000143685         -0.62801       -0.676298     -0.000411822     0.000313824
                     0.000507345     8.06321e-05        -0.109258        0.224764      -0.00049123     0.000441613        -0.784191       -0.557535
                       -0.628314       -0.676064     -0.000355287     0.000340231        -0.310965        0.181339      0.000304159     -0.00026827
                    -0.000244088     0.000389746        -0.784465       -0.557632     -0.000189931     -0.00023318        -0.181337        0.170777
281701                 -0.216765        0.289812      0.000536455     0.000143672        -0.628035        -0.67628     -0.000411815     0.000313833
                     0.000507363     8.06106e-05        -0.109249        0.224762     -0.000491198     0.000441632        -0.784209       -0.557512
                       -0.628339       -0.676046     -0.000355254     0.000340237        -0.310952        0.181347      0.000304123      -0.0002683
                     -0.00024409     0.000389778        -0.784484       -0.557609     -0.000189967    -0.000233177        -0.181327        0.170778
281701.1               -0.216752        0.289812      0.000536482     0.000143658         -0.62806       -0.676261     -0.000411808     0.000313843
                      0.00050738     8.05891e-05        -0.109239        0.224759     -0.000491166     0.000441652        -0.784228       -0.557489
                       -0.628364       -0.676027     -0.000355222     0.000340243        -0.310938        0.181354      0.000304087     -0.00026833
                    -0.000244092     0.000389809        -0.784502       -0.557586     -0.000190003    -0.000233173        -0.181317         0.17078
281701.2               -0.216738        0.289812      0.000536508     0.000143645        -0.628084       -0.676243     -0.000411801     0.000313852
                     0.000507398     8.05677e-05         -0.10923        0.224757     -0.000491134     0.000441671        -0.784246       -0.557466
                       -0.628388       -0.676009      -0.00035519     0.000340249        -0.310924        0.181362      0.000304051     -0.00026836
                    -0.000244094     0.000389841        -0.784521       -0.557563     -0.000190039    -0.000233169        -0.181307        0.170781
281701.3               -0.216725        0.289811      0.000536535     0.000143631        -0.628109       -0.676224     -0.000411794     0.000313862
                     0.000507415     8.05462e-05         -0.10922        0.224754     -0.000491102     0.000441691        -0.784265       -0.557443
                       -0.628413       -0.675991     -0.000355158     0.000340255        -0.310911         0.18137      0.000304015    -0.000268389
                    -0.000244097     0.000389873        -0.784539        -0.55754     -0.000190075    -0.000233166        -0.181297        0.170782
281701.4               -0.216712        0.289811      0.000536561     0.000143618        -0.628134       -0.676206     -0.000411787     0.000313871
                     0.000507432     8.05247e-05        -0.109211        0.224752      -0.00049107      0.00044171        -0.784283        -0.55742
                       -0.628438       -0.675972     -0.000355126     0.000340261        -0.310897        0.181377      0.000303979    -0.000268419
                    -0.000244099     0.000389904        -0.784558       -0.557517     -0.000190111    -0.000233162        -0.181287        0.170784
281701.5               -0.216698        0.289811      0.000536587     0.000143604        -0.628159       -0.676188      -0.00041178     0.000313881
                      0.00050745     8.05033e-05        -0.109201        0.224749     -0.000491038      0.00044173        -0.784302       -0.557397
                       -0.628462       -0.675954     -0.000355094     0.000340267        -0.310883        0.181385      0.000303944    -0.000268449
                    -0.000244101     0.000389936        -0.784576       -0.557494     -0.000190147    -0.000233159        -0.181277        0.170785
281701.6               -0.216685        0.289811      0.000536614     0.000143591        -0.628183       -0.676169     -0.000411773      0.00031389
                     0.000507467     8.04818e-05        -0.109192        0.224747     -0.000491006      0.00044175         -0.78432       -0.557374
                       -0.628487       -0.675935     -0.000355062     0.000340273         -0.31087        0.181392      0.000303908    -0.000268479
                    -0.000244103     0.000389967        -0.784595       -0.557471     -0.000190183    -0.000233155        -0.181267        0.170786
281701.7               -0.216672        0.289811       0.00053664     0.000143577        -0.628208       -0.676151     -0.000411766       0.0003139
                     0.000507485     8.04603e-05        -0.109182        0.224744     -0.000490973     0.000441769        -0.784339        -0.55735
                       -0.628512       -0.675917     -0.000355029     0.000340279        -0.310856          0.1814      0.000303872    -0.000268509
                    -0.000244105     0.000389999        -0.784613       -0.557448     -0.000190219    -0.000233152        -0.181257        0.170787
281701.8               -0.216658        0.289811      0.000536666     0.000143564        -0.628233       -0.676132     -0.000411759     0.000313909
                     0.000507502     8.04389e-05        -0.109173        0.224742     -0.000490941     0.000441789        -0.784357       -0.557327
                       -0.628537       -0.675899     -0.000354997     0.000340285        -0.310842        0.181407      0.000303836    -0.000268538
                    -0.000244108      0.00039003        -0.784632       -0.557425     -0.000190255    -0.000233148        -0.181248        0.170789
281701.9               -0.216645         0.28981      0.000536693      0.00014355        -0.628258       -0.676114     -0.000411752     0.000313919
                     0.000507519     8.04174e-05        -0.109164        0.224739     -0.000490909     0.000441808        -0.784376       -0.557304
                       -0.628561        -0.67588     -0.000354965     0.000340291        -0.310829        0.181415        0.0003038    -0.000268568
                     -0.00024411     0.000390062         -0.78465       -0.557401     -0.000190291    -0.000233145        -0.181238         0.17079
281702                 -0.216632         0.28981      0.000536719     0.000143537        -0.628282       -0.676096     -0.000411745     0.000313928
                     0.000507537     8.03959e-05        -0.109154        0.224736     -0.000490877     0.000441828        -0.784394       -0.557281
                       -0.628586       -0.675862     -0.000354933     0.000340296        -0.310815        0.181423      0.000303764    -0.000268598
                    -0.000244112     0.000390093        -0.784669       -0.557378     -0.000190327    -0.000233141        -0.181228        0.170791
281702.1               -0.216618         0.28981      0.000536746     0.000143523        -0.628307       -0.676077     -0.000411738     0.000313938
                     0.000507554     8.03745e-05        -0.109145        0.224734     -0.000490845     0.000441847        -0.784413       -0.557258
                       -0.628611       -0.675844     -0.000354901     0.000340302        -0.310801         0.18143      0.000303728    -0.000268628
                    -0.000244114     0.000390125        -0.784687       -0.557355     -0.000190363    -0.000233138        -0.181218        0.170793
281702.2               -0.216605         0.28981      0.000536772      0.00014351        -0.628332       -0.676059     -0.000411731     0.000313947
                     0.000507572      8.0353e-05        -0.109135        0.224731     -0.000490813     0.000441867        -0.784431       -0.557235
                       -0.628635       -0.675825     -0.000354869     0.000340308        -0.310788        0.181438      0.000303692    -0.000268658
                    -0.000244116     0.000390156        -0.784705       -0.557332     -0.000190399    -0.000233134        -0.181208        0.170794
281702.3               -0.216591         0.28981      0.000536798     0.000143496        -0.628357        -0.67604     -0.000411723     0.000313957
                     0.000507589     8.03316e-05        -0.109126        0.224729     -0.000490781     0.000441886         -0.78445       -0.557212
                        -0.62866       -0.675807     -0.000354837     0.000340314        -0.310774        0.181445      0.000303656    -0.000268687
                    -0.000244118     0.000390187        -0.784724       -0.557309     -0.000190435    -0.000233131        -0.181198        0.170795
281702.4               -0.216578         0.28981      0.000536825     0.000143483        -0.628381       -0.676022     -0.000411716     0.000313966
                     0.000507607     8.03101e-05        -0.109116        0.224726     -0.000490749     0.000441906        -0.784468       -0.557189
                       -0.628685       -0.675788     -0.000354804      0.00034032         -0.31076        0.181453       0.00030362    -0.000268717
                    -0.000244121     0.000390219        -0.784742       -0.557286     -0.000190471    -0.000233127        -0.181188        0.170797
281702.5               -0.216565        0.289809      0.000536851     0.000143469        -0.628406       -0.676003     -0.000411709     0.000313976
                     0.000507624     8.02887e-05        -0.109107        0.224724     -0.000490717     0.000441925        -0.784487       -0.557166
                       -0.628709        -0.67577     -0.000354772     0.000340326        -0.310747         0.18146      0.000303584    -0.000268747
                    -0.000244123      0.00039025        -0.784761       -0.557263     -0.000190507    -0.000233124        -0.181178        0.170798
281702.6               -0.216551        0.289809      0.000536877     0.000143456        -0.628431       -0.675985     -0.000411702     0.000313985
                     0.000507641     8.02672e-05        -0.109097        0.224721     -0.000490685     0.000441945        -0.784505       -0.557143
                       -0.628734       -0.675752      -0.00035474     0.000340332        -0.310733        0.181468      0.000303549    -0.000268777
                    -0.000244125     0.000390282        -0.784779        -0.55724     -0.000190543     -0.00023312        -0.181168        0.170799
281702.7               -0.216538        0.289809      0.000536904     0.000143442        -0.628455       -0.675967     -0.000411695     0.000313995
                     0.000507659     8.02457e-05        -0.109088        0.224719     -0.000490653     0.000441964        -0.784524        -0.55712
                       -0.628759       -0.675733     -0.000354708     0.000340338        -0.310719        0.181476      0.000303513    -0.000268807
                    -0.000244127     0.000390313        -0.784798       -0.557217     -0.000190578    -0.000233117        -0.181158          0.1708
281702.8               -0.216525        0.289809       0.00053693     0.000143428         -0.62848       -0.675948     -0.000411688     0.000314004
                     0.000507676     8.02243e-05        -0.109078        0.224716      -0.00049062     0.000441984        -0.784542       -0.557097
                       -0.628783       -0.675715     -0.000354676     0.000340344        -0.310706        0.181483      0.000303477    -0.000268837
                    -0.000244129     0.000390345        -0.784816       -0.557194     -0.000190614    -0.000233113        -0.181148        0.170802
281702.9               -0.216511        0.289809      0.000536957     0.000143415        -0.628505        -0.67593     -0.000411681     0.000314014
                     0.000507694     8.02028e-05        -0.109069        0.224714     -0.000490588     0.000442003        -0.784561       -0.557074
                       -0.628808       -0.675697     -0.000354644      0.00034035        -0.310692        0.181491      0.000303441    -0.000268866
                    -0.000244132     0.000390376        -0.784835       -0.557171      -0.00019065     -0.00023311        -0.181138        0.170803
281703                 -0.216498        0.289809      0.000536983     0.000143401         -0.62853       -0.675911     -0.000411674     0.000314024
                     0.000507711     8.01814e-05        -0.109059        0.224711     -0.000490556     0.000442023        -0.784579       -0.557051
                       -0.628833       -0.675678     -0.000354612     0.000340356        -0.310678        0.181498      0.000303405    -0.000268896
                    -0.000244134     0.000390407        -0.784853       -0.557148     -0.000190686    -0.000233106        -0.181128        0.170804
281703.1               -0.216485        0.289808      0.000537009     0.000143388        -0.628554       -0.675893     -0.000411667     0.000314033
                     0.000507729     8.01599e-05         -0.10905        0.224709     -0.000490524     0.000442043        -0.784598       -0.557028
                       -0.628857        -0.67566      -0.00035458     0.000340362        -0.310665        0.181506      0.000303369    -0.000268926
