! TOUCHSTONE file generated by CST MICROWAVE STUDIO
! Date and time: Wed Oct  8 07:01:09 2025
! Project name: Teste_Macro_Metasurface_Nanopilar.cst
! Parameters = {H=600; L_x=155; L_y=170; Lambda=1064; Max_L=200; Min_L=70; PathPara=1; Phi=0; Step_L=10; Theta=0; p=520; phaseX=180; phaseY=0}
! Header version: 2018
! Port assignment regex: !\s*Touchstone port\s*([0-9]+)\s*=\s*(CST MWS port|CST DS port)\s*([0-9]+|Zmin|Zmax)\s*\(\"(.*)\"\)(\s*mode\s*([0-9]+))?.*
! Touchstone port assignment:
! Touchstone port 1 = CST MWS port Zmax ("") mode 1
! Touchstone port 2 = CST MWS port Zmax ("") mode 2
! Touchstone port 3 = CST MWS port Zmin ("") mode 1
! Touchstone port 4 = CST MWS port Zmin ("") mode 2
! S-Parameters are not renormalized. Each port impedance will be approximated by the real part at minimum frequency. The values are described via the [Reference] keyword.
! Default impedance is overridden by [Reference]
[Version] 2.0
# GHz S RI R 376.73
[Number of Ports] 4
[Reference]
376.73 376.73 376.73 376.73 
[Number of Frequencies] 1001
[Network Data]
281700                -0.0214912       0.0728612     -5.16484e-05     6.29566e-07         -0.94835       -0.294248      -0.00013503    -2.01582e-05
                    -0.000176991     6.51033e-06       -0.0669658        0.145888      0.000102095     0.000112521        -0.865057       -0.465277
                       -0.948111       -0.294102      0.000122444     5.69912e-05       -0.0277833         0.06986      2.12284e-05     5.82869e-05
                    -0.000124569     2.13856e-05        -0.865044       -0.465118      0.000133231    -0.000177961       -0.0889665        0.132776
281700.1              -0.0214872       0.0728558     -5.16498e-05     6.34085e-07        -0.948359        -0.29422     -0.000135032     -2.0157e-05
                    -0.000176979     6.51249e-06       -0.0669589        0.145885      0.000102109     0.000112509        -0.865072       -0.465251
                        -0.94812       -0.294073      0.000122447      5.6992e-05       -0.0277793       0.0698548      2.12333e-05     5.82792e-05
                    -0.000124568     2.13803e-05        -0.865059       -0.465093      0.000133264    -0.000177964       -0.0889593        0.132773
281700.2              -0.0214832       0.0728503     -5.16513e-05     6.38604e-07        -0.948368       -0.294192     -0.000135035    -2.01557e-05
                    -0.000176968     6.51466e-06       -0.0669519        0.145881      0.000102123     0.000112497        -0.865087       -0.465226
                       -0.948129       -0.294045       0.00012245     5.69928e-05       -0.0277753       0.0698496      2.12383e-05     5.82715e-05
                    -0.000124567      2.1375e-05        -0.865074       -0.465067      0.000133296    -0.000177967       -0.0889522        0.132771
281700.3              -0.0214792       0.0728449     -5.16528e-05     6.43123e-07        -0.948377       -0.294164     -0.000135037    -2.01545e-05
                    -0.000176957     6.51682e-06        -0.066945        0.145878      0.000102137     0.000112485        -0.865102         -0.4652
                       -0.948138       -0.294017      0.000122453     5.69936e-05       -0.0277713       0.0698443      2.12432e-05     5.82638e-05
                    -0.000124567     2.13698e-05        -0.865089       -0.465042      0.000133329     -0.00017797       -0.0889451        0.132768
281700.4              -0.0214751       0.0728394     -5.16542e-05     6.47642e-07        -0.948387       -0.294135      -0.00013504    -2.01532e-05
                    -0.000176946     6.51898e-06       -0.0669381        0.145874      0.000102151     0.000112472        -0.865117       -0.465175
                       -0.948148       -0.293989      0.000122456     5.69943e-05       -0.0277673       0.0698391      2.12482e-05     5.82561e-05
                    -0.000124566     2.13645e-05        -0.865103       -0.465017      0.000133361    -0.000177972       -0.0889379        0.132766
281700.5              -0.0214711        0.072834     -5.16557e-05     6.52161e-07        -0.948396       -0.294107     -0.000135042     -2.0152e-05
                    -0.000176935     6.52114e-06       -0.0669311        0.145871      0.000102165      0.00011246        -0.865132        -0.46515
                       -0.948157       -0.293961      0.000122459     5.69951e-05       -0.0277633       0.0698339      2.12531e-05     5.82483e-05
                    -0.000124565     2.13592e-05        -0.865118       -0.464991      0.000133394    -0.000177975       -0.0889308        0.132763
281700.6              -0.0214671       0.0728285     -5.16572e-05     6.56679e-07        -0.948405       -0.294079     -0.000135045    -2.01508e-05
                    -0.000176924     6.52331e-06       -0.0669242        0.145867      0.000102179     0.000112448        -0.865146       -0.465124
                       -0.948166       -0.293933      0.000122462     5.69959e-05       -0.0277593       0.0698287       2.1258e-05     5.82406e-05
                    -0.000124564      2.1354e-05        -0.865133       -0.464966      0.000133426    -0.000177978       -0.0889236        0.132761
281700.7              -0.0214631       0.0728231     -5.16587e-05     6.61198e-07        -0.948414       -0.294051     -0.000135047    -2.01495e-05
                    -0.000176912     6.52547e-06       -0.0669172        0.145864      0.000102193     0.000112436        -0.865161       -0.465099
                       -0.948175       -0.293905      0.000122464     5.69967e-05       -0.0277553       0.0698235       2.1263e-05     5.82329e-05
                    -0.000124563     2.13487e-05        -0.865148        -0.46494      0.000133459     -0.00017798       -0.0889165        0.132759
281700.8              -0.0214591       0.0728176     -5.16601e-05     6.65716e-07        -0.948424       -0.294023      -0.00013505    -2.01483e-05
                    -0.000176901     6.52763e-06       -0.0669103         0.14586      0.000102208     0.000112424        -0.865176       -0.465073
                       -0.948185       -0.293876      0.000122467     5.69975e-05       -0.0277513       0.0698183      2.12679e-05     5.82252e-05
                    -0.000124562     2.13434e-05        -0.865163       -0.464915      0.000133491    -0.000177983       -0.0889094        0.132756
281700.9              -0.0214551       0.0728122     -5.16616e-05     6.70234e-07        -0.948433       -0.293995     -0.000135052     -2.0147e-05
                     -0.00017689     6.52979e-06       -0.0669033        0.145857      0.000102222     0.000112412        -0.865191       -0.465048
                       -0.948194       -0.293848       0.00012247     5.69983e-05       -0.0277473       0.0698131      2.12729e-05     5.82175e-05
                    -0.000124561     2.13382e-05        -0.865177       -0.464889      0.000133524    -0.000177986       -0.0889022        0.132754
281701                 -0.021451       0.0728067     -5.16631e-05     6.74751e-07        -0.948442       -0.293966     -0.000135055    -2.01458e-05
                    -0.000176879     6.53196e-06       -0.0668964        0.145853      0.000102236       0.0001124        -0.865206       -0.465022
                       -0.948203        -0.29382      0.000122473     5.69991e-05       -0.0277433       0.0698079      2.12778e-05     5.82098e-05
                     -0.00012456     2.13329e-05        -0.865192       -0.464864      0.000133556    -0.000177988       -0.0888951        0.132751
281701.1               -0.021447       0.0728013     -5.16645e-05     6.79269e-07        -0.948451       -0.293938     -0.000135057    -2.01445e-05
                    -0.000176868     6.53412e-06       -0.0668894         0.14585       0.00010225     0.000112388        -0.865221       -0.464997
                       -0.948212       -0.293792      0.000122476     5.69999e-05       -0.0277393       0.0698026      2.12827e-05     5.82021e-05
                     -0.00012456     2.13276e-05        -0.865207       -0.464838      0.000133589     -0.00017799       -0.0888879        0.132749
281701.2               -0.021443       0.0727958      -5.1666e-05     6.83787e-07        -0.948461        -0.29391      -0.00013506    -2.01433e-05
                    -0.000176856     6.53628e-06       -0.0668825        0.145846      0.000102264     0.000112376        -0.865235       -0.464971
                       -0.948222       -0.293764      0.000122479     5.70007e-05       -0.0277353       0.0697974      2.12877e-05     5.81944e-05
                    -0.000124559     2.13224e-05        -0.865222       -0.464813      0.000133621    -0.000177993       -0.0888808        0.132746
281701.3               -0.021439       0.0727904     -5.16675e-05     6.88304e-07         -0.94847       -0.293882     -0.000135062    -2.01421e-05
                    -0.000176845     6.53844e-06       -0.0668756        0.145843      0.000102278     0.000112364         -0.86525       -0.464946
                       -0.948231       -0.293736      0.000122482     5.70015e-05       -0.0277313       0.0697922      2.12926e-05     5.81867e-05
                    -0.000124558     2.13171e-05        -0.865237       -0.464788      0.000133653    -0.000177995       -0.0888737        0.132744
281701.4               -0.021435       0.0727849      -5.1669e-05     6.92821e-07        -0.948479       -0.293854     -0.000135065    -2.01408e-05
                    -0.000176834      6.5406e-06       -0.0668686        0.145839      0.000102292     0.000112352        -0.865265        -0.46492
                        -0.94824       -0.293708      0.000122485     5.70023e-05       -0.0277273        0.069787      2.12975e-05     5.81789e-05
                    -0.000124557     2.13118e-05        -0.865252       -0.464762      0.000133686    -0.000177997       -0.0888665        0.132741
281701.5               -0.021431       0.0727794     -5.16704e-05     6.97338e-07        -0.948488       -0.293826     -0.000135067    -2.01396e-05
                    -0.000176823     6.54276e-06       -0.0668617        0.145836      0.000102306      0.00011234         -0.86528       -0.464895
                       -0.948249       -0.293679      0.000122487     5.70031e-05       -0.0277233       0.0697818      2.13024e-05     5.81712e-05
                    -0.000124556     2.13066e-05        -0.865266       -0.464737      0.000133718       -0.000178       -0.0888594        0.132739
281701.6              -0.0214269        0.072774     -5.16719e-05     7.01855e-07        -0.948498       -0.293797      -0.00013507    -2.01383e-05
                    -0.000176812     6.54492e-06       -0.0668547        0.145832       0.00010232     0.000112328        -0.865295       -0.464869
                       -0.948258       -0.293651       0.00012249     5.70039e-05       -0.0277193       0.0697766      2.13074e-05     5.81635e-05
                    -0.000124555     2.13013e-05        -0.865281       -0.464711       0.00013375    -0.000178002       -0.0888522        0.132736
281701.7              -0.0214229       0.0727685     -5.16734e-05     7.06372e-07        -0.948507       -0.293769     -0.000135072    -2.01371e-05
                    -0.000176801     6.54708e-06       -0.0668478        0.145829      0.000102334     0.000112316         -0.86531       -0.464844
                       -0.948268       -0.293623      0.000122493     5.70046e-05       -0.0277153       0.0697713      2.13123e-05     5.81558e-05
                    -0.000124554      2.1296e-05        -0.865296       -0.464686      0.000133782    -0.000178004       -0.0888451        0.132734
281701.8              -0.0214189       0.0727631     -5.16749e-05     7.10888e-07        -0.948516       -0.293741     -0.000135075    -2.01359e-05
                    -0.000176789     6.54924e-06       -0.0668408        0.145825      0.000102348     0.000112304        -0.865324       -0.464819
                       -0.948277       -0.293595      0.000122496     5.70054e-05       -0.0277113       0.0697661      2.13172e-05      5.8148e-05
                    -0.000124553     2.12908e-05        -0.865311        -0.46466      0.000133814    -0.000178006        -0.088838        0.132731
281701.9              -0.0214149       0.0727576     -5.16763e-05     7.15405e-07        -0.948525       -0.293713     -0.000135077    -2.01346e-05
                    -0.000176778      6.5514e-06       -0.0668339        0.145822      0.000102362     0.000112292        -0.865339       -0.464793
                       -0.948286       -0.293567      0.000122499     5.70062e-05       -0.0277073       0.0697609      2.13222e-05     5.81403e-05
                    -0.000124553     2.12855e-05        -0.865326       -0.464635      0.000133847    -0.000178008       -0.0888308        0.132729
281702                -0.0214109       0.0727522     -5.16778e-05     7.19921e-07        -0.948535       -0.293685      -0.00013508    -2.01334e-05
                    -0.000176767     6.55356e-06        -0.066827        0.145818      0.000102376      0.00011228        -0.865354       -0.464768
                       -0.948295       -0.293539      0.000122502      5.7007e-05       -0.0277033       0.0697557      2.13271e-05     5.81326e-05
                    -0.000124552     2.12802e-05         -0.86534       -0.464609      0.000133879     -0.00017801       -0.0888237        0.132727
281702.1              -0.0214069       0.0727467     -5.16793e-05     7.24437e-07        -0.948544       -0.293656     -0.000135082    -2.01321e-05
                    -0.000176756     6.55572e-06         -0.06682        0.145815       0.00010239     0.000112268        -0.865369       -0.464742
                       -0.948305        -0.29351      0.000122505     5.70078e-05       -0.0276993       0.0697505       2.1332e-05     5.81249e-05
                    -0.000124551      2.1275e-05        -0.865355       -0.464584      0.000133911    -0.000178012       -0.0888165        0.132724
281702.2              -0.0214029       0.0727413     -5.16807e-05     7.28953e-07        -0.948553       -0.293628     -0.000135085    -2.01309e-05
                    -0.000176745     6.55788e-06       -0.0668131        0.145811      0.000102404     0.000112256        -0.865384       -0.464717
                       -0.948314       -0.293482      0.000122507     5.70086e-05       -0.0276953       0.0697453      2.13369e-05     5.81171e-05
                     -0.00012455     2.12697e-05         -0.86537       -0.464559      0.000133943    -0.000178014       -0.0888094        0.132722
281702.3              -0.0213989       0.0727358     -5.16822e-05     7.33468e-07        -0.948562         -0.2936     -0.000135087    -2.01297e-05
                    -0.000176733     6.56004e-06       -0.0668061        0.145808      0.000102418     0.000112244        -0.865399       -0.464691
                       -0.948323       -0.293454       0.00012251     5.70094e-05       -0.0276913         0.06974      2.13418e-05     5.81094e-05
                    -0.000124549     2.12645e-05        -0.865385       -0.464533      0.000133975    -0.000178016       -0.0888023        0.132719
281702.4              -0.0213948       0.0727303     -5.16837e-05     7.37984e-07        -0.948571       -0.293572      -0.00013509    -2.01284e-05
                    -0.000176722      6.5622e-06       -0.0667992        0.145804      0.000102432     0.000112231        -0.865413       -0.464666
                       -0.948332       -0.293426      0.000122513     5.70102e-05       -0.0276874       0.0697348      2.13468e-05     5.81016e-05
                    -0.000124548     2.12592e-05          -0.8654       -0.464508      0.000134007    -0.000178018       -0.0887951        0.132717
281702.5              -0.0213908       0.0727249     -5.16852e-05     7.42499e-07        -0.948581       -0.293544     -0.000135092    -2.01272e-05
                    -0.000176711     6.56436e-06       -0.0667923        0.145801      0.000102446     0.000112219        -0.865428        -0.46464
                       -0.948342       -0.293398      0.000122516      5.7011e-05       -0.0276834       0.0697296      2.13517e-05     5.80939e-05
                    -0.000124547     2.12539e-05        -0.865414       -0.464482      0.000134039     -0.00017802        -0.088788        0.132714
281702.6              -0.0213868       0.0727194     -5.16866e-05     7.47015e-07         -0.94859       -0.293516     -0.000135095     -2.0126e-05
                      -0.0001767     6.56652e-06       -0.0667853        0.145797       0.00010246     0.000112207        -0.865443       -0.464615
                       -0.948351        -0.29337      0.000122519     5.70118e-05       -0.0276794       0.0697244      2.13566e-05     5.80862e-05
                    -0.000124546     2.12487e-05        -0.865429       -0.464457      0.000134071    -0.000178021       -0.0887809        0.132712
281702.7              -0.0213828        0.072714     -5.16881e-05      7.5153e-07        -0.948599       -0.293487     -0.000135097    -2.01247e-05
                    -0.000176689     6.56867e-06       -0.0667784        0.145794      0.000102474     0.000112195        -0.865458       -0.464589
                        -0.94836       -0.293342      0.000122522     5.70126e-05       -0.0276754       0.0697192      2.13615e-05     5.80784e-05
                    -0.000124546     2.12434e-05        -0.865444       -0.464431      0.000134103    -0.000178023       -0.0887737        0.132709
281702.8              -0.0213788       0.0727085     -5.16896e-05     7.56045e-07        -0.948608       -0.293459       -0.0001351    -2.01235e-05
                    -0.000176678     6.57083e-06       -0.0667714         0.14579      0.000102488     0.000112183        -0.865473       -0.464564
                       -0.948369       -0.293313      0.000122525     5.70134e-05       -0.0276714        0.069714      2.13665e-05     5.80707e-05
                    -0.000124545     2.12381e-05        -0.865459       -0.464406      0.000134135    -0.000178025       -0.0887666        0.132707
281702.9              -0.0213748       0.0727031      -5.1691e-05     7.60559e-07        -0.948618       -0.293431     -0.000135102    -2.01223e-05
                    -0.000176666     6.57299e-06       -0.0667645        0.145787      0.000102502     0.000112171        -0.865487       -0.464538
                       -0.948378       -0.293285      0.000122528     5.70142e-05       -0.0276674       0.0697087      2.13714e-05     5.80629e-05
                    -0.000124544     2.12329e-05        -0.865474        -0.46438      0.000134166    -0.000178026       -0.0887594        0.132704
281703                -0.0213708       0.0726976     -5.16925e-05     7.65074e-07        -0.948627       -0.293403     -0.000135105     -2.0121e-05
                    -0.000176655     6.57515e-06       -0.0667576        0.145783      0.000102516     0.000112159        -0.865502       -0.464513
                       -0.948388       -0.293257       0.00012253      5.7015e-05       -0.0276634       0.0697035      2.13763e-05     5.80552e-05
                    -0.000124543     2.12276e-05        -0.865488       -0.464355      0.000134198    -0.000178028       -0.0887523        0.132702
281703.1              -0.0213668       0.0726921      -5.1694e-05     7.69588e-07        -0.948636       -0.293375     -0.000135107    -2.01198e-05
                    -0.000176644      6.5773e-06       -0.0667506         0.14578       0.00010253     0.000112147        -0.865517       -0.464487
                       -0.948397       -0.293229      0.000122533     5.70158e-05       -0.0276594       0.0696983      2.13812e-05     5.80474e-05
