! TOUCHSTONE file generated by CST MICROWAVE STUDIO
! Date and time: Wed Oct  8 07:04:28 2025
! Project name: Teste_Macro_Metasurface_Nanopilar.cst
! Parameters = {H=600; L_x=185; L_y=110; Lambda=1064; Max_L=200; Min_L=70; PathPara=1; Phi=0; Step_L=10; Theta=0; p=520; phaseX=180; phaseY=0}
! Header version: 2018
! Port assignment regex: !\s*Touchstone port\s*([0-9]+)\s*=\s*(CST MWS port|CST DS port)\s*([0-9]+|Zmin|Zmax)\s*\(\"(.*)\"\)(\s*mode\s*([0-9]+))?.*
! Touchstone port assignment:
! Touchstone port 1 = CST MWS port Zmax ("") mode 1
! Touchstone port 2 = CST MWS port Zmax ("") mode 2
! Touchstone port 3 = CST MWS port Zmin ("") mode 1
! Touchstone port 4 = CST MWS port Zmin ("") mode 2
! S-Parameters are not renormalized. Each port impedance will be approximated by the real part at minimum frequency. The values are described via the [Reference] keyword.
! Default impedance is overridden by [Reference]
[Version] 2.0
# GHz S RI R 376.73
[Number of Ports] 4
[Reference]
376.73 376.73 376.73 376.73 
[Number of Frequencies] 1001
[Network Data]
281700                 -0.164668       -0.162612       0.00014456      0.00039436         0.505695       -0.821815      0.000177174     0.000340792
                     7.75844e-05     0.000127898        -0.291512        0.416748     -0.000177774     -0.00028334        -0.523404       -0.669301
                        0.505717       -0.821778     -0.000147938    -0.000277693         -0.22034       -0.071646      8.75595e-05    -0.000172912
                    -7.54375e-05     0.000284784        -0.523308       -0.669325      3.16889e-05    -0.000136196        -0.479971        0.164713
281700.1               -0.164675       -0.162608      0.000144585     0.000394332         0.505668       -0.821831      0.000177182     0.000340775
                     7.75936e-05     0.000127908        -0.291495         0.41675     -0.000177786    -0.000283331        -0.523429       -0.669287
                         0.50569       -0.821794     -0.000147944     -0.00027768        -0.220344      -0.0716408      8.75575e-05    -0.000172926
                    -7.54224e-05     0.000284781        -0.523333       -0.669312      3.16873e-05    -0.000136204        -0.479958        0.164729
281700.2               -0.164683       -0.162603      0.000144611     0.000394305         0.505641       -0.821847      0.000177191     0.000340758
                     7.76029e-05     0.000127918        -0.291479        0.416752     -0.000177797    -0.000283322        -0.523455       -0.669273
                        0.505664        -0.82181      -0.00014795    -0.000277667        -0.220348      -0.0716356      8.75554e-05     -0.00017294
                    -7.54072e-05     0.000284779        -0.523359       -0.669298      3.16856e-05    -0.000136212        -0.479944        0.164745
281700.3               -0.164691       -0.162598      0.000144637     0.000394277         0.505614       -0.821863        0.0001772     0.000340741
                     7.76121e-05     0.000127928        -0.291462        0.416754     -0.000177809    -0.000283312         -0.52348       -0.669259
                        0.505637       -0.821826     -0.000147956    -0.000277653        -0.220352      -0.0716304      8.75534e-05    -0.000172954
                     -7.5392e-05     0.000284777        -0.523384       -0.669284      3.16838e-05     -0.00013622         -0.47993        0.164761
281700.4               -0.164699       -0.162594      0.000144663     0.000394249         0.505588       -0.821879      0.000177209     0.000340724
                     7.76213e-05     0.000127938        -0.291446        0.416756      -0.00017782    -0.000283303        -0.523506       -0.669245
                         0.50561       -0.821842     -0.000147962     -0.00027764        -0.220356      -0.0716252      8.75514e-05    -0.000172968
                    -7.53769e-05     0.000284775        -0.523409        -0.66927      3.16818e-05    -0.000136228        -0.479916        0.164777
281700.5               -0.164706       -0.162589      0.000144689     0.000394222         0.505561       -0.821895      0.000177218     0.000340707
                     7.76306e-05     0.000127949        -0.291429        0.416758     -0.000177831    -0.000283294        -0.523531       -0.669232
                        0.505583       -0.821858     -0.000147968    -0.000277627         -0.22036        -0.07162      8.75493e-05    -0.000172982
                    -7.53617e-05     0.000284773        -0.523435       -0.669256      3.16798e-05    -0.000136237        -0.479903        0.164793
281700.6               -0.164714       -0.162585      0.000144714     0.000394194         0.505534       -0.821911      0.000177227      0.00034069
                     7.76398e-05     0.000127959        -0.291413        0.416759     -0.000177842    -0.000283284        -0.523557       -0.669218
                        0.505556       -0.821874     -0.000147974    -0.000277613        -0.220364      -0.0716148      8.75473e-05    -0.000172996
                    -7.53465e-05     0.000284771         -0.52346       -0.669242      3.16777e-05    -0.000136245        -0.479889        0.164809
281700.7               -0.164722        -0.16258       0.00014474     0.000394166         0.505507       -0.821927      0.000177236     0.000340673
                     7.76491e-05     0.000127969        -0.291396        0.416761     -0.000177853    -0.000283275        -0.523582       -0.669204
                        0.505529        -0.82189      -0.00014798      -0.0002776        -0.220368      -0.0716096      8.75453e-05     -0.00017301
                    -7.53313e-05     0.000284769        -0.523486       -0.669229      3.16754e-05    -0.000136253        -0.479875        0.164825
281700.8                -0.16473       -0.162575      0.000144766     0.000394138          0.50548       -0.821943      0.000177245     0.000340656
                     7.76583e-05     0.000127979         -0.29138        0.416763     -0.000177864    -0.000283265        -0.523608        -0.66919
                        0.505502       -0.821906     -0.000147985    -0.000277587        -0.220372      -0.0716044      8.75433e-05    -0.000173024
                    -7.53161e-05     0.000284767        -0.523511       -0.669215      3.16731e-05    -0.000136261        -0.479861        0.164841
281700.9               -0.164737       -0.162571      0.000144792     0.000394111         0.505453       -0.821959      0.000177254     0.000340639
                     7.76675e-05     0.000127989        -0.291363        0.416765     -0.000177875    -0.000283256        -0.523633       -0.669176
                        0.505475       -0.821922     -0.000147991    -0.000277573        -0.220376      -0.0715992      8.75412e-05    -0.000173038
                    -7.53009e-05     0.000284764        -0.523537       -0.669201      3.16707e-05     -0.00013627        -0.479848        0.164857
281701                 -0.164745       -0.162566      0.000144817     0.000394083         0.505426       -0.821975      0.000177263     0.000340622
                     7.76767e-05     0.000127999        -0.291347        0.416767     -0.000177885    -0.000283247        -0.523658       -0.669162
                        0.505448       -0.821938     -0.000147997     -0.00027756         -0.22038       -0.071594      8.75392e-05    -0.000173052
                    -7.52857e-05     0.000284762        -0.523562       -0.669187      3.16681e-05    -0.000136278        -0.479834        0.164873
281701.1               -0.164753       -0.162562      0.000144843     0.000394055         0.505399       -0.821991      0.000177272     0.000340605
                      7.7686e-05     0.000128009         -0.29133        0.416769     -0.000177896    -0.000283237        -0.523684       -0.669149
                        0.505421       -0.821954     -0.000148003    -0.000277547        -0.220384      -0.0715888      8.75371e-05    -0.000173066
                    -7.52705e-05      0.00028476        -0.523588       -0.669173      3.16654e-05    -0.000136286         -0.47982        0.164889
281701.2                -0.16476       -0.162557      0.000144869     0.000394027         0.505372       -0.822007      0.000177281     0.000340588
                     7.76952e-05      0.00012802        -0.291314        0.416771     -0.000177906    -0.000283228        -0.523709       -0.669135
                        0.505394        -0.82197     -0.000148009    -0.000277533        -0.220388      -0.0715836      8.75351e-05     -0.00017308
                    -7.52554e-05     0.000284758        -0.523613        -0.66916      3.16627e-05    -0.000136294        -0.479806        0.164905
281701.3               -0.164768       -0.162552      0.000144895     0.000393999         0.505346       -0.822023       0.00017729     0.000340571
                     7.77044e-05      0.00012803        -0.291297        0.416773     -0.000177916    -0.000283218        -0.523735       -0.669121
                        0.505367       -0.821986     -0.000148015     -0.00027752        -0.220392      -0.0715784      8.75331e-05    -0.000173094
                    -7.52402e-05     0.000284756        -0.523639       -0.669146      3.16598e-05    -0.000136303        -0.479793        0.164921
281701.4               -0.164776       -0.162548       0.00014492     0.000393971         0.505319       -0.822039      0.000177299     0.000340554
                     7.77136e-05      0.00012804        -0.291281        0.416775     -0.000177927    -0.000283209         -0.52376       -0.669107
                         0.50534       -0.822002     -0.000148021    -0.000277507        -0.220396      -0.0715732       8.7531e-05    -0.000173108
                     -7.5225e-05     0.000284754        -0.523664       -0.669132      3.16568e-05    -0.000136311        -0.479779        0.164937
281701.5               -0.164784       -0.162543      0.000144946     0.000393943         0.505292       -0.822055      0.000177309     0.000340538
                     7.77228e-05      0.00012805        -0.291264        0.416776     -0.000177937    -0.000283199        -0.523786       -0.669093
                        0.505314       -0.822018     -0.000148026    -0.000277493          -0.2204       -0.071568       8.7529e-05    -0.000173122
                    -7.52097e-05     0.000284752         -0.52369       -0.669118      3.16538e-05    -0.000136319        -0.479765        0.164953
281701.6               -0.164791       -0.162538      0.000144972     0.000393915         0.505265       -0.822071      0.000177318     0.000340521
                      7.7732e-05      0.00012806        -0.291247        0.416778     -0.000177947     -0.00028319        -0.523811        -0.66908
                        0.505287       -0.822034     -0.000148032     -0.00027748        -0.220404      -0.0715628       8.7527e-05    -0.000173136
                    -7.51945e-05     0.000284749        -0.523715       -0.669104      3.16506e-05    -0.000136328        -0.479751        0.164969
281701.7               -0.164799       -0.162534      0.000144997     0.000393888         0.505238       -0.822087      0.000177327     0.000340504
                     7.77412e-05      0.00012807        -0.291231         0.41678     -0.000177957     -0.00028318        -0.523837       -0.669066
                         0.50526        -0.82205     -0.000148038    -0.000277466        -0.220408      -0.0715576      8.75249e-05     -0.00017315
                    -7.51793e-05     0.000284747        -0.523741       -0.669091      3.16473e-05    -0.000136336        -0.479738        0.164985
281701.8               -0.164807       -0.162529      0.000145023      0.00039386         0.505211       -0.822103      0.000177336     0.000340487
                     7.77504e-05      0.00012808        -0.291214        0.416782     -0.000177966    -0.000283171        -0.523862       -0.669052
                        0.505233       -0.822066     -0.000148044    -0.000277453        -0.220412      -0.0715524      8.75229e-05    -0.000173164
                    -7.51641e-05     0.000284745        -0.523766       -0.669077      3.16439e-05    -0.000136344        -0.479724        0.165001
281701.9               -0.164814       -0.162525      0.000145049     0.000393832         0.505184       -0.822119      0.000177346      0.00034047
                     7.77596e-05     0.000128091        -0.291198        0.416784     -0.000177976    -0.000283161        -0.523888       -0.669038
                        0.505206       -0.822081      -0.00014805     -0.00027744        -0.220417      -0.0715472      8.75208e-05    -0.000173178
                    -7.51489e-05     0.000284743        -0.523792       -0.669063      3.16404e-05    -0.000136352         -0.47971        0.165017
281702                 -0.164822        -0.16252      0.000145075     0.000393804         0.505157       -0.822135      0.000177355     0.000340453
                     7.77688e-05     0.000128101        -0.291181        0.416786     -0.000177986    -0.000283152        -0.523913       -0.669024
                        0.505179       -0.822097     -0.000148056    -0.000277426        -0.220421       -0.071542      8.75188e-05    -0.000173192
                    -7.51337e-05     0.000284741        -0.523817       -0.669049      3.16368e-05    -0.000136361        -0.479696        0.165033
281702.1                -0.16483       -0.162515        0.0001451     0.000393776          0.50513        -0.82215      0.000177364     0.000340436
                      7.7778e-05     0.000128111        -0.291165        0.416788     -0.000177995    -0.000283142        -0.523939        -0.66901
                        0.505152       -0.822113     -0.000148062    -0.000277413        -0.220425      -0.0715368      8.75167e-05    -0.000173207
                    -7.51185e-05     0.000284739        -0.523842       -0.669035       3.1633e-05    -0.000136369        -0.479683        0.165049
281702.2               -0.164838       -0.162511      0.000145126     0.000393748         0.505103       -0.822166      0.000177374     0.000340419
                     7.77872e-05     0.000128121        -0.291148         0.41679     -0.000178004    -0.000283133        -0.523964       -0.668997
                        0.505125       -0.822129     -0.000148067      -0.0002774        -0.220429      -0.0715316      8.75147e-05    -0.000173221
                    -7.51033e-05     0.000284737        -0.523868       -0.669021      3.16292e-05    -0.000136378        -0.479669        0.165065
281702.3               -0.164845       -0.162506      0.000145152      0.00039372         0.505076       -0.822182      0.000177383     0.000340402
                     7.77964e-05     0.000128131        -0.291132        0.416791     -0.000178014    -0.000283123         -0.52399       -0.668983
                        0.505098       -0.822145     -0.000148073    -0.000277386        -0.220433      -0.0715264      8.75126e-05    -0.000173235
                     -7.5088e-05     0.000284734        -0.523893       -0.669008      3.16253e-05    -0.000136386        -0.479655        0.165081
281702.4               -0.164853       -0.162502      0.000145177     0.000393692         0.505049       -0.822198      0.000177392     0.000340385
                     7.78056e-05     0.000128141        -0.291115        0.416793     -0.000178023    -0.000283114        -0.524015       -0.668969
                        0.505071       -0.822161     -0.000148079    -0.000277373        -0.220437      -0.0715212      8.75106e-05    -0.000173249
                    -7.50728e-05     0.000284732        -0.523919       -0.668994      3.16213e-05    -0.000136394        -0.479641        0.165097
281702.5               -0.164861       -0.162497      0.000145203     0.000393664         0.505023       -0.822214      0.000177402     0.000340368
                     7.78148e-05     0.000128151        -0.291099        0.416795     -0.000178032    -0.000283104         -0.52404       -0.668955
                        0.505044       -0.822177     -0.000148085    -0.000277359        -0.220441       -0.071516      8.75086e-05    -0.000173263
                    -7.50576e-05      0.00028473        -0.523944        -0.66898      3.16171e-05    -0.000136403        -0.479628        0.165113
281702.6               -0.164868       -0.162492      0.000145229     0.000393636         0.504996        -0.82223      0.000177411     0.000340351
                      7.7824e-05     0.000128162        -0.291082        0.416797     -0.000178041    -0.000283095        -0.524066       -0.668941
                        0.505017       -0.822193     -0.000148091    -0.000277346        -0.220445      -0.0715108      8.75065e-05    -0.000173277
                    -7.50423e-05     0.000284728         -0.52397       -0.668966      3.16129e-05    -0.000136411        -0.479614        0.165129
281702.7               -0.164876       -0.162488      0.000145254     0.000393608         0.504969       -0.822246      0.000177421     0.000340335
                     7.78332e-05     0.000128172        -0.291066        0.416799     -0.000178049    -0.000283085        -0.524091       -0.668927
                         0.50499       -0.822209     -0.000148097    -0.000277333        -0.220449      -0.0715056      8.75045e-05    -0.000173291
                    -7.50271e-05     0.000284726        -0.523995       -0.668952      3.16085e-05    -0.000136419          -0.4796        0.165145
281702.8               -0.164884       -0.162483       0.00014528      0.00039358         0.504942       -0.822262       0.00017743     0.000340318
                     7.78424e-05     0.000128182        -0.291049        0.416801     -0.000178058    -0.000283075        -0.524117       -0.668914
                        0.504963       -0.822225     -0.000148103    -0.000277319        -0.220453      -0.0715004      8.75024e-05    -0.000173305
                    -7.50119e-05     0.000284724        -0.524021       -0.668938      3.16041e-05    -0.000136428        -0.479586        0.165161
281702.9               -0.164892       -0.162478      0.000145306     0.000393551         0.504915       -0.822278       0.00017744     0.000340301
                     7.78515e-05     0.000128192        -0.291033        0.416803     -0.000178067    -0.000283066        -0.524142         -0.6689
                        0.504937       -0.822241     -0.000148108    -0.000277306        -0.220457      -0.0714952      8.75004e-05    -0.000173319
                    -7.49966e-05     0.000284721        -0.524046       -0.668925      3.15995e-05    -0.000136436        -0.479573        0.165177
281703                 -0.164899       -0.162474      0.000145331     0.000393523         0.504888       -0.822294      0.000177449     0.000340284
                     7.78607e-05     0.000128202        -0.291016        0.416805     -0.000178075    -0.000283056        -0.524168       -0.668886
                         0.50491       -0.822257     -0.000148114    -0.000277293        -0.220461        -0.07149      8.74983e-05    -0.000173333
                    -7.49814e-05     0.000284719        -0.524072       -0.668911      3.15948e-05    -0.000136445        -0.479559        0.165193
281703.1               -0.164907       -0.162469      0.000145357     0.000393495         0.504861        -0.82231      0.000177459     0.000340267
                     7.78699e-05     0.000128212           -0.291        0.416806     -0.000178084    -0.000283047        -0.524193       -0.668872
                        0.504883       -0.822273      -0.00014812    -0.000277279        -0.220465      -0.0714848      8.74962e-05    -0.000173347
