! TOUCHSTONE file generated by CST MICROWAVE STUDIO
! Date and time: Wed Oct  8 06:57:52 2025
! Project name: Teste_Macro_Metasurface_Nanopilar.cst
! Parameters = {H=600; L_x=130; L_y=105; Lambda=1064; Max_L=200; Min_L=70; PathPara=1; Phi=0; Step_L=10; Theta=0; p=520; phaseX=180; phaseY=0}
! Header version: 2018
! Port assignment regex: !\s*Touchstone port\s*([0-9]+)\s*=\s*(CST MWS port|CST DS port)\s*([0-9]+|Zmin|Zmax)\s*\(\"(.*)\"\)(\s*mode\s*([0-9]+))?.*
! Touchstone port assignment:
! Touchstone port 1 = CST MWS port Zmax ("") mode 1
! Touchstone port 2 = CST MWS port Zmax ("") mode 2
! Touchstone port 3 = CST MWS port Zmin ("") mode 1
! Touchstone port 4 = CST MWS port Zmin ("") mode 2
! S-Parameters are not renormalized. Each port impedance will be approximated by the real part at minimum frequency. The values are described via the [Reference] keyword.
! Default impedance is overridden by [Reference]
[Version] 2.0
# GHz S RI R 376.73
[Number of Ports] 4
[Reference]
376.73 376.73 376.73 376.73 
[Number of Frequencies] 1001
[Network Data]
281700                 -0.236876       0.0280635     -0.000106798     0.000398137           0.3609        0.894593     -0.000283213    -0.000664179
                    -0.000110278     0.000385334        0.0261138       -0.141114      0.000631177    -0.000406048         0.757927        -0.62168
                        0.361023        0.894463      0.000555292    -0.000340409        -0.191061        0.143641      2.25948e-05     0.000281732
                     -0.00036062    -0.000656491         0.757907       -0.621511       1.9222e-05     0.000284425        -0.147135      0.00102604
281700.1               -0.236872       0.0280714     -0.000106777     0.000398131         0.360928        0.894582     -0.000283229    -0.000664171
                    -0.000110259     0.000385346        0.0261052       -0.141118      0.000631162     -0.00040607         0.757905       -0.621706
                        0.361052        0.894453      0.000555281    -0.000340424        -0.191054        0.143645      2.26122e-05      0.00028173
                    -0.000360635     -0.00065648         0.757886       -0.621537      1.92323e-05     0.000284415        -0.147136      0.00102685
281700.2               -0.236868       0.0280792     -0.000106755     0.000398126         0.360957        0.894571     -0.000283245    -0.000664163
                    -0.000110241     0.000385357        0.0260965       -0.141121      0.000631147    -0.000406092         0.757884       -0.621732
                        0.361081        0.894442      0.000555269     -0.00034044        -0.191048        0.143648      2.26296e-05     0.000281728
                     -0.00036065    -0.000656469         0.757864       -0.621563      1.92425e-05     0.000284405        -0.147138      0.00102767
281700.3               -0.236864       0.0280871     -0.000106734     0.000398121         0.360985         0.89456     -0.000283261    -0.000664155
                    -0.000110222     0.000385369        0.0260879       -0.141124      0.000631132    -0.000406114         0.757862       -0.621758
                        0.361109        0.894431      0.000555258    -0.000340455        -0.191041        0.143652      2.26469e-05     0.000281726
                    -0.000360665    -0.000656459         0.757843       -0.621589      1.92528e-05     0.000284395        -0.147139      0.00102848
281700.4                -0.23686       0.0280949     -0.000106712     0.000398115         0.361014         0.89455     -0.000283277    -0.000664146
                    -0.000110203      0.00038538        0.0260793       -0.141127      0.000631117    -0.000406136          0.75784       -0.621784
                        0.361138         0.89442      0.000555246     -0.00034047        -0.191035        0.143655      2.26643e-05     0.000281724
                     -0.00036068    -0.000656448         0.757821       -0.621614      1.92631e-05     0.000284385        -0.147141      0.00102929
281700.5               -0.236856       0.0281027     -0.000106691      0.00039811         0.361043        0.894539     -0.000283293    -0.000664138
                    -0.000110184     0.000385392        0.0260706       -0.141131      0.000631102    -0.000406158         0.757819        -0.62181
                        0.361166         0.89441      0.000555235    -0.000340485        -0.191028        0.143659      2.26817e-05     0.000281722
                    -0.000360695    -0.000656437           0.7578        -0.62164      1.92733e-05     0.000284374        -0.147142      0.00103011
281700.6               -0.236852       0.0281106     -0.000106669     0.000398104         0.361071        0.894528     -0.000283309     -0.00066413
                    -0.000110166     0.000385403         0.026062       -0.141134      0.000631087     -0.00040618         0.757797       -0.621836
                        0.361195        0.894399      0.000555223      -0.0003405        -0.191021        0.143663       2.2699e-05     0.000281721
                     -0.00036071    -0.000656426         0.757778       -0.621666      1.92836e-05     0.000284364        -0.147144      0.00103092
281700.7               -0.236848       0.0281184     -0.000106648     0.000398099           0.3611        0.894517     -0.000283326    -0.000664122
                    -0.000110147     0.000385414        0.0260534       -0.141137      0.000631072    -0.000406202         0.757776       -0.621862
                        0.361224        0.894388      0.000555212    -0.000340515        -0.191015        0.143666      2.27164e-05     0.000281719
                    -0.000360724    -0.000656415         0.757757       -0.621692      1.92938e-05     0.000284354        -0.147145      0.00103173
281700.8               -0.236844       0.0281263     -0.000106626     0.000398093         0.361128        0.894507     -0.000283342    -0.000664114
                    -0.000110128     0.000385426        0.0260447        -0.14114      0.000631057    -0.000406224         0.757754       -0.621887
                        0.361252        0.894377        0.0005552     -0.00034053        -0.191008         0.14367      2.27337e-05     0.000281717
                    -0.000360739    -0.000656404         0.757735       -0.621718      1.93041e-05     0.000284344        -0.147147      0.00103255
281700.9                -0.23684       0.0281341     -0.000106605     0.000398088         0.361157        0.894496     -0.000283358    -0.000664106
                     -0.00011011     0.000385437        0.0260361       -0.141144      0.000631042    -0.000406246         0.757733       -0.621913
                        0.361281        0.894367      0.000555189    -0.000340545        -0.191002        0.143673      2.27511e-05     0.000281715
                    -0.000360754    -0.000656393         0.757714       -0.621744      1.93143e-05     0.000284334        -0.147148      0.00103336
281701                 -0.236836       0.0281419     -0.000106583     0.000398082         0.361186        0.894485     -0.000283374    -0.000664098
                    -0.000110091     0.000385449        0.0260275       -0.141147      0.000631027    -0.000406268         0.757711       -0.621939
                        0.361309        0.894356      0.000555177    -0.000340561        -0.190995        0.143677      2.27685e-05     0.000281713
                    -0.000360769    -0.000656382         0.757692        -0.62177      1.93246e-05     0.000284324         -0.14715      0.00103417
281701.1               -0.236832       0.0281498     -0.000106562     0.000398077         0.361214        0.894474      -0.00028339     -0.00066409
                    -0.000110072      0.00038546        0.0260188        -0.14115      0.000631011     -0.00040629          0.75769       -0.621965
                        0.361338        0.894345      0.000555166    -0.000340576        -0.190989         0.14368      2.27858e-05     0.000281711
                    -0.000360784    -0.000656371         0.757671       -0.621796      1.93348e-05     0.000284314        -0.147151      0.00103499
281701.2               -0.236828       0.0281576      -0.00010654     0.000398072         0.361243        0.894464     -0.000283406    -0.000664082
                    -0.000110053     0.000385472        0.0260102       -0.141153      0.000630996    -0.000406312         0.757668       -0.621991
                        0.361367        0.894334      0.000555154    -0.000340591        -0.190982        0.143684      2.28032e-05     0.000281709
                    -0.000360799     -0.00065636         0.757649       -0.621822      1.93451e-05     0.000284304        -0.147153       0.0010358
281701.3               -0.236824       0.0281655     -0.000106519     0.000398066         0.361271        0.894453     -0.000283422    -0.000664074
                    -0.000110035     0.000385483        0.0260016       -0.141156      0.000630981    -0.000406334         0.757647       -0.622017
                        0.361395        0.894324      0.000555143    -0.000340606        -0.190976        0.143687      2.28206e-05     0.000281708
                    -0.000360814    -0.000656349         0.757628       -0.621847      1.93553e-05     0.000284293        -0.147154      0.00103662
281701.4                -0.23682       0.0281733     -0.000106497     0.000398061           0.3613        0.894442     -0.000283438    -0.000664066
                    -0.000110016     0.000385495        0.0259929        -0.14116      0.000630966    -0.000406356         0.757625       -0.622043
                        0.361424        0.894313      0.000555131    -0.000340621        -0.190969        0.143691      2.28379e-05     0.000281706
                    -0.000360829    -0.000656339         0.757606       -0.621873      1.93656e-05     0.000284283        -0.147156      0.00103743
281701.5               -0.236816       0.0281811     -0.000106475     0.000398055         0.361329        0.894431     -0.000283454    -0.000664058
                    -0.000109997     0.000385506        0.0259843       -0.141163      0.000630951    -0.000406378         0.757604       -0.622069
                        0.361452        0.894302       0.00055512    -0.000340636        -0.190962        0.143695      2.28553e-05     0.000281704
                    -0.000360843    -0.000656328         0.757585       -0.621899      1.93758e-05     0.000284273        -0.147157      0.00103825
281701.6               -0.236812        0.028189     -0.000106454      0.00039805         0.361357        0.894421      -0.00028347     -0.00066405
                    -0.000109978     0.000385518        0.0259757       -0.141166      0.000630936      -0.0004064         0.757582       -0.622095
                        0.361481        0.894291      0.000555108    -0.000340651        -0.190956        0.143698      2.28727e-05     0.000281702
                    -0.000360858    -0.000656317         0.757563       -0.621925      1.93861e-05     0.000284263        -0.147159      0.00103906
281701.7               -0.236808       0.0281968     -0.000106432     0.000398044         0.361386         0.89441     -0.000283487    -0.000664041
                    -0.000109959     0.000385529         0.025967       -0.141169      0.000630921    -0.000406422         0.757561        -0.62212
                         0.36151        0.894281      0.000555097    -0.000340666        -0.190949        0.143702        2.289e-05       0.0002817
                    -0.000360873    -0.000656306         0.757542       -0.621951      1.93964e-05     0.000284253         -0.14716      0.00103988
281701.8               -0.236803       0.0282046     -0.000106411     0.000398039         0.361414        0.894399     -0.000283503    -0.000664033
                    -0.000109941     0.000385541        0.0259584       -0.141173      0.000630906    -0.000406444         0.757539       -0.622146
                        0.361538         0.89427      0.000555085    -0.000340681        -0.190943        0.143705      2.29074e-05     0.000281698
                    -0.000360888    -0.000656295          0.75752       -0.621977      1.94066e-05     0.000284243        -0.147162      0.00104069
281701.9               -0.236799       0.0282125     -0.000106389     0.000398033         0.361443        0.894388     -0.000283519    -0.000664025
                    -0.000109922     0.000385552        0.0259497       -0.141176      0.000630891    -0.000406466         0.757518       -0.622172
                        0.361567        0.894259      0.000555074    -0.000340697        -0.190936        0.143709      2.29248e-05     0.000281696
                    -0.000360903    -0.000656284         0.757499       -0.622003      1.94169e-05     0.000284233        -0.147163      0.00104151
281702                 -0.236795       0.0282203     -0.000106368     0.000398028         0.361472        0.894377     -0.000283535    -0.000664017
                    -0.000109903     0.000385564        0.0259411       -0.141179      0.000630876    -0.000406488         0.757496       -0.622198
                        0.361595        0.894248      0.000555062    -0.000340712         -0.19093        0.143712      2.29421e-05     0.000281695
                    -0.000360918    -0.000656273         0.757477       -0.622029      1.94271e-05     0.000284223        -0.147165      0.00104232
281702.1               -0.236791       0.0282282     -0.000106346     0.000398023           0.3615        0.894367     -0.000283551    -0.000664009
                    -0.000109884     0.000385575        0.0259325       -0.141182      0.000630861     -0.00040651         0.757475       -0.622224
                        0.361624        0.894238      0.000555051    -0.000340727        -0.190923        0.143716      2.29595e-05     0.000281693
                    -0.000360933    -0.000656262         0.757456       -0.622055      1.94374e-05     0.000284213        -0.147166      0.00104314
281702.2               -0.236787        0.028236     -0.000106325     0.000398017         0.361529        0.894356     -0.000283567    -0.000664001
                    -0.000109865     0.000385587        0.0259238       -0.141186      0.000630845    -0.000406532         0.757453        -0.62225
                        0.361653        0.894227       0.00055504    -0.000340742        -0.190916        0.143719      2.29769e-05     0.000281691
                    -0.000360948    -0.000656251         0.757434        -0.62208      1.94476e-05     0.000284202        -0.147168      0.00104395
281702.3               -0.236783       0.0282438     -0.000106303     0.000398012         0.361557        0.894345     -0.000283583    -0.000663993
                    -0.000109847     0.000385598        0.0259152       -0.141189       0.00063083    -0.000406554         0.757432       -0.622276
                        0.361681        0.894216      0.000555028    -0.000340757         -0.19091        0.143723      2.29942e-05     0.000281689
                    -0.000360962     -0.00065624         0.757413       -0.622106      1.94579e-05     0.000284192        -0.147169      0.00104477
281702.4               -0.236779       0.0282517     -0.000106282     0.000398006         0.361586        0.894334     -0.000283599    -0.000663985
                    -0.000109828      0.00038561        0.0259066       -0.141192      0.000630815    -0.000406576          0.75741       -0.622302
                         0.36171        0.894205      0.000555017    -0.000340772        -0.190903        0.143726      2.30116e-05     0.000281687
                    -0.000360977    -0.000656229         0.757391       -0.622132      1.94681e-05     0.000284182        -0.147171      0.00104559
281702.5               -0.236775       0.0282595      -0.00010626     0.000398001         0.361615        0.894324     -0.000283615    -0.000663977
                    -0.000109809     0.000385622        0.0258979       -0.141195        0.0006308    -0.000406598         0.757389       -0.622328
                        0.361738        0.894194      0.000555005    -0.000340787        -0.190897         0.14373      2.30289e-05     0.000281685
                    -0.000360992    -0.000656218          0.75737       -0.622158      1.94784e-05     0.000284172        -0.147172       0.0010464
281702.6               -0.236771       0.0282673     -0.000106239     0.000397995         0.361643        0.894313     -0.000283631    -0.000663969
                     -0.00010979     0.000385633        0.0258893       -0.141199      0.000630785     -0.00040662         0.757367       -0.622353
                        0.361767        0.894184      0.000554994    -0.000340802         -0.19089        0.143734      2.30463e-05     0.000281683
                    -0.000361007    -0.000656207         0.757348       -0.622184      1.94886e-05     0.000284162        -0.147173      0.00104722
281702.7               -0.236767       0.0282752     -0.000106217      0.00039799         0.361672        0.894302     -0.000283648     -0.00066396
                    -0.000109771     0.000385645        0.0258807       -0.141202       0.00063077    -0.000406642         0.757346       -0.622379
                        0.361796        0.894173      0.000554982    -0.000340817        -0.190884        0.143737      2.30637e-05     0.000281681
                    -0.000361022    -0.000656196         0.757326        -0.62221      1.94989e-05     0.000284152        -0.147175      0.00104803
281702.8               -0.236763        0.028283     -0.000106196     0.000397984           0.3617        0.894291     -0.000283664    -0.000663952
                    -0.000109752     0.000385656         0.025872       -0.141205      0.000630755    -0.000406664         0.757324       -0.622405
                        0.361824        0.894162      0.000554971    -0.000340833        -0.190877        0.143741       2.3081e-05      0.00028168
                    -0.000361037    -0.000656185         0.757305       -0.622236      1.95091e-05     0.000284142        -0.147176      0.00104885
281702.9               -0.236759       0.0282908     -0.000106174     0.000397979         0.361729         0.89428      -0.00028368    -0.000663944
                    -0.000109734     0.000385668        0.0258634       -0.141208       0.00063074    -0.000406686         0.757303       -0.622431
                        0.361853        0.894151      0.000554959    -0.000340848         -0.19087        0.143744      2.30984e-05     0.000281678
                    -0.000361052    -0.000656175         0.757283       -0.622262      1.95194e-05     0.000284132        -0.147178      0.00104967
281703                 -0.236755       0.0282987     -0.000106153     0.000397973         0.361757         0.89427     -0.000283696    -0.000663936
                    -0.000109715     0.000385679        0.0258547       -0.141212      0.000630725    -0.000406708         0.757281       -0.622457
                        0.361881        0.894141      0.000554948    -0.000340863        -0.190864        0.143748      2.31158e-05     0.000281676
                    -0.000361067    -0.000656164         0.757262       -0.622287      1.95297e-05     0.000284122        -0.147179      0.00105049
281703.1               -0.236751       0.0283065     -0.000106131     0.000397968         0.361786        0.894259     -0.000283712    -0.000663928
                    -0.000109696     0.000385691        0.0258461       -0.141215       0.00063071     -0.00040673          0.75726       -0.622483
                         0.36191         0.89413      0.000554936    -0.000340878        -0.190857        0.143751      2.31331e-05     0.000281674
