! TOUCHSTONE file generated by CST MICROWAVE STUDIO
! Date and time: Wed Oct  8 06:52:30 2025
! Project name: Teste_Macro_Metasurface_Nanopilar.cst
! Parameters = {H=600; L_x=85; L_y=105; Lambda=1064; Max_L=200; Min_L=70; PathPara=1; Phi=0; Step_L=10; Theta=0; p=520; phaseX=180; phaseY=0}
! Header version: 2018
! Port assignment regex: !\s*Touchstone port\s*([0-9]+)\s*=\s*(CST MWS port|CST DS port)\s*([0-9]+|Zmin|Zmax)\s*\(\"(.*)\"\)(\s*mode\s*([0-9]+))?.*
! Touchstone port assignment:
! Touchstone port 1 = CST MWS port Zmax ("") mode 1
! Touchstone port 2 = CST MWS port Zmax ("") mode 2
! Touchstone port 3 = CST MWS port Zmin ("") mode 1
! Touchstone port 4 = CST MWS port Zmin ("") mode 2
! S-Parameters are not renormalized. Each port impedance will be approximated by the real part at minimum frequency. The values are described via the [Reference] keyword.
! Default impedance is overridden by [Reference]
[Version] 2.0
# GHz S RI R 376.73
[Number of Ports] 4
[Reference]
376.73 376.73 376.73 376.73 
[Number of Frequencies] 1001
[Network Data]
281700                -0.0284475       -0.164528      0.000145043     0.000401984        -0.644613        0.743428     -0.000400984    -0.000305102
                     0.000114421     0.000452833        0.0986774      -0.0596071     -0.000347317     -0.00052582        -0.889194        0.441817
                       -0.644533        0.743572     -0.000175146    -0.000353462        -0.167441     -0.00426006      0.000527505     0.000139505
                    -0.000280491    -0.000337427         -0.88877        0.441655      0.000492121     0.000300329        -0.107383       0.0428882
281700.1              -0.0284546       -0.164528      0.000145051     0.000401981        -0.644593        0.743446     -0.000400987    -0.000305086
                     0.000114424     0.000452832        0.0986732      -0.0596116     -0.000347336     -0.00052582        -0.889182        0.441841
                       -0.644512         0.74359     -0.000175158    -0.000353456        -0.167441     -0.00425798      0.000527506     0.000139478
                    -0.000280497    -0.000337421        -0.888759        0.441679      0.000492143     0.000300321        -0.107382       0.0428878
281700.2              -0.0284617       -0.164527      0.000145058     0.000401978        -0.644572        0.743463      -0.00040099     -0.00030507
                     0.000114428     0.000452831        0.0986689      -0.0596161     -0.000347354    -0.000525821         -0.88917        0.441865
                       -0.644491        0.743608      -0.00017517     -0.00035345        -0.167442      -0.0042559      0.000527506     0.000139452
                    -0.000280502    -0.000337416        -0.888747        0.441703      0.000492165     0.000300313        -0.107381       0.0428875
281700.3              -0.0284689       -0.164526      0.000145065     0.000401974        -0.644552        0.743481     -0.000400993    -0.000305054
                     0.000114432     0.000452829        0.0986646      -0.0596205     -0.000347372    -0.000525822        -0.889159        0.441889
                       -0.644471        0.743626     -0.000175182    -0.000353444        -0.167443     -0.00425382      0.000527506     0.000139426
                    -0.000280507    -0.000337411        -0.888735        0.441727      0.000492187     0.000300305        -0.107379       0.0428872
281700.4               -0.028476       -0.164526      0.000145072     0.000401971        -0.644531        0.743499     -0.000400997    -0.000305037
                     0.000114435     0.000452828        0.0986604       -0.059625     -0.000347391    -0.000525822        -0.889147        0.441913
                        -0.64445        0.743643     -0.000175194    -0.000353438        -0.167443     -0.00425174      0.000527506     0.000139399
                    -0.000280512    -0.000337405        -0.888723        0.441751      0.000492209     0.000300297        -0.107378       0.0428868
281700.5              -0.0284832       -0.164525      0.000145079     0.000401968         -0.64451        0.743517        -0.000401    -0.000305021
                     0.000114439     0.000452827        0.0986561      -0.0596295     -0.000347409    -0.000525823        -0.889135        0.441937
                        -0.64443        0.743661     -0.000175206    -0.000353432        -0.167444     -0.00424966      0.000527507     0.000139373
                    -0.000280518      -0.0003374        -0.888712        0.441775      0.000492231     0.000300289        -0.107377       0.0428865
281700.6              -0.0284903       -0.164524      0.000145086     0.000401964         -0.64449        0.743534     -0.000401003    -0.000305005
                     0.000114443     0.000452826        0.0986518       -0.059634     -0.000347427    -0.000525824        -0.889123        0.441961
                       -0.644409        0.743679     -0.000175218    -0.000353426        -0.167445     -0.00424758      0.000527507     0.000139347
                    -0.000280523    -0.000337395          -0.8887        0.441799      0.000492253     0.000300281        -0.107376       0.0428861
281700.7              -0.0284974       -0.164524      0.000145093     0.000401961        -0.644469        0.743552     -0.000401006    -0.000304989
                     0.000114446     0.000452824        0.0986475      -0.0596384     -0.000347445    -0.000525824        -0.889112        0.441985
                       -0.644388        0.743697      -0.00017523     -0.00035342        -0.167445      -0.0042455      0.000527507      0.00013932
                    -0.000280528     -0.00033739        -0.888688        0.441823      0.000492275     0.000300273        -0.107374       0.0428858
281700.8              -0.0285046       -0.164523        0.0001451     0.000401957        -0.644448         0.74357      -0.00040101    -0.000304972
                      0.00011445     0.000452823        0.0986433      -0.0596429     -0.000347464    -0.000525825          -0.8891        0.442009
                       -0.644368        0.743714     -0.000175242    -0.000353414        -0.167446     -0.00424342      0.000527507     0.000139294
                    -0.000280534    -0.000337384        -0.888676        0.441847      0.000492296     0.000300265        -0.107373       0.0428854
281700.9              -0.0285117       -0.164523      0.000145107     0.000401954        -0.644428        0.743588     -0.000401013    -0.000304956
                     0.000114453     0.000452822         0.098639      -0.0596474     -0.000347482    -0.000525826        -0.889088        0.442033
                       -0.644347        0.743732     -0.000175254    -0.000353408        -0.167447     -0.00424134      0.000527507     0.000139268
                    -0.000280539    -0.000337379        -0.888665         0.44187      0.000492318     0.000300257        -0.107372       0.0428851
281701                -0.0285189       -0.164522      0.000145114     0.000401951        -0.644407        0.743605     -0.000401016     -0.00030494
                     0.000114457      0.00045282        0.0986347      -0.0596519       -0.0003475    -0.000525826        -0.889076        0.442057
                       -0.644326         0.74375     -0.000175266    -0.000353402        -0.167447     -0.00423926      0.000527508     0.000139241
                    -0.000280544    -0.000337374        -0.888653        0.441894       0.00049234     0.000300249         -0.10737       0.0428848
281701.1               -0.028526       -0.164521      0.000145121     0.000401947        -0.644386        0.743623     -0.000401019    -0.000304924
                     0.000114461     0.000452819        0.0986305      -0.0596563     -0.000347519    -0.000525827        -0.889065        0.442081
                       -0.644306        0.743767     -0.000175278    -0.000353396        -0.167448     -0.00423717      0.000527508     0.000139215
                     -0.00028055    -0.000337368        -0.888641        0.441918      0.000492362     0.000300241        -0.107369       0.0428844
281701.2              -0.0285332       -0.164521      0.000145128     0.000401944        -0.644366        0.743641     -0.000401023    -0.000304907
                     0.000114464     0.000452818        0.0986262      -0.0596608     -0.000347537    -0.000525827        -0.889053        0.442105
                       -0.644285        0.743785      -0.00017529     -0.00035339        -0.167448     -0.00423509      0.000527508     0.000139188
                    -0.000280555    -0.000337363        -0.888629        0.441942      0.000492384     0.000300233        -0.107368       0.0428841
281701.3              -0.0285403        -0.16452      0.000145135     0.000401941        -0.644345        0.743659     -0.000401026    -0.000304891
                     0.000114468     0.000452817        0.0986219      -0.0596653     -0.000347555    -0.000525828        -0.889041        0.442129
                       -0.644265        0.743803     -0.000175302    -0.000353384        -0.167449     -0.00423301      0.000527508     0.000139162
                    -0.000280561    -0.000337358        -0.888618        0.441966      0.000492406     0.000300225        -0.107366       0.0428837
281701.4              -0.0285474       -0.164519      0.000145142     0.000401937        -0.644324        0.743676     -0.000401029    -0.000304875
                     0.000114472     0.000452815        0.0986176      -0.0596698     -0.000347574    -0.000525829        -0.889029        0.442152
                       -0.644244        0.743821     -0.000175314    -0.000353378         -0.16745     -0.00423093      0.000527509     0.000139136
                    -0.000280566    -0.000337352        -0.888606         0.44199      0.000492428     0.000300217        -0.107365       0.0428834
281701.5              -0.0285546       -0.164519      0.000145149     0.000401934        -0.644304        0.743694     -0.000401032    -0.000304859
                     0.000114475     0.000452814        0.0986134      -0.0596742     -0.000347592    -0.000525829        -0.889018        0.442176
                       -0.644223        0.743838     -0.000175326    -0.000353372         -0.16745     -0.00422885      0.000527509     0.000139109
                    -0.000280571    -0.000337347        -0.888594        0.442014       0.00049245     0.000300209        -0.107364       0.0428831
281701.6              -0.0285617       -0.164518      0.000145156     0.000401931        -0.644283        0.743712     -0.000401036    -0.000304842
                     0.000114479     0.000452813        0.0986091      -0.0596787      -0.00034761     -0.00052583        -0.889006          0.4422
                       -0.644203        0.743856     -0.000175338    -0.000353366        -0.167451     -0.00422677      0.000527509     0.000139083
                    -0.000280577    -0.000337342        -0.888583        0.442038      0.000492472     0.000300201        -0.107362       0.0428827
281701.7              -0.0285689       -0.164517      0.000145163     0.000401927        -0.644263         0.74373     -0.000401039    -0.000304826
                     0.000114483     0.000452812        0.0986048      -0.0596832     -0.000347629    -0.000525831        -0.888994        0.442224
                       -0.644182        0.743874      -0.00017535     -0.00035336        -0.167452     -0.00422469      0.000527509     0.000139057
                    -0.000280582    -0.000337336        -0.888571        0.442062      0.000492494     0.000300193        -0.107361       0.0428824
281701.8               -0.028576       -0.164517       0.00014517     0.000401924        -0.644242        0.743747     -0.000401042     -0.00030481
                     0.000114486      0.00045281        0.0986005      -0.0596876     -0.000347647    -0.000525831        -0.888982        0.442248
                       -0.644161        0.743892     -0.000175362    -0.000353354        -0.167452     -0.00422261      0.000527509      0.00013903
                    -0.000280587    -0.000337331        -0.888559        0.442086      0.000492516     0.000300185         -0.10736        0.042882
281701.9              -0.0285831       -0.164516      0.000145178     0.000401921        -0.644221        0.743765     -0.000401045    -0.000304794
                      0.00011449     0.000452809        0.0985963      -0.0596921     -0.000347665    -0.000525832        -0.888971        0.442272
                       -0.644141        0.743909     -0.000175374    -0.000353348        -0.167453     -0.00422052       0.00052751     0.000139004
                    -0.000280593    -0.000337326        -0.888547         0.44211      0.000492537     0.000300177        -0.107358       0.0428817
281702                -0.0285903       -0.164516      0.000145185     0.000401917        -0.644201        0.743783     -0.000401049    -0.000304777
                     0.000114494     0.000452808         0.098592      -0.0596966     -0.000347684    -0.000525832        -0.888959        0.442296
                        -0.64412        0.743927     -0.000175386    -0.000353342        -0.167453     -0.00421844       0.00052751     0.000138978
                    -0.000280598     -0.00033732        -0.888536        0.442134      0.000492559     0.000300168        -0.107357       0.0428813
281702.1              -0.0285974       -0.164515      0.000145192     0.000401914         -0.64418        0.743801     -0.000401052    -0.000304761
                     0.000114498     0.000452806        0.0985877      -0.0597011     -0.000347702    -0.000525833        -0.888947         0.44232
                       -0.644099        0.743945     -0.000175398    -0.000353337        -0.167454     -0.00421636       0.00052751     0.000138951
                    -0.000280603    -0.000337315        -0.888524        0.442158      0.000492581      0.00030016        -0.107356        0.042881
281702.2              -0.0286046       -0.164514      0.000145199      0.00040191        -0.644159        0.743818     -0.000401055    -0.000304745
                     0.000114501     0.000452805        0.0985835      -0.0597055      -0.00034772    -0.000525834        -0.888935        0.442344
                       -0.644079        0.743963      -0.00017541    -0.000353331        -0.167455     -0.00421428       0.00052751     0.000138925
                    -0.000280609     -0.00033731        -0.888512        0.442182      0.000492603     0.000300152        -0.107355       0.0428807
281702.3              -0.0286117       -0.164514      0.000145206     0.000401907        -0.644139        0.743836     -0.000401058    -0.000304729
                     0.000114505     0.000452804        0.0985792        -0.05971     -0.000347739    -0.000525834        -0.888923        0.442368
                       -0.644058         0.74398     -0.000175422    -0.000353325        -0.167455      -0.0042122       0.00052751     0.000138899
                    -0.000280614    -0.000337304          -0.8885        0.442206      0.000492625     0.000300144        -0.107353       0.0428803
281702.4              -0.0286188       -0.164513      0.000145213     0.000401904        -0.644118        0.743854     -0.000401062    -0.000304712
                     0.000114509     0.000452803        0.0985749      -0.0597145     -0.000347757    -0.000525835        -0.888912        0.442392
                       -0.644038        0.743998     -0.000175434    -0.000353319        -0.167456     -0.00421012      0.000527511     0.000138872
                     -0.00028062    -0.000337299        -0.888489         0.44223      0.000492647     0.000300136        -0.107352         0.04288
281702.5               -0.028626       -0.164512       0.00014522       0.0004019        -0.644097        0.743872     -0.000401065    -0.000304696
                     0.000114512     0.000452801        0.0985706       -0.059719     -0.000347775    -0.000525835          -0.8889        0.442416
                       -0.644017        0.744016     -0.000175445    -0.000353313        -0.167457     -0.00420803      0.000527511     0.000138846
                    -0.000280625    -0.000337294        -0.888477        0.442254      0.000492669     0.000300128        -0.107351       0.0428796
281702.6              -0.0286331       -0.164512      0.000145227     0.000401897        -0.644077        0.743889     -0.000401068     -0.00030468
                     0.000114516       0.0004528        0.0985664      -0.0597234     -0.000347794    -0.000525836        -0.888888         0.44244
                       -0.643996        0.744033     -0.000175457    -0.000353307        -0.167457     -0.00420595      0.000527511      0.00013882
                     -0.00028063    -0.000337288        -0.888465        0.442278      0.000492691      0.00030012        -0.107349       0.0428793
281702.7              -0.0286403       -0.164511      0.000145234     0.000401894        -0.644056        0.743907     -0.000401071    -0.000304664
                      0.00011452     0.000452799        0.0985621      -0.0597279     -0.000347812    -0.000525837        -0.888876        0.442464
                       -0.643976        0.744051     -0.000175469    -0.000353301        -0.167458     -0.00420387      0.000527511     0.000138793
                    -0.000280636    -0.000337283        -0.888453        0.442302      0.000492713     0.000300112        -0.107348       0.0428789
281702.8              -0.0286474        -0.16451      0.000145241      0.00040189        -0.644035        0.743925     -0.000401075    -0.000304647
                     0.000114524     0.000452797        0.0985578      -0.0597324      -0.00034783    -0.000525837        -0.888865        0.442488
                       -0.643955        0.744069     -0.000175481    -0.000353295        -0.167458     -0.00420179      0.000527511     0.000138767
                    -0.000280641    -0.000337277        -0.888442        0.442326      0.000492735     0.000300104        -0.107347       0.0428786
281702.9              -0.0286545        -0.16451      0.000145248     0.000401887        -0.644015        0.743942     -0.000401078    -0.000304631
                     0.000114527     0.000452796        0.0985535      -0.0597368     -0.000347849    -0.000525838        -0.888853        0.442512
                       -0.643934        0.744087     -0.000175493    -0.000353289        -0.167459     -0.00419971      0.000527511     0.000138741
                    -0.000280646    -0.000337272         -0.88843         0.44235      0.000492756     0.000300096        -0.107345       0.0428783
281703                -0.0286617       -0.164509      0.000145255     0.000401884        -0.643994         0.74396     -0.000401081    -0.000304615
                     0.000114531     0.000452795        0.0985493      -0.0597413     -0.000347867    -0.000525839        -0.888841        0.442536
                       -0.643914        0.744104     -0.000175505    -0.000353283         -0.16746     -0.00419763      0.000527512     0.000138714
                    -0.000280652    -0.000337267        -0.888418        0.442373      0.000492778     0.000300088        -0.107344       0.0428779
281703.1              -0.0286688       -0.164508      0.000145262      0.00040188        -0.643973        0.743978     -0.000401084    -0.000304599
                     0.000114535     0.000452793         0.098545      -0.0597458     -0.000347885    -0.000525839        -0.888829         0.44256
                       -0.643893        0.744122     -0.000175517    -0.000353277         -0.16746     -0.00419554      0.000527512     0.000138688
