! TOUCHSTONE file generated by CST MICROWAVE STUDIO
! Date and time: Wed Oct  8 07:04:14 2025
! Project name: Teste_Macro_Metasurface_Nanopilar.cst
! Parameters = {H=600; L_x=180; L_y=195; Lambda=1064; Max_L=200; Min_L=70; PathPara=1; Phi=0; Step_L=10; Theta=0; p=520; phaseX=180; phaseY=0}
! Header version: 2018
! Port assignment regex: !\s*Touchstone port\s*([0-9]+)\s*=\s*(CST MWS port|CST DS port)\s*([0-9]+|Zmin|Zmax)\s*\(\"(.*)\"\)(\s*mode\s*([0-9]+))?.*
! Touchstone port assignment:
! Touchstone port 1 = CST MWS port Zmax ("") mode 1
! Touchstone port 2 = CST MWS port Zmax ("") mode 2
! Touchstone port 3 = CST MWS port Zmin ("") mode 1
! Touchstone port 4 = CST MWS port Zmin ("") mode 2
! S-Parameters are not renormalized. Each port impedance will be approximated by the real part at minimum frequency. The values are described via the [Reference] keyword.
! Default impedance is overridden by [Reference]
[Version] 2.0
# GHz S RI R 376.73
[Number of Ports] 4
[Reference]
376.73 376.73 376.73 376.73 
[Number of Frequencies] 1001
[Network Data]
281700                 -0.390327       -0.374235      0.000310673     0.000553537        -0.822007       0.0801232      4.45714e-05    -0.000842008
                     0.000313688     0.000467527        -0.147232       -0.202576     -0.000732301    -0.000893062        -0.950719        0.163193
                       -0.821862       0.0801891     -0.000722174       -0.001022         0.322369       -0.418181      0.000302513       0.0010827
                    -9.62844e-05    -0.000712243        -0.950771        0.163218      0.000294737     0.000976651        0.0681612       -0.239645
281700.1               -0.390329       -0.374224      0.000310728     0.000553538        -0.822008       0.0801592      4.44834e-05    -0.000841981
                     0.000313673     0.000467465        -0.147237       -0.202578      -0.00073262    -0.000893018        -0.950713        0.163221
                       -0.821865       0.0802256     -0.000722219     -0.00102181         0.322336       -0.418201      0.000302569      0.00108264
                    -9.63318e-05    -0.000712189        -0.950764        0.163246      0.000292662     0.000977706        0.0681511       -0.239653
281700.2               -0.390332       -0.374213      0.000310784     0.000553539        -0.822009       0.0801951      4.43955e-05    -0.000841953
                     0.000313657     0.000467403        -0.147242       -0.202581     -0.000732939    -0.000892974        -0.950706        0.163249
                       -0.821867        0.080262     -0.000722263     -0.00102162         0.322302       -0.418221      0.000302624      0.00108259
                    -9.63793e-05    -0.000712134        -0.950757        0.163274       0.00029061      0.00097869         0.068141       -0.239662
281700.3               -0.390334       -0.374202       0.00031084      0.00055354        -0.822011       0.0802311      4.43075e-05    -0.000841926
                     0.000313641      0.00046734        -0.147247       -0.202584      -0.00073326     -0.00089293          -0.9507        0.163277
                       -0.821869       0.0802985     -0.000722308     -0.00102143         0.322268        -0.41824       0.00030268      0.00108253
                    -9.64267e-05    -0.000712079         -0.95075        0.163301      0.000288582     0.000979607        0.0681308        -0.23967
281700.4               -0.390337       -0.374191      0.000310895     0.000553541        -0.822012        0.080267      4.42196e-05    -0.000841899
                     0.000313625     0.000467278        -0.147253       -0.202587      -0.00073358    -0.000892888        -0.950694        0.163304
                       -0.821872       0.0803349     -0.000722353     -0.00102124         0.322234        -0.41826      0.000302735      0.00108248
                    -9.64741e-05    -0.000712025        -0.950743        0.163329       0.00028658     0.000980459        0.0681207       -0.239679
281700.5               -0.390339        -0.37418      0.000310951     0.000553542        -0.822013        0.080303      4.41317e-05    -0.000841872
                     0.000313609     0.000467216        -0.147258       -0.202589     -0.000733902    -0.000892846        -0.950688        0.163332
                       -0.821874       0.0803714     -0.000722397     -0.00102105         0.322201        -0.41828       0.00030279      0.00108243
                    -9.65216e-05     -0.00071197        -0.950736        0.163356      0.000284604     0.000981249        0.0681106       -0.239687
281700.6               -0.390342       -0.374169      0.000311006     0.000553544        -0.822014       0.0803389      4.40438e-05    -0.000841845
                     0.000313594     0.000467154        -0.147263       -0.202592     -0.000734224    -0.000892806        -0.950682         0.16336
                       -0.821876       0.0804079     -0.000722442     -0.00102086         0.322167         -0.4183      0.000302846      0.00108237
                     -9.6569e-05    -0.000711915        -0.950729        0.163384      0.000282656      0.00098198        0.0681005       -0.239696
281700.7               -0.390345       -0.374158      0.000311062     0.000553545        -0.822016       0.0803749      4.39559e-05    -0.000841817
                     0.000313578     0.000467092        -0.147268       -0.202595     -0.000734547    -0.000892766        -0.950675        0.163388
                       -0.821879       0.0804443     -0.000722486     -0.00102066         0.322133       -0.418319      0.000302901      0.00108232
                    -9.66163e-05    -0.000711861        -0.950722        0.163411      0.000280737     0.000982654        0.0680903       -0.239704
281700.8               -0.390347       -0.374147      0.000311118     0.000553546        -0.822017       0.0804108       4.3868e-05     -0.00084179
                     0.000313562     0.000467029        -0.147273       -0.202597      -0.00073487    -0.000892727        -0.950669        0.163416
                       -0.821881       0.0804808     -0.000722531     -0.00102047         0.322099       -0.418339      0.000302957      0.00108226
                    -9.66637e-05    -0.000711806        -0.950715        0.163439      0.000278847     0.000983275        0.0680802       -0.239713
281700.9                -0.39035       -0.374137      0.000311173     0.000553548        -0.822018       0.0804468        4.378e-05    -0.000841763
                     0.000313546     0.000466967        -0.147278         -0.2026     -0.000735194    -0.000892689        -0.950663        0.163444
                       -0.821883       0.0805173     -0.000722575     -0.00102028         0.322066       -0.418359      0.000303012      0.00108221
                    -9.67111e-05    -0.000711751        -0.950708        0.163467      0.000276988     0.000983845        0.0680701       -0.239721
281701                 -0.390352       -0.374126      0.000311229     0.000553549        -0.822019       0.0804828      4.36921e-05    -0.000841736
                      0.00031353     0.000466905        -0.147284       -0.202603     -0.000735518    -0.000892651        -0.950657        0.163472
                       -0.821886       0.0805537      -0.00072262     -0.00102009         0.322032       -0.418378      0.000303067      0.00108216
                    -9.67585e-05    -0.000711696        -0.950701        0.163494      0.000275159     0.000984366        0.0680599        -0.23973
281701.1               -0.390355       -0.374115      0.000311284     0.000553551        -0.822021       0.0805187      4.36043e-05    -0.000841708
                     0.000313514     0.000466843        -0.147289       -0.202606     -0.000735843    -0.000892615        -0.950651        0.163499
                       -0.821888       0.0805902     -0.000722665      -0.0010199         0.321998       -0.418398      0.000303123       0.0010821
                    -9.68058e-05    -0.000711641        -0.950694        0.163522      0.000273361      0.00098484        0.0680498       -0.239738
281701.2               -0.390358       -0.374104       0.00031134     0.000553552        -0.822022       0.0805547      4.35164e-05    -0.000841681
                     0.000313498      0.00046678        -0.147294       -0.202608     -0.000736169    -0.000892579        -0.950644        0.163527
                        -0.82189       0.0806267     -0.000722709     -0.00101971         0.321964       -0.418418      0.000303178      0.00108205
                    -9.68532e-05    -0.000711587        -0.950688        0.163549      0.000271594      0.00098527        0.0680397       -0.239747
281701.3                -0.39036       -0.374093      0.000311395     0.000553554        -0.822023       0.0805906      4.34285e-05    -0.000841654
                     0.000313482     0.000466718        -0.147299       -0.202611     -0.000736495    -0.000892545        -0.950638        0.163555
                       -0.821893       0.0806631     -0.000722754     -0.00101952          0.32193       -0.418437      0.000303234      0.00108199
                    -9.69005e-05    -0.000711532        -0.950681        0.163577      0.000269859     0.000985659        0.0680295       -0.239755
281701.4               -0.390363       -0.374082      0.000311451     0.000553556        -0.822024       0.0806266      4.33406e-05    -0.000841626
                     0.000313466     0.000466656        -0.147304       -0.202614     -0.000736822    -0.000892511        -0.950632        0.163583
                       -0.821895       0.0806996     -0.000722798     -0.00101933         0.321897       -0.418457      0.000303289      0.00108194
                    -9.69479e-05    -0.000711477        -0.950674        0.163605      0.000268156     0.000986007        0.0680194       -0.239764
281701.5               -0.390365       -0.374071      0.000311506     0.000553558        -0.822026       0.0806626      4.32527e-05    -0.000841599
                      0.00031345     0.000466594         -0.14731       -0.202616      -0.00073715    -0.000892478        -0.950626        0.163611
                       -0.821897       0.0807361     -0.000722843     -0.00101914         0.321863       -0.418477      0.000303344      0.00108189
                    -9.69952e-05    -0.000711422        -0.950667        0.163632      0.000266485     0.000986318        0.0680093       -0.239772
281701.6               -0.390368        -0.37406      0.000311561      0.00055356        -0.822027       0.0806985      4.31648e-05    -0.000841572
                     0.000313434     0.000466531        -0.147315       -0.202619     -0.000737478    -0.000892446         -0.95062        0.163639
                       -0.821899       0.0807725     -0.000722887     -0.00101895         0.321829       -0.418496        0.0003034      0.00108183
                    -9.70425e-05    -0.000711367         -0.95066         0.16366      0.000264845     0.000986594        0.0679991       -0.239781
281701.7                -0.39037       -0.374049      0.000311617     0.000553562        -0.822028       0.0807345       4.3077e-05    -0.000841544
                     0.000313418     0.000466469         -0.14732       -0.202622     -0.000737806    -0.000892415        -0.950613        0.163667
                       -0.821902        0.080809     -0.000722932     -0.00101876         0.321795       -0.418516      0.000303455      0.00108178
                    -9.70898e-05    -0.000711312        -0.950653        0.163687      0.000263236     0.000986835         0.067989       -0.239789
281701.8               -0.390373       -0.374038      0.000311672     0.000553564        -0.822029       0.0807704      4.29891e-05    -0.000841517
                     0.000313402     0.000466407        -0.147325       -0.202625     -0.000738135    -0.000892385        -0.950607        0.163694
                       -0.821904       0.0808455     -0.000722976     -0.00101857         0.321761       -0.418536       0.00030351      0.00108172
                    -9.71371e-05    -0.000711257        -0.950646        0.163715      0.000261659     0.000987044        0.0679789       -0.239798
281701.9               -0.390376       -0.374027      0.000311728     0.000553566         -0.82203       0.0808064      4.29012e-05     -0.00084149
                     0.000313386     0.000466345         -0.14733       -0.202627     -0.000738465    -0.000892356        -0.950601        0.163722
                       -0.821906        0.080882     -0.000723021     -0.00101837         0.321728       -0.418555      0.000303566      0.00108167
                    -9.71844e-05    -0.000711202        -0.950639        0.163743      0.000260113     0.000987223        0.0679687       -0.239806
281702                 -0.390378       -0.374016      0.000311783     0.000553568        -0.822032       0.0808424      4.28134e-05    -0.000841462
                      0.00031337     0.000466282        -0.147335        -0.20263     -0.000738795    -0.000892328        -0.950595         0.16375
                       -0.821908       0.0809184     -0.000723065     -0.00101818         0.321694       -0.418575      0.000303621      0.00108162
                    -9.72317e-05    -0.000711147        -0.950632         0.16377      0.000258598     0.000987373        0.0679586       -0.239815
281702.1               -0.390381       -0.374005      0.000311838      0.00055357        -0.822033       0.0808783      4.27255e-05    -0.000841435
                     0.000313354      0.00046622        -0.147341       -0.202633     -0.000739126    -0.000892301        -0.950588        0.163778
                       -0.821911       0.0809549      -0.00072311     -0.00101799          0.32166       -0.418595      0.000303677      0.00108156
                    -9.72789e-05    -0.000711093        -0.950626        0.163798      0.000257114     0.000987496        0.0679485       -0.239823
281702.2               -0.390383       -0.373994      0.000311894     0.000553572        -0.822034       0.0809143      4.26377e-05    -0.000841407
                     0.000313338     0.000466158        -0.147346       -0.202635     -0.000739457    -0.000892275        -0.950582        0.163806
                       -0.821913       0.0809914     -0.000723154      -0.0010178         0.321626       -0.418614      0.000303732      0.00108151
                    -9.73262e-05    -0.000711038        -0.950619        0.163826       0.00025566     0.000987594        0.0679383       -0.239832
281702.3               -0.390386       -0.373983      0.000311949     0.000553575        -0.822035       0.0809503      4.25498e-05     -0.00084138
                     0.000313322     0.000466096        -0.147351       -0.202638     -0.000739789    -0.000892249        -0.950576        0.163834
                       -0.821915       0.0810279     -0.000723199     -0.00101761         0.321592       -0.418634      0.000303787      0.00108145
                    -9.73735e-05    -0.000710983        -0.950612        0.163853      0.000254236     0.000987667        0.0679282        -0.23984
281702.4               -0.390389       -0.373972      0.000312004     0.000553577        -0.822037       0.0809862       4.2462e-05    -0.000841353
                     0.000313306     0.000466033        -0.147356       -0.202641     -0.000740122    -0.000892225         -0.95057        0.163861
                       -0.821917       0.0810643     -0.000723243     -0.00101742         0.321559       -0.418654      0.000303843       0.0010814
                    -9.74207e-05    -0.000710928        -0.950605        0.163881      0.000252841     0.000987717         0.067918       -0.239849
281702.5               -0.390391       -0.373961      0.000312059      0.00055358        -0.822038       0.0810222      4.23742e-05    -0.000841325
                      0.00031329     0.000465971        -0.147361       -0.202644     -0.000740455    -0.000892202        -0.950564        0.163889
                        -0.82192       0.0811008     -0.000723287     -0.00101723         0.321525       -0.418673      0.000303898      0.00108135
                    -9.74679e-05    -0.000710872        -0.950598        0.163909      0.000251476     0.000987746        0.0679079       -0.239857
281702.6               -0.390394        -0.37395      0.000312115     0.000553582        -0.822039       0.0810582      4.22863e-05    -0.000841298
                     0.000313274     0.000465909        -0.147367       -0.202646     -0.000740788    -0.000892179        -0.950557        0.163917
                       -0.821922       0.0811373     -0.000723332     -0.00101703         0.321491       -0.418693      0.000303953      0.00108129
                    -9.75152e-05    -0.000710817        -0.950591        0.163936       0.00025014     0.000987754        0.0678978       -0.239866
281702.7               -0.390396       -0.373939       0.00031217     0.000553585         -0.82204       0.0810941      4.21985e-05     -0.00084127
                     0.000313258     0.000465847        -0.147372       -0.202649     -0.000741122    -0.000892158        -0.950551        0.163945
                       -0.821924       0.0811738     -0.000723376     -0.00101684         0.321457       -0.418713      0.000304009      0.00108124
                    -9.75624e-05    -0.000710762        -0.950585        0.163964      0.000248832     0.000987744        0.0678876       -0.239874
281702.8               -0.390399       -0.373928      0.000312225     0.000553588        -0.822041       0.0811301      4.21107e-05    -0.000841243
                     0.000313242     0.000465784        -0.147377       -0.202652     -0.000741457    -0.000892138        -0.950545        0.163973
                       -0.821926       0.0812103     -0.000723421     -0.00101665         0.321423       -0.418732      0.000304064      0.00108118
                    -9.76096e-05    -0.000710707        -0.950578        0.163991      0.000247551     0.000987715        0.0678775       -0.239883
281702.9               -0.390401       -0.373917       0.00031228      0.00055359        -0.822043       0.0811661      4.20228e-05    -0.000841215
                     0.000313225     0.000465722        -0.147382       -0.202655     -0.000741792    -0.000892119        -0.950539        0.164001
                       -0.821929       0.0812467     -0.000723465     -0.00101646          0.32139       -0.418752      0.000304119      0.00108113
                    -9.76568e-05    -0.000710652        -0.950571        0.164019      0.000246299     0.000987669        0.0678673       -0.239891
281703                 -0.390404       -0.373906      0.000312335     0.000553593        -0.822044       0.0812021       4.1935e-05    -0.000841188
                     0.000313209      0.00046566        -0.147387       -0.202657     -0.000742128      -0.0008921        -0.950533        0.164029
                       -0.821931       0.0812832      -0.00072351     -0.00101627         0.321356       -0.418772      0.000304175      0.00108107
                     -9.7704e-05    -0.000710597        -0.950564        0.164047      0.000245073     0.000987607        0.0678572         -0.2399
281703.1               -0.390407       -0.373895       0.00031239     0.000553596        -0.822045        0.081238      4.18472e-05     -0.00084116
                     0.000313193     0.000465597        -0.147392        -0.20266     -0.000742464    -0.000892083        -0.950526        0.164056
                       -0.821933       0.0813197     -0.000723554     -0.00101608         0.321322       -0.418791       0.00030423      0.00108102
