! TOUCHSTONE file generated by CST MICROWAVE STUDIO
! Date and time: Wed Oct  8 06:53:56 2025
! Project name: Teste_Macro_Metasurface_Nanopilar.cst
! Parameters = {H=600; L_x=95; L_y=160; Lambda=1064; Max_L=200; Min_L=70; PathPara=1; Phi=0; Step_L=10; Theta=0; p=520; phaseX=180; phaseY=0}
! Header version: 2018
! Port assignment regex: !\s*Touchstone port\s*([0-9]+)\s*=\s*(CST MWS port|CST DS port)\s*([0-9]+|Zmin|Zmax)\s*\(\"(.*)\"\)(\s*mode\s*([0-9]+))?.*
! Touchstone port assignment:
! Touchstone port 1 = CST MWS port Zmax ("") mode 1
! Touchstone port 2 = CST MWS port Zmax ("") mode 2
! Touchstone port 3 = CST MWS port Zmin ("") mode 1
! Touchstone port 4 = CST MWS port Zmin ("") mode 2
! S-Parameters are not renormalized. Each port impedance will be approximated by the real part at minimum frequency. The values are described via the [Reference] keyword.
! Default impedance is overridden by [Reference]
[Version] 2.0
# GHz S RI R 376.73
[Number of Ports] 4
[Reference]
376.73 376.73 376.73 376.73 
[Number of Frequencies] 1001
[Network Data]
281700                 -0.184448      -0.0347693     -3.33158e-05     0.000511282         -0.41366       -0.885093       9.9702e-05    -0.000301743
                     0.000180598     0.000171109        -0.208945      -0.0973698     -0.000249073    -0.000211443        0.0289244        0.968117
                       -0.413719       -0.884971     -0.000320541    -0.000300242       -0.0927027        0.162561      0.000195491     0.000242705
                     0.000114237    -0.000259293        0.0290833        0.968267      0.000290132     0.000364868        -0.202954         0.10963
281700.1               -0.184445      -0.0347639     -3.32944e-05      0.00051128        -0.413688       -0.885081      9.96851e-05    -0.000301737
                     0.000180555     0.000171089        -0.208946      -0.0973617     -0.000249072    -0.000211422        0.0289534        0.968116
                       -0.413747       -0.884959     -0.000320547    -0.000300224       -0.0926942         0.16256      0.000195492     0.000242691
                     0.000114244    -0.000259318        0.0291123        0.968267      0.000290141     0.000364842         -0.20295        0.109634
281700.2               -0.184441      -0.0347585     -3.32731e-05     0.000511277        -0.413716       -0.885069      9.96681e-05     -0.00030173
                     0.000180512     0.000171069        -0.208947      -0.0973537     -0.000249071    -0.000211401        0.0289824        0.968116
                       -0.413775       -0.884947     -0.000320553    -0.000300206       -0.0926858         0.16256      0.000195493     0.000242677
                      0.00011425    -0.000259343        0.0291413        0.968266      0.000290151     0.000364816        -0.202945        0.109639
281700.3               -0.184437      -0.0347532     -3.32518e-05     0.000511275        -0.413744       -0.885057      9.96512e-05    -0.000301723
                     0.000180469     0.000171048        -0.208949      -0.0973457      -0.00024907    -0.000211379        0.0290114        0.968115
                       -0.413803       -0.884935      -0.00032056    -0.000300187       -0.0926773        0.162559      0.000195494     0.000242663
                     0.000114256    -0.000259368        0.0291704        0.968266      0.000290161     0.000364791         -0.20294        0.109643
281700.4               -0.184433      -0.0347478     -3.32305e-05     0.000511272        -0.413772       -0.885045      9.96342e-05    -0.000301716
                     0.000180426     0.000171028         -0.20895      -0.0973377     -0.000249069    -0.000211358        0.0290404        0.968115
                       -0.413831       -0.884922     -0.000320566    -0.000300169       -0.0926689        0.162558      0.000195495     0.000242649
                     0.000114263    -0.000259393        0.0291994        0.968265      0.000290171     0.000364765        -0.202936        0.109647
281700.5                -0.18443      -0.0347424     -3.32092e-05     0.000511269          -0.4138       -0.885033      9.96173e-05     -0.00030171
                     0.000180383     0.000171007        -0.208952      -0.0973296     -0.000249067    -0.000211336        0.0290694        0.968115
                       -0.413859        -0.88491     -0.000320572     -0.00030015       -0.0926605        0.162558      0.000195496     0.000242635
                     0.000114269    -0.000259418        0.0292284        0.968265       0.00029018     0.000364739        -0.202931        0.109651
281700.6               -0.184426      -0.0347371     -3.31879e-05     0.000511267        -0.413828       -0.885021      9.96003e-05    -0.000301703
                      0.00018034     0.000170987        -0.208953      -0.0973216     -0.000249066    -0.000211315        0.0290985        0.968114
                       -0.413887       -0.884898     -0.000320579    -0.000300132        -0.092652        0.162557      0.000195498     0.000242621
                     0.000114276    -0.000259443        0.0292574        0.968265       0.00029019     0.000364713        -0.202926        0.109655
281700.7               -0.184422      -0.0347317     -3.31666e-05     0.000511264        -0.413856       -0.885009      9.95834e-05    -0.000301696
                     0.000180297     0.000170967        -0.208955      -0.0973136     -0.000249065    -0.000211294        0.0291275        0.968114
                       -0.413915       -0.884886     -0.000320585    -0.000300114       -0.0926436        0.162557      0.000195499     0.000242607
                     0.000114282    -0.000259468        0.0292864        0.968264        0.0002902     0.000364687        -0.202922        0.109659
281700.8               -0.184419      -0.0347263     -3.31453e-05     0.000511261        -0.413885       -0.884996      9.95665e-05     -0.00030169
                     0.000180254     0.000170946        -0.208956      -0.0973056     -0.000249064    -0.000211272        0.0291565        0.968114
                       -0.413943       -0.884874     -0.000320591    -0.000300095       -0.0926351        0.162556        0.0001955     0.000242593
                     0.000114288    -0.000259493        0.0293154        0.968264       0.00029021     0.000364662        -0.202917        0.109664
281700.9               -0.184415      -0.0347209     -3.31239e-05     0.000511259        -0.413913       -0.884984      9.95495e-05    -0.000301683
                     0.000180211     0.000170926        -0.208957      -0.0972975     -0.000249063    -0.000211251        0.0291855        0.968113
                       -0.413971       -0.884862     -0.000320597    -0.000300077       -0.0926267        0.162555      0.000195501     0.000242579
                     0.000114295    -0.000259519        0.0293444        0.968263      0.000290219     0.000364636        -0.202912        0.109668
281701                 -0.184411      -0.0347156     -3.31026e-05     0.000511256        -0.413941       -0.884972      9.95325e-05    -0.000301676
                     0.000180167     0.000170906        -0.208959      -0.0972895     -0.000249062     -0.00021123        0.0292145        0.968113
                       -0.413999       -0.884849     -0.000320604    -0.000300059       -0.0926182        0.162555      0.000195502     0.000242565
                     0.000114301    -0.000259544        0.0293734        0.968263      0.000290229      0.00036461        -0.202908        0.109672
281701.1               -0.184407      -0.0347102     -3.30813e-05     0.000511253        -0.413969        -0.88496      9.95156e-05    -0.000301669
                     0.000180124     0.000170886         -0.20896      -0.0972815      -0.00024906    -0.000211208        0.0292435        0.968112
                       -0.414027       -0.884837      -0.00032061     -0.00030004       -0.0926098        0.162554      0.000195503     0.000242551
                     0.000114307    -0.000259569        0.0294024        0.968262      0.000290239     0.000364584        -0.202903        0.109676
281701.2               -0.184404      -0.0347048       -3.306e-05     0.000511251        -0.413997       -0.884948      9.94986e-05    -0.000301663
                     0.000180081     0.000170865        -0.208962      -0.0972734     -0.000249059    -0.000211187        0.0292725        0.968112
                       -0.414055       -0.884825     -0.000320616    -0.000300022       -0.0926014        0.162553      0.000195504     0.000242537
                     0.000114314    -0.000259594        0.0294314        0.968262      0.000290249     0.000364559        -0.202898         0.10968
281701.3                 -0.1844      -0.0346995     -3.30387e-05     0.000511248        -0.414025       -0.884936      9.94817e-05    -0.000301656
                     0.000180038     0.000170845        -0.208963      -0.0972654     -0.000249058    -0.000211165        0.0293015        0.968112
                       -0.414083       -0.884813     -0.000320622    -0.000300004       -0.0925929        0.162553      0.000195506     0.000242523
                      0.00011432    -0.000259619        0.0294604        0.968262      0.000290258     0.000364533        -0.202894        0.109685
281701.4               -0.184396      -0.0346941     -3.30174e-05     0.000511246        -0.414053       -0.884924      9.94647e-05    -0.000301649
                     0.000179995     0.000170825        -0.208964      -0.0972574     -0.000249057    -0.000211144        0.0293305        0.968111
                       -0.414111       -0.884801     -0.000320629    -0.000299985       -0.0925845        0.162552      0.000195507     0.000242509
                     0.000114327    -0.000259644        0.0294894        0.968261      0.000290268     0.000364507        -0.202889        0.109689
281701.5               -0.184392      -0.0346887     -3.29961e-05     0.000511243        -0.414081       -0.884912      9.94478e-05    -0.000301643
                     0.000179952     0.000170805        -0.208966      -0.0972494     -0.000249056    -0.000211123        0.0293595        0.968111
                       -0.414139       -0.884788     -0.000320635    -0.000299967       -0.0925761        0.162552      0.000195508     0.000242495
                     0.000114333    -0.000259669        0.0295184        0.968261      0.000290278     0.000364481        -0.202884        0.109693
281701.6               -0.184389      -0.0346833     -3.29749e-05      0.00051124        -0.414109         -0.8849      9.94308e-05    -0.000301636
                     0.000179908     0.000170785        -0.208967      -0.0972413     -0.000249055    -0.000211101        0.0293885         0.96811
                       -0.414167       -0.884776     -0.000320641    -0.000299949       -0.0925676        0.162551      0.000195509     0.000242481
                     0.000114339    -0.000259695        0.0295474         0.96826      0.000290288     0.000364455         -0.20288        0.109697
281701.7               -0.184385       -0.034678     -3.29536e-05     0.000511238        -0.414137       -0.884887      9.94138e-05    -0.000301629
                     0.000179865     0.000170765        -0.208969      -0.0972333     -0.000249053     -0.00021108        0.0294176         0.96811
                       -0.414195       -0.884764     -0.000320647     -0.00029993       -0.0925592         0.16255       0.00019551     0.000242467
                     0.000114346     -0.00025972        0.0295765         0.96826      0.000290297      0.00036443        -0.202875        0.109701
281701.8               -0.184381      -0.0346726     -3.29323e-05     0.000511235        -0.414165       -0.884875      9.93969e-05    -0.000301623
                     0.000179822     0.000170745         -0.20897      -0.0972253     -0.000249052    -0.000211059        0.0294466         0.96811
                       -0.414223       -0.884752     -0.000320654    -0.000299912       -0.0925507         0.16255      0.000195511     0.000242453
                     0.000114352    -0.000259745        0.0296055        0.968259      0.000290307     0.000364404         -0.20287        0.109705
281701.9               -0.184378      -0.0346672      -3.2911e-05     0.000511232        -0.414193       -0.884863      9.93799e-05    -0.000301616
                     0.000179778     0.000170724        -0.208972      -0.0972173     -0.000249051    -0.000211037        0.0294756        0.968109
                       -0.414251        -0.88474      -0.00032066    -0.000299894       -0.0925423        0.162549      0.000195513     0.000242439
                     0.000114358     -0.00025977        0.0296345        0.968259      0.000290317     0.000364378        -0.202866         0.10971
281702                 -0.184374      -0.0346619     -3.28897e-05      0.00051123        -0.414221       -0.884851      9.93629e-05    -0.000301609
                     0.000179735     0.000170704        -0.208973      -0.0972092      -0.00024905    -0.000211016        0.0295046        0.968109
                       -0.414279       -0.884727     -0.000320666    -0.000299875       -0.0925339        0.162548      0.000195514     0.000242425
                     0.000114364    -0.000259795        0.0296635        0.968259      0.000290326     0.000364352        -0.202861        0.109714
281702.1                -0.18437      -0.0346565     -3.28684e-05     0.000511227        -0.414249       -0.884839      9.93459e-05    -0.000301602
                     0.000179692     0.000170684        -0.208974      -0.0972012     -0.000249049    -0.000210995        0.0295336        0.968108
                       -0.414307       -0.884715     -0.000320672    -0.000299857       -0.0925254        0.162548      0.000195515     0.000242411
                     0.000114371    -0.000259821        0.0296925        0.968258      0.000290336     0.000364326        -0.202856        0.109718
281702.2               -0.184366      -0.0346511     -3.28471e-05     0.000511224        -0.414277       -0.884827       9.9329e-05    -0.000301596
                     0.000179649     0.000170664        -0.208976      -0.0971932     -0.000249047    -0.000210973        0.0295626        0.968108
                       -0.414335       -0.884703     -0.000320679    -0.000299838        -0.092517        0.162547      0.000195516     0.000242397
                     0.000114377    -0.000259846        0.0297215        0.968258      0.000290346     0.000364301        -0.202852        0.109722
281702.3               -0.184363      -0.0346458     -3.28258e-05     0.000511222        -0.414305       -0.884815       9.9312e-05    -0.000301589
                     0.000179605     0.000170644        -0.208977      -0.0971852     -0.000249046    -0.000210952        0.0295916        0.968108
                       -0.414364       -0.884691     -0.000320685     -0.00029982       -0.0925085        0.162547      0.000195517     0.000242383
                     0.000114383    -0.000259871        0.0297505        0.968257      0.000290356     0.000364275        -0.202847        0.109726
281702.4               -0.184359      -0.0346404     -3.28045e-05     0.000511219        -0.414333       -0.884803       9.9295e-05    -0.000301582
                     0.000179562     0.000170624        -0.208979      -0.0971771     -0.000249045     -0.00021093        0.0296206        0.968107
                       -0.414392       -0.884679     -0.000320691    -0.000299802       -0.0925001        0.162546      0.000195518     0.000242369
                      0.00011439    -0.000259896        0.0297795        0.968257      0.000290365     0.000364249        -0.202842         0.10973
281702.5               -0.184355       -0.034635     -3.27833e-05     0.000511216        -0.414361        -0.88479       9.9278e-05    -0.000301576
                     0.000179518     0.000170604         -0.20898      -0.0971691     -0.000249044    -0.000210909        0.0296496        0.968107
                        -0.41442       -0.884666     -0.000320697    -0.000299783       -0.0924917        0.162545      0.000195519     0.000242355
                     0.000114396    -0.000259922        0.0298085        0.968257      0.000290375     0.000364223        -0.202838        0.109735
281702.6               -0.184351      -0.0346297      -3.2762e-05     0.000511214        -0.414389       -0.884778      9.92611e-05    -0.000301569
                     0.000179475     0.000170585        -0.208981      -0.0971611     -0.000249043    -0.000210888        0.0296786        0.968107
                       -0.414448       -0.884654     -0.000320704    -0.000299765       -0.0924832        0.162545      0.000195521      0.00024234
                     0.000114402    -0.000259947        0.0298375        0.968256      0.000290385     0.000364197        -0.202833        0.109739
281702.7               -0.184348      -0.0346243     -3.27407e-05     0.000511211        -0.414417       -0.884766      9.92441e-05    -0.000301562
                     0.000179432     0.000170565        -0.208983      -0.0971531     -0.000249041    -0.000210866        0.0297077        0.968106
                       -0.414476       -0.884642      -0.00032071    -0.000299747       -0.0924748        0.162544      0.000195522     0.000242326
                     0.000114408    -0.000259972        0.0298665        0.968256      0.000290394     0.000364172        -0.202828        0.109743
281702.8               -0.184344      -0.0346189     -3.27194e-05     0.000511208        -0.414445       -0.884754      9.92271e-05    -0.000301556
                     0.000179388     0.000170545        -0.208984       -0.097145      -0.00024904    -0.000210845        0.0297367        0.968106
                       -0.414504        -0.88463     -0.000320716    -0.000299728       -0.0924663        0.162544      0.000195523     0.000242312
                     0.000114415    -0.000259997        0.0298955        0.968255      0.000290404     0.000364146        -0.202824        0.109747
281702.9                -0.18434      -0.0346136     -3.26982e-05     0.000511206        -0.414473       -0.884742      9.92101e-05    -0.000301549
                     0.000179345     0.000170525        -0.208986       -0.097137     -0.000249039    -0.000210824        0.0297657        0.968105
                       -0.414532       -0.884618     -0.000320722     -0.00029971       -0.0924579        0.162543      0.000195524     0.000242298
                     0.000114421    -0.000260023        0.0299245        0.968255      0.000290414      0.00036412        -0.202819        0.109751
281703                 -0.184336      -0.0346082     -3.26769e-05     0.000511203        -0.414501        -0.88473      9.91931e-05    -0.000301542
                     0.000179301     0.000170505        -0.208987       -0.097129     -0.000249038    -0.000210802        0.0297947        0.968105
                        -0.41456       -0.884605     -0.000320729    -0.000299692       -0.0924495        0.162542      0.000195525     0.000242284
                     0.000114427    -0.000260048        0.0299536        0.968254      0.000290423     0.000364094        -0.202814        0.109755
281703.1               -0.184333      -0.0346028     -3.26556e-05       0.0005112        -0.414529       -0.884718      9.91761e-05    -0.000301536
                     0.000179258     0.000170485        -0.208989       -0.097121     -0.000249037    -0.000210781        0.0298237        0.968105
                       -0.414588       -0.884593     -0.000320735    -0.000299673        -0.092441        0.162542      0.000195527      0.00024227
