! TOUCHSTONE file generated by CST MICROWAVE STUDIO
! Date and time: Wed Oct  8 06:57:35 2025
! Project name: Teste_Macro_Metasurface_Nanopilar.cst
! Parameters = {H=600; L_x=125; L_y=175; Lambda=1064; Max_L=200; Min_L=70; PathPara=1; Phi=0; Step_L=10; Theta=0; p=520; phaseX=180; phaseY=0}
! Header version: 2018
! Port assignment regex: !\s*Touchstone port\s*([0-9]+)\s*=\s*(CST MWS port|CST DS port)\s*([0-9]+|Zmin|Zmax)\s*\(\"(.*)\"\)(\s*mode\s*([0-9]+))?.*
! Touchstone port assignment:
! Touchstone port 1 = CST MWS port Zmax ("") mode 1
! Touchstone port 2 = CST MWS port Zmax ("") mode 2
! Touchstone port 3 = CST MWS port Zmin ("") mode 1
! Touchstone port 4 = CST MWS port Zmin ("") mode 2
! S-Parameters are not renormalized. Each port impedance will be approximated by the real part at minimum frequency. The values are described via the [Reference] keyword.
! Default impedance is overridden by [Reference]
[Version] 2.0
# GHz S RI R 376.73
[Number of Ports] 4
[Reference]
376.73 376.73 376.73 376.73 
[Number of Frequencies] 1001
[Network Data]
281700                 -0.144931        0.302724      0.000308866     0.000277045        -0.719685       -0.595788     -0.000418912     0.000164608
                     0.000258652     0.000524047        -0.204467       0.0228783     -0.000298881      0.00038422        -0.409988        -0.88283
                       -0.720023        -0.59623     -0.000181295     0.000254188        -0.276276        0.189234     -0.000108202    -0.000105297
                    -0.000235378     0.000382371         -0.41026       -0.883197     -0.000163013    -0.000218281        -0.150326        0.140295
281700.1                -0.14492        0.302722      0.000308882     0.000277048        -0.719706       -0.595767     -0.000418924     0.000164575
                     0.000258675     0.000524042        -0.204462        0.022884     -0.000298865     0.000384217        -0.410015       -0.882818
                       -0.720044       -0.596209     -0.000181281      0.00025419        -0.276264         0.18924      -0.00010824    -0.000105293
                    -0.000235358     0.000382361        -0.410287       -0.883185     -0.000163015    -0.000218297        -0.150319        0.140297
281700.2               -0.144908        0.302719      0.000308897      0.00027705        -0.719727       -0.595746     -0.000418936     0.000164542
                     0.000258697     0.000524036        -0.204458       0.0228898     -0.000298849     0.000384214        -0.410042       -0.882806
                       -0.720065       -0.596188     -0.000181268     0.000254191        -0.276252        0.189245     -0.000108278     -0.00010529
                    -0.000235338     0.000382351        -0.410314       -0.883173     -0.000163017    -0.000218313        -0.150312        0.140298
281700.3               -0.144896        0.302717      0.000308913     0.000277052        -0.719747       -0.595725     -0.000418949     0.000164509
                      0.00025872     0.000524031        -0.204453       0.0228955     -0.000298834     0.000384211        -0.410069       -0.882795
                       -0.720086       -0.596167     -0.000181254     0.000254193         -0.27624         0.18925     -0.000108316    -0.000105287
                    -0.000235318     0.000382341        -0.410341       -0.883162     -0.000163019     -0.00021833        -0.150305          0.1403
281700.4               -0.144884        0.302715      0.000308929     0.000277055        -0.719768       -0.595704     -0.000418961     0.000164476
                     0.000258743     0.000524025        -0.204448       0.0229013     -0.000298818     0.000384208        -0.410096       -0.882783
                       -0.720107       -0.596145      -0.00018124     0.000254194        -0.276227        0.189256     -0.000108354    -0.000105283
                    -0.000235298     0.000382331        -0.410368        -0.88315     -0.000163021    -0.000218346        -0.150298        0.140302
281700.5               -0.144872        0.302713      0.000308945     0.000277057        -0.719789       -0.595683     -0.000418974     0.000164443
                     0.000258766      0.00052402        -0.204444        0.022907     -0.000298802     0.000384204        -0.410123       -0.882772
                       -0.720127       -0.596124     -0.000181227     0.000254196        -0.276215        0.189261     -0.000108392     -0.00010528
                    -0.000235278     0.000382321        -0.410395       -0.883138     -0.000163023    -0.000218362         -0.15029        0.140304
281700.6                -0.14486        0.302711       0.00030896      0.00027706         -0.71981       -0.595661     -0.000418986      0.00016441
                     0.000258788     0.000524014        -0.204439       0.0229128     -0.000298786     0.000384201         -0.41015        -0.88276
                       -0.720148       -0.596103     -0.000181213     0.000254197        -0.276203        0.189267      -0.00010843    -0.000105277
                    -0.000235258     0.000382311        -0.410422       -0.883127     -0.000163025    -0.000218379        -0.150283        0.140306
281700.7               -0.144849        0.302709      0.000308976     0.000277062        -0.719831        -0.59564     -0.000418998     0.000164377
                     0.000258811     0.000524009        -0.204434       0.0229185      -0.00029877     0.000384198        -0.410177       -0.882748
                       -0.720169       -0.596082     -0.000181199     0.000254199        -0.276191        0.189272     -0.000108468    -0.000105273
                    -0.000235239     0.000382301        -0.410449       -0.883115     -0.000163027    -0.000218395        -0.150276        0.140307
281700.8               -0.144837        0.302707      0.000308992     0.000277064        -0.719852       -0.595619     -0.000419011     0.000164344
                     0.000258834     0.000524004         -0.20443       0.0229243     -0.000298754     0.000384195        -0.410204       -0.882737
                        -0.72019       -0.596061     -0.000181186       0.0002542        -0.276179        0.189278     -0.000108506     -0.00010527
                    -0.000235219     0.000382291        -0.410476       -0.883104     -0.000163029    -0.000218411        -0.150269        0.140309
281700.9               -0.144825        0.302704      0.000309008     0.000277067        -0.719872       -0.595598     -0.000419023     0.000164311
                     0.000258857     0.000523998        -0.204425         0.02293     -0.000298738     0.000384191        -0.410231       -0.882725
                       -0.720211        -0.59604     -0.000181172     0.000254202        -0.276167        0.189283     -0.000108544    -0.000105266
                    -0.000235199     0.000382281        -0.410504       -0.883092     -0.000163031    -0.000218428        -0.150262        0.140311
281701                 -0.144813        0.302702      0.000309023     0.000277069        -0.719893       -0.595577     -0.000419036     0.000164278
                     0.000258879     0.000523993        -0.204421       0.0229358     -0.000298722     0.000384188        -0.410258       -0.882713
                       -0.720232       -0.596018     -0.000181158     0.000254203        -0.276155        0.189288     -0.000108582    -0.000105263
                    -0.000235179     0.000382271        -0.410531        -0.88308     -0.000163033    -0.000218444        -0.150255        0.140313
281701.1               -0.144801          0.3027      0.000309039     0.000277072        -0.719914       -0.595556     -0.000419048     0.000164245
                     0.000258902     0.000523987        -0.204416       0.0229415     -0.000298706     0.000384185        -0.410285       -0.882702
                       -0.720252       -0.595997     -0.000181145     0.000254205        -0.276142        0.189294      -0.00010862     -0.00010526
                    -0.000235159      0.00038226        -0.410558       -0.883069     -0.000163035     -0.00021846        -0.150248        0.140314
281701.2               -0.144789        0.302698      0.000309055     0.000277074        -0.719935       -0.595534      -0.00041906     0.000164212
                     0.000258925     0.000523982        -0.204411       0.0229473      -0.00029869     0.000384182        -0.410312        -0.88269
                       -0.720273       -0.595976     -0.000181131     0.000254206         -0.27613        0.189299     -0.000108658    -0.000105256
                    -0.000235139      0.00038225        -0.410585       -0.883057     -0.000163037    -0.000218477        -0.150241        0.140316
281701.3               -0.144778        0.302696      0.000309071     0.000277076        -0.719956       -0.595513     -0.000419073     0.000164179
                     0.000258948     0.000523976        -0.204407        0.022953     -0.000298675     0.000384179        -0.410339       -0.882679
                       -0.720294       -0.595955     -0.000181117     0.000254208        -0.276118        0.189305     -0.000108696    -0.000105253
                    -0.000235119      0.00038224        -0.410612       -0.883045     -0.000163039    -0.000218493        -0.150234        0.140318
281701.4               -0.144766        0.302694      0.000309086     0.000277079        -0.719977       -0.595492     -0.000419085     0.000164146
                      0.00025897     0.000523971        -0.204402       0.0229588     -0.000298659     0.000384175        -0.410366       -0.882667
                       -0.720315       -0.595934     -0.000181104     0.000254209        -0.276106         0.18931     -0.000108734     -0.00010525
                    -0.000235099      0.00038223        -0.410639       -0.883034     -0.000163041     -0.00021851        -0.150227         0.14032
281701.5               -0.144754        0.302692      0.000309102     0.000277081        -0.719997       -0.595471     -0.000419098     0.000164112
                     0.000258993     0.000523966        -0.204398       0.0229645     -0.000298643     0.000384172        -0.410393       -0.882655
                       -0.720336       -0.595912      -0.00018109     0.000254211        -0.276094        0.189316     -0.000108772    -0.000105246
                     -0.00023508      0.00038222        -0.410666       -0.883022     -0.000163043    -0.000218526         -0.15022        0.140321
281701.6               -0.144742        0.302689      0.000309118     0.000277084        -0.720018        -0.59545      -0.00041911     0.000164079
                     0.000259016      0.00052396        -0.204393       0.0229703     -0.000298627     0.000384169         -0.41042       -0.882644
                       -0.720356       -0.595891     -0.000181076     0.000254212        -0.276082        0.189321      -0.00010881    -0.000105243
                     -0.00023506      0.00038221        -0.410693        -0.88301     -0.000163045    -0.000218542        -0.150212        0.140323
281701.7                -0.14473        0.302687      0.000309134     0.000277086        -0.720039       -0.595429     -0.000419123     0.000164046
                     0.000259038     0.000523955        -0.204388        0.022976     -0.000298611     0.000384166        -0.410447       -0.882632
                       -0.720377        -0.59587     -0.000181063     0.000254214         -0.27607        0.189326     -0.000108848    -0.000105239
                     -0.00023504       0.0003822         -0.41072       -0.882999     -0.000163047    -0.000218559        -0.150205        0.140325
281701.8               -0.144718        0.302685      0.000309149     0.000277088         -0.72006       -0.595408     -0.000419135     0.000164013
                     0.000259061     0.000523949        -0.204384       0.0229818     -0.000298595     0.000384163        -0.410474       -0.882621
                       -0.720398       -0.595849     -0.000181049     0.000254215        -0.276057        0.189332     -0.000108886    -0.000105236
                     -0.00023502      0.00038219        -0.410747       -0.882987     -0.000163049    -0.000218575        -0.150198        0.140327
281701.9               -0.144707        0.302683      0.000309165     0.000277091        -0.720081       -0.595386     -0.000419148      0.00016398
                     0.000259084     0.000523944        -0.204379       0.0229875     -0.000298579     0.000384159        -0.410502       -0.882609
                       -0.720419       -0.595828     -0.000181035     0.000254217        -0.276045        0.189337     -0.000108924    -0.000105233
                       -0.000235      0.00038218        -0.410774       -0.882975     -0.000163051    -0.000218591        -0.150191        0.140328
281702                 -0.144695        0.302681      0.000309181     0.000277093        -0.720101       -0.595365      -0.00041916     0.000163947
                     0.000259107     0.000523938        -0.204374       0.0229932     -0.000298563     0.000384156        -0.410529       -0.882597
                        -0.72044       -0.595806     -0.000181022     0.000254218        -0.276033        0.189343     -0.000108962    -0.000105229
                     -0.00023498      0.00038217        -0.410801       -0.882964     -0.000163053    -0.000218608        -0.150184         0.14033
281702.1               -0.144683        0.302679      0.000309196     0.000277096        -0.720122       -0.595344     -0.000419172     0.000163914
                     0.000259129     0.000523933         -0.20437        0.022999     -0.000298548     0.000384153        -0.410556       -0.882586
                        -0.72046       -0.595785     -0.000181008      0.00025422        -0.276021        0.189348        -0.000109    -0.000105226
                     -0.00023496      0.00038216        -0.410828       -0.882952     -0.000163055    -0.000218624        -0.150177        0.140332
281702.2               -0.144671        0.302677      0.000309212     0.000277098        -0.720143       -0.595323     -0.000419185     0.000163881
                     0.000259152     0.000523928        -0.204365       0.0230047     -0.000298532      0.00038415        -0.410583       -0.882574
                       -0.720481       -0.595764     -0.000180994     0.000254221        -0.276009        0.189354     -0.000109038    -0.000105222
                     -0.00023494      0.00038215        -0.410855        -0.88294     -0.000163057     -0.00021864         -0.15017        0.140334
281702.3               -0.144659        0.302674      0.000309228       0.0002771        -0.720164       -0.595302     -0.000419197     0.000163848
                     0.000259175     0.000523922        -0.204361       0.0230105     -0.000298516     0.000384147         -0.41061       -0.882562
                       -0.720502       -0.595743     -0.000180981     0.000254222        -0.275997        0.189359     -0.000109076    -0.000105219
                     -0.00023492      0.00038214        -0.410882       -0.882929     -0.000163059    -0.000218657        -0.150163        0.140336
281702.4               -0.144647        0.302672      0.000309244     0.000277103        -0.720185       -0.595281      -0.00041921     0.000163815
                     0.000259198     0.000523917        -0.204356       0.0230162       -0.0002985     0.000384143        -0.410637       -0.882551
                       -0.720523       -0.595722     -0.000180967     0.000254224        -0.275984        0.189364     -0.000109114    -0.000105216
                      -0.0002349      0.00038213        -0.410909       -0.882917     -0.000163061    -0.000218673        -0.150156        0.140337
281702.5               -0.144636         0.30267      0.000309259     0.000277105        -0.720205       -0.595259     -0.000419223     0.000163782
                      0.00025922     0.000523911        -0.204351        0.023022     -0.000298484      0.00038414        -0.410664       -0.882539
                       -0.720544         -0.5957     -0.000180953     0.000254225        -0.275972         0.18937     -0.000109152    -0.000105212
                    -0.000234881      0.00038212        -0.410936       -0.882905     -0.000163063     -0.00021869        -0.150149        0.140339
281702.6               -0.144624        0.302668      0.000309275     0.000277108        -0.720226       -0.595238     -0.000419235     0.000163749
                     0.000259243     0.000523906        -0.204347       0.0230277     -0.000298468     0.000384137        -0.410691       -0.882528
                       -0.720565       -0.595679      -0.00018094     0.000254227         -0.27596        0.189375      -0.00010919    -0.000105209
                    -0.000234861      0.00038211        -0.410963       -0.882894     -0.000163065    -0.000218706        -0.150142        0.140341
281702.7               -0.144612        0.302666      0.000309291      0.00027711        -0.720247       -0.595217     -0.000419248     0.000163716
                     0.000259266       0.0005239        -0.204342       0.0230335     -0.000298453     0.000384134        -0.410718       -0.882516
                       -0.720585       -0.595658     -0.000180926     0.000254228        -0.275948        0.189381     -0.000109228    -0.000105205
                    -0.000234841       0.0003821         -0.41099       -0.882882     -0.000163067    -0.000218722        -0.150134        0.140343
281702.8                 -0.1446        0.302664      0.000309307     0.000277113        -0.720268       -0.595196      -0.00041926     0.000163683
                     0.000259288     0.000523895        -0.204337       0.0230392     -0.000298437     0.000384131        -0.410745       -0.882504
                       -0.720606       -0.595637     -0.000180912      0.00025423        -0.275936        0.189386     -0.000109266    -0.000105202
                    -0.000234821      0.00038209        -0.411017        -0.88287     -0.000163069    -0.000218739        -0.150127        0.140344
281702.9               -0.144588        0.302662      0.000309322     0.000277115        -0.720289       -0.595175     -0.000419273      0.00016365
                     0.000259311     0.000523889        -0.204333        0.023045     -0.000298421     0.000384127        -0.410772       -0.882493
                       -0.720627       -0.595616     -0.000180899     0.000254231        -0.275924        0.189391     -0.000109304    -0.000105199
                    -0.000234801      0.00038208        -0.411044       -0.882859     -0.000163071    -0.000218755         -0.15012        0.140346
281703                 -0.144576        0.302659      0.000309338     0.000277117         -0.72031       -0.595154     -0.000419285     0.000163617
                     0.000259334     0.000523884        -0.204328       0.0230507     -0.000298405     0.000384124        -0.410799       -0.882481
                       -0.720648       -0.595594     -0.000180885     0.000254233        -0.275912        0.189397     -0.000109342    -0.000105195
                    -0.000234781     0.000382069        -0.411071       -0.882847     -0.000163073    -0.000218772        -0.150113        0.140348
281703.1               -0.144565        0.302657      0.000309354      0.00027712         -0.72033       -0.595132     -0.000419298     0.000163584
                     0.000259356     0.000523878        -0.204324       0.0230564     -0.000298389     0.000384121        -0.410826       -0.882469
                       -0.720669       -0.595573     -0.000180871     0.000254234        -0.275899        0.189402      -0.00010938    -0.000105192
