! TOUCHSTONE file generated by CST MICROWAVE STUDIO
! Date and time: Wed Oct  8 06:57:23 2025
! Project name: Teste_Macro_Metasurface_Nanopilar.cst
! Parameters = {H=600; L_x=125; L_y=130; Lambda=1064; Max_L=200; Min_L=70; PathPara=1; Phi=0; Step_L=10; Theta=0; p=520; phaseX=180; phaseY=0}
! Header version: 2018
! Port assignment regex: !\s*Touchstone port\s*([0-9]+)\s*=\s*(CST MWS port|CST DS port)\s*([0-9]+|Zmin|Zmax)\s*\(\"(.*)\"\)(\s*mode\s*([0-9]+))?.*
! Touchstone port assignment:
! Touchstone port 1 = CST MWS port Zmax ("") mode 1
! Touchstone port 2 = CST MWS port Zmax ("") mode 2
! Touchstone port 3 = CST MWS port Zmin ("") mode 1
! Touchstone port 4 = CST MWS port Zmin ("") mode 2
! S-Parameters are not renormalized. Each port impedance will be approximated by the real part at minimum frequency. The values are described via the [Reference] keyword.
! Default impedance is overridden by [Reference]
[Version] 2.0
# GHz S RI R 376.73
[Number of Ports] 4
[Reference]
376.73 376.73 376.73 376.73 
[Number of Frequencies] 1001
[Network Data]
281700                 -0.212174       -0.112692      0.000572244    -0.000272845         0.104973       -0.958086     -0.000221439     -0.00026341
                     0.000675761    -0.000308379        -0.171085       -0.154264      -0.00029852     1.47274e-06         0.322715       -0.909992
                         0.10479       -0.958089     -0.000285128    -6.09097e-05         -0.23224       0.0648859      0.000472388     0.000621901
                    -0.000253448    -0.000220176         0.322817       -0.909857      0.000394397     0.000647415        -0.231073       0.0136483
281700.1               -0.212177       -0.112684      0.000572237    -0.000272855         0.104943       -0.958089     -0.000221453    -0.000263403
                     0.000675749    -0.000308391        -0.171091       -0.154257     -0.000298521      1.4794e-06         0.322685       -0.910002
                         0.10476       -0.958093     -0.000285132    -6.09031e-05        -0.232237       0.0648916      0.000472416     0.000621882
                     -0.00025345    -0.000220165         0.322787       -0.909867       0.00039442     0.000647407        -0.231073       0.0136539
281700.2                -0.21218       -0.112676      0.000572229    -0.000272866         0.104913       -0.958093     -0.000221468    -0.000263397
                     0.000675736    -0.000308404        -0.171098       -0.154251     -0.000298522     1.48605e-06         0.322656       -0.910012
                         0.10473       -0.958096     -0.000285136    -6.08965e-05        -0.232235       0.0648973      0.000472443     0.000621864
                    -0.000253452    -0.000220154         0.322758       -0.909877      0.000394443     0.000647399        -0.231073       0.0136595
281700.3               -0.212184       -0.112668      0.000572221    -0.000272877         0.104883       -0.958096     -0.000221482    -0.000263391
                     0.000675723    -0.000308416        -0.171104       -0.154244     -0.000298523     1.49271e-06         0.322627       -0.910022
                        0.104699         -0.9581      -0.00028514    -6.08898e-05        -0.232232        0.064903       0.00047247     0.000621846
                    -0.000253453    -0.000220143         0.322729       -0.909888      0.000394465     0.000647391        -0.231073       0.0136651
281700.4               -0.212187       -0.112659      0.000572213    -0.000272887         0.104853         -0.9581     -0.000221496    -0.000263384
                      0.00067571    -0.000308428        -0.171111       -0.154238     -0.000298524     1.49937e-06         0.322598       -0.910033
                        0.104669       -0.958103     -0.000285144    -6.08832e-05         -0.23223       0.0649086      0.000472497     0.000621827
                    -0.000253455    -0.000220132           0.3227       -0.909898      0.000394488     0.000647384        -0.231073       0.0136707
281700.5               -0.212191       -0.112651      0.000572205    -0.000272898         0.104823       -0.958103      -0.00022151    -0.000263378
                     0.000675697    -0.000308441        -0.171117       -0.154231     -0.000298525     1.50602e-06         0.322569       -0.910043
                        0.104639       -0.958107     -0.000285148    -6.08766e-05        -0.232227       0.0649143      0.000472524     0.000621809
                    -0.000253457    -0.000220121          0.32267       -0.909908      0.000394511     0.000647376        -0.231073       0.0136763
281700.6               -0.212194       -0.112643      0.000572197    -0.000272908         0.104793       -0.958107     -0.000221525    -0.000263371
                     0.000675685    -0.000308453        -0.171124       -0.154225     -0.000298526     1.51268e-06         0.322539       -0.910053
                        0.104609        -0.95811     -0.000285152    -6.08699e-05        -0.232224         0.06492      0.000472552      0.00062179
                    -0.000253459     -0.00022011         0.322641       -0.909919      0.000394534     0.000647368        -0.231073       0.0136819
281700.7               -0.212197       -0.112635      0.000572189    -0.000272919         0.104763       -0.958111     -0.000221539    -0.000263365
                     0.000675672    -0.000308465         -0.17113       -0.154218     -0.000298527     1.51934e-06          0.32251       -0.910063
                        0.104579       -0.958114     -0.000285156    -6.08633e-05        -0.232222       0.0649257      0.000472579     0.000621772
                     -0.00025346    -0.000220099         0.322612       -0.909929      0.000394556      0.00064736        -0.231073       0.0136875
281700.8               -0.212201       -0.112626      0.000572181     -0.00027293         0.104733       -0.958114     -0.000221553    -0.000263359
                     0.000675659    -0.000308478        -0.171137       -0.154212     -0.000298528       1.526e-06         0.322481       -0.910074
                        0.104549       -0.958117      -0.00028516    -6.08566e-05        -0.232219       0.0649313      0.000472606     0.000621753
                    -0.000253462    -0.000220088         0.322583       -0.909939      0.000394579     0.000647352        -0.231074       0.0136931
281700.9               -0.212204       -0.112618      0.000572173     -0.00027294         0.104703       -0.958118     -0.000221568    -0.000263352
                     0.000675646     -0.00030849        -0.171143       -0.154205      -0.00029853     1.53266e-06         0.322452       -0.910084
                        0.104519       -0.958121     -0.000285164      -6.085e-05        -0.232217        0.064937      0.000472633     0.000621735
                    -0.000253464    -0.000220077         0.322554       -0.909949      0.000394602     0.000647345        -0.231074       0.0136987
281701                 -0.212207        -0.11261      0.000572166    -0.000272951         0.104673       -0.958121     -0.000221582    -0.000263346
                     0.000675633    -0.000308502         -0.17115       -0.154199     -0.000298531     1.53932e-06         0.322422       -0.910094
                        0.104489       -0.958124     -0.000285168    -6.08433e-05        -0.232214       0.0649427      0.000472661     0.000621716
                    -0.000253466    -0.000220066         0.322524        -0.90996      0.000394625     0.000647337        -0.231074       0.0137044
281701.1               -0.212211       -0.112602      0.000572158    -0.000272961         0.104643       -0.958125     -0.000221596    -0.000263339
                     0.000675621    -0.000308515        -0.171156       -0.154193     -0.000298532     1.54598e-06         0.322393       -0.910104
                        0.104459       -0.958128     -0.000285172    -6.08367e-05        -0.232212       0.0649483      0.000472688     0.000621698
                    -0.000253467    -0.000220055         0.322495        -0.90997      0.000394647     0.000647329        -0.231074         0.01371
281701.2               -0.212214       -0.112593       0.00057215    -0.000272972         0.104613       -0.958128      -0.00022161    -0.000263333
                     0.000675608    -0.000308527        -0.171163       -0.154186     -0.000298533     1.55264e-06         0.322364       -0.910115
                        0.104429       -0.958131     -0.000285176      -6.083e-05        -0.232209        0.064954      0.000472715     0.000621679
                    -0.000253469    -0.000220044         0.322466        -0.90998       0.00039467     0.000647321        -0.231074       0.0137156
281701.3               -0.212217       -0.112585      0.000572142    -0.000272983         0.104583       -0.958132     -0.000221625    -0.000263327
                     0.000675595    -0.000308539        -0.171169        -0.15418     -0.000298534      1.5593e-06         0.322335       -0.910125
                        0.104399       -0.958135      -0.00028518    -6.08234e-05        -0.232206       0.0649597      0.000472742     0.000621661
                    -0.000253471    -0.000220033         0.322437       -0.909991      0.000394693     0.000647313        -0.231074       0.0137212
281701.4               -0.212221       -0.112577      0.000572134    -0.000272993         0.104553       -0.958135     -0.000221639     -0.00026332
                     0.000675582    -0.000308551        -0.171176       -0.154173     -0.000298535     1.56596e-06         0.322305       -0.910135
                        0.104369       -0.958138     -0.000285184    -6.08167e-05        -0.232204       0.0649654      0.000472769     0.000621643
                    -0.000253473    -0.000220023         0.322407       -0.910001      0.000394716     0.000647305        -0.231074       0.0137268
281701.5               -0.212224       -0.112569      0.000572126    -0.000273004         0.104523       -0.958139     -0.000221653    -0.000263314
                     0.000675569    -0.000308564        -0.171182       -0.154167     -0.000298536     1.57262e-06         0.322276       -0.910145
                        0.104339       -0.958142     -0.000285188    -6.08101e-05        -0.232201        0.064971      0.000472797     0.000621624
                    -0.000253474    -0.000220012         0.322378       -0.910011      0.000394738     0.000647298        -0.231074       0.0137324
281701.6               -0.212227        -0.11256      0.000572118    -0.000273014         0.104493       -0.958142     -0.000221668    -0.000263308
                     0.000675557    -0.000308576        -0.171188        -0.15416     -0.000298537     1.57928e-06         0.322247       -0.910156
                        0.104309       -0.958145     -0.000285192    -6.08034e-05        -0.232199       0.0649767      0.000472824     0.000621606
                    -0.000253476    -0.000220001         0.322349       -0.910021      0.000394761      0.00064729        -0.231074        0.013738
281701.7               -0.212231       -0.112552       0.00057211    -0.000273025         0.104463       -0.958146     -0.000221682    -0.000263301
                     0.000675544    -0.000308588        -0.171195       -0.154154     -0.000298538     1.58594e-06         0.322218       -0.910166
                        0.104279       -0.958149     -0.000285196    -6.07968e-05        -0.232196       0.0649824      0.000472851     0.000621587
                    -0.000253478     -0.00021999          0.32232       -0.910032      0.000394784     0.000647282        -0.231074       0.0137436
281701.8               -0.212234       -0.112544      0.000572103    -0.000273036         0.104433       -0.958149     -0.000221696    -0.000263295
                     0.000675531      -0.0003086        -0.171201       -0.154147     -0.000298539      1.5926e-06         0.322188       -0.910176
                        0.104249       -0.958152       -0.0002852    -6.07901e-05        -0.232194        0.064988      0.000472878     0.000621569
                     -0.00025348    -0.000219979          0.32229       -0.910042      0.000394807     0.000647274        -0.231075       0.0137492
281701.9               -0.212237       -0.112536      0.000572095    -0.000273046         0.104403       -0.958153      -0.00022171    -0.000263288
                     0.000675518    -0.000308613        -0.171208       -0.154141      -0.00029854     1.59927e-06         0.322159       -0.910186
                        0.104219       -0.958156     -0.000285204    -6.07834e-05        -0.232191       0.0649937      0.000472905      0.00062155
                    -0.000253481    -0.000219968         0.322261       -0.910052      0.000394829     0.000647266        -0.231075       0.0137548
281702                 -0.212241       -0.112527      0.000572087    -0.000273057         0.104373       -0.958157     -0.000221725    -0.000263282
                     0.000675505    -0.000308625        -0.171214       -0.154134     -0.000298541     1.60593e-06          0.32213       -0.910197
                        0.104189        -0.95816     -0.000285208    -6.07768e-05        -0.232188       0.0649994      0.000472933     0.000621532
                    -0.000253483    -0.000219957         0.322232       -0.910062      0.000394852     0.000647259        -0.231075       0.0137604
281702.1               -0.212244       -0.112519      0.000572079    -0.000273068         0.104343        -0.95816     -0.000221739    -0.000263275
                     0.000675493    -0.000308637        -0.171221       -0.154128     -0.000298542     1.61259e-06         0.322101       -0.910207
                        0.104159       -0.958163     -0.000285212    -6.07701e-05        -0.232186       0.0650051       0.00047296     0.000621513
                    -0.000253485    -0.000219946         0.322203       -0.910073      0.000394875     0.000647251        -0.231075        0.013766
281702.2               -0.212247       -0.112511      0.000572071    -0.000273078         0.104313       -0.958164     -0.000221753    -0.000263269
                      0.00067548    -0.000308649        -0.171227       -0.154121     -0.000298543     1.61926e-06         0.322071       -0.910217
                        0.104129       -0.958167     -0.000285216    -6.07634e-05        -0.232183       0.0650107      0.000472987     0.000621495
                    -0.000253487    -0.000219935         0.322173       -0.910083      0.000394898     0.000647243        -0.231075       0.0137717
281702.3               -0.212251       -0.112503      0.000572063    -0.000273089         0.104283       -0.958167     -0.000221767    -0.000263263
                     0.000675467    -0.000308662        -0.171234       -0.154115     -0.000298545     1.62592e-06         0.322042       -0.910227
                        0.104099        -0.95817      -0.00028522    -6.07568e-05        -0.232181       0.0650164      0.000473014     0.000621476
                    -0.000253488    -0.000219924         0.322144       -0.910093      0.000394921     0.000647235        -0.231075       0.0137773
281702.4               -0.212254       -0.112494      0.000572055    -0.000273099         0.104253       -0.958171     -0.000221782    -0.000263256
                     0.000675454    -0.000308674         -0.17124       -0.154108     -0.000298546     1.63259e-06         0.322013       -0.910238
                        0.104069       -0.958174     -0.000285224    -6.07501e-05        -0.232178       0.0650221      0.000473041     0.000621458
                     -0.00025349    -0.000219913         0.322115       -0.910104      0.000394943     0.000647228        -0.231075       0.0137829
281702.5               -0.212257       -0.112486      0.000572047     -0.00027311         0.104223       -0.958174     -0.000221796     -0.00026325
                     0.000675441    -0.000308686        -0.171247       -0.154102     -0.000298547     1.63925e-06         0.321984       -0.910248
                        0.104039       -0.958177     -0.000285228    -6.07434e-05        -0.232176       0.0650277      0.000473069      0.00062144
                    -0.000253492    -0.000219902         0.322086       -0.910114      0.000394966      0.00064722        -0.231075       0.0137885
281702.6               -0.212261       -0.112478      0.000572039    -0.000273121         0.104193       -0.958178      -0.00022181    -0.000263243
                     0.000675429    -0.000308698        -0.171253       -0.154095     -0.000298548     1.64592e-06         0.321954       -0.910258
                        0.104009       -0.958181     -0.000285232    -6.07367e-05        -0.232173       0.0650334      0.000473096     0.000621421
                    -0.000253493    -0.000219891         0.322057       -0.910124      0.000394989     0.000647212        -0.231075       0.0137941
281702.7               -0.212264        -0.11247      0.000572032    -0.000273131         0.104163       -0.958181     -0.000221825    -0.000263237
                     0.000675416     -0.00030871         -0.17126       -0.154089     -0.000298549     1.65258e-06         0.321925       -0.910268
                        0.103979       -0.958184     -0.000285236    -6.07301e-05         -0.23217       0.0650391      0.000473123     0.000621403
                    -0.000253495     -0.00021988         0.322027       -0.910134      0.000395012     0.000647204        -0.231076       0.0137997
281702.8               -0.212267       -0.112461      0.000572024    -0.000273142         0.104133       -0.958185     -0.000221839    -0.000263231
                     0.000675403    -0.000308723        -0.171266       -0.154083      -0.00029855     1.65925e-06         0.321896       -0.910279
                        0.103949       -0.958188      -0.00028524    -6.07234e-05        -0.232168       0.0650448       0.00047315     0.000621384
                    -0.000253497     -0.00021987         0.321998       -0.910145      0.000395035     0.000647196        -0.231076       0.0138053
281702.9               -0.212271       -0.112453      0.000572016    -0.000273152         0.104104       -0.958188     -0.000221853    -0.000263224
                      0.00067539    -0.000308735        -0.171273       -0.154076     -0.000298551     1.66591e-06         0.321867       -0.910289
                        0.103919       -0.958191     -0.000285244    -6.07167e-05        -0.232165       0.0650504      0.000473177     0.000621366
                    -0.000253499    -0.000219859         0.321969       -0.910155      0.000395057     0.000647189        -0.231076       0.0138109
281703                 -0.212274       -0.112445      0.000572008    -0.000273163         0.104074       -0.958192     -0.000221867    -0.000263218
                     0.000675377    -0.000308747        -0.171279        -0.15407     -0.000298552     1.67258e-06         0.321837       -0.910299
                        0.103889       -0.958195     -0.000285248      -6.071e-05        -0.232163       0.0650561      0.000473205     0.000621347
                      -0.0002535    -0.000219848          0.32194       -0.910165       0.00039508     0.000647181        -0.231076       0.0138165
281703.1               -0.212277       -0.112437         0.000572    -0.000273174         0.104044       -0.958195     -0.000221882    -0.000263211
                     0.000675364    -0.000308759        -0.171286       -0.154063     -0.000298553     1.67925e-06         0.321808       -0.910309
                        0.103859       -0.958198     -0.000285252    -6.07033e-05         -0.23216       0.0650618      0.000473232     0.000621329
