! TOUCHSTONE file generated by CST MICROWAVE STUDIO
! Date and time: Wed Oct  8 06:53:09 2025
! Project name: Teste_Macro_Metasurface_Nanopilar.cst
! Parameters = {H=600; L_x=90; L_y=115; Lambda=1064; Max_L=200; Min_L=70; PathPara=1; Phi=0; Step_L=10; Theta=0; p=520; phaseX=180; phaseY=0}
! Header version: 2018
! Port assignment regex: !\s*Touchstone port\s*([0-9]+)\s*=\s*(CST MWS port|CST DS port)\s*([0-9]+|Zmin|Zmax)\s*\(\"(.*)\"\)(\s*mode\s*([0-9]+))?.*
! Touchstone port assignment:
! Touchstone port 1 = CST MWS port Zmax ("") mode 1
! Touchstone port 2 = CST MWS port Zmax ("") mode 2
! Touchstone port 3 = CST MWS port Zmin ("") mode 1
! Touchstone port 4 = CST MWS port Zmin ("") mode 2
! S-Parameters are not renormalized. Each port impedance will be approximated by the real part at minimum frequency. The values are described via the [Reference] keyword.
! Default impedance is overridden by [Reference]
[Version] 2.0
# GHz S RI R 376.73
[Number of Ports] 4
[Reference]
376.73 376.73 376.73 376.73 
[Number of Frequencies] 1001
[Network Data]
281700                 -0.255671      -0.0779022      0.000997369    -5.71392e-05       -0.0574726        0.957529     -0.000515425    -0.000114563
                     0.000920345    -4.14861e-05        0.0403203       -0.132871     -0.000477553    -0.000119709        -0.758221         0.63486
                      -0.0574835        0.957392     -0.000612177    -1.61162e-05         -0.26374       0.0474413       0.00055025     0.000436962
                    -0.000530031    -0.000116269        -0.758573         0.63479      0.000523743     0.000666416        -0.138215       0.0167192
281700.1               -0.255674      -0.0778933      0.000997364    -5.71687e-05       -0.0574443        0.957531     -0.000515429    -0.000114538
                     0.000920342    -4.15056e-05        0.0403139       -0.132872     -0.000477557    -0.000119696        -0.758204         0.63488
                      -0.0574553        0.957394     -0.000612185    -1.60916e-05        -0.263739       0.0474477      0.000550263     0.000436928
                    -0.000530031    -0.000116249        -0.758556        0.634811      0.000523762     0.000666392        -0.138215       0.0167201
281700.2               -0.255676      -0.0778844      0.000997359    -5.71981e-05        -0.057416        0.957532     -0.000515433    -0.000114512
                     0.000920339    -4.15251e-05        0.0403075       -0.132874      -0.00047756    -0.000119683        -0.758187        0.634901
                       -0.057427        0.957396     -0.000612192    -1.60671e-05        -0.263737       0.0474542      0.000550276     0.000436895
                    -0.000530031    -0.000116228        -0.758538        0.634832      0.000523782     0.000666368        -0.138215       0.0167211
281700.3               -0.255678      -0.0778755      0.000997355    -5.72276e-05       -0.0573878        0.957534     -0.000515438    -0.000114487
                     0.000920336    -4.15447e-05         0.040301       -0.132876     -0.000477563     -0.00011967        -0.758169        0.634922
                      -0.0573988        0.957397       -0.0006122    -1.60425e-05        -0.263735       0.0474606      0.000550289     0.000436861
                    -0.000530031    -0.000116208        -0.758521        0.634853      0.000523801     0.000666344        -0.138214        0.016722
281700.4                -0.25568      -0.0778667       0.00099735     -5.7257e-05       -0.0573595        0.957536     -0.000515442    -0.000114461
                     0.000920332    -4.15642e-05        0.0402946       -0.132878     -0.000477566    -0.000119657        -0.758152        0.634943
                      -0.0573705        0.957399     -0.000612208    -1.60179e-05        -0.263734        0.047467      0.000550302     0.000436827
                    -0.000530032    -0.000116188        -0.758504        0.634873       0.00052382     0.000666319        -0.138214       0.0167229
281700.5               -0.255682      -0.0778578      0.000997345    -5.72865e-05       -0.0573312        0.957538     -0.000515446    -0.000114436
                     0.000920329    -4.15837e-05        0.0402882        -0.13288     -0.000477569    -0.000119644        -0.758135        0.634963
                      -0.0573423        0.957401     -0.000612216    -1.59933e-05        -0.263732       0.0474734      0.000550315     0.000436793
                    -0.000530032    -0.000116167        -0.758486        0.634894      0.000523839     0.000666295        -0.138214       0.0167238
281700.6               -0.255685      -0.0778489       0.00099734     -5.7316e-05        -0.057303         0.95754     -0.000515451     -0.00011441
                     0.000920326    -4.16033e-05        0.0402818       -0.132881     -0.000477573    -0.000119631        -0.758117        0.634984
                       -0.057314        0.957403     -0.000612224    -1.59687e-05         -0.26373       0.0474799      0.000550328      0.00043676
                    -0.000530032    -0.000116147        -0.758469        0.634915      0.000523858     0.000666271        -0.138214       0.0167247
281700.7               -0.255687        -0.07784      0.000997335    -5.73454e-05       -0.0572747        0.957541     -0.000515455    -0.000114385
                     0.000920323    -4.16228e-05        0.0402754       -0.132883     -0.000477576    -0.000119618          -0.7581        0.635005
                      -0.0572857        0.957405     -0.000612231    -1.59442e-05        -0.263729       0.0474863      0.000550341     0.000436726
                    -0.000530032    -0.000116126        -0.758452        0.634935      0.000523877     0.000666247        -0.138213       0.0167256
281700.8               -0.255689      -0.0778311      0.000997331    -5.73749e-05       -0.0572465        0.957543     -0.000515459    -0.000114359
                     0.000920319    -4.16423e-05         0.040269       -0.132885     -0.000477579    -0.000119605        -0.758083        0.635025
                      -0.0572575        0.957406     -0.000612239    -1.59196e-05        -0.263727       0.0474927      0.000550354     0.000436692
                    -0.000530032    -0.000116106        -0.758434        0.634956      0.000523896     0.000666223        -0.138213       0.0167265
281700.9               -0.255691      -0.0778222      0.000997326    -5.74043e-05       -0.0572182        0.957545     -0.000515464    -0.000114334
                     0.000920316    -4.16619e-05        0.0402626       -0.132887     -0.000477582    -0.000119592        -0.758065        0.635046
                      -0.0572292        0.957408     -0.000612247     -1.5895e-05        -0.263725       0.0474992      0.000550367     0.000436658
                    -0.000530032    -0.000116085        -0.758417        0.634977      0.000523915     0.000666199        -0.138213       0.0167274
281701                 -0.255693      -0.0778133      0.000997321    -5.74338e-05       -0.0571899        0.957547     -0.000515468    -0.000114308
                     0.000920313    -4.16814e-05        0.0402561       -0.132889     -0.000477585    -0.000119579        -0.758048        0.635067
                       -0.057201         0.95741     -0.000612255    -1.58704e-05        -0.263724       0.0475056       0.00055038     0.000436625
                    -0.000530032    -0.000116065          -0.7584        0.634998      0.000523934     0.000666175        -0.138212       0.0167283
281701.1               -0.255696      -0.0778045      0.000997316    -5.74632e-05       -0.0571617        0.957549     -0.000515472    -0.000114283
                      0.00092031    -4.17009e-05        0.0402497        -0.13289     -0.000477589    -0.000119566        -0.758031        0.635088
                      -0.0571727        0.957412     -0.000612262    -1.58458e-05        -0.263722        0.047512      0.000550393     0.000436591
                    -0.000530032    -0.000116044        -0.758382        0.635018      0.000523953     0.000666151        -0.138212       0.0167292
281701.2               -0.255698      -0.0777956      0.000997312    -5.74927e-05       -0.0571334         0.95755     -0.000515476    -0.000114257
                     0.000920307    -4.17205e-05        0.0402433       -0.132892     -0.000477592    -0.000119552        -0.758013        0.635108
                      -0.0571445        0.957414      -0.00061227    -1.58212e-05         -0.26372       0.0475185      0.000550406     0.000436557
                    -0.000530032    -0.000116024        -0.758365        0.635039      0.000523972     0.000666127        -0.138212       0.0167301
281701.3                 -0.2557      -0.0777867      0.000997307    -5.75222e-05       -0.0571051        0.957552     -0.000515481    -0.000114232
                     0.000920303      -4.174e-05        0.0402369       -0.132894     -0.000477595    -0.000119539        -0.757996        0.635129
                      -0.0571162        0.957416     -0.000612278    -1.57966e-05        -0.263719       0.0475249      0.000550419     0.000436523
                    -0.000530032    -0.000116003        -0.758348         0.63506      0.000523992     0.000666103        -0.138212        0.016731
281701.4               -0.255702      -0.0777778      0.000997302    -5.75516e-05       -0.0570769        0.957554     -0.000515485    -0.000114206
                       0.0009203    -4.17595e-05        0.0402305       -0.132896     -0.000477598    -0.000119526        -0.757979         0.63515
                      -0.0570879        0.957417     -0.000612286    -1.57721e-05        -0.263717       0.0475313      0.000550432      0.00043649
                    -0.000530032    -0.000115983         -0.75833         0.63508      0.000524011     0.000666079        -0.138211       0.0167319
281701.5               -0.255704      -0.0777689      0.000997297    -5.75811e-05       -0.0570486        0.957556     -0.000515489    -0.000114181
                     0.000920297    -4.17791e-05        0.0402241       -0.132898     -0.000477602    -0.000119513        -0.757961         0.63517
                      -0.0570597        0.957419     -0.000612294    -1.57475e-05        -0.263715       0.0475378      0.000550445     0.000436456
                    -0.000530032    -0.000115962        -0.758313        0.635101       0.00052403     0.000666055        -0.138211       0.0167328
281701.6               -0.255707        -0.07776      0.000997293    -5.76105e-05       -0.0570203        0.957558     -0.000515494    -0.000114155
                     0.000920294    -4.17986e-05        0.0402177       -0.132899     -0.000477605      -0.0001195        -0.757944        0.635191
                      -0.0570314        0.957421     -0.000612301    -1.57229e-05        -0.263714       0.0475442      0.000550458     0.000436422
                    -0.000530032    -0.000115942        -0.758296        0.635122      0.000524049     0.000666031        -0.138211       0.0167337
281701.7               -0.255709      -0.0777511      0.000997288      -5.764e-05       -0.0569921        0.957559     -0.000515498     -0.00011413
                      0.00092029    -4.18181e-05        0.0402112       -0.132901     -0.000477608    -0.000119487        -0.757927        0.635212
                      -0.0570032        0.957423     -0.000612309    -1.56983e-05        -0.263712       0.0475506      0.000550471     0.000436388
                    -0.000530032    -0.000115922        -0.758279        0.635143      0.000524068     0.000666007        -0.138211       0.0167346
281701.8               -0.255711      -0.0777423      0.000997283    -5.76694e-05       -0.0569638        0.957561     -0.000515502    -0.000114104
                     0.000920287    -4.18376e-05        0.0402048       -0.132903     -0.000477611    -0.000119474        -0.757909        0.635233
                      -0.0569749        0.957425     -0.000612317    -1.56737e-05        -0.263711       0.0475571      0.000550484     0.000436354
                    -0.000530033    -0.000115901        -0.758261        0.635163      0.000524087     0.000665983         -0.13821       0.0167355
281701.9               -0.255713      -0.0777334      0.000997278    -5.76989e-05       -0.0569355        0.957563     -0.000515507    -0.000114079
                     0.000920284    -4.18572e-05        0.0401984       -0.132905     -0.000477614    -0.000119461        -0.757892        0.635253
                      -0.0569466        0.957426     -0.000612325    -1.56491e-05        -0.263709       0.0475635      0.000550497     0.000436321
                    -0.000530033    -0.000115881        -0.758244        0.635184      0.000524106     0.000665959         -0.13821       0.0167364
281702                 -0.255715      -0.0777245      0.000997273    -5.77283e-05       -0.0569073        0.957565     -0.000515511    -0.000114053
                     0.000920281    -4.18767e-05         0.040192       -0.132907     -0.000477618    -0.000119448        -0.757875        0.635274
                      -0.0569184        0.957428     -0.000612332    -1.56245e-05        -0.263707       0.0475699       0.00055051     0.000436287
                    -0.000530033     -0.00011586        -0.758227        0.635205      0.000524125     0.000665935         -0.13821       0.0167373
281702.1               -0.255718      -0.0777156      0.000997269    -5.77578e-05        -0.056879        0.957567     -0.000515515    -0.000114028
                     0.000920278    -4.18962e-05        0.0401856       -0.132908     -0.000477621    -0.000119435        -0.757857        0.635295
                      -0.0568901         0.95743      -0.00061234    -1.55999e-05        -0.263706       0.0475763      0.000550523     0.000436253
                    -0.000530033     -0.00011584        -0.758209        0.635225      0.000524144     0.000665911         -0.13821       0.0167382
281702.2                -0.25572      -0.0777067      0.000997264    -5.77872e-05       -0.0568507        0.957568     -0.000515519    -0.000114002
                     0.000920274    -4.19158e-05        0.0401792        -0.13291     -0.000477624    -0.000119422         -0.75784        0.635315
                      -0.0568619        0.957432     -0.000612348    -1.55753e-05        -0.263704       0.0475828      0.000550536     0.000436219
                    -0.000530033    -0.000115819        -0.758192        0.635246      0.000524163     0.000665887        -0.138209       0.0167391
281702.3               -0.255722      -0.0776978      0.000997259    -5.78167e-05       -0.0568225         0.95757     -0.000515524    -0.000113977
                     0.000920271    -4.19353e-05        0.0401728       -0.132912     -0.000477627    -0.000119408        -0.757823        0.635336
                      -0.0568336        0.957434     -0.000612356    -1.55508e-05        -0.263702       0.0475892      0.000550549     0.000436185
                    -0.000530033    -0.000115799        -0.758175        0.635267      0.000524182     0.000665863        -0.138209         0.01674
281702.4               -0.255724      -0.0776889      0.000997254    -5.78461e-05       -0.0567942        0.957572     -0.000515528    -0.000113951
                     0.000920268    -4.19548e-05        0.0401663       -0.132914      -0.00047763    -0.000119395        -0.757805        0.635357
                      -0.0568054        0.957435     -0.000612363    -1.55262e-05        -0.263701       0.0475956      0.000550562     0.000436152
                    -0.000530033    -0.000115778        -0.758157        0.635288      0.000524201     0.000665839        -0.138209       0.0167409
281702.5               -0.255726      -0.0776801       0.00099725    -5.78756e-05       -0.0567659        0.957574     -0.000515532    -0.000113926
                     0.000920265    -4.19743e-05        0.0401599       -0.132915     -0.000477634    -0.000119382        -0.757788        0.635377
                      -0.0567771        0.957437     -0.000612371    -1.55016e-05        -0.263699       0.0476021      0.000550575     0.000436118
                    -0.000530033    -0.000115758         -0.75814        0.635308       0.00052422     0.000665815        -0.138208       0.0167418
281702.6               -0.255729      -0.0776712      0.000997245     -5.7905e-05       -0.0567377        0.957576     -0.000515537      -0.0001139
                     0.000920261    -4.19939e-05        0.0401535       -0.132917     -0.000477637    -0.000119369        -0.757771        0.635398
                      -0.0567488        0.957439     -0.000612379     -1.5477e-05        -0.263697       0.0476085      0.000550588     0.000436084
                    -0.000530033    -0.000115737        -0.758123        0.635329      0.000524239     0.000665791        -0.138208       0.0167427
281702.7               -0.255731      -0.0776623       0.00099724    -5.79345e-05       -0.0567094        0.957577     -0.000515541    -0.000113875
                     0.000920258    -4.20134e-05        0.0401471       -0.132919      -0.00047764    -0.000119356        -0.757753        0.635419
                      -0.0567206        0.957441     -0.000612387    -1.54524e-05        -0.263696       0.0476149      0.000550601      0.00043605
                    -0.000530033    -0.000115717        -0.758105         0.63535      0.000524258     0.000665767        -0.138208       0.0167436
281702.8               -0.255733      -0.0776534      0.000997235    -5.79639e-05       -0.0566811        0.957579     -0.000515545    -0.000113849
                     0.000920255    -4.20329e-05        0.0401407       -0.132921     -0.000477643    -0.000119343        -0.757736         0.63544
                      -0.0566923        0.957443     -0.000612394    -1.54278e-05        -0.263694       0.0476214      0.000550614     0.000436016
                    -0.000530033    -0.000115697        -0.758088         0.63537      0.000524277     0.000665743        -0.138208       0.0167445
281702.9               -0.255735      -0.0776445       0.00099723    -5.79934e-05       -0.0566529        0.957581     -0.000515549    -0.000113823
                     0.000920252    -4.20524e-05        0.0401343       -0.132923     -0.000477646     -0.00011933        -0.757718         0.63546
                      -0.0566641        0.957444     -0.000612402    -1.54032e-05        -0.263692       0.0476278      0.000550627     0.000435983
                    -0.000530033    -0.000115676        -0.758071        0.635391      0.000524296     0.000665719        -0.138207       0.0167454
281703                 -0.255737      -0.0776356      0.000997226    -5.80228e-05       -0.0566246        0.957583     -0.000515554    -0.000113798
                     0.000920249    -4.20719e-05        0.0401278       -0.132924      -0.00047765    -0.000119317        -0.757701        0.635481
                      -0.0566358        0.957446      -0.00061241    -1.53786e-05        -0.263691       0.0476342       0.00055064     0.000435949
                    -0.000530033    -0.000115656        -0.758053        0.635412      0.000524316     0.000665695        -0.138207       0.0167463
281703.1                -0.25574      -0.0776267      0.000997221    -5.80523e-05       -0.0565963        0.957584     -0.000515558    -0.000113772
                     0.000920245    -4.20915e-05        0.0401214       -0.132926     -0.000477653    -0.000119304        -0.757684        0.635502
                      -0.0566075        0.957448     -0.000612418     -1.5354e-05        -0.263689       0.0476406      0.000550653     0.000435915
