! TOUCHSTONE file generated by CST MICROWAVE STUDIO
! Date and time: Wed Oct  8 07:00:07 2025
! Project name: Teste_Macro_Metasurface_Nanopilar.cst
! Parameters = {H=600; L_x=150; L_y=70; Lambda=1064; Max_L=200; Min_L=70; PathPara=1; Phi=0; Step_L=10; Theta=0; p=520; phaseX=180; phaseY=0}
! Header version: 2018
! Port assignment regex: !\s*Touchstone port\s*([0-9]+)\s*=\s*(CST MWS port|CST DS port)\s*([0-9]+|Zmin|Zmax)\s*\(\"(.*)\"\)(\s*mode\s*([0-9]+))?.*
! Touchstone port assignment:
! Touchstone port 1 = CST MWS port Zmax ("") mode 1
! Touchstone port 2 = CST MWS port Zmax ("") mode 2
! Touchstone port 3 = CST MWS port Zmin ("") mode 1
! Touchstone port 4 = CST MWS port Zmin ("") mode 2
! S-Parameters are not renormalized. Each port impedance will be approximated by the real part at minimum frequency. The values are described via the [Reference] keyword.
! Default impedance is overridden by [Reference]
[Version] 2.0
# GHz S RI R 376.73
[Number of Ports] 4
[Reference]
376.73 376.73 376.73 376.73 
[Number of Frequencies] 1001
[Network Data]
281700                  0.114267     -0.00897158     -0.000354479     0.000153545         -0.93577        0.332459     -0.000100536    -8.19948e-05
                    -0.000180929     1.51891e-05        0.0819804        0.234346     -3.80738e-06     0.000104111         0.940192        0.189475
                       -0.935652        0.332538      8.13267e-05     1.69305e-05        -0.094473       0.0652794      -0.00010046    -2.56408e-05
                    -7.92219e-05    -6.69543e-05         0.940232        0.189328      5.82296e-05     -9.2877e-05        -0.171264        0.184433
281700.1                0.114264     -0.00897689      -0.00035625     0.000152717        -0.935762        0.332484     -0.000100539    -8.19917e-05
                    -0.000180935     1.51876e-05        0.0819884        0.234338     -3.80041e-06     0.000104121           0.9402        0.189443
                       -0.935643        0.332563      8.13812e-05     1.25522e-05       -0.0944707       0.0652785     -0.000100465    -2.56385e-05
                    -7.92252e-05    -6.69556e-05          0.94024        0.189296      5.82393e-05    -9.28749e-05        -0.171256        0.184435
281700.2                0.114261      -0.0089822     -0.000357732     0.000152028        -0.935753        0.332509     -0.000100541    -8.19887e-05
                     -0.00018094     1.51861e-05        0.0819964         0.23433     -3.79337e-06     0.000104131         0.940207        0.189412
                       -0.935634        0.332588      8.14552e-05     8.72495e-06       -0.0944685       0.0652777     -0.000100469    -2.56362e-05
                    -7.92285e-05    -6.69568e-05         0.940247        0.189264      5.82491e-05    -9.28729e-05        -0.171248        0.184436
281700.3                0.114258     -0.00898751      -0.00035893     0.000151476        -0.935744        0.332534     -0.000100544    -8.19856e-05
                    -0.000180945     1.51846e-05        0.0820043        0.234322     -3.78626e-06     0.000104141         0.940215         0.18938
                       -0.935626        0.332613      8.15369e-05     5.52387e-06       -0.0944663       0.0652769     -0.000100473    -2.56339e-05
                    -7.92318e-05    -6.69581e-05         0.940255        0.189233      5.82588e-05    -9.28709e-05        -0.171239        0.184437
281700.4                0.114256     -0.00899282     -0.000359846     0.000151059        -0.935736        0.332559     -0.000100546    -8.19825e-05
                     -0.00018095     1.51831e-05        0.0820123        0.234314     -3.77908e-06      0.00010415         0.940223        0.189348
                       -0.935617        0.332638      8.16149e-05     3.01787e-06        -0.094464       0.0652761     -0.000100477    -2.56316e-05
                    -7.92351e-05    -6.69593e-05         0.940263        0.189201      5.82685e-05    -9.28689e-05        -0.171231        0.184438
281700.5                0.114253     -0.00899813     -0.000360481     0.000150778        -0.935727        0.332584     -0.000100549    -8.19794e-05
                    -0.000180956     1.51816e-05        0.0820203        0.234307     -3.77183e-06      0.00010416          0.94023        0.189316
                       -0.935609        0.332663      8.16794e-05     1.26695e-06       -0.0944618       0.0652753     -0.000100481    -2.56293e-05
                    -7.92385e-05    -6.69606e-05          0.94027        0.189169      5.82783e-05    -9.28669e-05        -0.171223        0.184439
281700.6                 0.11425     -0.00900344     -0.000360836     0.000150633        -0.935719        0.332609     -0.000100551    -8.19764e-05
                    -0.000180961     1.51802e-05        0.0820283        0.234299     -3.76451e-06      0.00010417         0.940238        0.189284
                         -0.9356        0.332688      8.17228e-05     3.19507e-07       -0.0944595       0.0652745     -0.000100486     -2.5627e-05
                    -7.92418e-05    -6.69619e-05         0.940278        0.189137      5.82881e-05    -9.28649e-05        -0.171215         0.18444
281700.7                0.114247     -0.00900875     -0.000360906     0.000150625         -0.93571        0.332634     -0.000100554    -8.19733e-05
                    -0.000180966     1.51787e-05        0.0820363        0.234291     -3.75711e-06     0.000104179         0.940246        0.189252
                       -0.935591        0.332713      8.17411e-05     2.09923e-07       -0.0944573       0.0652737      -0.00010049    -2.56247e-05
                    -7.92451e-05    -6.69631e-05         0.940285        0.189105      5.82979e-05     -9.2863e-05        -0.171207        0.184442
281700.8                0.114245     -0.00901406     -0.000360687     0.000150758        -0.935701        0.332659     -0.000100557    -8.19702e-05
                    -0.000180972     1.51772e-05        0.0820443        0.234283     -3.74965e-06     0.000104189         0.940253        0.189221
                       -0.935583        0.332738      8.17337e-05      9.5673e-07       -0.0944551       0.0652728     -0.000100494    -2.56224e-05
                    -7.92484e-05    -6.69644e-05         0.940293        0.189074      5.83077e-05    -9.28611e-05        -0.171198        0.184443
281700.9                0.114242     -0.00901936     -0.000360172     0.000151034        -0.935693        0.332684     -0.000100559    -8.19671e-05
                    -0.000180977     1.51757e-05        0.0820522        0.234275     -3.74212e-06     0.000104198         0.940261        0.189189
                       -0.935574        0.332763      8.17045e-05     2.56142e-06       -0.0944528        0.065272     -0.000100498    -2.56201e-05
                    -7.92517e-05    -6.69657e-05         0.940301        0.189042      5.83175e-05    -9.28592e-05         -0.17119        0.184444
281701                  0.114239     -0.00902467     -0.000359352     0.000151459        -0.935684        0.332709     -0.000100562     -8.1964e-05
                    -0.000180982     1.51742e-05        0.0820602        0.234268     -3.73451e-06     0.000104208         0.940268        0.189157
                       -0.935566        0.332788      8.16612e-05     5.00806e-06       -0.0944506       0.0652712     -0.000100503    -2.56178e-05
                    -7.92551e-05    -6.69669e-05         0.940308         0.18901      5.83274e-05    -9.28573e-05        -0.171182        0.184445
281701.1                0.114237     -0.00902998     -0.000358214     0.000152038        -0.935676        0.332734     -0.000100564     -8.1961e-05
                    -0.000180987     1.51727e-05        0.0820682         0.23426     -3.72684e-06     0.000104218         0.940276        0.189125
                       -0.935557        0.332813      8.16149e-05     8.26371e-06       -0.0944483       0.0652704     -0.000100507    -2.56155e-05
                    -7.92584e-05    -6.69682e-05         0.940316        0.188978      5.83373e-05    -9.28554e-05        -0.171174        0.184446
281701.2                0.114234     -0.00903529     -0.000356745     0.000152777        -0.935667        0.332759     -0.000100567    -8.19579e-05
                    -0.000180993     1.51712e-05        0.0820762        0.234252     -3.71909e-06     0.000104227         0.940284        0.189093
                       -0.935548        0.332838      8.15796e-05     1.22798e-05       -0.0944461       0.0652696     -0.000100511    -2.56132e-05
                    -7.92617e-05    -6.69694e-05         0.940324        0.188946      5.83471e-05    -9.28535e-05        -0.171166        0.184448
281701.3                0.114231      -0.0090406     -0.000354925     0.000153684        -0.935658        0.332784     -0.000100569    -8.19548e-05
                    -0.000180998     1.51697e-05        0.0820841        0.234244     -3.71127e-06     0.000104237         0.940291        0.189062
                        -0.93554        0.332863      8.15708e-05     1.69939e-05       -0.0944439       0.0652688     -0.000100515    -2.56109e-05
                     -7.9265e-05    -6.69707e-05         0.940331        0.188915       5.8357e-05    -9.28517e-05        -0.171157        0.184449
281701.4                0.114228      -0.0090459     -0.000352735     0.000154771         -0.93565        0.332809     -0.000100572    -8.19517e-05
                    -0.000181003     1.51681e-05        0.0820921        0.234236     -3.70337e-06     0.000104246         0.940299         0.18903
                       -0.935531        0.332888      8.16043e-05     2.23325e-05       -0.0944416       0.0652679     -0.000100519    -2.56086e-05
                    -7.92683e-05     -6.6972e-05         0.940339        0.188883      5.83669e-05    -9.28499e-05        -0.171149         0.18445
281701.5                0.114226     -0.00905121     -0.000350147     0.000156047        -0.935641        0.332834     -0.000100574    -8.19486e-05
                    -0.000181009     1.51666e-05        0.0821001        0.234229     -3.69541e-06     0.000104256         0.940306        0.188998
                       -0.935523        0.332913      8.16952e-05     2.82141e-05       -0.0944394       0.0652671     -0.000100524    -2.56063e-05
                    -7.92716e-05    -6.69732e-05         0.940346        0.188851      5.83769e-05    -9.28481e-05        -0.171141        0.184451
281701.6                0.114223     -0.00905652     -0.000347132     0.000157528        -0.935632        0.332859     -0.000100577    -8.19456e-05
                    -0.000181014     1.51651e-05        0.0821081        0.234221     -3.68737e-06     0.000104265         0.940314        0.188966
                       -0.935514        0.332938       8.1857e-05     3.45519e-05       -0.0944371       0.0652663     -0.000100528     -2.5604e-05
                     -7.9275e-05    -6.69745e-05         0.940354        0.188819      5.83868e-05    -9.28463e-05        -0.171133        0.184452
281701.7                 0.11422     -0.00906183     -0.000343654     0.000159228        -0.935624        0.332884     -0.000100579    -8.19425e-05
                    -0.000181019     1.51636e-05         0.082116        0.234213     -3.67926e-06     0.000104274         0.940322        0.188934
                       -0.935505        0.332963      8.21004e-05     4.12573e-05       -0.0944349       0.0652655     -0.000100532    -2.56018e-05
                    -7.92783e-05    -6.69758e-05         0.940362        0.188787      5.83968e-05    -9.28446e-05        -0.171125        0.184453
281701.8                0.114217     -0.00906713     -0.000339671     0.000161167        -0.935615        0.332909     -0.000100582    -8.19394e-05
                    -0.000181024     1.51621e-05         0.082124        0.234205     -3.67108e-06     0.000104284         0.940329        0.188903
                       -0.935497        0.332988       8.2433e-05     4.82424e-05       -0.0944327       0.0652647     -0.000100536    -2.55995e-05
                    -7.92816e-05     -6.6977e-05         0.940369        0.188756      5.84067e-05    -9.28429e-05        -0.171116        0.184455
281701.9                0.114215     -0.00907244     -0.000335132     0.000163366        -0.935607        0.332934     -0.000100584    -8.19363e-05
                     -0.00018103     1.51606e-05         0.082132        0.234197     -3.66283e-06     0.000104293         0.940337        0.188871
                       -0.935488        0.333013      8.28592e-05     5.54229e-05       -0.0944304       0.0652639     -0.000100541    -2.55972e-05
                    -7.92849e-05    -6.69783e-05         0.940377        0.188724      5.84167e-05    -9.28412e-05        -0.171108        0.184456
281702                  0.114212     -0.00907775     -0.000329978     0.000165852        -0.935598        0.332959     -0.000100587    -8.19332e-05
                    -0.000181035     1.51591e-05        0.0821399        0.234189     -3.65451e-06     0.000104302         0.940345        0.188839
                       -0.935479        0.333038        8.338e-05     6.27198e-05       -0.0944282       0.0652631     -0.000100545    -2.55949e-05
                    -7.92882e-05    -6.69796e-05         0.940385        0.188692      5.84267e-05    -9.28395e-05          -0.1711        0.184457
281702.1                0.114209     -0.00908305     -0.000324138     0.000168654        -0.935589        0.332984      -0.00010059    -8.19302e-05
                     -0.00018104     1.51576e-05        0.0821479        0.234182     -3.64612e-06     0.000104312         0.940352        0.188807
                       -0.935471        0.333063      8.39933e-05     7.00608e-05       -0.0944259       0.0652622     -0.000100549    -2.55926e-05
                    -7.92916e-05    -6.69808e-05         0.940392         0.18866      5.84367e-05    -9.28378e-05        -0.171092        0.184458
281702.2                0.114206     -0.00908836     -0.000317526     0.000171811        -0.935581        0.333009     -0.000100592    -8.19271e-05
                    -0.000181045     1.51561e-05        0.0821559        0.234174     -3.63766e-06     0.000104321          0.94036        0.188775
                       -0.935462        0.333088      8.46944e-05     7.73818e-05       -0.0944237       0.0652614     -0.000100553    -2.55903e-05
                    -7.92949e-05    -6.69821e-05           0.9404        0.188628      5.84468e-05    -9.28362e-05        -0.171084        0.184459
281702.3                0.114204     -0.00909367      -0.00031004     0.000175364        -0.935572        0.333034     -0.000100595     -8.1924e-05
                    -0.000181051     1.51545e-05        0.0821638        0.234166     -3.62913e-06      0.00010433         0.940367        0.188744
                       -0.935454        0.333113      8.54764e-05     8.46269e-05       -0.0944215       0.0652606     -0.000100557     -2.5588e-05
                    -7.92982e-05    -6.69834e-05         0.940407        0.188597      5.84568e-05    -9.28346e-05        -0.171075         0.18446
281702.4                0.114201     -0.00909897     -0.000301556     0.000179365        -0.935564        0.333059     -0.000100597    -8.19209e-05
                    -0.000181056      1.5153e-05        0.0821718        0.234158     -3.62053e-06     0.000104339         0.940375        0.188712
                       -0.935445        0.333138      8.63309e-05     9.17486e-05       -0.0944192       0.0652598     -0.000100562    -2.55857e-05
                    -7.93015e-05    -6.69846e-05         0.940415        0.188565      5.84668e-05     -9.2833e-05        -0.171067        0.184462
281702.5                0.114198     -0.00910428     -0.000291921     0.000183877        -0.935555        0.333084       -0.0001006    -8.19178e-05
                    -0.000181061     1.51515e-05        0.0821797         0.23415     -3.61186e-06     0.000104348         0.940383         0.18868
                       -0.935436        0.333163      8.72484e-05     9.87079e-05        -0.094417        0.065259     -0.000100566    -2.55834e-05
                    -7.93048e-05    -6.69859e-05         0.940423        0.188533      5.84769e-05    -9.28314e-05        -0.171059        0.184463
281702.6                0.114196     -0.00910958     -0.000280948     0.000188975        -0.935546        0.333109     -0.000100602    -8.19147e-05
                    -0.000181066       1.515e-05        0.0821877        0.234143     -3.60312e-06     0.000104357          0.94039        0.188648
                       -0.935428        0.333188      8.82188e-05     0.000105473       -0.0944148       0.0652582      -0.00010057    -2.55811e-05
                    -7.93082e-05    -6.69872e-05          0.94043        0.188501       5.8487e-05    -9.28299e-05        -0.171051        0.184464
281702.7                0.114193     -0.00911489     -0.000268402     0.000194752        -0.935538        0.333134     -0.000100605    -8.19117e-05
                    -0.000181072     1.51485e-05        0.0821957        0.234135     -3.59432e-06     0.000104366         0.940398        0.188616
                       -0.935419        0.333213       8.9232e-05     0.000112021       -0.0944125       0.0652573     -0.000100574    -2.55788e-05
                    -7.93115e-05    -6.69884e-05         0.940438         0.18847       5.8497e-05    -9.28284e-05        -0.171043        0.184465
281702.8                 0.11419     -0.00912019     -0.000253988     0.000201323        -0.935529        0.333159     -0.000100607    -8.19086e-05
                    -0.000181077      1.5147e-05        0.0822036        0.234127     -3.58546e-06     0.000104375         0.940405        0.188585
                        -0.93541        0.333238      9.02779e-05     0.000118333       -0.0944103       0.0652565     -0.000100579    -2.55765e-05
                    -7.93148e-05    -6.69897e-05         0.940446        0.188438      5.85071e-05    -9.28269e-05        -0.171034        0.184466
281702.9                0.114187      -0.0091255     -0.000237326     0.000208831         -0.93552        0.333184      -0.00010061    -8.19055e-05
                    -0.000181082     1.51454e-05        0.0822116        0.234119     -3.57652e-06     0.000104384         0.940413        0.188553
                       -0.935402        0.333263      9.13472e-05     0.000124397        -0.094408       0.0652557     -0.000100583    -2.55742e-05
                    -7.93181e-05     -6.6991e-05         0.940453        0.188406      5.85172e-05    -9.28254e-05        -0.171026        0.184467
281703                  0.114185      -0.0091308     -0.000217925     0.000217457        -0.935512        0.333209     -0.000100612    -8.19024e-05
                    -0.000181088     1.51439e-05        0.0822195        0.234111     -3.56753e-06     0.000104393         0.940421        0.188521
                       -0.935393        0.333288      9.24309e-05     0.000130206       -0.0944058       0.0652549     -0.000100587    -2.55719e-05
                    -7.93214e-05    -6.69922e-05         0.940461        0.188374      5.85274e-05     -9.2824e-05        -0.171018        0.184469
281703.1                0.114182     -0.00913611     -0.000195134     0.000227432        -0.935503        0.333234     -0.000100615    -8.18993e-05
                    -0.000181093     1.51424e-05        0.0822275        0.234103     -3.55847e-06     0.000104401         0.940428        0.188489
                       -0.935385        0.333313      9.35212e-05     0.000135757       -0.0944036       0.0652541     -0.000100591    -2.55696e-05
