! TOUCHSTONE file generated by CST MICROWAVE STUDIO
! Date and time: Wed Oct  8 07:04:02 2025
! Project name: Teste_Macro_Metasurface_Nanopilar.cst
! Parameters = {H=600; L_x=180; L_y=150; Lambda=1064; Max_L=200; Min_L=70; PathPara=1; Phi=0; Step_L=10; Theta=0; p=520; phaseX=180; phaseY=0}
! Header version: 2018
! Port assignment regex: !\s*Touchstone port\s*([0-9]+)\s*=\s*(CST MWS port|CST DS port)\s*([0-9]+|Zmin|Zmax)\s*\(\"(.*)\"\)(\s*mode\s*([0-9]+))?.*
! Touchstone port assignment:
! Touchstone port 1 = CST MWS port Zmax ("") mode 1
! Touchstone port 2 = CST MWS port Zmax ("") mode 2
! Touchstone port 3 = CST MWS port Zmin ("") mode 1
! Touchstone port 4 = CST MWS port Zmin ("") mode 2
! S-Parameters are not renormalized. Each port impedance will be approximated by the real part at minimum frequency. The values are described via the [Reference] keyword.
! Default impedance is overridden by [Reference]
[Version] 2.0
# GHz S RI R 376.73
[Number of Ports] 4
[Reference]
376.73 376.73 376.73 376.73 
[Number of Frequencies] 1001
[Network Data]
281700                -0.0754044        0.147296     -0.000389334     0.000195332        -0.851649       -0.487639       0.00040515    -0.000736617
                    -0.000333029     0.000209907       -0.0123645     0.000460498      0.000119774    -0.000748004        -0.984514        -0.14842
                       -0.851738       -0.487919      0.000208608    -0.000756656       -0.0930097        0.136021      1.76915e-05     0.000187722
                     0.000297477    -0.000709479        -0.984616       -0.148273      0.000143269     0.000230271        0.0073347      0.00247731
281700.1              -0.0753973        0.147293     -0.000389335     0.000195361        -0.851665       -0.487614       0.00040514    -0.000736639
                    -0.000333024      0.00020994       -0.0123633     0.000454339       0.00011975    -0.000748015        -0.984518       -0.148391
                       -0.851753       -0.487894      0.000208593    -0.000756671       -0.0930024        0.136019       1.7703e-05     0.000187709
                     0.000297474    -0.000709506         -0.98462       -0.148244      0.000143284     0.000230272       0.00733563      0.00247056
281700.2              -0.0753902         0.14729     -0.000389335     0.000195389        -0.851681       -0.487589       0.00040513    -0.000736661
                    -0.000333019     0.000209973       -0.0123622     0.000448181      0.000119726    -0.000748027        -0.984523       -0.148361
                       -0.851769       -0.487869      0.000208578    -0.000756686       -0.0929951        0.136017      1.77146e-05     0.000187695
                     0.000297471    -0.000709534        -0.984625       -0.148214      0.000143298     0.000230273       0.00733655      0.00246381
281700.3               -0.075383        0.147287     -0.000389335     0.000195418        -0.851696       -0.487564      0.000405119    -0.000736683
                    -0.000333013     0.000210006        -0.012361     0.000442023      0.000119702    -0.000748038        -0.984527       -0.148332
                       -0.851784       -0.487844      0.000208562    -0.000756702       -0.0929878        0.136015      1.77262e-05     0.000187681
                     0.000297467    -0.000709561        -0.984629       -0.148185      0.000143312     0.000230275       0.00733748      0.00245705
281700.4              -0.0753759        0.147284     -0.000389336     0.000195447        -0.851712       -0.487539      0.000405109    -0.000736704
                    -0.000333008     0.000210039       -0.0123599     0.000435864      0.000119679     -0.00074805        -0.984531       -0.148302
                         -0.8518       -0.487819      0.000208547    -0.000756717       -0.0929805        0.136012      1.77378e-05     0.000187668
                     0.000297464    -0.000709589        -0.984634       -0.148155      0.000143327     0.000230276       0.00733841       0.0024503
281700.5              -0.0753688        0.147281     -0.000389336     0.000195475        -0.851727       -0.487514      0.000405098    -0.000736726
                    -0.000333003     0.000210072       -0.0123588     0.000429706      0.000119655    -0.000748062        -0.984536       -0.148273
                       -0.851815       -0.487794      0.000208531    -0.000756733       -0.0929733         0.13601      1.77494e-05     0.000187654
                     0.000297461    -0.000709616        -0.984638       -0.148126      0.000143341     0.000230277       0.00733934      0.00244354
281700.6              -0.0753617        0.147278     -0.000389336     0.000195504        -0.851743       -0.487489      0.000405088    -0.000736748
                    -0.000332998     0.000210105       -0.0123576     0.000423547      0.000119631    -0.000748073         -0.98454       -0.148244
                       -0.851831       -0.487769      0.000208516    -0.000756748        -0.092966        0.136008       1.7761e-05      0.00018764
                     0.000297458    -0.000709643        -0.984643       -0.148097      0.000143355     0.000230278       0.00734026      0.00243679
281700.7              -0.0753545        0.147275     -0.000389337     0.000195533        -0.851758       -0.487464      0.000405078     -0.00073677
                    -0.000332993     0.000210138       -0.0123565     0.000417388      0.000119607    -0.000748085        -0.984545       -0.148214
                       -0.851846       -0.487744        0.0002085    -0.000756764       -0.0929587        0.136006      1.77725e-05     0.000187627
                     0.000297454    -0.000709671        -0.984647       -0.148067       0.00014337     0.000230279       0.00734119      0.00243003
281700.8              -0.0753474        0.147272     -0.000389337     0.000195562        -0.851774       -0.487439      0.000405067    -0.000736791
                    -0.000332988     0.000210171       -0.0123553      0.00041123      0.000119584    -0.000748096        -0.984549       -0.148185
                       -0.851862       -0.487719      0.000208485    -0.000756779       -0.0929514        0.136004      1.77841e-05     0.000187613
                     0.000297451    -0.000709698        -0.984651       -0.148038      0.000143384     0.000230281       0.00734211      0.00242328
281700.9              -0.0753403        0.147269     -0.000389337      0.00019559        -0.851789       -0.487414      0.000405057    -0.000736813
                    -0.000332983     0.000210204       -0.0123542     0.000405071       0.00011956    -0.000748108        -0.984554       -0.148156
                       -0.851877       -0.487694      0.000208469    -0.000756795       -0.0929441        0.136002      1.77957e-05     0.000187599
                     0.000297448    -0.000709726        -0.984656       -0.148009      0.000143398     0.000230282       0.00734304      0.00241652
281701                -0.0753332        0.147265     -0.000389337     0.000195619        -0.851805       -0.487389      0.000405046    -0.000736835
                    -0.000332978     0.000210237       -0.0123531     0.000398912      0.000119536    -0.000748119        -0.984558       -0.148126
                       -0.851893       -0.487669      0.000208454     -0.00075681       -0.0929368        0.135999      1.78073e-05     0.000187586
                     0.000297445    -0.000709753         -0.98466       -0.147979      0.000143413     0.000230283       0.00734396      0.00240977
281701.1               -0.075326        0.147262     -0.000389338     0.000195648         -0.85182       -0.487364      0.000405036    -0.000736857
                    -0.000332973     0.000210271       -0.0123519     0.000392753      0.000119512    -0.000748131        -0.984563       -0.148097
                       -0.851908       -0.487644      0.000208439    -0.000756826       -0.0929296        0.135997      1.78188e-05     0.000187572
                     0.000297442    -0.000709781        -0.984665        -0.14795      0.000143427     0.000230284       0.00734489      0.00240301
281701.2              -0.0753189        0.147259     -0.000389338     0.000195677        -0.851836       -0.487339      0.000405026    -0.000736878
                    -0.000332968     0.000210304       -0.0123508     0.000386594      0.000119489    -0.000748143        -0.984567       -0.148067
                       -0.851924       -0.487619      0.000208423    -0.000756841       -0.0929223        0.135995      1.78304e-05     0.000187558
                     0.000297439    -0.000709809        -0.984669        -0.14792      0.000143441     0.000230285       0.00734581      0.00239626
281701.3              -0.0753118        0.147256     -0.000389338     0.000195705        -0.851851       -0.487314      0.000405015      -0.0007369
                    -0.000332963     0.000210337       -0.0123496     0.000380435      0.000119465    -0.000748154        -0.984571       -0.148038
                       -0.851939       -0.487594      0.000208408    -0.000756857        -0.092915        0.135993       1.7842e-05     0.000187544
                     0.000297435    -0.000709836        -0.984674       -0.147891      0.000143456     0.000230287       0.00734673       0.0023895
281701.4              -0.0753047        0.147253     -0.000389338     0.000195734        -0.851867       -0.487289      0.000405005    -0.000736922
                    -0.000332958     0.000210371       -0.0123485     0.000374276      0.000119441    -0.000748166        -0.984576       -0.148009
                       -0.851955       -0.487569      0.000208392    -0.000756872       -0.0929077        0.135991      1.78535e-05     0.000187531
                     0.000297432    -0.000709864        -0.984678       -0.147862       0.00014347     0.000230288       0.00734766      0.00238275
281701.5              -0.0752976         0.14725     -0.000389339     0.000195763        -0.851882       -0.487264      0.000404994    -0.000736944
                    -0.000332953     0.000210404       -0.0123474     0.000368117      0.000119417    -0.000748177         -0.98458       -0.147979
                        -0.85197       -0.487544      0.000208377    -0.000756888       -0.0929004        0.135988      1.78651e-05     0.000187517
                     0.000297429    -0.000709891        -0.984683       -0.147832      0.000143485     0.000230289       0.00734858      0.00237599
281701.6              -0.0752904        0.147247     -0.000389339     0.000195792        -0.851898       -0.487239      0.000404984    -0.000736966
                    -0.000332948     0.000210437       -0.0123462     0.000361958      0.000119394    -0.000748189        -0.984585        -0.14795
                       -0.851985       -0.487519      0.000208361    -0.000756903       -0.0928931        0.135986      1.78767e-05     0.000187503
                     0.000297426    -0.000709919        -0.984687       -0.147803      0.000143499      0.00023029        0.0073495      0.00236924
281701.7              -0.0752833        0.147244     -0.000389339      0.00019582        -0.851913       -0.487214      0.000404974    -0.000736987
                    -0.000332943     0.000210471       -0.0123451     0.000355799       0.00011937      -0.0007482        -0.984589       -0.147921
                       -0.852001       -0.487493      0.000208346    -0.000756919       -0.0928859        0.135984      1.78882e-05      0.00018749
                     0.000297423    -0.000709947        -0.984691       -0.147773      0.000143513     0.000230292       0.00735042      0.00236248
281701.8              -0.0752762        0.147241      -0.00038934     0.000195849        -0.851929       -0.487189      0.000404963    -0.000737009
                    -0.000332938     0.000210504        -0.012344      0.00034964      0.000119346    -0.000748212        -0.984594       -0.147891
                       -0.852016       -0.487468       0.00020833    -0.000756934       -0.0928786        0.135982      1.78998e-05     0.000187476
                      0.00029742    -0.000709975        -0.984696       -0.147744      0.000143528     0.000230293       0.00735134      0.00235572
281701.9              -0.0752691        0.147238      -0.00038934     0.000195878        -0.851944       -0.487164      0.000404953    -0.000737031
                    -0.000332934     0.000210538       -0.0123428      0.00034348      0.000119322    -0.000748224        -0.984598       -0.147862
                       -0.852032       -0.487443      0.000208315     -0.00075695       -0.0928713         0.13598      1.79114e-05     0.000187462
                     0.000297417    -0.000710002          -0.9847       -0.147715      0.000143542     0.000230294       0.00735226      0.00234897
281702                 -0.075262        0.147235      -0.00038934     0.000195907         -0.85196       -0.487139      0.000404942    -0.000737053
                    -0.000332929     0.000210571       -0.0123417     0.000337321      0.000119299    -0.000748235        -0.984603       -0.147832
                       -0.852047       -0.487418      0.000208299    -0.000756965        -0.092864        0.135978      1.79229e-05     0.000187449
                     0.000297414     -0.00071003        -0.984705       -0.147685      0.000143556     0.000230295       0.00735318      0.00234221
281702.1              -0.0752548        0.147232      -0.00038934     0.000195935        -0.851976       -0.487114      0.000404932    -0.000737074
                    -0.000332924     0.000210605       -0.0123405     0.000331162      0.000119275    -0.000748247        -0.984607       -0.147803
                       -0.852063       -0.487393      0.000208284    -0.000756981       -0.0928567        0.135975      1.79345e-05     0.000187435
                     0.000297411    -0.000710058        -0.984709       -0.147656      0.000143571     0.000230296        0.0073541      0.00233546
281702.2              -0.0752477        0.147228     -0.000389341     0.000195964        -0.851991       -0.487089      0.000404922    -0.000737096
                    -0.000332919     0.000210639       -0.0123394     0.000325002      0.000119251    -0.000748258        -0.984611       -0.147774
                       -0.852078       -0.487368      0.000208268    -0.000756996       -0.0928495        0.135973       1.7946e-05     0.000187421
                     0.000297408    -0.000710086        -0.984714       -0.147627      0.000143585     0.000230298       0.00735502       0.0023287
281702.3              -0.0752406        0.147225     -0.000389341     0.000195993        -0.852007       -0.487064      0.000404911    -0.000737118
                    -0.000332914     0.000210672       -0.0123383     0.000318843      0.000119227     -0.00074827        -0.984616       -0.147744
                       -0.852094       -0.487343      0.000208253    -0.000757012       -0.0928422        0.135971      1.79576e-05     0.000187408
                     0.000297406    -0.000710114        -0.984718       -0.147597      0.000143599     0.000230299       0.00735594      0.00232194
281702.4              -0.0752335        0.147222     -0.000389341     0.000196022        -0.852022       -0.487038      0.000404901     -0.00073714
                     -0.00033291     0.000210706       -0.0123371     0.000312683      0.000119203    -0.000748281         -0.98462       -0.147715
                       -0.852109       -0.487318      0.000208237    -0.000757027       -0.0928349        0.135969      1.79691e-05     0.000187394
                     0.000297403    -0.000710142        -0.984722       -0.147568      0.000143614       0.0002303       0.00735685      0.00231519
281702.5              -0.0752264        0.147219     -0.000389341      0.00019605        -0.852038       -0.487013       0.00040489    -0.000737162
                    -0.000332905      0.00021074        -0.012336     0.000306524       0.00011918    -0.000748293        -0.984625       -0.147685
                       -0.852125       -0.487293      0.000208222    -0.000757043       -0.0928276        0.135967      1.79807e-05      0.00018738
                       0.0002974    -0.000710169        -0.984727       -0.147538      0.000143628     0.000230301       0.00735777      0.00230843
281702.6              -0.0752192        0.147216     -0.000389342     0.000196079        -0.852053       -0.486988       0.00040488    -0.000737183
                      -0.0003329     0.000210773       -0.0123349     0.000300364      0.000119156    -0.000748304        -0.984629       -0.147656
                        -0.85214       -0.487268      0.000208206    -0.000757058       -0.0928203        0.135964      1.79922e-05     0.000187367
                     0.000297397    -0.000710197        -0.984731       -0.147509      0.000143643     0.000230302       0.00735869      0.00230167
281702.7              -0.0752121        0.147213     -0.000389342     0.000196108        -0.852069       -0.486963       0.00040487    -0.000737205
                    -0.000332896     0.000210807       -0.0123337     0.000294204      0.000119132    -0.000748316        -0.984634       -0.147627
                       -0.852156       -0.487243      0.000208191    -0.000757074       -0.0928131        0.135962      1.80038e-05     0.000187353
                     0.000297394    -0.000710225        -0.984736        -0.14748      0.000143657     0.000230304        0.0073596      0.00229492
281702.8               -0.075205         0.14721     -0.000389342     0.000196137        -0.852084       -0.486938      0.000404859    -0.000737227
                    -0.000332891     0.000210841       -0.0123326     0.000288044      0.000119108    -0.000748328        -0.984638       -0.147597
                       -0.852171       -0.487218      0.000208175    -0.000757089       -0.0928058         0.13596      1.80153e-05     0.000187339
                     0.000297391    -0.000710253         -0.98474        -0.14745      0.000143671     0.000230305       0.00736052      0.00228816
281702.9              -0.0751979        0.147207     -0.000389342     0.000196165          -0.8521       -0.486913      0.000404849    -0.000737249
                    -0.000332887     0.000210875       -0.0123315     0.000281885      0.000119084    -0.000748339        -0.984642       -0.147568
                       -0.852187       -0.487193       0.00020816    -0.000757105       -0.0927985        0.135958      1.80269e-05     0.000187326
                     0.000297389    -0.000710281        -0.984745       -0.147421      0.000143686     0.000230306       0.00736143       0.0022814
281703                -0.0751908        0.147204     -0.000389342     0.000196194        -0.852115       -0.486888      0.000404838    -0.000737271
                    -0.000332882     0.000210909       -0.0123303     0.000275725      0.000119061    -0.000748351        -0.984647       -0.147539
                       -0.852202       -0.487168      0.000208144     -0.00075712       -0.0927912        0.135956      1.80384e-05     0.000187312
                     0.000297386    -0.000710309        -0.984749       -0.147391        0.0001437     0.000230307       0.00736235      0.00227464
281703.1              -0.0751836        0.147201     -0.000389343     0.000196223        -0.852131       -0.486863      0.000404828    -0.000737292
                    -0.000332878     0.000210943       -0.0123292     0.000269565      0.000119037    -0.000748362        -0.984651       -0.147509
                       -0.852218       -0.487143      0.000208129    -0.000757136       -0.0927839        0.135954        1.805e-05     0.000187298
