! TOUCHSTONE file generated by CST MICROWAVE STUDIO
! Date and time: Wed Oct  8 06:56:13 2025
! Project name: Teste_Macro_Metasurface_Nanopilar.cst
! Parameters = {H=600; L_x=115; L_y=135; Lambda=1064; Max_L=200; Min_L=70; PathPara=1; Phi=0; Step_L=10; Theta=0; p=520; phaseX=180; phaseY=0}
! Header version: 2018
! Port assignment regex: !\s*Touchstone port\s*([0-9]+)\s*=\s*(CST MWS port|CST DS port)\s*([0-9]+|Zmin|Zmax)\s*\(\"(.*)\"\)(\s*mode\s*([0-9]+))?.*
! Touchstone port assignment:
! Touchstone port 1 = CST MWS port Zmax ("") mode 1
! Touchstone port 2 = CST MWS port Zmax ("") mode 2
! Touchstone port 3 = CST MWS port Zmin ("") mode 1
! Touchstone port 4 = CST MWS port Zmin ("") mode 2
! S-Parameters are not renormalized. Each port impedance will be approximated by the real part at minimum frequency. The values are described via the [Reference] keyword.
! Default impedance is overridden by [Reference]
[Version] 2.0
# GHz S RI R 376.73
[Number of Ports] 4
[Reference]
376.73 376.73 376.73 376.73 
[Number of Frequencies] 1001
[Network Data]
281700                  -0.21033       -0.112427      0.000966979     0.000293106        0.0717381       -0.961855      0.000630897     0.000794102
                      0.00108947     0.000409522        0.0405649      -0.0624155        0.0010148     0.000249275         0.935369       -0.315745
                       0.0716407       -0.961634       0.00109363    -6.44547e-05        -0.225418       0.0807445      0.000669648     0.000602998
                      0.00064938     0.000791295         0.935055       -0.315791      0.000858492     0.000506868       -0.0747933      -0.0225546
281700.1               -0.210333       -0.112419      0.000966977     0.000293081        0.0717081       -0.961858      0.000630916     0.000794073
                      0.00108947     0.000409481        0.0405605      -0.0624225       0.00101481     0.000249239         0.935357       -0.315778
                       0.0716106       -0.961636       0.00109361    -6.44991e-05        -0.225415       0.0807499      0.000669661      0.00060295
                     0.000649411     0.000791269         0.935044       -0.315824      0.000858489     0.000506806       -0.0747957      -0.0225577
281700.2               -0.210336        -0.11241      0.000966974     0.000293057         0.071678        -0.96186      0.000630935     0.000794045
                      0.00108946     0.000409441        0.0405561      -0.0624295       0.00101482     0.000249202         0.935346       -0.315811
                       0.0715806       -0.961639        0.0010936    -6.45435e-05        -0.225412       0.0807553      0.000669674     0.000602902
                     0.000649442     0.000791243         0.935032       -0.315857      0.000858486     0.000506744       -0.0747981      -0.0225609
281700.3               -0.210339       -0.112402      0.000966972     0.000293033        0.0716479       -0.961863      0.000630955     0.000794017
                      0.00108946       0.0004094        0.0405517      -0.0624365       0.00101483     0.000249165         0.935335       -0.315844
                       0.0715505       -0.961641       0.00109359    -6.45879e-05        -0.225408       0.0807607      0.000669687     0.000602854
                     0.000649474     0.000791218         0.935021        -0.31589      0.000858483     0.000506681       -0.0748004       -0.022564
281700.4               -0.210342       -0.112394      0.000966969     0.000293009        0.0716179       -0.961866      0.000630974     0.000793988
                      0.00108946     0.000409359        0.0405473      -0.0624435       0.00101484     0.000249129         0.935323       -0.315877
                       0.0715204       -0.961644       0.00109358    -6.46323e-05        -0.225405       0.0807661        0.0006697     0.000602806
                     0.000649505     0.000791192          0.93501       -0.315922      0.000858481     0.000506619       -0.0748028      -0.0225672
281700.5               -0.210345       -0.112386      0.000966967     0.000292984        0.0715878       -0.961868      0.000630993      0.00079396
                      0.00108945     0.000409318        0.0405429      -0.0624505       0.00101484     0.000249092         0.935312        -0.31591
                       0.0714904       -0.961647       0.00109357    -6.46767e-05        -0.225402       0.0807715      0.000669713     0.000602759
                     0.000649536     0.000791166         0.934998       -0.315955      0.000858478     0.000506557       -0.0748052      -0.0225703
281700.6               -0.210348       -0.112377      0.000966964      0.00029296        0.0715577       -0.961871      0.000631012     0.000793932
                      0.00108945     0.000409277        0.0405385      -0.0624575       0.00101485     0.000249055         0.935301       -0.315943
                       0.0714603       -0.961649       0.00109355    -6.47211e-05        -0.225399       0.0807769      0.000669726     0.000602711
                     0.000649567      0.00079114         0.934987       -0.315988      0.000858475     0.000506495       -0.0748076      -0.0225735
281700.7               -0.210351       -0.112369      0.000966962     0.000292936        0.0715276       -0.961873      0.000631031     0.000793903
                      0.00108945     0.000409236        0.0405341      -0.0624645       0.00101486     0.000249018         0.935289       -0.315976
                       0.0714302       -0.961652       0.00109354    -6.47655e-05        -0.225395       0.0807823      0.000669739     0.000602663
                     0.000649598     0.000791115         0.934975       -0.316021      0.000858472     0.000506433         -0.07481      -0.0225766
281700.8               -0.210354       -0.112361       0.00096696     0.000292911        0.0714976       -0.961876      0.000631051     0.000793875
                      0.00108944     0.000409195        0.0405297      -0.0624715       0.00101487     0.000248982         0.935278       -0.316008
                       0.0714001       -0.961654       0.00109353    -6.48099e-05        -0.225392       0.0807877      0.000669752     0.000602615
                     0.000649629     0.000791089         0.934964       -0.316054      0.000858469     0.000506371       -0.0748124      -0.0225798
281700.9               -0.210357       -0.112353      0.000966957     0.000292887        0.0714675       -0.961878       0.00063107     0.000793847
                      0.00108944     0.000409155        0.0405253      -0.0624785       0.00101488     0.000248945         0.935266       -0.316041
                       0.0713701       -0.961657       0.00109352    -6.48543e-05        -0.225389       0.0807931      0.000669765     0.000602567
                     0.000649661     0.000791063         0.934953       -0.316087      0.000858466     0.000506309       -0.0748148      -0.0225829
281701                  -0.21036       -0.112344      0.000966955     0.000292863        0.0714374       -0.961881      0.000631089     0.000793818
                      0.00108944     0.000409114        0.0405209      -0.0624854       0.00101489     0.000248908         0.935255       -0.316074
                         0.07134       -0.961659       0.00109351    -6.48987e-05        -0.225386       0.0807985      0.000669778     0.000602519
                     0.000649692     0.000791037         0.934941        -0.31612      0.000858463     0.000506247       -0.0748172      -0.0225861
281701.1               -0.210363       -0.112336      0.000966952     0.000292839        0.0714073       -0.961883      0.000631108      0.00079379
                      0.00108943     0.000409073        0.0405165      -0.0624924        0.0010149     0.000248871         0.935244       -0.316107
                       0.0713099       -0.961662        0.0010935     -6.4943e-05        -0.225383       0.0808039      0.000669791     0.000602472
                     0.000649723     0.000791012          0.93493       -0.316153       0.00085846     0.000506185       -0.0748196      -0.0225892
281701.2               -0.210366       -0.112328       0.00096695     0.000292815        0.0713773       -0.961886      0.000631128     0.000793762
                      0.00108943     0.000409032        0.0405121      -0.0624994       0.00101491     0.000248835         0.935232        -0.31614
                       0.0712798       -0.961665       0.00109348    -6.49874e-05        -0.225379       0.0808093      0.000669804     0.000602424
                     0.000649754     0.000790986         0.934919       -0.316186      0.000858457     0.000506123        -0.074822      -0.0225924
281701.3               -0.210369       -0.112319      0.000966947      0.00029279        0.0713472       -0.961889      0.000631147     0.000793733
                      0.00108943     0.000408991        0.0405077      -0.0625064       0.00101492     0.000248798         0.935221       -0.316173
                       0.0712498       -0.961667       0.00109347    -6.50318e-05        -0.225376       0.0808147      0.000669816     0.000602376
                     0.000649785      0.00079096         0.934907       -0.316219      0.000858454     0.000506061       -0.0748244      -0.0225955
281701.4               -0.210373       -0.112311      0.000966945     0.000292766        0.0713171       -0.961891      0.000631166     0.000793705
                      0.00108942      0.00040895        0.0405033      -0.0625134       0.00101493     0.000248761          0.93521       -0.316206
                       0.0712197        -0.96167       0.00109346    -6.50761e-05        -0.225373       0.0808201      0.000669829     0.000602328
                     0.000649816     0.000790934         0.934896       -0.316251      0.000858451     0.000505999       -0.0748268      -0.0225987
281701.5               -0.210376       -0.112303      0.000966942     0.000292742        0.0712871       -0.961894      0.000631185     0.000793677
                      0.00108942      0.00040891        0.0404989      -0.0625204       0.00101494     0.000248724         0.935198       -0.316239
                       0.0711896       -0.961672       0.00109345    -6.51205e-05         -0.22537       0.0808255      0.000669842      0.00060228
                     0.000649848     0.000790909         0.934885       -0.316284      0.000858448     0.000505937       -0.0748292      -0.0226018
281701.6               -0.210379       -0.112295       0.00096694     0.000292718         0.071257       -0.961896      0.000631205     0.000793648
                      0.00108942     0.000408869        0.0404945      -0.0625274       0.00101495     0.000248688         0.935187       -0.316272
                       0.0711595       -0.961675       0.00109344    -6.51649e-05        -0.225366       0.0808309      0.000669855     0.000602232
                     0.000649879     0.000790883         0.934873       -0.316317      0.000858445     0.000505875       -0.0748316       -0.022605
281701.7               -0.210382       -0.112286      0.000966937     0.000292693        0.0712269       -0.961899      0.000631224      0.00079362
                      0.00108941     0.000408828        0.0404901      -0.0625344       0.00101496     0.000248651         0.935175       -0.316305
                       0.0711295       -0.961677       0.00109343    -6.52092e-05        -0.225363       0.0808363      0.000669868     0.000602185
                      0.00064991     0.000790857         0.934862        -0.31635      0.000858442     0.000505813        -0.074834      -0.0226081
281701.8               -0.210385       -0.112278      0.000966935     0.000292669        0.0711968       -0.961901      0.000631243     0.000793591
                      0.00108941     0.000408787        0.0404857      -0.0625413       0.00101497     0.000248614         0.935164       -0.316338
                       0.0710994        -0.96168       0.00109341    -6.52536e-05         -0.22536       0.0808417      0.000669881     0.000602137
                     0.000649941     0.000790831         0.934851       -0.316383      0.000858439     0.000505751       -0.0748364      -0.0226113
281701.9               -0.210388        -0.11227      0.000966932     0.000292645        0.0711668       -0.961904      0.000631262     0.000793563
                      0.00108941     0.000408746        0.0404813      -0.0625483       0.00101497     0.000248577         0.935153        -0.31637
                       0.0710693       -0.961682        0.0010934    -6.52979e-05        -0.225357       0.0808471      0.000669894     0.000602089
                     0.000649972     0.000790806         0.934839       -0.316416      0.000858436     0.000505689       -0.0748388      -0.0226144
281702                 -0.210391       -0.112262       0.00096693     0.000292621        0.0711367       -0.961906      0.000631281     0.000793535
                       0.0010894     0.000408705        0.0404769      -0.0625553       0.00101498     0.000248541         0.935141       -0.316403
                       0.0710393       -0.961685       0.00109339    -6.53422e-05        -0.225353       0.0808525      0.000669907     0.000602041
                     0.000650003      0.00079078         0.934828       -0.316449      0.000858433     0.000505627       -0.0748412      -0.0226176
281702.1               -0.210394       -0.112253      0.000966927     0.000292596        0.0711066       -0.961909      0.000631301     0.000793506
                       0.0010894     0.000408665        0.0404725      -0.0625623       0.00101499     0.000248504          0.93513       -0.316436
                       0.0710092       -0.961687       0.00109338    -6.53866e-05         -0.22535       0.0808579       0.00066992     0.000601993
                     0.000650034     0.000790754         0.934816       -0.316482       0.00085843     0.000505565       -0.0748436      -0.0226207
281702.2               -0.210397       -0.112245      0.000966925     0.000292572        0.0710765       -0.961911       0.00063132     0.000793478
                       0.0010894     0.000408624        0.0404681      -0.0625693         0.001015     0.000248467         0.935119       -0.316469
                       0.0709791        -0.96169       0.00109337    -6.54309e-05        -0.225347       0.0808633      0.000669933     0.000601946
                     0.000650065     0.000790728         0.934805       -0.316515      0.000858427     0.000505503        -0.074846      -0.0226239
281702.3                 -0.2104       -0.112237      0.000966922     0.000292548        0.0710465       -0.961914      0.000631339      0.00079345
                      0.00108939     0.000408583        0.0404637      -0.0625763       0.00101501      0.00024843         0.935107       -0.316502
                        0.070949       -0.961693       0.00109335    -6.54753e-05        -0.225344       0.0808687      0.000669945     0.000601898
                     0.000650097     0.000790703         0.934794       -0.316548      0.000858424     0.000505441       -0.0748484       -0.022627
281702.4               -0.210403       -0.112229       0.00096692     0.000292524        0.0710164       -0.961917      0.000631358     0.000793421
                      0.00108939     0.000408542        0.0404593      -0.0625833       0.00101502     0.000248394         0.935096       -0.316535
                        0.070919       -0.961695       0.00109334    -6.55196e-05         -0.22534       0.0808741      0.000669958      0.00060185
                     0.000650128     0.000790677         0.934782        -0.31658      0.000858421     0.000505379       -0.0748507      -0.0226302
281702.5               -0.210406        -0.11222      0.000966917     0.000292499        0.0709863       -0.961919      0.000631378     0.000793393
                      0.00108939     0.000408501        0.0404549      -0.0625902       0.00101503     0.000248357         0.935084       -0.316568
                       0.0708889       -0.961698       0.00109333    -6.55639e-05        -0.225337       0.0808795      0.000669971     0.000601802
                     0.000650159     0.000790651         0.934771       -0.316613      0.000858418     0.000505317       -0.0748531      -0.0226333
281702.6               -0.210409       -0.112212      0.000966915     0.000292475        0.0709562       -0.961922      0.000631397     0.000793365
                      0.00108938      0.00040846        0.0404505      -0.0625972       0.00101504      0.00024832         0.935073       -0.316601
                       0.0708588         -0.9617       0.00109332    -6.56082e-05        -0.225334       0.0808849      0.000669984     0.000601754
                      0.00065019     0.000790625          0.93476       -0.316646      0.000858415     0.000505255       -0.0748555      -0.0226365
281702.7               -0.210412       -0.112204      0.000966913     0.000292451        0.0709262       -0.961924      0.000631416     0.000793336
                      0.00108938      0.00040842        0.0404461      -0.0626042       0.00101505     0.000248283         0.935062       -0.316634
                       0.0708287       -0.961703       0.00109331    -6.56526e-05        -0.225331       0.0808903      0.000669997     0.000601707
                     0.000650221     0.000790599         0.934748       -0.316679      0.000858412     0.000505193       -0.0748579      -0.0226396
281702.8               -0.210415       -0.112196       0.00096691     0.000292427        0.0708961       -0.961927      0.000631435     0.000793308
                      0.00108937     0.000408379        0.0404417      -0.0626112       0.00101506     0.000248247          0.93505       -0.316667
                       0.0707987       -0.961705        0.0010933    -6.56969e-05        -0.225327       0.0808957       0.00067001     0.000601659
                     0.000650252     0.000790574         0.934737       -0.316712      0.000858409     0.000505131       -0.0748603      -0.0226428
281702.9               -0.210418       -0.112187      0.000966908     0.000292403         0.070866       -0.961929      0.000631455      0.00079328
                      0.00108937     0.000408338        0.0404373      -0.0626182       0.00101507      0.00024821         0.935039         -0.3167
                       0.0707686       -0.961708       0.00109328    -6.57412e-05        -0.225324       0.0809011      0.000670023     0.000601611
                     0.000650283     0.000790548         0.934725       -0.316745      0.000858406     0.000505069       -0.0748627      -0.0226459
281703                 -0.210421       -0.112179      0.000966905     0.000292378        0.0708359       -0.961932      0.000631474     0.000793251
                      0.00108937     0.000408297        0.0404329      -0.0626252       0.00101508     0.000248173         0.935027       -0.316732
                       0.0707385        -0.96171       0.00109327    -6.57855e-05        -0.225321       0.0809065      0.000670036     0.000601563
                     0.000650314     0.000790522         0.934714       -0.316778      0.000858403     0.000505007       -0.0748651      -0.0226491
281703.1               -0.210424       -0.112171      0.000966903     0.000292354        0.0708059       -0.961934      0.000631493     0.000793223
                      0.00108936     0.000408256        0.0404285      -0.0626321       0.00101509     0.000248136         0.935016       -0.316765
                       0.0707084       -0.961713       0.00109326    -6.58298e-05        -0.225318       0.0809119      0.000670048     0.000601515
