! TOUCHSTONE file generated by CST MICROWAVE STUDIO
! Date and time: Wed Oct  8 06:56:19 2025
! Project name: Teste_Macro_Metasurface_Nanopilar.cst
! Parameters = {H=600; L_x=115; L_y=160; Lambda=1064; Max_L=200; Min_L=70; PathPara=1; Phi=0; Step_L=10; Theta=0; p=520; phaseX=180; phaseY=0}
! Header version: 2018
! Port assignment regex: !\s*Touchstone port\s*([0-9]+)\s*=\s*(CST MWS port|CST DS port)\s*([0-9]+|Zmin|Zmax)\s*\(\"(.*)\"\)(\s*mode\s*([0-9]+))?.*
! Touchstone port assignment:
! Touchstone port 1 = CST MWS port Zmax ("") mode 1
! Touchstone port 2 = CST MWS port Zmax ("") mode 2
! Touchstone port 3 = CST MWS port Zmin ("") mode 1
! Touchstone port 4 = CST MWS port Zmin ("") mode 2
! S-Parameters are not renormalized. Each port impedance will be approximated by the real part at minimum frequency. The values are described via the [Reference] keyword.
! Default impedance is overridden by [Reference]
[Version] 2.0
# GHz S RI R 376.73
[Number of Ports] 4
[Reference]
376.73 376.73 376.73 376.73 
[Number of Frequencies] 1001
[Network Data]
281700                 -0.105546       -0.222351      0.000882564    -0.000270958        -0.869918       -0.407169     -0.000424019       0.0010583
                     0.000909672    -0.000280539         -0.15151       -0.164024       -0.0011796    -0.000607343         0.475459       -0.841739
                       -0.870021       -0.407058      -0.00107345    -0.000616515         0.228761      -0.0703353      0.000768258     -0.00031241
                    -0.000438997      0.00105611         0.475446       -0.841744      0.000718516    -0.000319371        -0.219751      -0.0429324
281700.1               -0.105548        -0.22236      0.000882584    -0.000270987        -0.869932       -0.407134     -0.000423985      0.00105834
                     0.000909691    -0.000280573        -0.151518       -0.164019      -0.00117966    -0.000607294         0.475432       -0.841754
                       -0.870034       -0.407023       -0.0010735    -0.000616486         0.228763      -0.0703581       0.00076825    -0.000312459
                    -0.000438965      0.00105615         0.475418        -0.84176      0.000718487     -0.00031941        -0.219754      -0.0429273
281700.2                -0.10555       -0.222369      0.000882604    -0.000271016        -0.869945       -0.407099      -0.00042395      0.00105838
                      0.00090971    -0.000280608        -0.151525       -0.164015      -0.00117973    -0.000607246         0.475404       -0.841769
                       -0.870048       -0.406988      -0.00107354    -0.000616457         0.228766      -0.0703808      0.000768242    -0.000312509
                    -0.000438933      0.00105619         0.475391       -0.841775      0.000718459     -0.00031945        -0.219756      -0.0429222
281700.3               -0.105552       -0.222378      0.000882624    -0.000271045        -0.869959       -0.407064     -0.000423916      0.00105843
                     0.000909729    -0.000280642        -0.151533        -0.16401      -0.00117979    -0.000607198         0.475377       -0.841784
                       -0.870062       -0.406953      -0.00107359    -0.000616428         0.228768      -0.0704036      0.000768233    -0.000312559
                    -0.000438902      0.00105623         0.475363        -0.84179       0.00071843     -0.00031949        -0.219759      -0.0429171
281700.4               -0.105554       -0.222387      0.000882644    -0.000271075        -0.869972       -0.407029     -0.000423882      0.00105847
                     0.000909748    -0.000280676        -0.151541       -0.164005      -0.00117985    -0.000607149         0.475349       -0.841799
                       -0.870075       -0.406918      -0.00107363    -0.000616399         0.228771      -0.0704263      0.000768225    -0.000312608
                     -0.00043887      0.00105627         0.475336       -0.841805      0.000718402     -0.00031953        -0.219762       -0.042912
281700.5               -0.105556       -0.222396      0.000882663    -0.000271104        -0.869986       -0.406994     -0.000423847      0.00105851
                     0.000909767    -0.000280711        -0.151549       -0.164001      -0.00117992    -0.000607101         0.475322       -0.841815
                       -0.870089       -0.406883      -0.00107368     -0.00061637         0.228774       -0.070449      0.000768217    -0.000312658
                    -0.000438838      0.00105631         0.475308        -0.84182      0.000718373     -0.00031957        -0.219765      -0.0429069
281700.6               -0.105558       -0.222405      0.000882683    -0.000271133        -0.869999       -0.406959     -0.000423813      0.00105855
                     0.000909785    -0.000280745        -0.151556       -0.163996      -0.00117998    -0.000607052         0.475294        -0.84183
                       -0.870102       -0.406848      -0.00107373    -0.000616341         0.228776      -0.0704718      0.000768208    -0.000312708
                    -0.000438806      0.00105635         0.475281       -0.841835      0.000718345     -0.00031961        -0.219768      -0.0429018
281700.7                -0.10556       -0.222414      0.000882703    -0.000271162        -0.870013       -0.406925     -0.000423778      0.00105859
                     0.000909804    -0.000280779        -0.151564       -0.163991      -0.00118004    -0.000607004         0.475267       -0.841845
                       -0.870116       -0.406813      -0.00107377    -0.000616312         0.228779      -0.0704945        0.0007682    -0.000312757
                    -0.000438774      0.00105639         0.475253        -0.84185      0.000718316    -0.000319649        -0.219771      -0.0428967
281700.8               -0.105562       -0.222423      0.000882723    -0.000271192        -0.870026        -0.40689     -0.000423744      0.00105863
                     0.000909823    -0.000280814        -0.151572       -0.163987      -0.00118011    -0.000606955         0.475239        -0.84186
                       -0.870129       -0.406778      -0.00107382    -0.000616284         0.228781      -0.0705173      0.000768192    -0.000312807
                    -0.000438742      0.00105643         0.475226       -0.841865      0.000718288    -0.000319689        -0.219774      -0.0428916
281700.9               -0.105564       -0.222432      0.000882743    -0.000271221         -0.87004       -0.406855      -0.00042371      0.00105867
                     0.000909842    -0.000280848         -0.15158       -0.163982      -0.00118017    -0.000606907         0.475212       -0.841875
                       -0.870143       -0.406743      -0.00107386    -0.000616255         0.228784        -0.07054      0.000768183    -0.000312857
                     -0.00043871      0.00105647         0.475198        -0.84188      0.000718259    -0.000319729        -0.219776      -0.0428865
281701                 -0.105566       -0.222441      0.000882763     -0.00027125        -0.870053        -0.40682     -0.000423675      0.00105871
                     0.000909861    -0.000280882        -0.151588       -0.163977      -0.00118023    -0.000606858         0.475184        -0.84189
                       -0.870156       -0.406708      -0.00107391    -0.000616226         0.228786      -0.0705628      0.000768175    -0.000312906
                    -0.000438678      0.00105651         0.475171       -0.841895       0.00071823    -0.000319769        -0.219779      -0.0428814
281701.1               -0.105568       -0.222449      0.000882783     -0.00027128        -0.870067       -0.406785     -0.000423641      0.00105875
                      0.00090988    -0.000280917        -0.151595       -0.163973       -0.0011803     -0.00060681         0.475157       -0.841905
                        -0.87017       -0.406674      -0.00107396    -0.000616197         0.228789      -0.0705855      0.000768166    -0.000312956
                    -0.000438646      0.00105655         0.475143       -0.841911      0.000718202    -0.000319809        -0.219782      -0.0428763
281701.2                -0.10557       -0.222458      0.000882803    -0.000271309         -0.87008        -0.40675     -0.000423607       0.0010588
                     0.000909899    -0.000280951        -0.151603       -0.163968      -0.00118036    -0.000606761         0.475129        -0.84192
                       -0.870183       -0.406639        -0.001074    -0.000616168         0.228791      -0.0706083      0.000768158    -0.000313006
                    -0.000438615      0.00105659         0.475115       -0.841926      0.000718173    -0.000319849        -0.219785      -0.0428712
281701.3               -0.105572       -0.222467      0.000882822    -0.000271338        -0.870094       -0.406715     -0.000423572      0.00105884
                     0.000909918    -0.000280986        -0.151611       -0.163963      -0.00118042    -0.000606713         0.475102       -0.841935
                       -0.870197       -0.406604      -0.00107405    -0.000616139         0.228794       -0.070631       0.00076815    -0.000313055
                    -0.000438583      0.00105663         0.475088       -0.841941      0.000718145    -0.000319888        -0.219788      -0.0428661
281701.4               -0.105574       -0.222476      0.000882842    -0.000271367        -0.870107        -0.40668     -0.000423538      0.00105888
                     0.000909937     -0.00028102        -0.151619       -0.163959      -0.00118049    -0.000606664         0.475074        -0.84195
                        -0.87021       -0.406569      -0.00107409     -0.00061611         0.228796      -0.0706537      0.000768141    -0.000313105
                    -0.000438551      0.00105667          0.47506       -0.841956      0.000718116    -0.000319928        -0.219791       -0.042861
281701.5               -0.105576       -0.222485      0.000882862    -0.000271397        -0.870121       -0.406645     -0.000423503      0.00105892
                     0.000909956    -0.000281054        -0.151626       -0.163954      -0.00118055    -0.000606616         0.475047       -0.841965
                       -0.870224       -0.406534      -0.00107414    -0.000616081         0.228799      -0.0706765      0.000768133    -0.000313155
                    -0.000438519      0.00105671         0.475033       -0.841971      0.000718087    -0.000319968        -0.219793      -0.0428559
281701.6               -0.105578       -0.222494      0.000882882    -0.000271426        -0.870134        -0.40661     -0.000423469      0.00105896
                     0.000909974    -0.000281089        -0.151634       -0.163949      -0.00118061    -0.000606567         0.475019       -0.841981
                       -0.870237       -0.406499      -0.00107418    -0.000616052         0.228801      -0.0706992      0.000768125    -0.000313204
                    -0.000438487      0.00105675         0.475005       -0.841986      0.000718059    -0.000320008        -0.219796      -0.0428508
281701.7                -0.10558       -0.222503      0.000882902    -0.000271455        -0.870148       -0.406575     -0.000423435        0.001059
                     0.000909993    -0.000281123        -0.151642       -0.163945      -0.00118067    -0.000606519         0.474992       -0.841996
                        -0.87025       -0.406464      -0.00107423    -0.000616023         0.228804       -0.070722      0.000768116    -0.000313254
                    -0.000438455      0.00105679         0.474978       -0.842001       0.00071803    -0.000320048        -0.219799      -0.0428457
281701.8               -0.105582       -0.222512      0.000882922    -0.000271485        -0.870161        -0.40654       -0.0004234      0.00105904
                     0.000910012    -0.000281157         -0.15165        -0.16394      -0.00118074     -0.00060647         0.474964       -0.842011
                       -0.870264       -0.406429      -0.00107428    -0.000615994         0.228806      -0.0707448      0.000768108    -0.000313304
                    -0.000438423      0.00105683          0.47495       -0.842016      0.000718002    -0.000320088        -0.219802      -0.0428406
281701.9               -0.105584       -0.222521      0.000882942    -0.000271514        -0.870175       -0.406505     -0.000423366      0.00105908
                     0.000910031    -0.000281192        -0.151657       -0.163935       -0.0011808    -0.000606422         0.474936       -0.842026
                       -0.870277       -0.406394      -0.00107432    -0.000615965         0.228809      -0.0707675      0.000768099    -0.000313354
                    -0.000438391      0.00105687         0.474923       -0.842031      0.000717973    -0.000320127        -0.219805      -0.0428355
281702                 -0.105586        -0.22253      0.000882961    -0.000271543        -0.870188       -0.406471     -0.000423331      0.00105913
                      0.00091005    -0.000281226        -0.151665       -0.163931      -0.00118086    -0.000606373         0.474909       -0.842041
                       -0.870291       -0.406359      -0.00107437    -0.000615936         0.228811      -0.0707903      0.000768091    -0.000313403
                    -0.000438359      0.00105691         0.474895       -0.842046      0.000717944    -0.000320167        -0.219808      -0.0428304
281702.1               -0.105588       -0.222539      0.000882981    -0.000271573        -0.870202       -0.406436     -0.000423297      0.00105917
                     0.000910069    -0.000281261        -0.151673       -0.163926      -0.00118093    -0.000606325         0.474881       -0.842056
                       -0.870304       -0.406324      -0.00107441    -0.000615907         0.228814       -0.070813      0.000768083    -0.000313453
                    -0.000438327      0.00105695         0.474868       -0.842061      0.000717916    -0.000320207         -0.21981      -0.0428253
281702.2                -0.10559       -0.222548      0.000883001    -0.000271602        -0.870215       -0.406401     -0.000423262      0.00105921
                     0.000910088    -0.000281295        -0.151681       -0.163921      -0.00118099    -0.000606276         0.474854       -0.842071
                       -0.870318       -0.406289      -0.00107446    -0.000615879         0.228816      -0.0708358      0.000768074    -0.000313503
                    -0.000438295      0.00105699          0.47484       -0.842076      0.000717887    -0.000320247        -0.219813      -0.0428202
281702.3               -0.105592       -0.222557      0.000883021    -0.000271631        -0.870229       -0.406366     -0.000423228      0.00105925
                     0.000910107    -0.000281329        -0.151688       -0.163917      -0.00118105    -0.000606228         0.474826       -0.842086
                       -0.870331       -0.406254      -0.00107451     -0.00061585         0.228819      -0.0708585      0.000768066    -0.000313552
                    -0.000438264      0.00105703         0.474812       -0.842092      0.000717858    -0.000320287        -0.219816       -0.042815
281702.4               -0.105594       -0.222566      0.000883041     -0.00027166        -0.870242       -0.406331     -0.000423194      0.00105929
                     0.000910126    -0.000281364        -0.151696       -0.163912      -0.00118112    -0.000606179         0.474799       -0.842101
                       -0.870345       -0.406219      -0.00107455    -0.000615821         0.228821      -0.0708813      0.000768057    -0.000313602
                    -0.000438232      0.00105707         0.474785       -0.842107       0.00071783    -0.000320326        -0.219819      -0.0428099
281702.5               -0.105596       -0.222575      0.000883061     -0.00027169        -0.870256       -0.406296     -0.000423159      0.00105933
                     0.000910145    -0.000281398        -0.151704       -0.163907      -0.00118118    -0.000606131         0.474771       -0.842116
                       -0.870358       -0.406184       -0.0010746    -0.000615792         0.228824       -0.070904      0.000768049    -0.000313652
                      -0.0004382      0.00105711         0.474757       -0.842122      0.000717801    -0.000320366        -0.219822      -0.0428048
281702.6               -0.105598       -0.222584      0.000883081    -0.000271719        -0.870269       -0.406261     -0.000423125      0.00105937
                     0.000910163    -0.000281433        -0.151712       -0.163903      -0.00118124    -0.000606082         0.474744       -0.842131
                       -0.870372        -0.40615      -0.00107464    -0.000615763         0.228826      -0.0709268       0.00076804    -0.000313701
                    -0.000438168      0.00105715          0.47473       -0.842137      0.000717772    -0.000320406        -0.219825      -0.0427997
281702.7                 -0.1056       -0.222593        0.0008831    -0.000271748        -0.870283       -0.406226      -0.00042309      0.00105941
                     0.000910182    -0.000281467        -0.151719       -0.163898      -0.00118131    -0.000606033         0.474716       -0.842146
                       -0.870385       -0.406115      -0.00107469    -0.000615734         0.228829      -0.0709495      0.000768032    -0.000313751
                    -0.000438136      0.00105719         0.474702       -0.842152      0.000717744    -0.000320446        -0.219827      -0.0427946
281702.8               -0.105602       -0.222602       0.00088312    -0.000271778        -0.870296       -0.406191     -0.000423056      0.00105946
                     0.000910201    -0.000281502        -0.151727       -0.163893      -0.00118137    -0.000605985         0.474689       -0.842161
                       -0.870399        -0.40608      -0.00107474    -0.000615705         0.228831      -0.0709723      0.000768024    -0.000313801
                    -0.000438104      0.00105724         0.474675       -0.842167      0.000717715    -0.000320486         -0.21983      -0.0427895
281702.9               -0.105604       -0.222611       0.00088314    -0.000271807         -0.87031       -0.406156     -0.000423021       0.0010595
                      0.00091022    -0.000281536        -0.151735       -0.163889      -0.00118143    -0.000605936         0.474661       -0.842177
                       -0.870412       -0.406045      -0.00107478    -0.000615676         0.228834      -0.0709951      0.000768015     -0.00031385
                    -0.000438072      0.00105728         0.474647       -0.842182      0.000717686    -0.000320525        -0.219833      -0.0427844
281703                 -0.105606        -0.22262       0.00088316    -0.000271836        -0.870323       -0.406121     -0.000422987      0.00105954
                     0.000910239     -0.00028157        -0.151743       -0.163884       -0.0011815    -0.000605888         0.474634       -0.842192
                       -0.870426        -0.40601      -0.00107483    -0.000615647         0.228836      -0.0710178      0.000768007      -0.0003139
                     -0.00043804      0.00105732          0.47462       -0.842197      0.000717657    -0.000320565        -0.219836      -0.0427793
281703.1               -0.105608       -0.222628       0.00088318    -0.000271866        -0.870337       -0.406086     -0.000422952      0.00105958
                     0.000910258    -0.000281605         -0.15175       -0.163879      -0.00118156    -0.000605839         0.474606       -0.842207
                       -0.870439       -0.405975      -0.00107487    -0.000615618         0.228839      -0.0710406      0.000767998     -0.00031395
