! TOUCHSTONE file generated by CST MICROWAVE STUDIO
! Date and time: Wed Oct  8 06:59:53 2025
! Project name: Teste_Macro_Metasurface_Nanopilar.cst
! Parameters = {H=600; L_x=145; L_y=155; Lambda=1064; Max_L=200; Min_L=70; PathPara=1; Phi=0; Step_L=10; Theta=0; p=520; phaseX=180; phaseY=0}
! Header version: 2018
! Port assignment regex: !\s*Touchstone port\s*([0-9]+)\s*=\s*(CST MWS port|CST DS port)\s*([0-9]+|Zmin|Zmax)\s*\(\"(.*)\"\)(\s*mode\s*([0-9]+))?.*
! Touchstone port assignment:
! Touchstone port 1 = CST MWS port Zmax ("") mode 1
! Touchstone port 2 = CST MWS port Zmax ("") mode 2
! Touchstone port 3 = CST MWS port Zmin ("") mode 1
! Touchstone port 4 = CST MWS port Zmin ("") mode 2
! S-Parameters are not renormalized. Each port impedance will be approximated by the real part at minimum frequency. The values are described via the [Reference] keyword.
! Default impedance is overridden by [Reference]
[Version] 2.0
# GHz S RI R 376.73
[Number of Ports] 4
[Reference]
376.73 376.73 376.73 376.73 
[Number of Frequencies] 1001
[Network Data]
281700                 -0.307548        0.340067       0.00027764     0.000149645        -0.514664       -0.707469     -5.09587e-05    -0.000156487
                    -0.000131514     0.000103626        -0.829622       -0.356476     -0.000150672    -0.000608972        -0.213842         0.10059
                       -0.515362       -0.707802     -6.70306e-05    -0.000421691        -0.424502        0.165573     -2.83546e-06     3.66461e-05
                     0.000830508     0.000119996        -0.214185        0.100562      0.000187841     0.000293402        -0.319523       -0.828097
281700.1               -0.307531        0.340069      0.000277653     0.000149625        -0.514693       -0.707455      -5.0962e-05     -0.00015647
                    -0.000131549     0.000103581        -0.829673       -0.356406      -0.00015071    -0.000608889        -0.213769        0.100555
                       -0.515391       -0.707788     -6.70777e-05    -0.000421657        -0.424486        0.165588     -2.79273e-06      3.6608e-05
                     0.000830531     0.000120137        -0.214112        0.100527       0.00018789     0.000293313        -0.319641       -0.828073
281700.2               -0.307514        0.340071      0.000277666     0.000149605        -0.514722       -0.707441     -5.09654e-05    -0.000156453
                    -0.000131585     0.000103537        -0.829725       -0.356335     -0.000150748    -0.000608805        -0.213695        0.100521
                        -0.51542       -0.707774     -6.71248e-05    -0.000421623        -0.424469        0.165602     -2.75001e-06       3.657e-05
                     0.000830553     0.000120277        -0.214038        0.100493      0.000187939     0.000293223         -0.31976        -0.82805
281700.3               -0.307496        0.340072       0.00027768     0.000149585        -0.514751       -0.707427     -5.09688e-05    -0.000156436
                    -0.000131621     0.000103493        -0.829777       -0.356265     -0.000150786    -0.000608721        -0.213622        0.100486
                       -0.515449        -0.70776     -6.71718e-05    -0.000421589        -0.424453        0.165617     -2.70729e-06     3.65319e-05
                     0.000830576     0.000120417        -0.213965        0.100458      0.000187988     0.000293133        -0.319878       -0.828026
281700.4               -0.307479        0.340074      0.000277693     0.000149566         -0.51478       -0.707413     -5.09722e-05    -0.000156419
                    -0.000131656      0.00010345        -0.829829       -0.356194     -0.000150823    -0.000608638        -0.213549        0.100451
                       -0.515478       -0.707746     -6.72189e-05    -0.000421555        -0.424436        0.165631     -2.66459e-06     3.64937e-05
                     0.000830598     0.000120557        -0.213892        0.100423      0.000188036     0.000293043        -0.319996       -0.828002
281700.5               -0.307461        0.340076      0.000277706     0.000149546         -0.51481       -0.707399     -5.09756e-05    -0.000156402
                    -0.000131692     0.000103406        -0.829881       -0.356123     -0.000150861    -0.000608554        -0.213475        0.100417
                       -0.515508       -0.707732     -6.72659e-05    -0.000421522        -0.424419        0.165646     -2.62189e-06     3.64556e-05
                      0.00083062     0.000120696        -0.213818        0.100389      0.000188085     0.000292953        -0.320115       -0.827979
281700.6               -0.307444        0.340078      0.000277719     0.000149526        -0.514839       -0.707385     -5.09789e-05    -0.000156385
                    -0.000131728     0.000103362        -0.829932       -0.356053     -0.000150899     -0.00060847        -0.213402        0.100382
                       -0.515537       -0.707718      -6.7313e-05    -0.000421488        -0.424403         0.16566     -2.57921e-06     3.64175e-05
                     0.000830642     0.000120836        -0.213745        0.100354      0.000188134     0.000292864        -0.320233       -0.827955
281700.7               -0.307427        0.340079      0.000277733     0.000149506        -0.514868       -0.707371     -5.09823e-05    -0.000156368
                    -0.000131764     0.000103319        -0.829984       -0.355982     -0.000150936    -0.000608387        -0.213329        0.100347
                       -0.515566       -0.707703     -6.73601e-05    -0.000421454        -0.424386        0.165675     -2.53653e-06     3.63794e-05
                     0.000830665     0.000120975        -0.213672        0.100319      0.000188182     0.000292774        -0.320351       -0.827931
281700.8               -0.307409        0.340081      0.000277746     0.000149486        -0.514897       -0.707358     -5.09857e-05    -0.000156351
                      -0.0001318     0.000103275        -0.830036       -0.355912     -0.000150974    -0.000608303        -0.213255        0.100313
                       -0.515595       -0.707689     -6.74071e-05     -0.00042142         -0.42437        0.165689     -2.49387e-06     3.63412e-05
                     0.000830687     0.000121114        -0.213598        0.100285      0.000188231     0.000292684         -0.32047       -0.827907
281700.9               -0.307392        0.340083      0.000277759     0.000149466        -0.514926       -0.707344      -5.0989e-05    -0.000156334
                    -0.000131835     0.000103232        -0.830088       -0.355841     -0.000151012    -0.000608219        -0.213182        0.100278
                       -0.515624       -0.707675     -6.74542e-05    -0.000421386        -0.424353        0.165704     -2.45121e-06     3.63031e-05
                     0.000830709     0.000121252        -0.213525         0.10025      0.000188279     0.000292595        -0.320588       -0.827883
281701                 -0.307374        0.340084      0.000277772     0.000149446        -0.514955        -0.70733     -5.09924e-05    -0.000156317
                    -0.000131871     0.000103189        -0.830139        -0.35577     -0.000151049    -0.000608136        -0.213109        0.100243
                       -0.515653       -0.707661     -6.75012e-05    -0.000421352        -0.424337        0.165718     -2.40856e-06     3.62649e-05
                      0.00083073     0.000121391        -0.213452        0.100215      0.000188328     0.000292505        -0.320707        -0.82786
281701.1               -0.307357        0.340086      0.000277786     0.000149426        -0.514984       -0.707316     -5.09958e-05      -0.0001563
                    -0.000131907     0.000103146        -0.830191         -0.3557     -0.000151087    -0.000608052        -0.213036        0.100208
                       -0.515682       -0.707647     -6.75483e-05    -0.000421318         -0.42432        0.165733     -2.36593e-06     3.62267e-05
                     0.000830752     0.000121529        -0.213378        0.100181      0.000188376     0.000292415        -0.320825       -0.827836
281701.2                -0.30734        0.340088      0.000277799     0.000149407        -0.515013       -0.707302     -5.09991e-05    -0.000156283
                    -0.000131943     0.000103102        -0.830243       -0.355629     -0.000151125    -0.000607969        -0.212962        0.100173
                       -0.515711       -0.707633     -6.75953e-05    -0.000421284        -0.424303        0.165747      -2.3233e-06     3.61885e-05
                     0.000830774     0.000121668        -0.213305        0.100146      0.000188424     0.000292325        -0.320943       -0.827812
281701.3               -0.307322         0.34009      0.000277812     0.000149387        -0.515042       -0.707288     -5.10025e-05    -0.000156266
                    -0.000131979      0.00010306        -0.830295       -0.355558     -0.000151162    -0.000607885        -0.212889        0.100139
                        -0.51574       -0.707619     -6.76423e-05     -0.00042125        -0.424287        0.165762     -2.28068e-06     3.61503e-05
                     0.000830796     0.000121806        -0.213232        0.100111      0.000188473     0.000292236        -0.321062       -0.827788
281701.4               -0.307305        0.340091      0.000277825     0.000149367        -0.515071       -0.707274     -5.10059e-05    -0.000156249
                    -0.000132016     0.000103017        -0.830346       -0.355487       -0.0001512    -0.000607801        -0.212816        0.100104
                       -0.515769       -0.707605     -6.76894e-05    -0.000421216         -0.42427        0.165776     -2.23807e-06     3.61121e-05
                     0.000830817     0.000121944        -0.213159        0.100076      0.000188521     0.000292146         -0.32118       -0.827764
281701.5               -0.307287        0.340093      0.000277839     0.000149347          -0.5151        -0.70726     -5.10092e-05    -0.000156232
                    -0.000132052     0.000102974        -0.830398       -0.355417     -0.000151237    -0.000607718        -0.212743        0.100069
                       -0.515799        -0.70759     -6.77364e-05    -0.000421182        -0.424254        0.165791     -2.19547e-06     3.60739e-05
                     0.000830839     0.000122081        -0.213085        0.100041      0.000188569     0.000292056        -0.321298        -0.82774
281701.6                -0.30727        0.340095      0.000277852     0.000149327        -0.515129       -0.707246     -5.10126e-05    -0.000156215
                    -0.000132088     0.000102931         -0.83045       -0.355346     -0.000151275    -0.000607634        -0.212669        0.100034
                       -0.515828       -0.707576     -6.77834e-05    -0.000421148        -0.424237        0.165805     -2.15288e-06     3.60357e-05
                      0.00083086     0.000122219        -0.213012        0.100007      0.000188617     0.000291966        -0.321417       -0.827716
281701.7               -0.307253        0.340096      0.000277865     0.000149307        -0.515159       -0.707232     -5.10159e-05    -0.000156198
                    -0.000132124     0.000102889        -0.830501       -0.355275     -0.000151312    -0.000607551        -0.212596       0.0999991
                       -0.515857       -0.707562     -6.78305e-05    -0.000421114         -0.42422         0.16582      -2.1103e-06     3.59974e-05
                     0.000830882     0.000122356        -0.212939       0.0999716      0.000188665     0.000291877        -0.321535       -0.827692
281701.8               -0.307235        0.340098      0.000277878     0.000149287        -0.515188       -0.707218     -5.10193e-05    -0.000156181
                     -0.00013216     0.000102846        -0.830553       -0.355205      -0.00015135    -0.000607467        -0.212523       0.0999642
                       -0.515886       -0.707548     -6.78775e-05     -0.00042108        -0.424204        0.165834     -2.06773e-06     3.59592e-05
                     0.000830903     0.000122493        -0.212866       0.0999368      0.000188714     0.000291787        -0.321653       -0.827668
281701.9               -0.307218          0.3401      0.000277892     0.000149267        -0.515217       -0.707204     -5.10226e-05    -0.000156164
                    -0.000132197     0.000102804        -0.830605       -0.355134     -0.000151387    -0.000607383         -0.21245       0.0999293
                       -0.515915       -0.707534     -6.79245e-05    -0.000421046        -0.424187        0.165849     -2.02517e-06     3.59209e-05
                     0.000830924      0.00012263        -0.212793       0.0999019      0.000188762     0.000291697        -0.321772       -0.827644
281702                   -0.3072        0.340102      0.000277905     0.000149247        -0.515246        -0.70719      -5.1026e-05    -0.000156147
                    -0.000132233     0.000102762        -0.830656       -0.355063     -0.000151425      -0.0006073        -0.212377       0.0998943
                       -0.515944        -0.70752     -6.79715e-05    -0.000421012        -0.424171        0.165863     -1.98262e-06     3.58827e-05
                     0.000830945     0.000122766        -0.212719        0.099867       0.00018881     0.000291608         -0.32189        -0.82762
281702.1               -0.307183        0.340103      0.000277918     0.000149227        -0.515275       -0.707176     -5.10293e-05     -0.00015613
                    -0.000132269      0.00010272        -0.830708       -0.354992     -0.000151462    -0.000607216        -0.212304       0.0998594
                       -0.515973       -0.707506     -6.80185e-05    -0.000420978        -0.424154        0.165878     -1.94008e-06     3.58444e-05
                     0.000830966     0.000122903        -0.212646       0.0998321      0.000188858     0.000291518        -0.322008       -0.827596
281702.2               -0.307166        0.340105      0.000277931     0.000149207        -0.515304       -0.707162     -5.10327e-05    -0.000156113
                    -0.000132306     0.000102678        -0.830759       -0.354921       -0.0001515    -0.000607133         -0.21223       0.0998244
                       -0.516002       -0.707492     -6.80655e-05    -0.000420944        -0.424138        0.165892     -1.89754e-06     3.58061e-05
                     0.000830987     0.000123039        -0.212573       0.0997971      0.000188905     0.000291428        -0.322127       -0.827572
281702.3               -0.307148        0.340107      0.000277944     0.000149187        -0.515333       -0.707148      -5.1036e-05    -0.000156096
                    -0.000132342     0.000102636        -0.830811       -0.354851     -0.000151537    -0.000607049        -0.212157       0.0997894
                       -0.516031       -0.707477     -6.81126e-05     -0.00042091        -0.424121        0.165907     -1.85502e-06     3.57678e-05
                     0.000831008     0.000123175          -0.2125       0.0997622      0.000188953     0.000291339        -0.322245       -0.827547
281702.4               -0.307131        0.340108      0.000277958     0.000149168        -0.515362       -0.707134     -5.10394e-05     -0.00015608
                    -0.000132379     0.000102594        -0.830863        -0.35478     -0.000151574    -0.000606966        -0.212084       0.0997544
                        -0.51606       -0.707463     -6.81596e-05    -0.000420876        -0.424104        0.165921     -1.81251e-06     3.57295e-05
                     0.000831029     0.000123311        -0.212427       0.0997272      0.000189001     0.000291249        -0.322363       -0.827523
281702.5               -0.307114         0.34011      0.000277971     0.000149148        -0.515391        -0.70712     -5.10427e-05    -0.000156063
                    -0.000132415     0.000102552        -0.830914       -0.354709     -0.000151612    -0.000606882        -0.212011       0.0997194
                       -0.516089       -0.707449     -6.82066e-05    -0.000420842        -0.424088        0.165936        -1.77e-06     3.56912e-05
                     0.000831049     0.000123447        -0.212354       0.0996922      0.000189049     0.000291159        -0.322482       -0.827499
281702.6               -0.307096        0.340112      0.000277984     0.000149128         -0.51542       -0.707106     -5.10461e-05    -0.000156046
                    -0.000132452      0.00010251        -0.830966       -0.354638     -0.000151649    -0.000606799        -0.211938       0.0996843
                       -0.516119       -0.707435     -6.82536e-05    -0.000420808        -0.424071         0.16595     -1.72751e-06     3.56529e-05
                      0.00083107     0.000123582         -0.21228       0.0996572      0.000189097      0.00029107          -0.3226       -0.827475
281702.7               -0.307079        0.340114      0.000277997     0.000149108        -0.515449       -0.707092     -5.10494e-05    -0.000156029
                    -0.000132488     0.000102469        -0.831017       -0.354567     -0.000151686    -0.000606715        -0.211865       0.0996493
                       -0.516148       -0.707421     -6.83006e-05    -0.000420774        -0.424055        0.165965     -1.68502e-06     3.56146e-05
                     0.000831091     0.000123717        -0.212207       0.0996222      0.000189144      0.00029098        -0.322718       -0.827451
281702.8               -0.307061        0.340115       0.00027801     0.000149088        -0.515478       -0.707078     -5.10527e-05    -0.000156012
                    -0.000132525     0.000102428        -0.831069       -0.354496     -0.000151724    -0.000606632        -0.211792       0.0996142
                       -0.516177       -0.707407     -6.83476e-05     -0.00042074        -0.424038        0.165979     -1.64255e-06     3.55762e-05
                     0.000831111     0.000123852        -0.212134       0.0995872      0.000189192      0.00029089        -0.322836       -0.827426
281702.9               -0.307044        0.340117      0.000278024     0.000149068        -0.515507       -0.707064     -5.10561e-05    -0.000155995
                    -0.000132561     0.000102386         -0.83112       -0.354426     -0.000151761    -0.000606548        -0.211718       0.0995791
                       -0.516206       -0.707393     -6.83945e-05    -0.000420706        -0.424021        0.165994     -1.60008e-06     3.55379e-05
                     0.000831131     0.000123987        -0.212061       0.0995521       0.00018924     0.000290801        -0.322955       -0.827402
281703                 -0.307027        0.340119      0.000278037     0.000149048        -0.515536        -0.70705     -5.10594e-05    -0.000155978
                    -0.000132598     0.000102345        -0.831172       -0.354355     -0.000151798    -0.000606465        -0.211645        0.099544
                       -0.516235       -0.707378     -6.84415e-05    -0.000420672        -0.424005        0.166008     -1.55762e-06     3.54995e-05
                     0.000831152     0.000124122        -0.211988        0.099517      0.000189287     0.000290711        -0.323073       -0.827378
281703.1               -0.307009         0.34012       0.00027805     0.000149028        -0.515566       -0.707036     -5.10627e-05    -0.000155961
                    -0.000132635     0.000102304        -0.831223       -0.354284     -0.000151835    -0.000606381        -0.211572       0.0995089
                       -0.516264       -0.707364     -6.84885e-05    -0.000420638        -0.423988        0.166022     -1.51518e-06     3.54611e-05
