! TOUCHSTONE file generated by CST MICROWAVE STUDIO
! Date and time: Wed Oct  8 06:59:00 2025
! Project name: Teste_Macro_Metasurface_Nanopilar.cst
! Parameters = {H=600; L_x=140; L_y=90; Lambda=1064; Max_L=200; Min_L=70; PathPara=1; Phi=0; Step_L=10; Theta=0; p=520; phaseX=180; phaseY=0}
! Header version: 2018
! Port assignment regex: !\s*Touchstone port\s*([0-9]+)\s*=\s*(CST MWS port|CST DS port)\s*([0-9]+|Zmin|Zmax)\s*\(\"(.*)\"\)(\s*mode\s*([0-9]+))?.*
! Touchstone port assignment:
! Touchstone port 1 = CST MWS port Zmax ("") mode 1
! Touchstone port 2 = CST MWS port Zmax ("") mode 2
! Touchstone port 3 = CST MWS port Zmin ("") mode 1
! Touchstone port 4 = CST MWS port Zmin ("") mode 2
! S-Parameters are not renormalized. Each port impedance will be approximated by the real part at minimum frequency. The values are described via the [Reference] keyword.
! Default impedance is overridden by [Reference]
[Version] 2.0
# GHz S RI R 376.73
[Number of Ports] 4
[Reference]
376.73 376.73 376.73 376.73 
[Number of Frequencies] 1001
[Network Data]
281700                -0.0434648       -0.174112     -0.000132453     0.000123876        -0.555546        0.809792       2.5147e-05    -0.000222891
                     7.56622e-06     0.000137662        0.0550275        -0.13566      9.47533e-05     0.000137655         0.748019       -0.632123
                       -0.555326        0.809061      7.19524e-05     0.000119312        -0.178398       0.0226609     -0.000235721     0.000254957
                    -0.000150171    -0.000375663         0.748145       -0.632325      -5.2439e-05     0.000205896         -0.14677       0.0347086
281700.1              -0.0434718       -0.174111      -0.00013246     0.000123884        -0.555524        0.809808      2.51318e-05    -0.000222893
                     7.55704e-06      0.00013764        0.0550187       -0.135664      9.47649e-05      0.00013767         0.747997       -0.632148
                       -0.555303        0.809076      7.19609e-05     0.000119312        -0.178397       0.0226635     -0.000235704      0.00025497
                    -0.000150209    -0.000375704         0.748124       -0.632351     -5.24235e-05     0.000205927        -0.146771       0.0347093
281700.2              -0.0434789       -0.174109     -0.000132467     0.000123892        -0.555501        0.809823      2.51167e-05    -0.000222895
                     7.54786e-06     0.000137618          0.05501       -0.135668      9.47766e-05     0.000137686         0.747976       -0.632174
                       -0.555281        0.809092      7.19694e-05     0.000119312        -0.178397       0.0226662     -0.000235688     0.000254983
                    -0.000150247    -0.000375746         0.748102       -0.632377      -5.2408e-05     0.000205959        -0.146771       0.0347099
281700.3               -0.043486       -0.174107     -0.000132473       0.0001239        -0.555479        0.809839      2.51015e-05    -0.000222898
                     7.53867e-06     0.000137596        0.0550013       -0.135672      9.47883e-05     0.000137701         0.747954         -0.6322
                       -0.555258        0.809107       7.1978e-05     0.000119311        -0.178396       0.0226688     -0.000235671     0.000254996
                    -0.000150285    -0.000375788          0.74808       -0.632402     -5.23925e-05      0.00020599        -0.146771       0.0347106
281700.4              -0.0434931       -0.174105      -0.00013248     0.000123908        -0.555456        0.809854      2.50864e-05      -0.0002229
                     7.52948e-06     0.000137574        0.0549926       -0.135676         9.48e-05     0.000137716         0.747932       -0.632225
                       -0.555236        0.809122      7.19865e-05     0.000119311        -0.178396       0.0226714     -0.000235654     0.000255009
                    -0.000150323    -0.000375829         0.748059       -0.632428      -5.2377e-05     0.000206022        -0.146771       0.0347112
281700.5              -0.0435001       -0.174103     -0.000132487     0.000123915        -0.555434         0.80987      2.50712e-05    -0.000222903
                     7.52028e-06     0.000137552        0.0549839       -0.135679      9.48117e-05     0.000137732          0.74791       -0.632251
                       -0.555213        0.809138      7.19951e-05      0.00011931        -0.178396       0.0226741     -0.000235637     0.000255022
                    -0.000150361    -0.000375871         0.748037       -0.632454     -5.23615e-05     0.000206053        -0.146771       0.0347119
281700.6              -0.0435072       -0.174101     -0.000132494     0.000123923        -0.555411        0.809885      2.50561e-05    -0.000222905
                     7.51108e-06      0.00013753        0.0549752       -0.135683      9.48234e-05     0.000137747         0.747889       -0.632277
                        -0.55519        0.809153      7.20036e-05      0.00011931        -0.178395       0.0226767      -0.00023562     0.000255035
                    -0.000150399    -0.000375912         0.748015       -0.632479      -5.2346e-05     0.000206084        -0.146771       0.0347125
281700.7              -0.0435143       -0.174099     -0.000132501     0.000123931        -0.555388        0.809901      2.50409e-05    -0.000222907
                     7.50188e-06     0.000137508        0.0549665       -0.135687      9.48351e-05     0.000137763         0.747867       -0.632302
                       -0.555168        0.809169      7.20121e-05      0.00011931        -0.178395       0.0226794     -0.000235603     0.000255048
                    -0.000150437    -0.000375954         0.747993       -0.632505     -5.23305e-05     0.000206116        -0.146771       0.0347132
281700.8              -0.0435213       -0.174098     -0.000132507     0.000123939        -0.555366        0.809916      2.50258e-05     -0.00022291
                     7.49268e-06     0.000137486        0.0549578       -0.135691      9.48467e-05     0.000137778         0.747845       -0.632328
                       -0.555145        0.809184      7.20207e-05     0.000119309        -0.178394        0.022682     -0.000235586     0.000255061
                    -0.000150475    -0.000375996         0.747972       -0.632531      -5.2315e-05     0.000206147        -0.146771       0.0347138
281700.9              -0.0435284       -0.174096     -0.000132514     0.000123947        -0.555343        0.809932      2.50107e-05    -0.000222912
                     7.48347e-06     0.000137464        0.0549491       -0.135695      9.48584e-05     0.000137793         0.747824       -0.632354
                       -0.555123          0.8092      7.20292e-05     0.000119309        -0.178394       0.0226847      -0.00023557     0.000255074
                    -0.000150513    -0.000376037          0.74795       -0.632556     -5.22995e-05     0.000206178        -0.146771       0.0347145
281701                -0.0435355       -0.174094     -0.000132521     0.000123955        -0.555321        0.809947      2.49955e-05    -0.000222914
                     7.47426e-06     0.000137442        0.0549404       -0.135699      9.48701e-05     0.000137809         0.747802       -0.632379
                         -0.5551        0.809215      7.20378e-05     0.000119308        -0.178393       0.0226873     -0.000235553     0.000255087
                    -0.000150551    -0.000376079         0.747928       -0.632582      -5.2284e-05      0.00020621        -0.146771       0.0347151
281701.1              -0.0435426       -0.174092     -0.000132528     0.000123962        -0.555298        0.809963      2.49804e-05    -0.000222917
                     7.46504e-06      0.00013742        0.0549317       -0.135703      9.48818e-05     0.000137824          0.74778       -0.632405
                       -0.555078        0.809231      7.20463e-05     0.000119308        -0.178393         0.02269     -0.000235536       0.0002551
                    -0.000150589     -0.00037612         0.747906       -0.632608     -5.22685e-05     0.000206241        -0.146771       0.0347158
281701.2              -0.0435496        -0.17409     -0.000132534      0.00012397        -0.555275        0.809978      2.49652e-05    -0.000222919
                     7.45582e-06     0.000137398         0.054923       -0.135706      9.48935e-05      0.00013784         0.747758       -0.632431
                       -0.555055        0.809246      7.20549e-05     0.000119308        -0.178392       0.0226926     -0.000235519     0.000255113
                    -0.000150627    -0.000376162         0.747885       -0.632633      -5.2253e-05     0.000206273        -0.146771       0.0347165
281701.3              -0.0435567       -0.174088     -0.000132541     0.000123978        -0.555253        0.809993      2.49501e-05    -0.000222922
                      7.4466e-06     0.000137376        0.0549142        -0.13571      9.49052e-05     0.000137855         0.747737       -0.632456
                       -0.555033        0.809261      7.20634e-05     0.000119307        -0.178392       0.0226953     -0.000235502     0.000255126
                    -0.000150665    -0.000376203         0.747863       -0.632659     -5.22374e-05     0.000206304        -0.146771       0.0347171
281701.4              -0.0435638       -0.174086     -0.000132548     0.000123986         -0.55523        0.810009      2.49349e-05    -0.000222924
                     7.43737e-06     0.000137355        0.0549055       -0.135714      9.49169e-05      0.00013787         0.747715       -0.632482
                        -0.55501        0.809277      7.20719e-05     0.000119307        -0.178392       0.0226979     -0.000235485     0.000255139
                    -0.000150703    -0.000376245         0.747841       -0.632685     -5.22219e-05     0.000206335        -0.146771       0.0347178
281701.5              -0.0435708       -0.174085     -0.000132555     0.000123994        -0.555208        0.810024      2.49198e-05    -0.000222926
                     7.42814e-06     0.000137333        0.0548968       -0.135718      9.49286e-05     0.000137886         0.747693       -0.632508
                       -0.554988        0.809292      7.20805e-05     0.000119307        -0.178391       0.0227006     -0.000235469     0.000255152
                    -0.000150741    -0.000376286         0.747819        -0.63271     -5.22064e-05     0.000206367        -0.146771       0.0347184
281701.6              -0.0435779       -0.174083     -0.000132561     0.000124002        -0.555185         0.81004      2.49046e-05    -0.000222929
                     7.41891e-06     0.000137311        0.0548881       -0.135722      9.49403e-05     0.000137901         0.747672       -0.632533
                       -0.554965        0.809308       7.2089e-05     0.000119306        -0.178391       0.0227032     -0.000235452     0.000255165
                    -0.000150779    -0.000376328         0.747798       -0.632736     -5.21908e-05     0.000206398        -0.146771       0.0347191
281701.7               -0.043585       -0.174081     -0.000132568      0.00012401        -0.555163        0.810055      2.48895e-05    -0.000222931
                     7.40967e-06     0.000137289        0.0548794       -0.135726       9.4952e-05     0.000137917          0.74765       -0.632559
                       -0.554942        0.809323      7.20976e-05     0.000119306         -0.17839       0.0227059     -0.000235435     0.000255178
                    -0.000150817    -0.000376369         0.747776       -0.632762     -5.21753e-05     0.000206429        -0.146771       0.0347197
281701.8              -0.0435921       -0.174079     -0.000132575     0.000124017         -0.55514        0.810071      2.48743e-05    -0.000222933
                     7.40043e-06     0.000137267        0.0548707        -0.13573      9.49637e-05     0.000137932         0.747628       -0.632585
                        -0.55492        0.809339      7.21061e-05     0.000119305         -0.17839       0.0227085     -0.000235418     0.000255191
                    -0.000150856    -0.000376411         0.747754       -0.632787     -5.21597e-05     0.000206461        -0.146771       0.0347204
281701.9              -0.0435991       -0.174077     -0.000132582     0.000124025        -0.555117        0.810086      2.48592e-05    -0.000222936
                     7.39119e-06     0.000137245         0.054862       -0.135733      9.49754e-05     0.000137947         0.747606        -0.63261
                       -0.554897        0.809354      7.21147e-05     0.000119305        -0.178389       0.0227111     -0.000235401     0.000255204
                    -0.000150894    -0.000376452         0.747733       -0.632813     -5.21442e-05     0.000206492        -0.146771        0.034721
281702                -0.0436062       -0.174075     -0.000132588     0.000124033        -0.555095        0.810102       2.4844e-05    -0.000222938
                     7.38194e-06     0.000137223        0.0548533       -0.135737      9.49871e-05     0.000137963         0.747585       -0.632636
                       -0.554875         0.80937      7.21232e-05     0.000119305        -0.178389       0.0227138     -0.000235384     0.000255217
                    -0.000150932    -0.000376494         0.747711       -0.632839     -5.21286e-05     0.000206524        -0.146771       0.0347217
281702.1              -0.0436133       -0.174073     -0.000132595     0.000124041        -0.555072        0.810117      2.48289e-05    -0.000222941
                     7.37269e-06     0.000137201        0.0548446       -0.135741      9.49988e-05     0.000137978         0.747563       -0.632662
                       -0.554852        0.809385      7.21318e-05     0.000119304        -0.178388       0.0227164     -0.000235368      0.00025523
                     -0.00015097    -0.000376535         0.747689       -0.632864     -5.21131e-05     0.000206555        -0.146771       0.0347224
281702.2              -0.0436203       -0.174072     -0.000132602     0.000124049         -0.55505        0.810133      2.48137e-05    -0.000222943
                     7.36344e-06     0.000137179        0.0548359       -0.135745      9.50105e-05     0.000137994         0.747541       -0.632688
                        -0.55483          0.8094      7.21403e-05     0.000119304        -0.178388       0.0227191     -0.000235351     0.000255243
                    -0.000151008    -0.000376577         0.747667        -0.63289     -5.20975e-05     0.000206586        -0.146771        0.034723
281702.3              -0.0436274        -0.17407     -0.000132609     0.000124057        -0.555027        0.810148      2.47986e-05    -0.000222945
                     7.35418e-06     0.000137157        0.0548271       -0.135749      9.50222e-05     0.000138009         0.747519       -0.632713
                       -0.554807        0.809416      7.21489e-05     0.000119303        -0.178388       0.0227217     -0.000235334     0.000255256
                    -0.000151046    -0.000376618         0.747646       -0.632916     -5.20819e-05     0.000206618        -0.146771       0.0347237
281702.4              -0.0436345       -0.174068     -0.000132615     0.000124064        -0.555005        0.810164      2.47835e-05    -0.000222948
                     7.34492e-06     0.000137135        0.0548184       -0.135753      9.50339e-05     0.000138024         0.747498       -0.632739
                       -0.554785        0.809431      7.21574e-05     0.000119303        -0.178387       0.0227244     -0.000235317     0.000255269
                    -0.000151084     -0.00037666         0.747624       -0.632941     -5.20664e-05     0.000206649        -0.146771       0.0347243
281702.5              -0.0436416       -0.174066     -0.000132622     0.000124072        -0.554982        0.810179      2.47683e-05     -0.00022295
                     7.33565e-06     0.000137113        0.0548097       -0.135757      9.50456e-05      0.00013804         0.747476       -0.632764
                       -0.554762        0.809447       7.2166e-05     0.000119303        -0.178387        0.022727       -0.0002353     0.000255282
                    -0.000151122    -0.000376701         0.747602       -0.632967     -5.20508e-05      0.00020668        -0.146771        0.034725
281702.6              -0.0436486       -0.174064     -0.000132629      0.00012408        -0.554959        0.810195      2.47532e-05    -0.000222952
                     7.32639e-06     0.000137091         0.054801        -0.13576      9.50573e-05     0.000138055         0.747454        -0.63279
                       -0.554739        0.809462      7.21745e-05     0.000119302        -0.178386       0.0227297     -0.000235283     0.000255295
                    -0.000151161    -0.000376743          0.74758       -0.632993     -5.20352e-05     0.000206712        -0.146771       0.0347256
281702.7              -0.0436557       -0.174062     -0.000132636     0.000124088        -0.554937         0.81021       2.4738e-05    -0.000222955
                     7.31711e-06      0.00013707        0.0547923       -0.135764       9.5069e-05     0.000138071         0.747433       -0.632816
                       -0.554717        0.809478      7.21831e-05     0.000119302        -0.178386       0.0227323     -0.000235267     0.000255308
                    -0.000151199    -0.000376784         0.747559       -0.633018     -5.20196e-05     0.000206743        -0.146771       0.0347263
281702.8              -0.0436628        -0.17406     -0.000132642     0.000124096        -0.554914        0.810226      2.47229e-05    -0.000222957
                     7.30784e-06     0.000137048        0.0547836       -0.135768      9.50807e-05     0.000138086         0.747411       -0.632841
                       -0.554694        0.809493      7.21916e-05     0.000119301        -0.178385        0.022735      -0.00023525     0.000255321
                    -0.000151237    -0.000376826         0.747537       -0.633044      -5.2004e-05     0.000206775        -0.146771       0.0347269
281702.9              -0.0436698       -0.174058     -0.000132649     0.000124104        -0.554892        0.810241      2.47077e-05     -0.00022296
                     7.29856e-06     0.000137026        0.0547749       -0.135772      9.50924e-05     0.000138101         0.747389       -0.632867
                       -0.554672        0.809509      7.22002e-05     0.000119301        -0.178385       0.0227376     -0.000235233     0.000255334
                    -0.000151275    -0.000376867         0.747515        -0.63307     -5.19884e-05     0.000206806        -0.146771       0.0347276
281703                -0.0436769       -0.174057     -0.000132656     0.000124112        -0.554869        0.810257      2.46926e-05    -0.000222962
                     7.28928e-06     0.000137004        0.0547662       -0.135776      9.51041e-05     0.000138117         0.747367       -0.632893
                       -0.554649        0.809524      7.22087e-05     0.000119301        -0.178385       0.0227403     -0.000235216     0.000255347
                    -0.000151313    -0.000376909         0.747493       -0.633095     -5.19728e-05     0.000206837        -0.146771       0.0347283
281703.1               -0.043684       -0.174055     -0.000132663     0.000124119        -0.554846        0.810272      2.46774e-05    -0.000222964
                     7.27999e-06     0.000136982        0.0547574        -0.13578      9.51158e-05     0.000138132         0.747346       -0.632918
                       -0.554627        0.809539      7.22173e-05       0.0001193        -0.178384       0.0227429     -0.000235199      0.00025536
