! TOUCHSTONE file generated by CST MICROWAVE STUDIO
! Date and time: Wed Oct  8 07:01:33 2025
! Project name: Teste_Macro_Metasurface_Nanopilar.cst
! Parameters = {H=600; L_x=160; L_y=125; Lambda=1064; Max_L=200; Min_L=70; PathPara=1; Phi=0; Step_L=10; Theta=0; p=520; phaseX=180; phaseY=0}
! Header version: 2018
! Port assignment regex: !\s*Touchstone port\s*([0-9]+)\s*=\s*(CST MWS port|CST DS port)\s*([0-9]+|Zmin|Zmax)\s*\(\"(.*)\"\)(\s*mode\s*([0-9]+))?.*
! Touchstone port assignment:
! Touchstone port 1 = CST MWS port Zmax ("") mode 1
! Touchstone port 2 = CST MWS port Zmax ("") mode 2
! Touchstone port 3 = CST MWS port Zmin ("") mode 1
! Touchstone port 4 = CST MWS port Zmin ("") mode 2
! S-Parameters are not renormalized. Each port impedance will be approximated by the real part at minimum frequency. The values are described via the [Reference] keyword.
! Default impedance is overridden by [Reference]
[Version] 2.0
# GHz S RI R 376.73
[Number of Ports] 4
[Reference]
376.73 376.73 376.73 376.73 
[Number of Frequencies] 1001
[Network Data]
281700                 -0.239075     -0.00918666      0.000390742     0.000355901        -0.236644       -0.935864     -0.000206611     -0.00042343
                     0.000298141    -7.05584e-05        -0.814442       -0.387147      0.000254743     -0.00105603        -0.269178        0.164296
                       -0.236577       -0.936018     -0.000252602    -0.000744219        -0.206577        0.121187     -0.000238568     0.000567153
                    -0.000286592     0.000329387        -0.268946        0.164274     -0.000804646      0.00103919        -0.255183       -0.854807
281700.1               -0.239073     -0.00917878      0.000390769     0.000355868        -0.236673       -0.935858     -0.000206637    -0.000423421
                     0.000298079    -7.06549e-05        -0.814485       -0.387099      0.000254682     -0.00105595        -0.269122        0.164282
                       -0.236605       -0.936011     -0.000252666    -0.000744199        -0.206571        0.121191     -0.000238509     0.000567161
                    -0.000286557     0.000329558        -0.268889        0.164261      -0.00080453      0.00103912        -0.255275       -0.854799
281700.2               -0.239071      -0.0091709      0.000390795     0.000355834        -0.236701       -0.935851     -0.000206663    -0.000423412
                     0.000298017    -7.07517e-05        -0.814527       -0.387051      0.000254621     -0.00105587        -0.269066        0.164269
                       -0.236634       -0.936005      -0.00025273    -0.000744179        -0.206566        0.121195      -0.00023845     0.000567169
                    -0.000286518     0.000329725        -0.268833        0.164247     -0.000804414      0.00103906        -0.255367       -0.854791
281700.3               -0.239068     -0.00916302      0.000390822     0.000355801         -0.23673       -0.935845     -0.000206689    -0.000423403
                     0.000297955    -7.08485e-05         -0.81457       -0.387003      0.000254559     -0.00105579        -0.269009        0.164255
                       -0.236662       -0.935998     -0.000252794     -0.00074416         -0.20656        0.121199     -0.000238392     0.000567177
                    -0.000286477     0.000329887        -0.268777        0.164234     -0.000804298      0.00103899        -0.255459       -0.854783
281700.4               -0.239066     -0.00915514      0.000390849     0.000355767        -0.236758       -0.935838     -0.000206715    -0.000423394
                     0.000297894    -7.09454e-05        -0.814613       -0.386955      0.000254498     -0.00105571        -0.268953        0.164242
                       -0.236691       -0.935992     -0.000252857     -0.00074414        -0.206554        0.121204     -0.000238333     0.000567185
                    -0.000286434     0.000330047         -0.26872         0.16422     -0.000804181      0.00103893        -0.255552       -0.854774
281700.5               -0.239063     -0.00914726      0.000390876     0.000355734        -0.236787       -0.935832     -0.000206741    -0.000423385
                     0.000297833    -7.10423e-05        -0.814656       -0.386907      0.000254437     -0.00105563        -0.268897        0.164228
                       -0.236719       -0.935985     -0.000252921     -0.00074412        -0.206549        0.121208     -0.000238274     0.000567193
                    -0.000286388     0.000330203        -0.268664        0.164206     -0.000804065      0.00103886        -0.255644       -0.854766
281700.6               -0.239061     -0.00913938      0.000390902       0.0003557        -0.236815       -0.935825     -0.000206767    -0.000423376
                     0.000297772    -7.11393e-05        -0.814698       -0.386859      0.000254375     -0.00105555         -0.26884        0.164214
                       -0.236747       -0.935979     -0.000252985      -0.0007441        -0.206543        0.121212     -0.000238215     0.000567201
                    -0.000286341     0.000330357        -0.268608        0.164193     -0.000803949       0.0010388        -0.255736       -0.854758
281700.7               -0.239059      -0.0091315      0.000390929     0.000355666        -0.236844       -0.935819     -0.000206793    -0.000423367
                     0.000297712    -7.12362e-05        -0.814741       -0.386811      0.000254313     -0.00105547        -0.268784        0.164201
                       -0.236776       -0.935972     -0.000253049    -0.000744081        -0.206537        0.121217     -0.000238156     0.000567209
                    -0.000286292     0.000330509        -0.268551        0.164179     -0.000803832      0.00103873        -0.255828        -0.85475
281700.8               -0.239056     -0.00912362      0.000390956     0.000355633        -0.236873       -0.935812     -0.000206818    -0.000423358
                     0.000297652    -7.13331e-05        -0.814784       -0.386764      0.000254252     -0.00105538        -0.268728        0.164187
                       -0.236804       -0.935966     -0.000253113    -0.000744061        -0.206532        0.121221     -0.000238097     0.000567217
                    -0.000286242     0.000330658        -0.268495        0.164166     -0.000803716      0.00103867         -0.25592       -0.854742
281700.9               -0.239054     -0.00911574      0.000390983     0.000355599        -0.236901       -0.935806     -0.000206844    -0.000423349
                     0.000297593      -7.143e-05        -0.814827       -0.386716       0.00025419      -0.0010553        -0.268671        0.164174
                       -0.236833       -0.935959     -0.000253176    -0.000744041        -0.206526        0.121225     -0.000238038     0.000567225
                    -0.000286191     0.000330806        -0.268439        0.164152     -0.000803599       0.0010386        -0.256012       -0.854733
281701                 -0.239051     -0.00910786      0.000391009     0.000355566         -0.23693       -0.935799      -0.00020687     -0.00042334
                     0.000297534    -7.15268e-05        -0.814869       -0.386668      0.000254128     -0.00105522        -0.268615         0.16416
                       -0.236861       -0.935953      -0.00025324    -0.000744021         -0.20652         0.12123     -0.000237979     0.000567233
                    -0.000286139     0.000330953        -0.268382        0.164138     -0.000803482      0.00103854        -0.256104       -0.854725
281701.1               -0.239049     -0.00909998      0.000391036     0.000355532        -0.236958       -0.935793     -0.000206896    -0.000423331
                     0.000297475    -7.16235e-05        -0.814912        -0.38662      0.000254066     -0.00105514        -0.268559        0.164147
                       -0.236889       -0.935946     -0.000253304    -0.000744001        -0.206515        0.121234      -0.00023792     0.000567241
                    -0.000286085     0.000331097        -0.268326        0.164125     -0.000803365      0.00103847        -0.256196       -0.854717
281701.2               -0.239047      -0.0090921      0.000391063     0.000355498        -0.236987       -0.935786     -0.000206922    -0.000423322
                     0.000297417      -7.172e-05        -0.814955       -0.386572      0.000254004     -0.00105506        -0.268503        0.164133
                       -0.236918        -0.93594     -0.000253368    -0.000743982        -0.206509        0.121238     -0.000237861     0.000567249
                    -0.000286031     0.000331241         -0.26827        0.164111     -0.000803248      0.00103841        -0.256288       -0.854709
281701.3               -0.239044     -0.00908422      0.000391089     0.000355465        -0.237015        -0.93578     -0.000206948    -0.000423313
                     0.000297358    -7.18165e-05        -0.814998       -0.386524      0.000253942     -0.00105498        -0.268446        0.164119
                       -0.236946       -0.935933     -0.000253431    -0.000743962        -0.206503        0.121243     -0.000237802     0.000567257
                    -0.000285976     0.000331383        -0.268214        0.164097     -0.000803131      0.00103834         -0.25638         -0.8547
281701.4               -0.239042     -0.00907635      0.000391116     0.000355431        -0.237044       -0.935773     -0.000206974    -0.000423304
                     0.000297301    -7.19128e-05         -0.81504       -0.386476      0.000253879      -0.0010549         -0.26839        0.164106
                       -0.236975       -0.935927     -0.000253495    -0.000743942        -0.206497        0.121247     -0.000237743     0.000567265
                     -0.00028592     0.000331525        -0.268157        0.164084     -0.000803014      0.00103828        -0.256472       -0.854692
281701.5               -0.239039     -0.00906847      0.000391143     0.000355397        -0.237072       -0.935767        -0.000207    -0.000423295
                     0.000297243     -7.2009e-05        -0.815083       -0.386428      0.000253817     -0.00105482        -0.268334        0.164092
                       -0.237003        -0.93592     -0.000253559    -0.000743922        -0.206492        0.121251     -0.000237684     0.000567273
                    -0.000285863     0.000331665        -0.268101         0.16407     -0.000802897      0.00103821        -0.256564       -0.854684
281701.6               -0.239037     -0.00906059       0.00039117     0.000355364        -0.237101        -0.93576     -0.000207025    -0.000423286
                     0.000297186     -7.2105e-05        -0.815126        -0.38638      0.000253754     -0.00105474        -0.268278        0.164078
                       -0.237032       -0.935914     -0.000253623    -0.000743902        -0.206486        0.121255     -0.000237625     0.000567281
                    -0.000285806     0.000331805        -0.268045        0.164056     -0.000802779      0.00103815        -0.256656       -0.854675
281701.7               -0.239035     -0.00905271      0.000391196      0.00035533         -0.23713       -0.935754     -0.000207051    -0.000423277
                     0.000297129    -7.22008e-05        -0.815168       -0.386332      0.000253692     -0.00105466        -0.268221        0.164065
                        -0.23706       -0.935907     -0.000253687    -0.000743882         -0.20648         0.12126     -0.000237566     0.000567289
                    -0.000285748     0.000331943        -0.267988        0.164042     -0.000802662      0.00103808        -0.256748       -0.854667
281701.8               -0.239032     -0.00904483      0.000391223     0.000355297        -0.237158       -0.935747     -0.000207077    -0.000423268
                     0.000297072    -7.22964e-05        -0.815211       -0.386284      0.000253629     -0.00105458        -0.268165        0.164051
                       -0.237088       -0.935901      -0.00025375    -0.000743862        -0.206475        0.121264     -0.000237507     0.000567297
                     -0.00028569     0.000332082        -0.267932        0.164029     -0.000802544      0.00103801         -0.25684       -0.854659
281701.9                -0.23903     -0.00903695       0.00039125     0.000355263        -0.237187       -0.935741     -0.000207103    -0.000423259
                     0.000297015    -7.23919e-05        -0.815254       -0.386236      0.000253567     -0.00105449        -0.268109        0.164037
                       -0.237117       -0.935894     -0.000253814    -0.000743842        -0.206469        0.121268     -0.000237448     0.000567305
                    -0.000285631     0.000332219        -0.267876        0.164015     -0.000802427      0.00103795        -0.256932        -0.85465
281702                 -0.239027     -0.00902907      0.000391277     0.000355229        -0.237215       -0.935734     -0.000207129     -0.00042325
                     0.000296959    -7.24871e-05        -0.815296       -0.386188      0.000253504     -0.00105441        -0.268052        0.164024
                       -0.237145       -0.935888     -0.000253878    -0.000743823        -0.206463        0.121273     -0.000237389     0.000567313
                    -0.000285571     0.000332356         -0.26782        0.164001     -0.000802309      0.00103788        -0.257024       -0.854642
281702.1               -0.239025     -0.00902119      0.000391303     0.000355196        -0.237244       -0.935728     -0.000207155    -0.000423241
                     0.000296902    -7.25822e-05        -0.815339        -0.38614      0.000253441     -0.00105433        -0.267996         0.16401
                       -0.237174       -0.935881     -0.000253942    -0.000743803        -0.206458        0.121277      -0.00023733     0.000567321
                    -0.000285511     0.000332492        -0.267763        0.163988     -0.000802191      0.00103782        -0.257116       -0.854633
281702.2               -0.239023     -0.00901332       0.00039133     0.000355162        -0.237272       -0.935721     -0.000207181    -0.000423232
                     0.000296846     -7.2677e-05        -0.815382       -0.386092      0.000253378     -0.00105425         -0.26794        0.163996
                       -0.237202       -0.935875     -0.000254005    -0.000743783        -0.206452        0.121281     -0.000237271     0.000567329
                    -0.000285451     0.000332628        -0.267707        0.163974     -0.000802073      0.00103775        -0.257209       -0.854625
281702.3                -0.23902     -0.00900544      0.000391357     0.000355128        -0.237301       -0.935715     -0.000207206    -0.000423223
                      0.00029679    -7.27717e-05        -0.815424       -0.386044      0.000253315     -0.00105417        -0.267884        0.163983
                       -0.237231       -0.935868     -0.000254069    -0.000743763        -0.206446        0.121286     -0.000237212     0.000567337
                    -0.000285391     0.000332763        -0.267651         0.16396     -0.000801955      0.00103768        -0.257301       -0.854617
281702.4               -0.239018     -0.00899756      0.000391384     0.000355095         -0.23733       -0.935708     -0.000207232    -0.000423214
                     0.000296735    -7.28662e-05        -0.815467       -0.385996      0.000253252     -0.00105409        -0.267827        0.163969
                       -0.237259       -0.935862     -0.000254133    -0.000743743        -0.206441         0.12129     -0.000237153     0.000567345
                     -0.00028533     0.000332898        -0.267595        0.163946     -0.000801837      0.00103762        -0.257393       -0.854608
281702.5               -0.239015     -0.00898968       0.00039141     0.000355061        -0.237358       -0.935701     -0.000207258    -0.000423205
                     0.000296679    -7.29604e-05         -0.81551       -0.385948      0.000253188     -0.00105401        -0.267771        0.163955
                       -0.237287       -0.935855     -0.000254197    -0.000743723        -0.206435        0.121294     -0.000237094     0.000567353
                    -0.000285268     0.000333032        -0.267538        0.163932     -0.000801719      0.00103755        -0.257485         -0.8546
281702.6               -0.239013      -0.0089818      0.000391437     0.000355027        -0.237387       -0.935695     -0.000207284    -0.000423196
                     0.000296623    -7.30545e-05        -0.815552         -0.3859      0.000253125     -0.00105392        -0.267715        0.163941
                       -0.237316       -0.935849      -0.00025426    -0.000743703        -0.206429        0.121299     -0.000237035      0.00056736
                    -0.000285207     0.000333166        -0.267482        0.163919     -0.000801601      0.00103749        -0.257577       -0.854591
281702.7                -0.23901     -0.00897392      0.000391464     0.000354994        -0.237415       -0.935688      -0.00020731    -0.000423187
                     0.000296568    -7.31483e-05        -0.815595       -0.385852      0.000253062     -0.00105384        -0.267659        0.163928
                       -0.237344       -0.935842     -0.000254324    -0.000743683        -0.206424        0.121303     -0.000236976     0.000567368
                    -0.000285145       0.0003333        -0.267426        0.163905     -0.000801482      0.00103742        -0.257669       -0.854583
281702.8               -0.239008     -0.00896605      0.000391491      0.00035496        -0.237444       -0.935682     -0.000207335    -0.000423178
                     0.000296512     -7.3242e-05        -0.815638       -0.385804      0.000252998     -0.00105376        -0.267603        0.163914
                       -0.237373       -0.935836     -0.000254388    -0.000743663        -0.206418        0.121307     -0.000236917     0.000567376
                    -0.000285083     0.000333433         -0.26737        0.163891     -0.000801364      0.00103735        -0.257761       -0.854574
281702.9               -0.239006     -0.00895817      0.000391517     0.000354926        -0.237472       -0.935675     -0.000207361    -0.000423169
                     0.000296457    -7.33354e-05         -0.81568       -0.385756      0.000252935     -0.00105368        -0.267546          0.1639
                       -0.237401       -0.935829     -0.000254451    -0.000743643        -0.206412        0.121311     -0.000236858     0.000567384
                     -0.00028502     0.000333566        -0.267313        0.163877     -0.000801245      0.00103729        -0.257853       -0.854566
281703                 -0.239003     -0.00895029      0.000391544     0.000354893        -0.237501       -0.935669     -0.000207387     -0.00042316
                     0.000296401    -7.34287e-05        -0.815723       -0.385708      0.000252871      -0.0010536         -0.26749        0.163886
                        -0.23743       -0.935823     -0.000254515    -0.000743623        -0.206407        0.121316     -0.000236799     0.000567392
                    -0.000284957     0.000333699        -0.267257        0.163863     -0.000801126      0.00103722        -0.257945       -0.854557
281703.1               -0.239001     -0.00894241      0.000391571     0.000354859         -0.23753       -0.935662     -0.000207413     -0.00042315
                     0.000296346    -7.35217e-05        -0.815766        -0.38566      0.000252807     -0.00105351        -0.267434        0.163873
                       -0.237458       -0.935816     -0.000254579    -0.000743603        -0.206401         0.12132      -0.00023674       0.0005674
