! TOUCHSTONE file generated by CST MICROWAVE STUDIO
! Date and time: Wed Oct  8 06:50:48 2025
! Project name: Teste_Macro_Metasurface_Nanopilar.cst
! Parameters = {H=600; L_x=70; L_y=125; Lambda=1064; Max_L=200; Min_L=70; PathPara=1; Phi=0; Step_L=10; Theta=0; p=520; phaseX=180; phaseY=0}
! Header version: 2018
! Port assignment regex: !\s*Touchstone port\s*([0-9]+)\s*=\s*(CST MWS port|CST DS port)\s*([0-9]+|Zmin|Zmax)\s*\(\"(.*)\"\)(\s*mode\s*([0-9]+))?.*
! Touchstone port assignment:
! Touchstone port 1 = CST MWS port Zmax ("") mode 1
! Touchstone port 2 = CST MWS port Zmax ("") mode 2
! Touchstone port 3 = CST MWS port Zmin ("") mode 1
! Touchstone port 4 = CST MWS port Zmin ("") mode 2
! S-Parameters are not renormalized. Each port impedance will be approximated by the real part at minimum frequency. The values are described via the [Reference] keyword.
! Default impedance is overridden by [Reference]
[Version] 2.0
# GHz S RI R 376.73
[Number of Ports] 4
[Reference]
376.73 376.73 376.73 376.73 
[Number of Frequencies] 1001
[Network Data]
281700                 -0.239246       -0.125588      0.000220942     0.000538338        -0.241129        0.928538     -8.67868e-05    -8.24486e-05
                     0.000208449     0.000446728         0.121951       0.0254845     -0.000253225    -5.54996e-05        -0.962299        0.240344
                       -0.241119        0.928484     -0.000261999    -8.08544e-05        -0.270827      -0.0057611      0.000512456     0.000278092
                    -5.76866e-05     3.48268e-06        -0.962408         0.24018      0.000565957     0.000207503       -0.0957661       0.0799028
281700.1                -0.23925        -0.12558      0.000220961     0.000538333        -0.241103        0.928544     -8.67894e-05     -8.2446e-05
                     0.000208459     0.000446751          0.12195       0.0254786     -0.000253229    -5.54904e-05        -0.962293         0.24037
                       -0.241092        0.928491     -0.000262001    -8.08437e-05        -0.270828     -0.00575469      0.000512471     0.000278084
                    -5.76682e-05     3.44649e-06        -0.962402        0.240206      0.000565967     0.000207488       -0.0957633        0.079902
281700.2               -0.239255       -0.125573      0.000220979     0.000538328        -0.241076        0.928551      -8.6792e-05    -8.24433e-05
                      0.00020847     0.000446774         0.121948       0.0254727     -0.000253232    -5.54812e-05        -0.962287        0.240395
                       -0.241066        0.928498     -0.000262004    -8.08331e-05        -0.270829     -0.00574829      0.000512486     0.000278076
                    -5.76497e-05      3.4103e-06        -0.962396        0.240232      0.000565976     0.000207472       -0.0957605       0.0799011
281700.3                -0.23926       -0.125565      0.000220998     0.000538323         -0.24105        0.928558     -8.67946e-05    -8.24407e-05
                      0.00020848     0.000446796         0.121947       0.0254668     -0.000253236     -5.5472e-05        -0.962281        0.240421
                       -0.241039        0.928505     -0.000262006    -8.08224e-05        -0.270829     -0.00574188      0.000512502     0.000278069
                    -5.76313e-05     3.37412e-06         -0.96239        0.240257      0.000565985     0.000207457       -0.0957577       0.0799003
281700.4               -0.239264       -0.125557      0.000221016     0.000538318        -0.241023        0.928565     -8.67972e-05    -8.24381e-05
                     0.000208491     0.000446819         0.121945       0.0254609     -0.000253239    -5.54628e-05        -0.962275        0.240447
                       -0.241013        0.928511     -0.000262009    -8.08118e-05         -0.27083     -0.00573547      0.000512517     0.000278061
                    -5.76129e-05     3.33795e-06        -0.962384        0.240283      0.000565994     0.000207441       -0.0957549       0.0798995
281700.5               -0.239269        -0.12555      0.000221035     0.000538313        -0.240997        0.928571     -8.67998e-05    -8.24355e-05
                     0.000208501     0.000446842         0.121944       0.0254551     -0.000253243    -5.54536e-05        -0.962269        0.240472
                       -0.240986        0.928518     -0.000262011    -8.08011e-05        -0.270831     -0.00572907      0.000512532     0.000278053
                    -5.75944e-05     3.30178e-06        -0.962378        0.240308      0.000566004     0.000207425       -0.0957521       0.0798986
281700.6               -0.239274       -0.125542      0.000221053     0.000538308         -0.24097        0.928578     -8.68024e-05    -8.24328e-05
                     0.000208512     0.000446865         0.121942       0.0254492     -0.000253246    -5.54444e-05        -0.962263        0.240498
                       -0.240959        0.928525     -0.000262014    -8.07905e-05        -0.270831     -0.00572266      0.000512547     0.000278046
                     -5.7576e-05     3.26562e-06        -0.962372        0.240334      0.000566013      0.00020741       -0.0957493       0.0798978
281700.7               -0.239278       -0.125534      0.000221072     0.000538303        -0.240944        0.928585     -8.68049e-05    -8.24302e-05
                     0.000208522     0.000446887         0.121941       0.0254433      -0.00025325    -5.54352e-05        -0.962257        0.240523
                       -0.240933        0.928531     -0.000262016    -8.07798e-05        -0.270832     -0.00571625      0.000512562     0.000278038
                    -5.75576e-05     3.22946e-06        -0.962365         0.24036      0.000566022     0.000207394       -0.0957465        0.079897
281700.8               -0.239283       -0.125526      0.000221091     0.000538298        -0.240917        0.928592     -8.68075e-05    -8.24276e-05
                     0.000208533      0.00044691         0.121939       0.0254374     -0.000253253     -5.5426e-05        -0.962251        0.240549
                       -0.240906        0.928538     -0.000262019    -8.07692e-05        -0.270833     -0.00570984      0.000512577      0.00027803
                    -5.75391e-05     3.19331e-06        -0.962359        0.240385      0.000566032     0.000207379       -0.0957437       0.0798961
281700.9               -0.239288       -0.125519      0.000221109     0.000538293         -0.24089        0.928598     -8.68101e-05    -8.24249e-05
                     0.000208543     0.000446933         0.121938       0.0254315     -0.000253257    -5.54168e-05        -0.962245        0.240574
                        -0.24088        0.928545     -0.000262021    -8.07585e-05        -0.270833     -0.00570344      0.000512593     0.000278022
                    -5.75207e-05     3.15717e-06        -0.962353        0.240411      0.000566041     0.000207363       -0.0957409       0.0798953
281701                 -0.239292       -0.125511      0.000221128     0.000538288        -0.240864        0.928605     -8.68127e-05    -8.24223e-05
                     0.000208554     0.000446955         0.121936       0.0254256      -0.00025326    -5.54076e-05        -0.962239          0.2406
                       -0.240853        0.928552     -0.000262024    -8.07479e-05        -0.270834     -0.00569703      0.000512608     0.000278015
                    -5.75022e-05     3.12103e-06        -0.962347        0.240436       0.00056605     0.000207348       -0.0957381       0.0798945
281701.1               -0.239297       -0.125503      0.000221146     0.000538283        -0.240837        0.928612     -8.68153e-05    -8.24197e-05
                     0.000208564     0.000446978         0.121935       0.0254197     -0.000253264    -5.53984e-05        -0.962233        0.240626
                       -0.240826        0.928558     -0.000262026    -8.07372e-05        -0.270835     -0.00569062      0.000512623     0.000278007
                    -5.74838e-05      3.0849e-06        -0.962341        0.240462      0.000566059     0.000207332       -0.0957353       0.0798936
281701.2               -0.239302       -0.125495      0.000221165     0.000538278        -0.240811        0.928618     -8.68179e-05    -8.24171e-05
                     0.000208575     0.000447001         0.121933       0.0254138     -0.000253267    -5.53892e-05        -0.962227        0.240651
                         -0.2408        0.928565     -0.000262029    -8.07266e-05        -0.270835     -0.00568421      0.000512638     0.000277999
                    -5.74654e-05     3.04877e-06        -0.962335        0.240488      0.000566069     0.000207316       -0.0957325       0.0798928
281701.3               -0.239306       -0.125488      0.000221183     0.000538273        -0.240784        0.928625     -8.68205e-05    -8.24144e-05
                     0.000208586     0.000447024         0.121932        0.025408     -0.000253271      -5.538e-05        -0.962221        0.240677
                       -0.240773        0.928572     -0.000262031     -8.0716e-05        -0.270836     -0.00567781      0.000512653     0.000277992
                    -5.74469e-05     3.01266e-06        -0.962329        0.240513      0.000566078     0.000207301       -0.0957297        0.079892
281701.4               -0.239311        -0.12548      0.000221202     0.000538268        -0.240758        0.928632     -8.68232e-05    -8.24118e-05
                     0.000208596     0.000447046          0.12193       0.0254021     -0.000253274    -5.53708e-05        -0.962215        0.240702
                       -0.240747        0.928578     -0.000262034    -8.07053e-05        -0.270837      -0.0056714      0.000512668     0.000277984
                    -5.74285e-05     2.97654e-06        -0.962323        0.240539      0.000566087     0.000207285       -0.0957269       0.0798911
281701.5               -0.239316       -0.125472       0.00022122     0.000538263        -0.240731        0.928639     -8.68258e-05    -8.24091e-05
                     0.000208607     0.000447069         0.121929       0.0253962     -0.000253278    -5.53616e-05        -0.962209        0.240728
                        -0.24072        0.928585     -0.000262036    -8.06947e-05        -0.270837     -0.00566499      0.000512683     0.000277976
                      -5.741e-05     2.94043e-06        -0.962317        0.240564      0.000566096      0.00020727       -0.0957241       0.0798903
281701.6                -0.23932       -0.125465      0.000221239     0.000538258        -0.240704        0.928645     -8.68284e-05    -8.24065e-05
                     0.000208617     0.000447092         0.121927       0.0253903     -0.000253281    -5.53524e-05        -0.962203        0.240754
                       -0.240694        0.928592     -0.000262039     -8.0684e-05        -0.270838     -0.00565858      0.000512699     0.000277969
                    -5.73916e-05     2.90433e-06        -0.962311         0.24059      0.000566106     0.000207254       -0.0957213       0.0798895
281701.7               -0.239325       -0.125457      0.000221258     0.000538253        -0.240678        0.928652      -8.6831e-05    -8.24039e-05
                     0.000208628     0.000447114         0.121925       0.0253844     -0.000253285    -5.53432e-05        -0.962196        0.240779
                       -0.240667        0.928598     -0.000262041    -8.06734e-05        -0.270839     -0.00565217      0.000512714     0.000277961
                    -5.73732e-05     2.86824e-06        -0.962305        0.240616      0.000566115     0.000207238       -0.0957185       0.0798886
281701.8                -0.23933       -0.125449      0.000221276     0.000538248        -0.240651        0.928659     -8.68336e-05    -8.24012e-05
                     0.000208638     0.000447137         0.121924       0.0253785     -0.000253288     -5.5334e-05         -0.96219        0.240805
                        -0.24064        0.928605     -0.000262044    -8.06627e-05        -0.270839     -0.00564577      0.000512729     0.000277953
                    -5.73547e-05     2.83215e-06        -0.962299        0.240641      0.000566124     0.000207223       -0.0957157       0.0798878
281701.9               -0.239334       -0.125441      0.000221295     0.000538243        -0.240625        0.928665     -8.68362e-05    -8.23986e-05
                     0.000208649      0.00044716         0.121922       0.0253726     -0.000253292    -5.53248e-05        -0.962184         0.24083
                       -0.240614        0.928612     -0.000262046    -8.06521e-05         -0.27084     -0.00563936      0.000512744     0.000277946
                    -5.73363e-05     2.79606e-06        -0.962293        0.240667      0.000566134     0.000207207       -0.0957129        0.079887
281702                 -0.239339       -0.125434      0.000221313     0.000538238        -0.240598        0.928672     -8.68388e-05    -8.23959e-05
                      0.00020866     0.000447182         0.121921       0.0253667     -0.000253295    -5.53156e-05        -0.962178        0.240856
                       -0.240587        0.928618     -0.000262049    -8.06414e-05        -0.270841     -0.00563295      0.000512759     0.000277938
                    -5.73178e-05     2.75999e-06        -0.962287        0.240692      0.000566143     0.000207192       -0.0957101       0.0798861
281702.1               -0.239344       -0.125426      0.000221332     0.000538233        -0.240572        0.928679     -8.68414e-05    -8.23933e-05
                      0.00020867     0.000447205         0.121919       0.0253609     -0.000253299    -5.53064e-05        -0.962172        0.240882
                       -0.240561        0.928625     -0.000262051    -8.06308e-05        -0.270841     -0.00562654      0.000512774      0.00027793
                    -5.72994e-05     2.72392e-06        -0.962281        0.240718      0.000566152     0.000207176       -0.0957073       0.0798853
281702.2               -0.239348       -0.125418       0.00022135     0.000538228        -0.240545        0.928686      -8.6844e-05    -8.23907e-05
                     0.000208681     0.000447228         0.121918        0.025355     -0.000253302    -5.52972e-05        -0.962166        0.240907
                       -0.240534        0.928632     -0.000262054    -8.06201e-05        -0.270842     -0.00562013       0.00051279     0.000277922
                     -5.7281e-05     2.68785e-06        -0.962275        0.240744      0.000566161      0.00020716       -0.0957045       0.0798845
281702.3               -0.239353        -0.12541      0.000221369     0.000538223        -0.240519        0.928692     -8.68466e-05     -8.2388e-05
                     0.000208691     0.000447251         0.121916       0.0253491     -0.000253306     -5.5288e-05         -0.96216        0.240933
                       -0.240507        0.928639     -0.000262056    -8.06095e-05        -0.270843     -0.00561373      0.000512805     0.000277915
                    -5.72625e-05     2.65179e-06        -0.962269        0.240769      0.000566171     0.000207145       -0.0957017       0.0798836
281702.4               -0.239358       -0.125403      0.000221387     0.000538218        -0.240492        0.928699     -8.68492e-05    -8.23854e-05
                     0.000208702     0.000447273         0.121915       0.0253432     -0.000253309    -5.52788e-05        -0.962154        0.240958
                       -0.240481        0.928645     -0.000262059    -8.05988e-05        -0.270843     -0.00560732       0.00051282     0.000277907
                    -5.72441e-05     2.61574e-06        -0.962263        0.240795       0.00056618     0.000207129       -0.0956989       0.0798828
281702.5               -0.239362       -0.125395      0.000221406     0.000538213        -0.240465        0.928706     -8.68518e-05    -8.23827e-05
                     0.000208713     0.000447296         0.121913       0.0253373     -0.000253313    -5.52696e-05        -0.962148        0.240984
                       -0.240454        0.928652     -0.000262061    -8.05882e-05        -0.270844     -0.00560091      0.000512835     0.000277899
                    -5.72256e-05     2.57969e-06        -0.962256         0.24082      0.000566189     0.000207114       -0.0956961       0.0798819
281702.6               -0.239367       -0.125387      0.000221425     0.000538208        -0.240439        0.928712     -8.68544e-05    -8.23801e-05
                     0.000208723     0.000447319         0.121912       0.0253314     -0.000253316    -5.52604e-05        -0.962142         0.24101
                       -0.240428        0.928659     -0.000262064    -8.05775e-05        -0.270845      -0.0055945       0.00051285     0.000277892
                    -5.72072e-05     2.54365e-06         -0.96225        0.240846      0.000566198     0.000207098       -0.0956933       0.0798811
281702.7               -0.239372        -0.12538      0.000221443     0.000538203        -0.240412        0.928719     -8.68571e-05    -8.23774e-05
                     0.000208734     0.000447341          0.12191       0.0253255      -0.00025332    -5.52512e-05        -0.962136        0.241035
                       -0.240401        0.928665     -0.000262066    -8.05669e-05        -0.270845     -0.00558809      0.000512865     0.000277884
                    -5.71888e-05     2.50761e-06        -0.962244        0.240872      0.000566208     0.000207082       -0.0956905       0.0798803
281702.8               -0.239376       -0.125372      0.000221462     0.000538198        -0.240386        0.928726     -8.68597e-05    -8.23748e-05
                     0.000208745     0.000447364         0.121909       0.0253197     -0.000253323    -5.52421e-05         -0.96213        0.241061
                       -0.240375        0.928672     -0.000262069    -8.05563e-05        -0.270846     -0.00558168      0.000512881     0.000277876
                    -5.71703e-05     2.47159e-06        -0.962238        0.240897      0.000566217     0.000207067       -0.0956877       0.0798794
281702.9               -0.239381       -0.125364       0.00022148     0.000538193        -0.240359        0.928733     -8.68623e-05    -8.23721e-05
                     0.000208755     0.000447387         0.121907       0.0253138     -0.000253327    -5.52329e-05        -0.962124        0.241086
                       -0.240348        0.928679     -0.000262071    -8.05456e-05        -0.270847     -0.00557528      0.000512896     0.000277868
                    -5.71519e-05     2.43556e-06        -0.962232        0.240923      0.000566226     0.000207051       -0.0956849       0.0798786
281703                 -0.239386       -0.125356      0.000221499     0.000538188        -0.240333        0.928739     -8.68649e-05    -8.23695e-05
                     0.000208766     0.000447409         0.121906       0.0253079      -0.00025333    -5.52237e-05        -0.962118        0.241112
                       -0.240321        0.928685     -0.000262073     -8.0535e-05        -0.270847     -0.00556887      0.000512911     0.000277861
                    -5.71334e-05     2.39955e-06        -0.962226        0.240948      0.000566235     0.000207036       -0.0956821       0.0798778
281703.1                -0.23939       -0.125349      0.000221517     0.000538183        -0.240306        0.928746     -8.68675e-05    -8.23668e-05
                     0.000208776     0.000447432         0.121904        0.025302     -0.000253334    -5.52145e-05        -0.962112        0.241138
                       -0.240295        0.928692     -0.000262076    -8.05243e-05        -0.270848     -0.00556246      0.000512926     0.000277853
