! TOUCHSTONE file generated by CST MICROWAVE STUDIO
! Date and time: Wed Oct  8 06:59:33 2025
! Project name: Teste_Macro_Metasurface_Nanopilar.cst
! Parameters = {H=600; L_x=145; L_y=80; Lambda=1064; Max_L=200; Min_L=70; PathPara=1; Phi=0; Step_L=10; Theta=0; p=520; phaseX=180; phaseY=0}
! Header version: 2018
! Port assignment regex: !\s*Touchstone port\s*([0-9]+)\s*=\s*(CST MWS port|CST DS port)\s*([0-9]+|Zmin|Zmax)\s*\(\"(.*)\"\)(\s*mode\s*([0-9]+))?.*
! Touchstone port assignment:
! Touchstone port 1 = CST MWS port Zmax ("") mode 1
! Touchstone port 2 = CST MWS port Zmax ("") mode 2
! Touchstone port 3 = CST MWS port Zmin ("") mode 1
! Touchstone port 4 = CST MWS port Zmin ("") mode 2
! S-Parameters are not renormalized. Each port impedance will be approximated by the real part at minimum frequency. The values are described via the [Reference] keyword.
! Default impedance is overridden by [Reference]
[Version] 2.0
# GHz S RI R 376.73
[Number of Ports] 4
[Reference]
376.73 376.73 376.73 376.73 
[Number of Frequencies] 1001
[Network Data]
281700                 0.0774849       -0.100759     -0.000369383     0.000412594         -0.82559        0.548697     -1.60202e-05    -0.000137641
                    -0.000511094     0.000516952          0.15017     -0.00770332      1.53878e-05     3.46671e-05         0.919535       -0.333899
                       -0.825264         0.54881      0.000300184     0.000116273        -0.123099       0.0327496     -0.000873493    -7.66695e-05
                     4.62037e-05    -0.000279958         0.919932       -0.333811     -0.000719401    -9.88845e-05        -0.125409       0.0927018
281700.1               0.0774794       -0.100762     -0.000369378     0.000412617        -0.825575        0.548719     -1.60311e-05    -0.000137637
                    -0.000511084     0.000516995         0.150167     -0.00771282      1.53751e-05     3.46748e-05         0.919524       -0.333931
                       -0.825249        0.548833       0.00030019     0.000116234        -0.123099       0.0327499     -0.000873511    -7.66593e-05
                     4.61833e-05    -0.000279949         0.919921       -0.333843     -0.000719411    -9.88726e-05        -0.125406       0.0927008
281700.2               0.0774739       -0.100765     -0.000369373      0.00041264        -0.825561        0.548741      -1.6042e-05    -0.000137633
                    -0.000511073     0.000517037         0.150163     -0.00772231      1.53624e-05     3.46824e-05         0.919512       -0.333964
                       -0.825235        0.548855      0.000300196     0.000116196        -0.123098       0.0327502      -0.00087353    -7.66491e-05
                     4.61629e-05     -0.00027994          0.91991       -0.333876     -0.000719421    -9.88606e-05        -0.125403       0.0926998
281700.3               0.0774684       -0.100768     -0.000369368     0.000412663        -0.825546        0.548764     -1.60529e-05    -0.000137629
                    -0.000511063      0.00051708          0.15016     -0.00773181      1.53497e-05       3.469e-05         0.919501       -0.333996
                        -0.82522        0.548877      0.000300202     0.000116157        -0.123097       0.0327505     -0.000873549    -7.66389e-05
                     4.61425e-05     -0.00027993         0.919899       -0.333908     -0.000719431    -9.88486e-05          -0.1254       0.0926988
281700.4               0.0774629       -0.100772     -0.000369363     0.000412686        -0.825531        0.548786     -1.60638e-05    -0.000137625
                    -0.000511053     0.000517122         0.150156      -0.0077413      1.53369e-05     3.46976e-05          0.91949       -0.334028
                       -0.825205          0.5489      0.000300208     0.000116119        -0.123096       0.0327508     -0.000873568    -7.66287e-05
                     4.61221e-05    -0.000279921         0.919887        -0.33394     -0.000719441    -9.88366e-05        -0.125397       0.0926978
281700.5               0.0774574       -0.100775     -0.000369358     0.000412709        -0.825517        0.548808     -1.60746e-05    -0.000137622
                    -0.000511042     0.000517164         0.150153      -0.0077508      1.53242e-05     3.47051e-05         0.919479        -0.33406
                       -0.825191        0.548922      0.000300213      0.00011608        -0.123095       0.0327512     -0.000873587    -7.66185e-05
                     4.61017e-05    -0.000279911         0.919876       -0.333972      -0.00071945    -9.88246e-05        -0.125394       0.0926968
281700.6               0.0774519       -0.100778     -0.000369353     0.000412732        -0.825502        0.548831     -1.60855e-05    -0.000137618
                    -0.000511032     0.000517207         0.150149     -0.00776029      1.53115e-05     3.47127e-05         0.919468       -0.334093
                       -0.825176        0.548944      0.000300219     0.000116042        -0.123094       0.0327515     -0.000873605    -7.66083e-05
                     4.60813e-05    -0.000279902         0.919865       -0.334005      -0.00071946    -9.88127e-05        -0.125391       0.0926957
281700.7               0.0774464       -0.100781     -0.000369348     0.000412755        -0.825487        0.548853     -1.60964e-05    -0.000137614
                    -0.000511021     0.000517249         0.150146     -0.00776978      1.52988e-05     3.47203e-05         0.919456       -0.334125
                       -0.825161        0.548967      0.000300225     0.000116003        -0.123093       0.0327518     -0.000873624    -7.65981e-05
                     4.60609e-05    -0.000279892         0.919854       -0.334037      -0.00071947    -9.88007e-05        -0.125388       0.0926947
281700.8               0.0774409       -0.100785     -0.000369343     0.000412778        -0.825472        0.548875     -1.61073e-05     -0.00013761
                    -0.000511011     0.000517291         0.150142     -0.00777928       1.5286e-05     3.47279e-05         0.919445       -0.334157
                       -0.825146        0.548989      0.000300231     0.000115965        -0.123092       0.0327521     -0.000873643    -7.65879e-05
                     4.60404e-05    -0.000279883         0.919843       -0.334069      -0.00071948    -9.87887e-05        -0.125385       0.0926937
281700.9               0.0774354       -0.100788     -0.000369338     0.000412801        -0.825458        0.548898     -1.61182e-05    -0.000137606
                    -0.000511001     0.000517334         0.150139     -0.00778877      1.52733e-05     3.47355e-05         0.919434       -0.334189
                       -0.825132        0.549012      0.000300237     0.000115926        -0.123091       0.0327524     -0.000873662    -7.65777e-05
                       4.602e-05    -0.000279874         0.919831       -0.334101      -0.00071949    -9.87767e-05        -0.125382       0.0926927
281701                 0.0774299       -0.100791     -0.000369333     0.000412824        -0.825443         0.54892      -1.6129e-05    -0.000137602
                     -0.00051099     0.000517376         0.150135     -0.00779826      1.52606e-05     3.47431e-05         0.919423       -0.334222
                       -0.825117        0.549034      0.000300243     0.000115888         -0.12309       0.0327527     -0.000873681    -7.65675e-05
                     4.59995e-05    -0.000279864          0.91982       -0.334134       -0.0007195    -9.87647e-05        -0.125379       0.0926917
281701.1               0.0774244       -0.100794     -0.000369328     0.000412847        -0.825428        0.548943     -1.61399e-05    -0.000137598
                     -0.00051098     0.000517419         0.150132     -0.00780776      1.52479e-05     3.47507e-05         0.919411       -0.334254
                       -0.825102        0.549056      0.000300249     0.000115849         -0.12309        0.032753     -0.000873699    -7.65573e-05
                     4.59791e-05    -0.000279855         0.919809       -0.334166      -0.00071951    -9.87527e-05        -0.125376       0.0926907
281701.2               0.0774189       -0.100798     -0.000369323      0.00041287        -0.825413        0.548965     -1.61508e-05    -0.000137594
                    -0.000510969     0.000517461         0.150128     -0.00781725      1.52352e-05     3.47583e-05           0.9194       -0.334286
                       -0.825087        0.549079      0.000300255     0.000115811        -0.123089       0.0327533     -0.000873718    -7.65471e-05
                     4.59586e-05    -0.000279845         0.919798       -0.334198     -0.000719519    -9.87407e-05        -0.125373       0.0926897
281701.3               0.0774134       -0.100801     -0.000369318     0.000412893        -0.825399        0.548987     -1.61617e-05     -0.00013759
                    -0.000510959     0.000517503         0.150125     -0.00782674      1.52224e-05     3.47659e-05         0.919389       -0.334318
                       -0.825073        0.549101      0.000300261     0.000115772        -0.123088       0.0327537     -0.000873737    -7.65369e-05
                     4.59382e-05    -0.000279836         0.919786        -0.33423     -0.000719529    -9.87287e-05         -0.12537       0.0926887
281701.4               0.0774079       -0.100804     -0.000369313     0.000412916        -0.825384         0.54901     -1.61726e-05    -0.000137586
                    -0.000510949     0.000517546         0.150121     -0.00783623      1.52097e-05     3.47735e-05         0.919378       -0.334351
                       -0.825058        0.549123      0.000300267     0.000115734        -0.123087        0.032754     -0.000873756    -7.65267e-05
                     4.59177e-05    -0.000279827         0.919775       -0.334263     -0.000719539    -9.87168e-05        -0.125367       0.0926877
281701.5               0.0774024       -0.100807     -0.000369308     0.000412939        -0.825369        0.549032     -1.61834e-05    -0.000137582
                    -0.000510938     0.000517588         0.150118     -0.00784572       1.5197e-05      3.4781e-05         0.919367       -0.334383
                       -0.825043        0.549146      0.000300273     0.000115695        -0.123086       0.0327543     -0.000873775    -7.65165e-05
                     4.58972e-05    -0.000279817         0.919764       -0.334295     -0.000719549    -9.87048e-05        -0.125364       0.0926867
281701.6               0.0773969        -0.10081     -0.000369303     0.000412962        -0.825354        0.549054     -1.61943e-05    -0.000137578
                    -0.000510928      0.00051763         0.150114     -0.00785521      1.51843e-05     3.47886e-05         0.919355       -0.334415
                       -0.825029        0.549168      0.000300279     0.000115657        -0.123085       0.0327546     -0.000873793    -7.65063e-05
                     4.58767e-05    -0.000279808         0.919753       -0.334327     -0.000719559    -9.86928e-05        -0.125361       0.0926857
281701.7               0.0773914       -0.100814     -0.000369298     0.000412985         -0.82534        0.549077     -1.62052e-05    -0.000137574
                    -0.000510917     0.000517673         0.150111     -0.00786471      1.51715e-05     3.47962e-05         0.919344       -0.334447
                       -0.825014         0.54919      0.000300285     0.000115618        -0.123084       0.0327549     -0.000873812    -7.64961e-05
                     4.58562e-05    -0.000279798         0.919741        -0.33436     -0.000719569    -9.86808e-05        -0.125358       0.0926847
281701.8               0.0773859       -0.100817     -0.000369294     0.000413008        -0.825325        0.549099     -1.62161e-05     -0.00013757
                    -0.000510907     0.000517715         0.150107      -0.0078742      1.51588e-05     3.48038e-05         0.919333        -0.33448
                       -0.824999        0.549213       0.00030029      0.00011558        -0.123083       0.0327552     -0.000873831    -7.64859e-05
                     4.58357e-05    -0.000279789          0.91973       -0.334392     -0.000719578    -9.86688e-05        -0.125355       0.0926837
281701.9               0.0773804        -0.10082     -0.000369289     0.000413032         -0.82531        0.549121     -1.62269e-05    -0.000137566
                    -0.000510896     0.000517758         0.150104     -0.00788369      1.51461e-05     3.48113e-05         0.919322       -0.334512
                       -0.824984        0.549235      0.000300296     0.000115541        -0.123082       0.0327555      -0.00087385    -7.64757e-05
                     4.58152e-05    -0.000279779         0.919719       -0.334424     -0.000719588    -9.86568e-05        -0.125352       0.0926827
281702                 0.0773749       -0.100823     -0.000369284     0.000413055        -0.825295        0.549144     -1.62378e-05    -0.000137562
                    -0.000510886       0.0005178           0.1501     -0.00789318      1.51334e-05     3.48189e-05          0.91931       -0.334544
                        -0.82497        0.549258      0.000300302     0.000115503        -0.123082       0.0327558     -0.000873869    -7.64655e-05
                     4.57947e-05     -0.00027977         0.919708       -0.334456     -0.000719598    -9.86448e-05        -0.125349       0.0926816
281702.1               0.0773694       -0.100827     -0.000369279     0.000413078        -0.825281        0.549166     -1.62487e-05    -0.000137558
                    -0.000510876     0.000517842         0.150097     -0.00790267      1.51207e-05     3.48265e-05         0.919299       -0.334576
                       -0.824955         0.54928      0.000300308     0.000115464        -0.123081       0.0327562     -0.000873888    -7.64553e-05
                     4.57742e-05    -0.000279761         0.919697       -0.334489     -0.000719608    -9.86328e-05        -0.125346       0.0926806
281702.2               0.0773639        -0.10083     -0.000369274     0.000413101        -0.825266        0.549188     -1.62596e-05    -0.000137554
                    -0.000510865     0.000517885         0.150093     -0.00791216      1.51079e-05     3.48341e-05         0.919288       -0.334608
                        -0.82494        0.549302      0.000300314     0.000115426         -0.12308       0.0327565     -0.000873906    -7.64451e-05
                     4.57537e-05    -0.000279751         0.919685       -0.334521     -0.000719618    -9.86208e-05        -0.125343       0.0926796
281702.3               0.0773584       -0.100833     -0.000369269     0.000413124        -0.825251        0.549211     -1.62704e-05    -0.000137551
                    -0.000510855     0.000517927          0.15009     -0.00792165      1.50952e-05     3.48416e-05         0.919277       -0.334641
                       -0.824925        0.549325       0.00030032     0.000115387        -0.123079       0.0327568     -0.000873925    -7.64348e-05
                     4.57332e-05    -0.000279742         0.919674       -0.334553     -0.000719628    -9.86088e-05         -0.12534       0.0926786
281702.4               0.0773529       -0.100836     -0.000369264     0.000413147        -0.825236        0.549233     -1.62813e-05    -0.000137547
                    -0.000510844     0.000517969         0.150086     -0.00793113      1.50825e-05     3.48492e-05         0.919266       -0.334673
                       -0.824911        0.549347      0.000300326     0.000115348        -0.123078       0.0327571     -0.000873944    -7.64246e-05
                     4.57126e-05    -0.000279732         0.919663       -0.334585     -0.000719637    -9.85968e-05        -0.125337       0.0926776
281702.5               0.0773474        -0.10084     -0.000369259      0.00041317        -0.825222        0.549256     -1.62922e-05    -0.000137543
                    -0.000510834     0.000518012         0.150083     -0.00794062      1.50698e-05     3.48568e-05         0.919254       -0.334705
                       -0.824896        0.549369      0.000300332      0.00011531        -0.123077       0.0327574     -0.000873963    -7.64144e-05
                     4.56921e-05    -0.000279723         0.919652       -0.334618     -0.000719647    -9.85848e-05        -0.125334       0.0926766
281702.6               0.0773419       -0.100843     -0.000369254     0.000413193        -0.825207        0.549278      -1.6303e-05    -0.000137539
                    -0.000510823     0.000518054         0.150079     -0.00795011      1.50571e-05     3.48643e-05         0.919243       -0.334737
                       -0.824881        0.549392      0.000300338     0.000115271        -0.123076       0.0327577     -0.000873982    -7.64042e-05
                     4.56715e-05    -0.000279714          0.91964        -0.33465     -0.000719657    -9.85728e-05        -0.125331       0.0926756
281702.7               0.0773364       -0.100846     -0.000369249     0.000413216        -0.825192          0.5493     -1.63139e-05    -0.000137535
                    -0.000510813     0.000518096         0.150075      -0.0079596      1.50443e-05     3.48719e-05         0.919232        -0.33477
                       -0.824866        0.549414      0.000300343     0.000115233        -0.123075        0.032758     -0.000874001     -7.6394e-05
                      4.5651e-05    -0.000279704         0.919629       -0.334682     -0.000719667    -9.85608e-05        -0.125328       0.0926746
281702.8               0.0773309       -0.100849     -0.000369244     0.000413239        -0.825177        0.549323     -1.63248e-05    -0.000137531
                    -0.000510802     0.000518139         0.150072     -0.00796909      1.50316e-05     3.48795e-05         0.919221       -0.334802
                       -0.824852        0.549436      0.000300349     0.000115194        -0.123074       0.0327583     -0.000874019    -7.63838e-05
                     4.56304e-05    -0.000279695         0.919618       -0.334714     -0.000719677    -9.85488e-05        -0.125325       0.0926736
281702.9               0.0773254       -0.100853     -0.000369239     0.000413262        -0.825163        0.549345     -1.63357e-05    -0.000137527
                    -0.000510792     0.000518181         0.150068     -0.00797858      1.50189e-05      3.4887e-05         0.919209       -0.334834
                       -0.824837        0.549459      0.000300355     0.000115156        -0.123073       0.0327586     -0.000874038    -7.63736e-05
                     4.56099e-05    -0.000279685         0.919607       -0.334747     -0.000719687    -9.85368e-05        -0.125322       0.0926726
281703                 0.0773199       -0.100856     -0.000369234     0.000413285        -0.825148        0.549367     -1.63465e-05    -0.000137523
                    -0.000510781     0.000518223         0.150065     -0.00798806      1.50062e-05     3.48946e-05         0.919198       -0.334866
                       -0.824822        0.549481      0.000300361     0.000115117        -0.123073        0.032759     -0.000874057    -7.63633e-05
                     4.55893e-05    -0.000279676         0.919595       -0.334779     -0.000719696    -9.85248e-05        -0.125319       0.0926716
281703.1               0.0773143       -0.100859     -0.000369229     0.000413308        -0.825133         0.54939     -1.63574e-05    -0.000137519
                    -0.000510771     0.000518266         0.150061     -0.00799755      1.49935e-05     3.49021e-05         0.919187       -0.334899
                       -0.824807        0.549503      0.000300367     0.000115079        -0.123072       0.0327593     -0.000874076    -7.63531e-05
