! TOUCHSTONE file generated by CST MICROWAVE STUDIO
! Date and time: Wed Oct  8 06:55:44 2025
! Project name: Teste_Macro_Metasurface_Nanopilar.cst
! Parameters = {H=600; L_x=110; L_y=160; Lambda=1064; Max_L=200; Min_L=70; PathPara=1; Phi=0; Step_L=10; Theta=0; p=520; phaseX=180; phaseY=0}
! Header version: 2018
! Port assignment regex: !\s*Touchstone port\s*([0-9]+)\s*=\s*(CST MWS port|CST DS port)\s*([0-9]+|Zmin|Zmax)\s*\(\"(.*)\"\)(\s*mode\s*([0-9]+))?.*
! Touchstone port assignment:
! Touchstone port 1 = CST MWS port Zmax ("") mode 1
! Touchstone port 2 = CST MWS port Zmax ("") mode 2
! Touchstone port 3 = CST MWS port Zmin ("") mode 1
! Touchstone port 4 = CST MWS port Zmin ("") mode 2
! S-Parameters are not renormalized. Each port impedance will be approximated by the real part at minimum frequency. The values are described via the [Reference] keyword.
! Default impedance is overridden by [Reference]
[Version] 2.0
# GHz S RI R 376.73
[Number of Ports] 4
[Reference]
376.73 376.73 376.73 376.73 
[Number of Frequencies] 1001
[Network Data]
281700                -0.0972849       -0.102267      0.000262503      0.00011569        -0.790264       -0.586484      9.23866e-05    -0.000280099
                     0.000260297     0.000104674       -0.0133671       -0.119424     -5.65044e-06     0.000246799         0.873997       -0.450119
                       -0.790272       -0.586505      3.56432e-06     0.000193657         0.121948       0.0588445      0.000303498    -4.43132e-05
                     0.000168814    -0.000278984         0.874558       -0.449876      0.000226322    -2.67544e-05        -0.093166      -0.0774111
281700.1              -0.0972815       -0.102271      0.000262511     0.000115704        -0.790284       -0.586457      9.23725e-05    -0.000280098
                     0.000260313     0.000104679       -0.0133739       -0.119429     -5.66106e-06     0.000246791         0.873981       -0.450149
                       -0.790292       -0.586478      3.64581e-06     0.000193677         0.121955       0.0588315      0.000303513    -4.43321e-05
                     0.000168803    -0.000278988         0.874542       -0.449906      0.000226338    -2.67652e-05       -0.0931711      -0.0774129
281700.2              -0.0972782       -0.102275      0.000262519     0.000115718        -0.790304        -0.58643      9.23584e-05    -0.000280097
                     0.000260328     0.000104684       -0.0133806       -0.119433     -5.67168e-06     0.000246782         0.873965       -0.450179
                       -0.790312       -0.586451      3.71473e-06     0.000193689         0.121961       0.0588186      0.000303528     -4.4351e-05
                     0.000168793    -0.000278993         0.874526       -0.449936      0.000226353    -2.67759e-05       -0.0931762      -0.0774147
281700.3              -0.0972749       -0.102279      0.000262527     0.000115732        -0.790324       -0.586403      9.23443e-05    -0.000280096
                     0.000260344      0.00010469       -0.0133874       -0.119438      -5.6823e-06     0.000246774         0.873949       -0.450209
                       -0.790332       -0.586424      3.77098e-06     0.000193693         0.121968       0.0588057      0.000303543    -4.43699e-05
                     0.000168783    -0.000278998          0.87451       -0.449966      0.000226369    -2.67867e-05       -0.0931812      -0.0774165
281700.4              -0.0972715       -0.102282      0.000262535     0.000115745        -0.790344       -0.586376      9.23302e-05    -0.000280096
                     0.000260359     0.000104695       -0.0133942       -0.119442     -5.69292e-06     0.000246765         0.873933       -0.450239
                       -0.790352       -0.586397      3.81443e-06     0.000193689         0.121975       0.0587927      0.000303558    -4.43888e-05
                     0.000168772    -0.000279003         0.874493       -0.449996      0.000226384    -2.67974e-05       -0.0931863      -0.0774183
281700.5              -0.0972682       -0.102286      0.000262542     0.000115757        -0.790364       -0.586348      9.23161e-05    -0.000280095
                     0.000260374       0.0001047       -0.0134009       -0.119446     -5.70353e-06     0.000246757         0.873916       -0.450269
                       -0.790372        -0.58637      3.84493e-06     0.000193676         0.121982       0.0587798      0.000303573    -4.44077e-05
                     0.000168762    -0.000279008         0.874477       -0.450026        0.0002264    -2.68082e-05       -0.0931914      -0.0774201
281700.6              -0.0972649        -0.10229      0.000262549      0.00011577        -0.790384       -0.586321      9.23021e-05    -0.000280094
                      0.00026039     0.000104705       -0.0134077       -0.119451     -5.71414e-06     0.000246749           0.8739       -0.450299
                       -0.790392       -0.586342      3.86229e-06     0.000193656         0.121988       0.0587668      0.000303588    -4.44266e-05
                     0.000168752    -0.000279013         0.874461       -0.450056      0.000226415     -2.6819e-05       -0.0931964      -0.0774219
281700.7              -0.0972615       -0.102294      0.000262556     0.000115782        -0.790404       -0.586294       9.2288e-05    -0.000280093
                     0.000260405      0.00010471       -0.0134145       -0.119455     -5.72475e-06      0.00024674         0.873884       -0.450329
                       -0.790412       -0.586315      3.86628e-06     0.000193626         0.121995       0.0587539      0.000303602    -4.44455e-05
                     0.000168741    -0.000279017         0.874445       -0.450086      0.000226431    -2.68297e-05       -0.0932015      -0.0774237
281700.8              -0.0972582       -0.102298      0.000262562     0.000115793        -0.790424       -0.586267      9.22739e-05    -0.000280092
                     0.000260421     0.000104716       -0.0134213        -0.11946     -5.73536e-06     0.000246732         0.873868       -0.450359
                       -0.790432       -0.586288      3.85666e-06     0.000193587         0.122002       0.0587409      0.000303617    -4.44644e-05
                     0.000168731    -0.000279022         0.874429       -0.450116      0.000226446    -2.68405e-05       -0.0932066      -0.0774255
281700.9              -0.0972549       -0.102301      0.000262568     0.000115804        -0.790443        -0.58624      9.22598e-05    -0.000280091
                     0.000260436     0.000104721        -0.013428       -0.119464     -5.74596e-06     0.000246723         0.873852       -0.450389
                       -0.790452       -0.586261      3.83312e-06      0.00019354         0.122008        0.058728      0.000303632    -4.44833e-05
                     0.000168721    -0.000279027         0.874413       -0.450146      0.000226462    -2.68513e-05       -0.0932117      -0.0774273
281701                -0.0972515       -0.102305      0.000262574     0.000115815        -0.790463       -0.586212      9.22458e-05     -0.00028009
                     0.000260452     0.000104726       -0.0134348       -0.119468     -5.75656e-06     0.000246715         0.873836       -0.450419
                       -0.790472       -0.586234      3.79533e-06     0.000193483         0.122015        0.058715      0.000303647    -4.45023e-05
                     0.000168711    -0.000279032         0.874396       -0.450176      0.000226477     -2.6862e-05       -0.0932167      -0.0774291
281701.1              -0.0972482       -0.102309      0.000262579     0.000115825        -0.790483       -0.586185      9.22317e-05    -0.000280089
                     0.000260467     0.000104731       -0.0134416       -0.119473     -5.76716e-06     0.000246706          0.87382       -0.450449
                       -0.790492       -0.586207      3.74292e-06     0.000193416         0.122022       0.0587021      0.000303662    -4.45212e-05
                       0.0001687    -0.000279037          0.87438       -0.450206      0.000226493    -2.68728e-05       -0.0932218      -0.0774309
281701.2              -0.0972449       -0.102313      0.000262584     0.000115835        -0.790503       -0.586158      9.22176e-05    -0.000280088
                     0.000260482     0.000104736       -0.0134483       -0.119477     -5.77776e-06     0.000246698         0.873804       -0.450479
                       -0.790512       -0.586179      3.67546e-06     0.000193339         0.122029       0.0586891      0.000303677    -4.45401e-05
                      0.00016869    -0.000279042         0.874364       -0.450236      0.000226508    -2.68836e-05       -0.0932269      -0.0774327
281701.3              -0.0972416       -0.102317      0.000262589     0.000115844        -0.790523       -0.586131      9.22035e-05    -0.000280087
                     0.000260498     0.000104742       -0.0134551       -0.119482     -5.78835e-06     0.000246689         0.873787        -0.45051
                       -0.790532       -0.586152      3.59249e-06     0.000193252         0.122035       0.0586762      0.000303692    -4.45591e-05
                      0.00016868    -0.000279047         0.874348       -0.450266      0.000226524    -2.68944e-05       -0.0932319      -0.0774345
281701.4              -0.0972382       -0.102321      0.000262593     0.000115853        -0.790543       -0.586104      9.21895e-05    -0.000280086
                     0.000260513     0.000104747       -0.0134619       -0.119486     -5.79894e-06     0.000246681         0.873771        -0.45054
                       -0.790552       -0.586125      3.49349e-06     0.000193155         0.122042       0.0586632      0.000303706     -4.4578e-05
                     0.000168669    -0.000279051         0.874332       -0.450296      0.000226539    -2.69051e-05        -0.093237      -0.0774363
281701.5              -0.0972349       -0.102324      0.000262597     0.000115861        -0.790563       -0.586077      9.21754e-05    -0.000280085
                     0.000260529     0.000104752       -0.0134686        -0.11949     -5.80953e-06     0.000246672         0.873755        -0.45057
                       -0.790572       -0.586098      3.37786e-06     0.000193047         0.122049       0.0586503      0.000303721    -4.45969e-05
                     0.000168659    -0.000279056         0.874316       -0.450326      0.000226554    -2.69159e-05       -0.0932421      -0.0774381
281701.6              -0.0972316       -0.102328      0.000262601     0.000115869        -0.790583       -0.586049      9.21613e-05    -0.000280084
                     0.000260544     0.000104757       -0.0134754       -0.119495     -5.82012e-06     0.000246664         0.873739         -0.4506
                       -0.790592       -0.586071      3.24498e-06     0.000192927         0.122056       0.0586373      0.000303736    -4.46159e-05
                     0.000168649    -0.000279061           0.8743       -0.450356       0.00022657    -2.69267e-05       -0.0932471        -0.07744
281701.7              -0.0972282       -0.102332      0.000262604     0.000115877        -0.790603       -0.586022      9.21472e-05    -0.000280084
                      0.00026056     0.000104762       -0.0134822       -0.119499      -5.8307e-06     0.000246656         0.873723        -0.45063
                       -0.790612       -0.586043      3.09412e-06     0.000192797         0.122062       0.0586244      0.000303751    -4.46348e-05
                     0.000168639    -0.000279066         0.874283       -0.450386      0.000226585    -2.69375e-05       -0.0932522      -0.0774418
281701.8              -0.0972249       -0.102336      0.000262607     0.000115884        -0.790623       -0.585995      9.21332e-05    -0.000280083
                     0.000260575     0.000104768       -0.0134889       -0.119503     -5.84129e-06     0.000246647         0.873707        -0.45066
                       -0.790632       -0.586016       2.9245e-06     0.000192655         0.122069       0.0586114      0.000303766    -4.46538e-05
                     0.000168628    -0.000279071         0.874267       -0.450416      0.000226601    -2.69483e-05       -0.0932573      -0.0774436
281701.9              -0.0972216        -0.10234       0.00026261      0.00011589        -0.790643       -0.585968      9.21191e-05    -0.000280082
                     0.000260591     0.000104773       -0.0134957       -0.119508     -5.85187e-06     0.000246639         0.873691        -0.45069
                       -0.790652       -0.585989      2.73527e-06     0.000192501         0.122076       0.0585985      0.000303781    -4.46727e-05
                     0.000168618    -0.000279076         0.874251       -0.450446      0.000226616    -2.69591e-05       -0.0932624      -0.0774454
281702                -0.0972182       -0.102343      0.000262612     0.000115896        -0.790663       -0.585941       9.2105e-05    -0.000280081
                     0.000260606     0.000104778       -0.0135024       -0.119512     -5.86244e-06      0.00024663         0.873674        -0.45072
                       -0.790672       -0.585962      2.52545e-06     0.000192335         0.122082       0.0585855      0.000303796    -4.46917e-05
                     0.000168608     -0.00027908         0.874235       -0.450476      0.000226632    -2.69699e-05       -0.0932674      -0.0774472
281702.1              -0.0972149       -0.102347      0.000262614     0.000115901        -0.790683       -0.585913       9.2091e-05     -0.00028008
                     0.000260621     0.000104783       -0.0135092       -0.119517     -5.87302e-06     0.000246622         0.873658        -0.45075
                       -0.790692       -0.585935      2.29402e-06     0.000192156         0.122089       0.0585726       0.00030381    -4.47107e-05
                     0.000168597    -0.000279085         0.874219       -0.450506      0.000226647    -2.69807e-05       -0.0932725       -0.077449
281702.2              -0.0972116       -0.102351      0.000262615     0.000115906        -0.790703       -0.585886      9.20769e-05    -0.000280079
                     0.000260637     0.000104788        -0.013516       -0.119521     -5.88359e-06     0.000246613         0.873642        -0.45078
                       -0.790712       -0.585907       2.0398e-06     0.000191964         0.122096       0.0585596      0.000303825    -4.47296e-05
                     0.000168587     -0.00027909         0.874203       -0.450536      0.000226663    -2.69915e-05       -0.0932776      -0.0774508
281702.3              -0.0972083       -0.102355      0.000262616      0.00011591        -0.790723       -0.585859      9.20629e-05    -0.000280078
                     0.000260652     0.000104793       -0.0135227       -0.119525     -5.89416e-06     0.000246605         0.873626        -0.45081
                       -0.790732        -0.58588      1.76154e-06      0.00019176         0.122103       0.0585467       0.00030384    -4.47486e-05
                     0.000168577    -0.000279095         0.874186       -0.450566      0.000226678    -2.70023e-05       -0.0932826      -0.0774526
281702.4              -0.0972049       -0.102359      0.000262617     0.000115913        -0.790743       -0.585832      9.20488e-05    -0.000280077
                     0.000260668     0.000104799       -0.0135295        -0.11953     -5.90473e-06     0.000246596          0.87361        -0.45084
                       -0.790752       -0.585853      1.45782e-06     0.000191541         0.122109       0.0585337      0.000303855    -4.47676e-05
                     0.000168567      -0.0002791          0.87417       -0.450596      0.000226694    -2.70131e-05       -0.0932877      -0.0774543
281702.5              -0.0972016       -0.102363      0.000262617     0.000115916        -0.790763       -0.585805      9.20347e-05    -0.000280076
                     0.000260683     0.000104804       -0.0135362       -0.119534     -5.91529e-06     0.000246588         0.873594        -0.45087
                       -0.790772       -0.585826       1.1271e-06     0.000191309         0.122116       0.0585208       0.00030387    -4.47866e-05
                     0.000168556    -0.000279105         0.874154       -0.450626      0.000226709    -2.70239e-05       -0.0932928      -0.0774561
281702.6              -0.0971983       -0.102366      0.000262616     0.000115918        -0.790783       -0.585777      9.20207e-05    -0.000280075
                     0.000260699     0.000104809        -0.013543       -0.119538     -5.92586e-06     0.000246579         0.873578         -0.4509
                       -0.790792       -0.585799      7.67698e-07     0.000191063         0.122123       0.0585078      0.000303885    -4.48055e-05
                     0.000168546     -0.00027911         0.874138       -0.450656      0.000226725    -2.70347e-05       -0.0932979      -0.0774579
281702.7              -0.0971949        -0.10237      0.000262616      0.00011592        -0.790803        -0.58575      9.20066e-05    -0.000280074
                     0.000260714     0.000104814       -0.0135498       -0.119543     -5.93642e-06     0.000246571         0.873561        -0.45093
                       -0.790811       -0.585771      3.77726e-07     0.000190803          0.12213       0.0584948      0.000303899    -4.48245e-05
                     0.000168536    -0.000279114         0.874122       -0.450686       0.00022674    -2.70455e-05       -0.0933029      -0.0774597
281702.8              -0.0971916       -0.102374      0.000262615     0.000115921        -0.790823       -0.585723      9.19926e-05    -0.000280073
                      0.00026073     0.000104819       -0.0135565       -0.119547     -5.94697e-06     0.000246562         0.873545        -0.45096
                       -0.790831       -0.585744     -4.48761e-08     0.000190528         0.122136       0.0584819      0.000303914    -4.48435e-05
                     0.000168525    -0.000279119         0.874106       -0.450716      0.000226756    -2.70563e-05        -0.093308      -0.0774615
281702.9              -0.0971883       -0.102378      0.000262613     0.000115922        -0.790843       -0.585696      9.19785e-05    -0.000280072
                     0.000260745     0.000104824       -0.0135633       -0.119552     -5.95753e-06     0.000246554         0.873529        -0.45099
                       -0.790851       -0.585717     -5.02388e-07     0.000190238         0.122143       0.0584689      0.000303929    -4.48625e-05
                     0.000168515    -0.000279124          0.87409       -0.450746      0.000226771    -2.70671e-05       -0.0933131      -0.0774633
281703                 -0.097185       -0.102382      0.000262611     0.000115921        -0.790863       -0.585669      9.19645e-05    -0.000280071
                      0.00026076      0.00010483         -0.01357       -0.119556     -5.96808e-06     0.000246545         0.873513        -0.45102
                       -0.790871        -0.58569     -9.97327e-07     0.000189933          0.12215        0.058456      0.000303944    -4.48815e-05
                     0.000168505    -0.000279129         0.874073       -0.450776      0.000226787     -2.7078e-05       -0.0933181      -0.0774651
281703.1              -0.0971816       -0.102386      0.000262609      0.00011592        -0.790883       -0.585641      9.19504e-05     -0.00028007
                     0.000260776     0.000104835       -0.0135768        -0.11956     -5.97863e-06     0.000246536         0.873497        -0.45105
                       -0.790891       -0.585663     -1.53247e-06     0.000189613         0.122156        0.058443      0.000303959    -4.49005e-05
