! TOUCHSTONE file generated by CST MICROWAVE STUDIO
! Date and time: Wed Oct  8 06:59:48 2025
! Project name: Teste_Macro_Metasurface_Nanopilar.cst
! Parameters = {H=600; L_x=145; L_y=135; Lambda=1064; Max_L=200; Min_L=70; PathPara=1; Phi=0; Step_L=10; Theta=0; p=520; phaseX=180; phaseY=0}
! Header version: 2018
! Port assignment regex: !\s*Touchstone port\s*([0-9]+)\s*=\s*(CST MWS port|CST DS port)\s*([0-9]+|Zmin|Zmax)\s*\(\"(.*)\"\)(\s*mode\s*([0-9]+))?.*
! Touchstone port assignment:
! Touchstone port 1 = CST MWS port Zmax ("") mode 1
! Touchstone port 2 = CST MWS port Zmax ("") mode 2
! Touchstone port 3 = CST MWS port Zmin ("") mode 1
! Touchstone port 4 = CST MWS port Zmin ("") mode 2
! S-Parameters are not renormalized. Each port impedance will be approximated by the real part at minimum frequency. The values are described via the [Reference] keyword.
! Default impedance is overridden by [Reference]
[Version] 2.0
# GHz S RI R 376.73
[Number of Ports] 4
[Reference]
376.73 376.73 376.73 376.73 
[Number of Frequencies] 1001
[Network Data]
281700                  -0.17694        0.011927     -0.000894185     1.40307e-05        -0.508121        -0.83751      0.000536268    -0.000229736
                     -0.00077838     6.90887e-05        -0.105306      -0.0522221       0.00035577    -0.000212919        -0.740515       -0.653534
                       -0.508238       -0.837329      0.000409605     4.00341e-06        -0.093434        0.149955     -0.000180826      0.00072732
                     0.000426468     -0.00026709        -0.740774       -0.653406     -0.000251983     0.000642041        0.0616598       0.0940076
281700.1               -0.176935       0.0119312     -0.000894183     1.40786e-05        -0.508147       -0.837495       0.00053626     -0.00022976
                    -0.000778389     6.91268e-05        -0.105301      -0.0522243       0.00035577    -0.000212924        -0.740537       -0.653509
                       -0.508264       -0.837314       0.00040961     3.93771e-06       -0.0934261        0.149954     -0.000180786     0.000727348
                     0.000426472    -0.000267123        -0.740795       -0.653381     -0.000251964     0.000642038        0.0616675       0.0939983
281700.2                -0.17693       0.0119353     -0.000894181     1.41264e-05        -0.508173        -0.83748      0.000536253    -0.000229784
                    -0.000778398     6.91649e-05        -0.105296      -0.0522264       0.00035577    -0.000212929        -0.740559       -0.653485
                        -0.50829       -0.837299      0.000409616     3.87202e-06       -0.0934182        0.149954     -0.000180747     0.000727375
                     0.000426476    -0.000267157        -0.740817       -0.653357     -0.000251944     0.000642034        0.0616753       0.0939889
281700.3               -0.176925       0.0119394     -0.000894179     1.41743e-05        -0.508199       -0.837465      0.000536246    -0.000229808
                    -0.000778407     6.92029e-05        -0.105292      -0.0522285       0.00035577    -0.000212933         -0.74058       -0.653461
                       -0.508316       -0.837284      0.000409622     3.80632e-06       -0.0934103        0.149953     -0.000180707     0.000727402
                      0.00042648     -0.00026719        -0.740839       -0.653333     -0.000251925      0.00064203        0.0616831       0.0939795
281700.4               -0.176919       0.0119435     -0.000894176     1.42221e-05        -0.508225       -0.837451      0.000536239    -0.000229832
                    -0.000778416      6.9241e-05        -0.105287      -0.0522307       0.00035577    -0.000212938        -0.740602       -0.653436
                       -0.508342       -0.837269      0.000409628     3.74061e-06       -0.0934024        0.149952     -0.000180668      0.00072743
                     0.000426483    -0.000267223        -0.740861       -0.653308     -0.000251905     0.000642027        0.0616908       0.0939702
281700.5               -0.176914       0.0119477     -0.000894174       1.427e-05        -0.508251       -0.837436      0.000536232    -0.000229856
                    -0.000778425     6.92791e-05        -0.105282      -0.0522328       0.00035577    -0.000212943        -0.740624       -0.653412
                       -0.508368       -0.837255      0.000409634     3.67491e-06       -0.0933945        0.149951     -0.000180628     0.000727457
                     0.000426487    -0.000267257        -0.740883       -0.653284     -0.000251885     0.000642023        0.0616986       0.0939608
281700.6               -0.176909       0.0119518     -0.000894172     1.43178e-05        -0.508277       -0.837421      0.000536224     -0.00022988
                    -0.000778435     6.93172e-05        -0.105277      -0.0522349       0.00035577    -0.000212948        -0.740646       -0.653388
                       -0.508394        -0.83724       0.00040964      3.6092e-06       -0.0933866         0.14995     -0.000180589     0.000727484
                     0.000426491     -0.00026729        -0.740905        -0.65326     -0.000251866     0.000642019        0.0617063       0.0939515
281700.7               -0.176904       0.0119559      -0.00089417     1.43657e-05        -0.508304       -0.837406      0.000536217    -0.000229904
                    -0.000778444     6.93552e-05        -0.105272      -0.0522371       0.00035577    -0.000212953        -0.740668       -0.653363
                        -0.50842       -0.837225      0.000409646     3.54349e-06       -0.0933787        0.149949     -0.000180549     0.000727511
                     0.000426495    -0.000267323        -0.740927       -0.653235     -0.000251846     0.000642016        0.0617141       0.0939421
281700.8               -0.176899       0.0119601     -0.000894168     1.44135e-05         -0.50833       -0.837391       0.00053621    -0.000229928
                    -0.000778453     6.93933e-05        -0.105268      -0.0522392       0.00035577    -0.000212958         -0.74069       -0.653339
                       -0.508446        -0.83721      0.000409652     3.47778e-06       -0.0933708        0.149949      -0.00018051     0.000727539
                     0.000426499    -0.000267357        -0.740949       -0.653211     -0.000251827     0.000642012        0.0617219       0.0939328
281700.9               -0.176894       0.0119642     -0.000894166     1.44613e-05        -0.508356       -0.837377      0.000536203    -0.000229952
                    -0.000778462     6.94314e-05        -0.105263      -0.0522413       0.00035577    -0.000212963        -0.740712       -0.653315
                       -0.508472       -0.837195      0.000409658     3.41206e-06       -0.0933629        0.149948      -0.00018047     0.000727566
                     0.000426503     -0.00026739        -0.740971       -0.653187     -0.000251807     0.000642009        0.0617296       0.0939234
281701                 -0.176889       0.0119683     -0.000894164     1.45092e-05        -0.508382       -0.837362      0.000536196    -0.000229977
                    -0.000778471     6.94695e-05        -0.105258      -0.0522435       0.00035577    -0.000212968        -0.740734        -0.65329
                       -0.508499        -0.83718      0.000409664     3.34634e-06        -0.093355        0.149947     -0.000180431     0.000727593
                     0.000426506    -0.000267424        -0.740992       -0.653162     -0.000251788     0.000642005        0.0617374       0.0939141
281701.1               -0.176884       0.0119725     -0.000894162      1.4557e-05        -0.508408       -0.837347      0.000536188    -0.000230001
                     -0.00077848     6.95075e-05        -0.105253      -0.0522456       0.00035577    -0.000212973        -0.740756       -0.653266
                       -0.508525       -0.837166      0.000409669     3.28062e-06       -0.0933471        0.149946     -0.000180391      0.00072762
                      0.00042651    -0.000267457        -0.741014       -0.653138     -0.000251768     0.000642001        0.0617452       0.0939047
281701.2               -0.176878       0.0119766      -0.00089416     1.46048e-05        -0.508434       -0.837332      0.000536181    -0.000230025
                    -0.000778489     6.95456e-05        -0.105249      -0.0522478       0.00035577    -0.000212978        -0.740777       -0.653242
                       -0.508551       -0.837151      0.000409675      3.2149e-06       -0.0933392        0.149945     -0.000180352     0.000727648
                     0.000426514     -0.00026749        -0.741036       -0.653113     -0.000251748     0.000641998        0.0617529       0.0938953
281701.3               -0.176873       0.0119807     -0.000894158     1.46526e-05         -0.50846       -0.837317      0.000536174    -0.000230049
                    -0.000778498     6.95837e-05        -0.105244      -0.0522499       0.00035577    -0.000212983        -0.740799       -0.653217
                       -0.508577       -0.837136      0.000409681     3.14917e-06       -0.0933313        0.149944     -0.000180312     0.000727675
                     0.000426518    -0.000267524        -0.741058       -0.653089     -0.000251729     0.000641994        0.0617607        0.093886
281701.4               -0.176868       0.0119848     -0.000894156     1.47004e-05        -0.508486       -0.837303      0.000536167    -0.000230073
                    -0.000778507     6.96218e-05        -0.105239       -0.052252       0.00035577    -0.000212989        -0.740821       -0.653193
                       -0.508603       -0.837121      0.000409687     3.08345e-06       -0.0933234        0.149944     -0.000180273     0.000727702
                     0.000426522    -0.000267557         -0.74108       -0.653065     -0.000251709     0.000641991        0.0617684       0.0938766
281701.5               -0.176863        0.011989     -0.000894154     1.47482e-05        -0.508512       -0.837288      0.000536159    -0.000230097
                    -0.000778516     6.96598e-05        -0.105234      -0.0522542       0.00035577    -0.000212994        -0.740843       -0.653169
                       -0.508629       -0.837106      0.000409693     3.01772e-06       -0.0933155        0.149943     -0.000180233     0.000727729
                     0.000426526     -0.00026759        -0.741102        -0.65304      -0.00025169     0.000641987        0.0617762       0.0938673
281701.6               -0.176858       0.0119931     -0.000894152      1.4796e-05        -0.508538       -0.837273      0.000536152    -0.000230121
                    -0.000778526     6.96979e-05        -0.105229      -0.0522563       0.00035577    -0.000212999        -0.740865       -0.653144
                       -0.508655       -0.837091      0.000409698     2.95198e-06       -0.0933076        0.149942     -0.000180194     0.000727757
                     0.000426529    -0.000267624        -0.741124       -0.653016      -0.00025167     0.000641983         0.061784       0.0938579
281701.7               -0.176853       0.0119972      -0.00089415     1.48438e-05        -0.508564       -0.837258      0.000536145    -0.000230145
                    -0.000778535      6.9736e-05        -0.105225      -0.0522585       0.00035577    -0.000213004        -0.740887        -0.65312
                       -0.508681       -0.837077      0.000409704     2.88625e-06       -0.0932997        0.149941     -0.000180154     0.000727784
                     0.000426533    -0.000267657        -0.741146       -0.652992     -0.000251651      0.00064198        0.0617917       0.0938485
281701.8               -0.176848       0.0120013     -0.000894148     1.48915e-05         -0.50859       -0.837243      0.000536138    -0.000230169
                    -0.000778544     6.97741e-05         -0.10522      -0.0522606       0.00035577    -0.000213009        -0.740909       -0.653096
                       -0.508707       -0.837062       0.00040971     2.82051e-06       -0.0932918         0.14994     -0.000180115     0.000727811
                     0.000426537     -0.00026769        -0.741168       -0.652967     -0.000251631     0.000641976        0.0617995       0.0938392
281701.9               -0.176843       0.0120055     -0.000894146     1.49393e-05        -0.508616       -0.837229      0.000536131    -0.000230193
                    -0.000778553     6.98121e-05        -0.105215      -0.0522628       0.00035577    -0.000213014        -0.740931       -0.653071
                       -0.508733       -0.837047      0.000409716     2.75477e-06       -0.0932839        0.149939     -0.000180075     0.000727838
                     0.000426541    -0.000267724        -0.741189       -0.652943     -0.000251612     0.000641973        0.0618072       0.0938298
281702                 -0.176837       0.0120096     -0.000894144     1.49871e-05        -0.508642       -0.837214      0.000536123    -0.000230217
                    -0.000778562     6.98502e-05         -0.10521      -0.0522649       0.00035577    -0.000213019        -0.740952       -0.653047
                       -0.508759       -0.837032      0.000409721     2.68903e-06        -0.093276        0.149939     -0.000180036     0.000727865
                     0.000426545    -0.000267757        -0.741211       -0.652918     -0.000251592     0.000641969         0.061815       0.0938204
281702.1               -0.176832       0.0120137     -0.000894142     1.50348e-05        -0.508668       -0.837199      0.000536116    -0.000230241
                    -0.000778571     6.98883e-05        -0.105205       -0.052267       0.00035577    -0.000213024        -0.740974       -0.653023
                       -0.508785       -0.837017      0.000409727     2.62328e-06       -0.0932681        0.149938     -0.000179997     0.000727893
                     0.000426549    -0.000267791        -0.741233       -0.652894     -0.000251572     0.000641966        0.0618227       0.0938111
281702.2               -0.176827       0.0120178      -0.00089414     1.50826e-05        -0.508694       -0.837184      0.000536109    -0.000230265
                     -0.00077858     6.99264e-05        -0.105201      -0.0522692       0.00035577    -0.000213029        -0.740996       -0.652998
                       -0.508812       -0.837002      0.000409733     2.55753e-06       -0.0932602        0.149937     -0.000179957      0.00072792
                     0.000426552    -0.000267824        -0.741255        -0.65287     -0.000251553     0.000641962        0.0618305       0.0938017
281702.3               -0.176822        0.012022     -0.000894138     1.51303e-05         -0.50872       -0.837169      0.000536102    -0.000230289
                    -0.000778589     6.99645e-05        -0.105196      -0.0522713       0.00035577    -0.000213034        -0.741018       -0.652974
                       -0.508838       -0.836988      0.000409738     2.49178e-06       -0.0932523        0.149936     -0.000179918     0.000727947
                     0.000426556    -0.000267857        -0.741277       -0.652845     -0.000251533     0.000641959        0.0618383       0.0937923
281702.4               -0.176817       0.0120261     -0.000894136     1.51781e-05        -0.508747       -0.837155      0.000536094    -0.000230313
                    -0.000778598     7.00025e-05        -0.105191      -0.0522735       0.00035577    -0.000213039         -0.74104        -0.65295
                       -0.508864       -0.836973      0.000409744     2.42603e-06       -0.0932444        0.149935     -0.000179878     0.000727974
                      0.00042656    -0.000267891        -0.741299       -0.652821     -0.000251514     0.000641955         0.061846        0.093783
281702.5               -0.176812       0.0120302     -0.000894133     1.52258e-05        -0.508773        -0.83714      0.000536087    -0.000230338
                    -0.000778607     7.00406e-05        -0.105186      -0.0522756       0.00035577    -0.000213044        -0.741062       -0.652925
                        -0.50889       -0.836958      0.000409749     2.36028e-06       -0.0932365        0.149934     -0.000179839     0.000728001
                     0.000426564    -0.000267924        -0.741321       -0.652797     -0.000251494     0.000641951        0.0618538       0.0937736
281702.6               -0.176807       0.0120343     -0.000894131     1.52736e-05        -0.508799       -0.837125       0.00053608    -0.000230362
                    -0.000778617     7.00787e-05        -0.105182      -0.0522778       0.00035577    -0.000213049        -0.741084       -0.652901
                       -0.508916       -0.836943      0.000409755     2.29452e-06       -0.0932286        0.149934     -0.000179799     0.000728028
                     0.000426568    -0.000267957        -0.741343       -0.652772     -0.000251475     0.000641948        0.0618615       0.0937642
281702.7               -0.176802       0.0120385     -0.000894129     1.53213e-05        -0.508825        -0.83711      0.000536073    -0.000230386
                    -0.000778626     7.01168e-05        -0.105177      -0.0522799       0.00035577    -0.000213054        -0.741106       -0.652877
                       -0.508942       -0.836928      0.000409761     2.22876e-06       -0.0932207        0.149933      -0.00017976     0.000728056
                     0.000426572    -0.000267991        -0.741364       -0.652748     -0.000251455     0.000641944        0.0618693       0.0937549
281702.8               -0.176796       0.0120426     -0.000894127      1.5369e-05        -0.508851       -0.837095      0.000536065     -0.00023041
                    -0.000778635     7.01549e-05        -0.105172      -0.0522821       0.00035577    -0.000213059        -0.741128       -0.652852
                       -0.508968       -0.836913      0.000409766       2.163e-06       -0.0932128        0.149932      -0.00017972     0.000728083
                     0.000426576    -0.000268024        -0.741386       -0.652723     -0.000251436     0.000641941         0.061877       0.0937455
281702.9               -0.176791       0.0120467     -0.000894125     1.54167e-05        -0.508877       -0.837081      0.000536058    -0.000230434
                    -0.000778644     7.01929e-05        -0.105167      -0.0522842       0.00035577    -0.000213064        -0.741149       -0.652828
                       -0.508994       -0.836898      0.000409772     2.09724e-06       -0.0932049        0.149931     -0.000179681      0.00072811
                     0.000426579    -0.000268057        -0.741408       -0.652699     -0.000251416     0.000641937        0.0618848       0.0937361
281703                 -0.176786       0.0120508     -0.000894123     1.54644e-05        -0.508903       -0.837066      0.000536051    -0.000230458
                    -0.000778653      7.0231e-05        -0.105162      -0.0522864       0.00035577     -0.00021307        -0.741171       -0.652804
                        -0.50902       -0.836884      0.000409777     2.03147e-06        -0.093197         0.14993     -0.000179641     0.000728137
                     0.000426583    -0.000268091         -0.74143       -0.652675     -0.000251397     0.000641934        0.0618925       0.0937268
281703.1               -0.176781        0.012055     -0.000894121     1.55121e-05        -0.508929       -0.837051      0.000536044    -0.000230482
                    -0.000778662     7.02691e-05        -0.105158      -0.0522885      0.000355771    -0.000213075        -0.741193       -0.652779
                       -0.509046       -0.836869      0.000409783      1.9657e-06       -0.0931891        0.149929     -0.000179602     0.000728164
