! TOUCHSTONE file generated by CST MICROWAVE STUDIO
! Date and time: Wed Oct  8 06:55:45 2025
! Project name: Teste_Macro_Metasurface_Nanopilar.cst
! Parameters = {H=600; L_x=110; L_y=165; Lambda=1064; Max_L=200; Min_L=70; PathPara=1; Phi=0; Step_L=10; Theta=0; p=520; phaseX=180; phaseY=0}
! Header version: 2018
! Port assignment regex: !\s*Touchstone port\s*([0-9]+)\s*=\s*(CST MWS port|CST DS port)\s*([0-9]+|Zmin|Zmax)\s*\(\"(.*)\"\)(\s*mode\s*([0-9]+))?.*
! Touchstone port assignment:
! Touchstone port 1 = CST MWS port Zmax ("") mode 1
! Touchstone port 2 = CST MWS port Zmax ("") mode 2
! Touchstone port 3 = CST MWS port Zmin ("") mode 1
! Touchstone port 4 = CST MWS port Zmin ("") mode 2
! S-Parameters are not renormalized. Each port impedance will be approximated by the real part at minimum frequency. The values are described via the [Reference] keyword.
! Default impedance is overridden by [Reference]
[Version] 2.0
# GHz S RI R 376.73
[Number of Ports] 4
[Reference]
376.73 376.73 376.73 376.73 
[Number of Frequencies] 1001
[Network Data]
281700                 -0.124194       -0.293668      0.000149078    -0.000733412        -0.888769       -0.297038      -0.00068774    -0.000547926
                     0.000192605    -0.000738513       -0.0467584       -0.148217      -0.00021997      0.00108054         0.805202       -0.556301
                       -0.888796       -0.297074     -0.000244805     0.000938618         0.261899       -0.170437      0.000803955     0.000638431
                    -0.000711754    -0.000528502         0.805192       -0.556457      0.000786285     0.000701737        -0.125118      -0.0932373
281700.1               -0.124201       -0.293679      0.000149046    -0.000733426        -0.888777          -0.297     -0.000687777    -0.000547894
                      0.00019257     -0.00073853       -0.0467664        -0.14822     -0.000219915      0.00108056         0.805182       -0.556328
                       -0.888804       -0.297036     -0.000244766     0.000938632         0.261897       -0.170465      0.000803997     0.000638395
                      -0.0007118     -0.00052847         0.805172       -0.556484      0.000786346     0.000701706        -0.125124      -0.0932373
281700.2               -0.124207        -0.29369      0.000149014     -0.00073344        -0.888785       -0.296961     -0.000687813    -0.000547862
                     0.000192534    -0.000738547       -0.0467745       -0.148222     -0.000219859      0.00108057         0.805163       -0.556356
                       -0.888812       -0.296998     -0.000244727     0.000938645         0.261894       -0.170492      0.000804039      0.00063836
                    -0.000711846    -0.000528438         0.805153       -0.556511      0.000786407     0.000701674        -0.125129      -0.0932372
281700.3               -0.124214       -0.293701      0.000148982    -0.000733455        -0.888793       -0.296923     -0.000687849    -0.000547831
                     0.000192498    -0.000738564       -0.0467825       -0.148224     -0.000219803      0.00108059         0.805143       -0.556383
                        -0.88882       -0.296959     -0.000244688     0.000938659         0.261891        -0.17052      0.000804082     0.000638324
                    -0.000711892    -0.000528406         0.805133       -0.556538      0.000786469     0.000701643        -0.125135      -0.0932372
281700.4                -0.12422       -0.293711       0.00014895    -0.000733469        -0.888801       -0.296885     -0.000687886    -0.000547799
                     0.000192462    -0.000738581       -0.0467906       -0.148226     -0.000219748       0.0010806         0.805123        -0.55641
                       -0.888828       -0.296921     -0.000244649     0.000938673         0.261888       -0.170547      0.000804124     0.000638289
                    -0.000711937    -0.000528374         0.805113       -0.556565       0.00078653     0.000701612        -0.125141      -0.0932371
281700.5               -0.124227       -0.293722      0.000148918    -0.000733484        -0.888809       -0.296847     -0.000687922    -0.000547767
                     0.000192426    -0.000738599       -0.0467986       -0.148229     -0.000219692      0.00108062         0.805104       -0.556437
                       -0.888835       -0.296883      -0.00024461     0.000938686         0.261886       -0.170575      0.000804166     0.000638253
                    -0.000711983    -0.000528342         0.805094       -0.556592      0.000786591      0.00070158        -0.125146       -0.093237
281700.6               -0.124233       -0.293733      0.000148886    -0.000733498        -0.888817       -0.296808     -0.000687959    -0.000547735
                     0.000192391    -0.000738616       -0.0468067       -0.148231     -0.000219636      0.00108063         0.805084       -0.556464
                       -0.888843       -0.296844     -0.000244571       0.0009387         0.261883       -0.170602      0.000804209     0.000638218
                    -0.000712029     -0.00052831         0.805074       -0.556619      0.000786652     0.000701549        -0.125152       -0.093237
281700.7                -0.12424       -0.293744      0.000148854    -0.000733513        -0.888825        -0.29677     -0.000687995    -0.000547704
                     0.000192355    -0.000738633       -0.0468147       -0.148233     -0.000219581      0.00108065         0.805065       -0.556491
                       -0.888851       -0.296806     -0.000244532     0.000938714          0.26188        -0.17063      0.000804251     0.000638182
                    -0.000712075    -0.000528278         0.805055       -0.556647      0.000786713     0.000701518        -0.125158      -0.0932369
281700.8               -0.124246       -0.293755      0.000148822    -0.000733527        -0.888833       -0.296732     -0.000688031    -0.000547672
                     0.000192319     -0.00073865       -0.0468228       -0.148235     -0.000219525      0.00108066         0.805045       -0.556519
                       -0.888859       -0.296768     -0.000244493     0.000938727         0.261877       -0.170657      0.000804293     0.000638147
                    -0.000712121    -0.000528246         0.805035       -0.556674      0.000786774     0.000701486        -0.125163      -0.0932369
281700.9               -0.124253       -0.293766       0.00014879    -0.000733542        -0.888841       -0.296693     -0.000688068     -0.00054764
                     0.000192283    -0.000738668       -0.0468308       -0.148238     -0.000219469      0.00108068         0.805025       -0.556546
                       -0.888867       -0.296729     -0.000244454     0.000938741         0.261875       -0.170685      0.000804335     0.000638111
                    -0.000712167    -0.000528214         0.805015       -0.556701      0.000786835     0.000701455        -0.125169      -0.0932368
281701                 -0.124259       -0.293776      0.000148758    -0.000733556        -0.888849       -0.296655     -0.000688104    -0.000547608
                     0.000192247    -0.000738685       -0.0468389        -0.14824     -0.000219414      0.00108069         0.805006       -0.556573
                       -0.888875       -0.296691     -0.000244415     0.000938755         0.261872       -0.170712      0.000804378     0.000638076
                    -0.000712213    -0.000528182         0.804996       -0.556728      0.000786897     0.000701424        -0.125175      -0.0932367
281701.1               -0.124266       -0.293787      0.000148726     -0.00073357        -0.888857       -0.296617     -0.000688141    -0.000547576
                     0.000192211    -0.000738702       -0.0468469       -0.148242     -0.000219358      0.00108071         0.804986         -0.5566
                       -0.888883       -0.296653     -0.000244376     0.000938768         0.261869        -0.17074       0.00080442      0.00063804
                    -0.000712259     -0.00052815         0.804976       -0.556755      0.000786958     0.000701392         -0.12518      -0.0932367
281701.2               -0.124272       -0.293798      0.000148694    -0.000733585        -0.888864       -0.296578     -0.000688177    -0.000547545
                     0.000192176    -0.000738719        -0.046855       -0.148244     -0.000219302      0.00108072         0.804967       -0.556627
                       -0.888891       -0.296614     -0.000244337     0.000938782         0.261866       -0.170767      0.000804462     0.000638005
                    -0.000712305    -0.000528118         0.804956       -0.556782      0.000787019     0.000701361        -0.125186      -0.0932366
281701.3               -0.124279       -0.293809      0.000148662    -0.000733599        -0.888872        -0.29654     -0.000688213    -0.000547513
                      0.00019214    -0.000738736        -0.046863       -0.148247     -0.000219246      0.00108074         0.804947       -0.556654
                       -0.888899       -0.296576     -0.000244298     0.000938796         0.261863       -0.170795      0.000804505     0.000637969
                    -0.000712351    -0.000528086         0.804937       -0.556809       0.00078708     0.000701329        -0.125192      -0.0932365
281701.4               -0.124285        -0.29382       0.00014863    -0.000733614         -0.88888       -0.296502      -0.00068825    -0.000547481
                     0.000192104    -0.000738754       -0.0468711       -0.148249     -0.000219191      0.00108075         0.804927       -0.556681
                       -0.888907       -0.296538     -0.000244259      0.00093881         0.261861       -0.170822      0.000804547     0.000637933
                    -0.000712397    -0.000528054         0.804917       -0.556836      0.000787141     0.000701298        -0.125198      -0.0932365
281701.5               -0.124292       -0.293831      0.000148598    -0.000733628        -0.888888       -0.296463     -0.000688286    -0.000547449
                     0.000192068    -0.000738771       -0.0468791       -0.148251     -0.000219135      0.00108077         0.804908       -0.556708
                       -0.888915         -0.2965      -0.00024422     0.000938823         0.261858        -0.17085      0.000804589     0.000637898
                    -0.000712443    -0.000528022         0.804898       -0.556864      0.000787202     0.000701266        -0.125203      -0.0932364
281701.6               -0.124298       -0.293841      0.000148566    -0.000733642        -0.888896       -0.296425     -0.000688322    -0.000547418
                     0.000192032    -0.000738788       -0.0468872       -0.148253     -0.000219079      0.00108078         0.804888       -0.556736
                       -0.888923       -0.296461     -0.000244181     0.000938837         0.261855       -0.170877      0.000804631     0.000637862
                    -0.000712489     -0.00052799         0.804878       -0.556891      0.000787263     0.000701235        -0.125209      -0.0932363
281701.7               -0.124305       -0.293852      0.000148534    -0.000733657        -0.888904       -0.296387     -0.000688359    -0.000547386
                     0.000191996    -0.000738805       -0.0468952       -0.148256     -0.000219023       0.0010808         0.804869       -0.556763
                        -0.88893       -0.296423     -0.000244142     0.000938851         0.261852       -0.170905      0.000804674     0.000637827
                    -0.000712535    -0.000527958         0.804858       -0.556918      0.000787324     0.000701204        -0.125215      -0.0932363
281701.8               -0.124311       -0.293863      0.000148502    -0.000733671        -0.888912       -0.296348     -0.000688395    -0.000547354
                     0.000191961    -0.000738822       -0.0469033       -0.148258     -0.000218968      0.00108081         0.804849        -0.55679
                       -0.888938       -0.296385     -0.000244103     0.000938864          0.26185       -0.170932      0.000804716     0.000637791
                    -0.000712581    -0.000527926         0.804839       -0.556945      0.000787386     0.000701172         -0.12522      -0.0932362
281701.9               -0.124317       -0.293874       0.00014847    -0.000733686         -0.88892        -0.29631     -0.000688432    -0.000547322
                     0.000191925    -0.000738839       -0.0469113        -0.14826     -0.000218912      0.00108083         0.804829       -0.556817
                       -0.888946       -0.296346     -0.000244063     0.000938878         0.261847        -0.17096      0.000804758     0.000637756
                    -0.000712627    -0.000527894         0.804819       -0.556972      0.000787447     0.000701141        -0.125226      -0.0932362
281702                 -0.124324       -0.293885      0.000148438      -0.0007337        -0.888928       -0.296272     -0.000688468     -0.00054729
                     0.000191889    -0.000738857       -0.0469194       -0.148262     -0.000218856      0.00108084          0.80481       -0.556844
                       -0.888954       -0.296308     -0.000244024     0.000938892         0.261844       -0.170987        0.0008048      0.00063772
                    -0.000712672    -0.000527862         0.804799       -0.556999      0.000787508     0.000701109        -0.125232      -0.0932361
281702.1                -0.12433       -0.293896      0.000148406    -0.000733715        -0.888936       -0.296233     -0.000688504    -0.000547258
                     0.000191853    -0.000738874       -0.0469274       -0.148265     -0.000218801      0.00108086          0.80479       -0.556871
                       -0.888962        -0.29627     -0.000243985     0.000938905         0.261841       -0.171015      0.000804843     0.000637684
                    -0.000712718     -0.00052783          0.80478       -0.557026      0.000787569     0.000701078        -0.125237       -0.093236
281702.2               -0.124337       -0.293906      0.000148374    -0.000733729        -0.888943       -0.296195     -0.000688541    -0.000547227
                     0.000191817    -0.000738891       -0.0469355       -0.148267     -0.000218745      0.00108087          0.80477       -0.556898
                        -0.88897       -0.296231     -0.000243946     0.000938919         0.261838       -0.171042      0.000804885     0.000637649
                    -0.000712764    -0.000527798          0.80476       -0.557054       0.00078763     0.000701046        -0.125243       -0.093236
281702.3               -0.124343       -0.293917      0.000148342    -0.000733743        -0.888951       -0.296157     -0.000688577    -0.000547195
                     0.000191781    -0.000738908       -0.0469436       -0.148269     -0.000218689      0.00108089         0.804751       -0.556926
                       -0.888978       -0.296193     -0.000243907     0.000938933         0.261836        -0.17107      0.000804927     0.000637613
                     -0.00071281    -0.000527766         0.804741       -0.557081      0.000787691     0.000701015        -0.125249      -0.0932359
281702.4                -0.12435       -0.293928       0.00014831    -0.000733758        -0.888959       -0.296118     -0.000688613    -0.000547163
                     0.000191746    -0.000738925       -0.0469516       -0.148271     -0.000218633       0.0010809         0.804731       -0.556953
                       -0.888986       -0.296155     -0.000243868     0.000938946         0.261833       -0.171097      0.000804969     0.000637578
                    -0.000712856    -0.000527734         0.804721       -0.557108      0.000787753     0.000700983        -0.125254      -0.0932358
281702.5               -0.124356       -0.293939      0.000148278    -0.000733772        -0.888967        -0.29608      -0.00068865    -0.000547131
                      0.00019171    -0.000738943       -0.0469597       -0.148274     -0.000218578      0.00108092         0.804712        -0.55698
                       -0.888994       -0.296116     -0.000243829      0.00093896          0.26183       -0.171125      0.000805012     0.000637542
                    -0.000712902    -0.000527701         0.804701       -0.557135      0.000787814     0.000700952         -0.12526      -0.0932358
281702.6               -0.124363        -0.29395      0.000148246    -0.000733787        -0.888975       -0.296042     -0.000688686    -0.000547099
                     0.000191674     -0.00073896       -0.0469677       -0.148276     -0.000218522      0.00108093         0.804692       -0.557007
                       -0.889002       -0.296078      -0.00024379     0.000938974         0.261827       -0.171152      0.000805054     0.000637507
                    -0.000712948    -0.000527669         0.804682       -0.557162      0.000787875      0.00070092        -0.125266      -0.0932357
281702.7               -0.124369       -0.293961      0.000148214    -0.000733801        -0.888983       -0.296004     -0.000688722    -0.000547068
                     0.000191638    -0.000738977       -0.0469758       -0.148278     -0.000218466      0.00108095         0.804672       -0.557034
                       -0.889009        -0.29604     -0.000243751     0.000938987         0.261824        -0.17118      0.000805096     0.000637471
                    -0.000712994    -0.000527637         0.804662       -0.557189      0.000787936     0.000700889        -0.125272      -0.0932356
281702.8               -0.124376       -0.293971      0.000148182    -0.000733815        -0.888991       -0.295965     -0.000688759    -0.000547036
                     0.000191602    -0.000738994       -0.0469838        -0.14828      -0.00021841      0.00108096         0.804653       -0.557061
                       -0.889017       -0.296001     -0.000243712     0.000939001         0.261821       -0.171207      0.000805138     0.000637435
                     -0.00071304    -0.000527605         0.804642       -0.557216      0.000787997     0.000700857        -0.125277      -0.0932355
281702.9               -0.124382       -0.293982       0.00014815     -0.00073383        -0.888999       -0.295927     -0.000688795    -0.000547004
                     0.000191566    -0.000739011       -0.0469919       -0.148283     -0.000218354      0.00108098         0.804633       -0.557088
                       -0.889025       -0.295963     -0.000243673     0.000939015         0.261819       -0.171235      0.000805181       0.0006374
                    -0.000713086    -0.000527573         0.804623       -0.557243      0.000788058     0.000700826        -0.125283      -0.0932355
281703                 -0.124389       -0.293993      0.000148118    -0.000733844        -0.889007       -0.295889     -0.000688832    -0.000546972
                     0.000191531    -0.000739028       -0.0469999       -0.148285     -0.000218299      0.00108099         0.804613       -0.557115
                       -0.889033       -0.295925     -0.000243634     0.000939028         0.261816       -0.171262      0.000805223     0.000637364
                    -0.000713132    -0.000527541         0.804603       -0.557271      0.000788119     0.000700794        -0.125289      -0.0932354
281703.1               -0.124395       -0.294004      0.000148086    -0.000733858        -0.889014        -0.29585     -0.000688868     -0.00054694
                     0.000191495    -0.000739045        -0.047008       -0.148287     -0.000218243      0.00108101         0.804594       -0.557143
                       -0.889041       -0.295887     -0.000243595     0.000939042         0.261813        -0.17129      0.000805265     0.000637329
