! TOUCHSTONE file generated by CST MICROWAVE STUDIO
! Date and time: Wed Oct  8 06:54:34 2025
! Project name: Teste_Macro_Metasurface_Nanopilar.cst
! Parameters = {H=600; L_x=100; L_y=170; Lambda=1064; Max_L=200; Min_L=70; PathPara=1; Phi=0; Step_L=10; Theta=0; p=520; phaseX=180; phaseY=0}
! Header version: 2018
! Port assignment regex: !\s*Touchstone port\s*([0-9]+)\s*=\s*(CST MWS port|CST DS port)\s*([0-9]+|Zmin|Zmax)\s*\(\"(.*)\"\)(\s*mode\s*([0-9]+))?.*
! Touchstone port assignment:
! Touchstone port 1 = CST MWS port Zmax ("") mode 1
! Touchstone port 2 = CST MWS port Zmax ("") mode 2
! Touchstone port 3 = CST MWS port Zmin ("") mode 1
! Touchstone port 4 = CST MWS port Zmin ("") mode 2
! S-Parameters are not renormalized. Each port impedance will be approximated by the real part at minimum frequency. The values are described via the [Reference] keyword.
! Default impedance is overridden by [Reference]
[Version] 2.0
# GHz S RI R 376.73
[Number of Ports] 4
[Reference]
376.73 376.73 376.73 376.73 
[Number of Frequencies] 1001
[Network Data]
281700                -0.0935173       -0.178475      6.86953e-05     0.000139503        -0.840098       -0.489954      0.000314439     0.000234429
                     2.09332e-05     0.000124535        -0.134886       0.0654714      0.000309093     0.000299683         0.724628        0.661266
                       -0.840307       -0.489824      0.000290798      0.00024209         0.195418      -0.0125209     -9.74354e-06     2.15151e-05
                     0.000282388     0.000257855         0.724742        0.661174      -6.7478e-05     0.000122969       -0.0556749         0.13899
281700.1              -0.0935167       -0.178481      6.86962e-05     0.000139501        -0.840115       -0.489923      0.000314436     0.000234413
                     2.09281e-05     0.000124544        -0.134879       0.0654729      0.000309109      0.00029968         0.724651        0.661242
                       -0.840324       -0.489793      0.000290812     0.000242075         0.195423       -0.012539     -9.72922e-06     2.15206e-05
                     0.000282386     0.000257862         0.724764        0.661151     -6.74861e-05     0.000122975       -0.0556677        0.138987
281700.2              -0.0935162       -0.178487      6.86971e-05     0.000139499        -0.840132       -0.489892      0.000314434     0.000234397
                      2.0923e-05     0.000124552        -0.134872       0.0654745      0.000309125     0.000299676         0.724674        0.661218
                       -0.840341       -0.489762      0.000290826     0.000242061         0.195427       -0.012557      -9.7149e-06     2.15261e-05
                     0.000282384     0.000257869         0.724787        0.661127     -6.74942e-05      0.00012298       -0.0556605        0.138983
281700.3              -0.0935157       -0.178494      6.86979e-05     0.000139497        -0.840148       -0.489861      0.000314432     0.000234381
                     2.09179e-05      0.00012456        -0.134866        0.065476      0.000309141     0.000299673         0.724697        0.661195
                       -0.840357       -0.489731       0.00029084     0.000242047         0.195431      -0.0125751     -9.70057e-06     2.15317e-05
                     0.000282383     0.000257875          0.72481        0.661103     -6.75023e-05     0.000122986       -0.0556533         0.13898
281700.4              -0.0935152         -0.1785      6.86988e-05     0.000139495        -0.840165        -0.48983       0.00031443     0.000234365
                     2.09129e-05     0.000124569        -0.134859       0.0654775      0.000309157     0.000299669         0.724719        0.661171
                       -0.840374         -0.4897      0.000290855     0.000242032         0.195435      -0.0125931     -9.68625e-06     2.15372e-05
                     0.000282381     0.000257882         0.724833        0.661079     -6.75105e-05     0.000122992       -0.0556461        0.138977
281700.5              -0.0935147       -0.178506      6.86997e-05     0.000139493        -0.840182       -0.489799      0.000314428     0.000234349
                     2.09078e-05     0.000124577        -0.134852        0.065479      0.000309173     0.000299666         0.724742        0.661147
                       -0.840391       -0.489669      0.000290869     0.000242018          0.19544      -0.0126111     -9.67192e-06     2.15427e-05
                     0.000282379     0.000257889         0.724856        0.661055     -6.75186e-05     0.000122998       -0.0556389        0.138974
281700.6              -0.0935142       -0.178512      6.87005e-05     0.000139491        -0.840198       -0.489768      0.000314426     0.000234333
                     2.09027e-05     0.000124585        -0.134845       0.0654806      0.000309189     0.000299662         0.724765        0.661123
                       -0.840407       -0.489638      0.000290883     0.000242004         0.195444      -0.0126292     -9.65759e-06     2.15483e-05
                     0.000282378     0.000257896         0.724879        0.661032     -6.75267e-05     0.000123004       -0.0556317        0.138971
281700.7              -0.0935137       -0.178519      6.87014e-05     0.000139489        -0.840215       -0.489738      0.000314424     0.000234317
                     2.08976e-05     0.000124594        -0.134838       0.0654821      0.000309205     0.000299659         0.724788        0.661099
                       -0.840424       -0.489607      0.000290897     0.000241989         0.195448      -0.0126472     -9.64325e-06     2.15538e-05
                     0.000282376     0.000257902         0.724901        0.661008     -6.75348e-05      0.00012301       -0.0556245        0.138967
281700.8              -0.0935132       -0.178525      6.87023e-05     0.000139488        -0.840231       -0.489707      0.000314422     0.000234301
                     2.08925e-05     0.000124602        -0.134831       0.0654836      0.000309221     0.000299655         0.724811        0.661075
                       -0.840441       -0.489576      0.000290911     0.000241975         0.195452      -0.0126653     -9.62892e-06     2.15593e-05
                     0.000282374     0.000257909         0.724924        0.660984     -6.75429e-05     0.000123016       -0.0556173        0.138964
281700.9              -0.0935127       -0.178531      6.87031e-05     0.000139486        -0.840248       -0.489676       0.00031442     0.000234286
                     2.08875e-05      0.00012461        -0.134824       0.0654851      0.000309237     0.000299652         0.724834        0.661052
                       -0.840457       -0.489545      0.000290925     0.000241961         0.195457      -0.0126833     -9.61458e-06     2.15649e-05
                     0.000282373     0.000257916         0.724947         0.66096     -6.75511e-05     0.000123022       -0.0556101        0.138961
281701                -0.0935122       -0.178538       6.8704e-05     0.000139484        -0.840265       -0.489645      0.000314417      0.00023427
                     2.08824e-05     0.000124619        -0.134817       0.0654866      0.000309253     0.000299648         0.724856        0.661028
                       -0.840474       -0.489514       0.00029094     0.000241946         0.195461      -0.0127014     -9.60025e-06     2.15704e-05
                     0.000282371     0.000257923          0.72497        0.660936     -6.75592e-05     0.000123028       -0.0556029        0.138958
281701.1              -0.0935117       -0.178544      6.87049e-05     0.000139482        -0.840281       -0.489614      0.000314415     0.000234254
                     2.08773e-05     0.000124627         -0.13481       0.0654882      0.000309269     0.000299645         0.724879        0.661004
                        -0.84049       -0.489483      0.000290954     0.000241932         0.195465      -0.0127194     -9.58591e-06     2.15759e-05
                     0.000282369     0.000257929         0.724993        0.660912     -6.75673e-05     0.000123034       -0.0555957        0.138955
281701.2              -0.0935112        -0.17855      6.87057e-05      0.00013948        -0.840298       -0.489583      0.000314413     0.000234238
                     2.08722e-05     0.000124635        -0.134803       0.0654897      0.000309285     0.000299641         0.724902         0.66098
                       -0.840507       -0.489452      0.000290968     0.000241917          0.19547      -0.0127375     -9.57156e-06     2.15815e-05
                     0.000282368     0.000257936         0.725016        0.660889     -6.75754e-05      0.00012304       -0.0555885        0.138952
281701.3              -0.0935107       -0.178556      6.87066e-05     0.000139478        -0.840314       -0.489552      0.000314411     0.000234222
                     2.08671e-05     0.000124644        -0.134796       0.0654912      0.000309301     0.000299638         0.724925        0.660956
                       -0.840524       -0.489421      0.000290982     0.000241903         0.195474      -0.0127555     -9.55722e-06      2.1587e-05
                     0.000282366     0.000257943         0.725038        0.660865     -6.75836e-05     0.000123046       -0.0555813        0.138948
281701.4              -0.0935102       -0.178563      6.87075e-05     0.000139476        -0.840331       -0.489521      0.000314409     0.000234206
                      2.0862e-05     0.000124652        -0.134789       0.0654927      0.000309317     0.000299634         0.724948        0.660932
                        -0.84054        -0.48939      0.000290996     0.000241889         0.195478      -0.0127736     -9.54287e-06     2.15925e-05
                     0.000282364      0.00025795         0.725061        0.660841     -6.75917e-05     0.000123052       -0.0555741        0.138945
281701.5              -0.0935097       -0.178569      6.87083e-05     0.000139474        -0.840348        -0.48949      0.000314407      0.00023419
                      2.0857e-05      0.00012466        -0.134782       0.0654942      0.000309333     0.000299631         0.724971        0.660909
                       -0.840557       -0.489359       0.00029101     0.000241874         0.195482      -0.0127917     -9.52852e-06      2.1598e-05
                     0.000282363     0.000257957         0.725084        0.660817     -6.75998e-05     0.000123057       -0.0555669        0.138942
281701.6              -0.0935092       -0.178575      6.87092e-05     0.000139473        -0.840364       -0.489459      0.000314405     0.000234174
                     2.08519e-05     0.000124669        -0.134775       0.0654958      0.000309349     0.000299628         0.724993        0.660885
                       -0.840574       -0.489328      0.000291024      0.00024186         0.195487      -0.0128097     -9.51417e-06     2.16036e-05
                     0.000282361     0.000257963         0.725107        0.660793     -6.76079e-05     0.000123063       -0.0555597        0.138939
281701.7              -0.0935087       -0.178581      6.87101e-05     0.000139471        -0.840381       -0.489428      0.000314403     0.000234158
                     2.08468e-05     0.000124677        -0.134768       0.0654973      0.000309365     0.000299624         0.725016        0.660861
                        -0.84059       -0.489297      0.000291039     0.000241846         0.195491      -0.0128278     -9.49982e-06     2.16091e-05
                     0.000282359      0.00025797          0.72513        0.660769     -6.76161e-05     0.000123069       -0.0555526        0.138936
281701.8              -0.0935082       -0.178588      6.87109e-05     0.000139469        -0.840398       -0.489397      0.000314401     0.000234142
                     2.08417e-05     0.000124686        -0.134761       0.0654988      0.000309381     0.000299621         0.725039        0.660837
                       -0.840607       -0.489266      0.000291053     0.000241831         0.195495      -0.0128458     -9.48547e-06     2.16146e-05
                     0.000282358     0.000257977         0.725153        0.660746     -6.76242e-05     0.000123075       -0.0555454        0.138932
281701.9              -0.0935077       -0.178594      6.87118e-05     0.000139467        -0.840414       -0.489366      0.000314399     0.000234126
                     2.08366e-05     0.000124694        -0.134754       0.0655003      0.000309397     0.000299617         0.725062        0.660813
                       -0.840624       -0.489235      0.000291067     0.000241817         0.195499      -0.0128639     -9.47111e-06     2.16202e-05
                     0.000282356     0.000257984         0.725175        0.660722     -6.76323e-05     0.000123081       -0.0555382        0.138929
281702                -0.0935072         -0.1786      6.87127e-05     0.000139465        -0.840431       -0.489335      0.000314396      0.00023411
                     2.08315e-05     0.000124702        -0.134747       0.0655018      0.000309413     0.000299614         0.725085        0.660789
                        -0.84064       -0.489204      0.000291081     0.000241803         0.195504      -0.0128819     -9.45675e-06     2.16257e-05
                     0.000282354      0.00025799         0.725198        0.660698     -6.76405e-05     0.000123087        -0.055531        0.138926
281702.1              -0.0935067       -0.178606      6.87135e-05     0.000139463        -0.840447       -0.489304      0.000314394     0.000234094
                     2.08265e-05     0.000124711         -0.13474       0.0655033      0.000309429      0.00029961         0.725108        0.660766
                       -0.840657       -0.489173      0.000291095     0.000241788         0.195508         -0.0129     -9.44239e-06     2.16312e-05
                     0.000282353     0.000257997         0.725221        0.660674     -6.76486e-05     0.000123093       -0.0555238        0.138923
281702.2              -0.0935062       -0.178613      6.87144e-05     0.000139461        -0.840464       -0.489273      0.000314392     0.000234078
                     2.08214e-05     0.000124719        -0.134733       0.0655048      0.000309445     0.000299607          0.72513        0.660742
                       -0.840673       -0.489142      0.000291109     0.000241774         0.195512       -0.012918     -9.42803e-06     2.16367e-05
                     0.000282351     0.000258004         0.725244         0.66065     -6.76567e-05     0.000123099       -0.0555166         0.13892
281702.3              -0.0935057       -0.178619      6.87153e-05     0.000139459        -0.840481       -0.489242       0.00031439     0.000234062
                     2.08163e-05     0.000124727        -0.134726       0.0655064      0.000309461     0.000299603         0.725153        0.660718
                        -0.84069       -0.489111      0.000291123      0.00024176         0.195516      -0.0129361     -9.41367e-06     2.16423e-05
                     0.000282349     0.000258011         0.725267        0.660626     -6.76649e-05     0.000123105       -0.0555094        0.138916
281702.4              -0.0935052       -0.178625      6.87161e-05     0.000139458        -0.840497       -0.489211      0.000314388     0.000234046
                     2.08112e-05     0.000124736        -0.134719       0.0655079      0.000309477       0.0002996         0.725176        0.660694
                       -0.840707        -0.48908      0.000291138     0.000241745         0.195521      -0.0129542      -9.3993e-06     2.16478e-05
                     0.000282348     0.000258018          0.72529        0.660603      -6.7673e-05     0.000123111       -0.0555022        0.138913
281702.5              -0.0935047       -0.178631       6.8717e-05     0.000139456        -0.840514        -0.48918      0.000314386      0.00023403
                     2.08061e-05     0.000124744        -0.134713       0.0655094      0.000309492     0.000299597         0.725199         0.66067
                       -0.840723       -0.489049      0.000291152     0.000241731         0.195525      -0.0129722     -9.38493e-06     2.16533e-05
                     0.000282346     0.000258025         0.725312        0.660579     -6.76811e-05     0.000123117        -0.055495         0.13891
281702.6              -0.0935042       -0.178638      6.87179e-05     0.000139454         -0.84053       -0.489149      0.000314384     0.000234015
                      2.0801e-05     0.000124752        -0.134706       0.0655109      0.000309508     0.000299593         0.725222        0.660646
                        -0.84074       -0.489018      0.000291166     0.000241716         0.195529      -0.0129903     -9.37056e-06     2.16588e-05
                     0.000282344     0.000258031         0.725335        0.660555     -6.76893e-05     0.000123123       -0.0554878        0.138907
281702.7              -0.0935037       -0.178644      6.87187e-05     0.000139452        -0.840547       -0.489118      0.000314382     0.000233999
                     2.07959e-05     0.000124761        -0.134699       0.0655124      0.000309524      0.00029959         0.725245        0.660622
                       -0.840756       -0.488987       0.00029118     0.000241702         0.195533      -0.0130083     -9.35619e-06     2.16643e-05
                     0.000282343     0.000258038         0.725358        0.660531     -6.76974e-05     0.000123129       -0.0554806        0.138904
281702.8              -0.0935032        -0.17865      6.87196e-05      0.00013945        -0.840564       -0.489087       0.00031438     0.000233983
                     2.07908e-05     0.000124769        -0.134692       0.0655139       0.00030954     0.000299586         0.725267        0.660599
                       -0.840773       -0.488956      0.000291194     0.000241688         0.195538      -0.0130264     -9.34181e-06     2.16699e-05
                     0.000282341     0.000258045         0.725381        0.660507     -6.77055e-05     0.000123135       -0.0554735          0.1389
281702.9              -0.0935027       -0.178656      6.87204e-05     0.000139448         -0.84058       -0.489056      0.000314378     0.000233967
                     2.07858e-05     0.000124778        -0.134685       0.0655154      0.000309556     0.000299583          0.72529        0.660575
                        -0.84079       -0.488925      0.000291208     0.000241673         0.195542      -0.0130445     -9.32744e-06     2.16754e-05
                     0.000282339     0.000258052         0.725404        0.660483     -6.77137e-05     0.000123141       -0.0554663        0.138897
281703                -0.0935022       -0.178663      6.87213e-05     0.000139446        -0.840597       -0.489025      0.000314376     0.000233951
                     2.07807e-05     0.000124786        -0.134678       0.0655169      0.000309572      0.00029958         0.725313        0.660551
                       -0.840806       -0.488894      0.000291222     0.000241659         0.195546      -0.0130625     -9.31306e-06     2.16809e-05
                     0.000282338     0.000258059         0.725426         0.66046     -6.77218e-05     0.000123147       -0.0554591        0.138894
281703.1              -0.0935017       -0.178669      6.87222e-05     0.000139444        -0.840613       -0.488994      0.000314374     0.000233935
                     2.07756e-05     0.000124794        -0.134671       0.0655185      0.000309588     0.000299576         0.725336        0.660527
                       -0.840823       -0.488863      0.000291236     0.000241645          0.19555      -0.0130806     -9.29868e-06     2.16864e-05
