! TOUCHSTONE file generated by CST MICROWAVE STUDIO
! Date and time: Tue Oct 14 17:39:31 2025
! Project name: Teste_Macro_Metasurface_Nanopilar.cst
! Parameters = {H=600; L_x=200; L_y=190; Lambda=1064; Max_L=200; Min_L=70; PathPara=1; Phi=0; Step_L=10; Theta=0; p=520; phaseX=180; phaseY=0}
! Header version: 2018
! Port assignment regex: !\s*Touchstone port\s*([0-9]+)\s*=\s*(CST MWS port|CST DS port)\s*([0-9]+|Zmin|Zmax)\s*\(\"(.*)\"\)(\s*mode\s*([0-9]+))?.*
! Touchstone port assignment:
! Touchstone port 1 = CST MWS port Zmax ("") mode 1
! Touchstone port 2 = CST MWS port Zmax ("") mode 2
! Touchstone port 3 = CST MWS port Zmin ("") mode 1
! Touchstone port 4 = CST MWS port Zmin ("") mode 2
! S-Parameters are not renormalized. Each port impedance will be approximated by the real part at minimum frequency. The values are described via the [Reference] keyword.
! Default impedance is overridden by [Reference]
[Version] 2.0
# GHz S RI R 376.73
[Number of Ports] 4
[Reference]
376.73 376.73 259.814 259.814 
[Number of Frequencies] 51
[Network Data]
281700                   0.37022        0.143327     -0.000740029    -0.000258701      -0.00555154       -0.914428      0.000849113    -0.000477377
                     -0.00087732    -0.000169191         0.434334        0.145595       0.00073351    -0.000467619       -0.0824906       -0.881375
                     -0.00511672       -0.914964      0.000688699    -0.000348978         0.366349       -0.148728     -0.000527276      0.00120429
                     0.000826682     -0.00059844       -0.0829009       -0.881245      -0.00037488      0.00102205         0.397557       -0.224289
281702                  0.370242        0.143311     -0.000739933    -0.000258727      -0.00581276       -0.914422      0.000850419    -0.000478168
                    -0.000876899    -0.000169003         0.434355         0.14557      0.000733398    -0.000468679       -0.0827423       -0.881346
                      -0.0053745       -0.914958      0.000688916    -0.000348621         0.366287       -0.148917     -0.000529011      0.00120661
                     0.000825798     -0.00059826       -0.0831473       -0.881218     -0.000374539      0.00102411         0.397453       -0.224498
281704                  0.370264        0.143294     -0.000739839    -0.000258754      -0.00607412       -0.914416      0.000851674    -0.000479023
                    -0.000876479    -0.000168816         0.434377        0.145544      0.000733289    -0.000469801       -0.0829942       -0.881316
                     -0.00563228       -0.914952      0.000689132    -0.000348264         0.366225       -0.149107     -0.000530231      0.00120896
                     0.000824915     -0.00059808       -0.0833942       -0.881192     -0.000374194      0.00102633         0.397349       -0.224706
281706                  0.370286        0.143278     -0.000739747    -0.000258782      -0.00633565       -0.914409      0.000852865    -0.000479941
                    -0.000876058    -0.000168629         0.434399        0.145518      0.000733181    -0.000470997       -0.0832462       -0.881286
                     -0.00589005       -0.914946      0.000689344    -0.000347907         0.366163       -0.149297     -0.000530958      0.00121121
                     0.000824033    -0.000597898       -0.0836417       -0.881165     -0.000373835      0.00102873         0.397245       -0.224915
281708                  0.370308        0.143262     -0.000739658    -0.000258811      -0.00659736       -0.914403      0.000853978    -0.000480922
                    -0.000875636    -0.000168442          0.43442        0.145493      0.000733068    -0.000472284       -0.0834985       -0.881255
                      -0.0061478        -0.91494      0.000689555     -0.00034755           0.3661       -0.149487     -0.000531257      0.00121322
                     0.000823154    -0.000597714       -0.0838898       -0.881137     -0.000373452      0.00103137          0.39714       -0.225123
281710                   0.37033        0.143245     -0.000739571    -0.000258842      -0.00685927       -0.914396      0.000854997    -0.000481962
                    -0.000875214    -0.000168256         0.434442        0.145467      0.000732944    -0.000473682       -0.0837509       -0.881225
                     -0.00640555       -0.914933      0.000689762    -0.000347193         0.366036       -0.149677     -0.000531225      0.00121494
                     0.000822277    -0.000597529       -0.0841383       -0.881109     -0.000373025      0.00103428         0.397036       -0.225331
281712                  0.370352        0.143229     -0.000739488    -0.000258875      -0.00712143       -0.914388      0.000855903    -0.000483052
                    -0.000874792     -0.00016807         0.434464        0.145442      0.000732795    -0.000475219       -0.0840035       -0.881194
                     -0.00666328       -0.914926      0.000689967    -0.000346836         0.365973       -0.149868     -0.000530968      0.00121631
                     0.000821401    -0.000597342       -0.0843873       -0.881082     -0.000372524      0.00103755         0.396932       -0.225539
281714                  0.370374        0.143213     -0.000739408     -0.00025891      -0.00738385       -0.914381      0.000856678    -0.000484181
                    -0.000874368    -0.000167885         0.434485        0.145416        0.0007326     -0.00047693       -0.0842563       -0.881163
                     -0.00692099        -0.91492      0.000690168    -0.000346479         0.365909       -0.150058     -0.000530584      0.00121733
                     0.000820528    -0.000597152       -0.0846367       -0.881053       -0.0003719      0.00104127         0.396827       -0.225747
281716                  0.370396        0.143197     -0.000739332    -0.000258946      -0.00764654       -0.914372      0.000857301    -0.000485332
                    -0.000873944    -0.000167701         0.434507         0.14539      0.000732325     -0.00047886       -0.0845092       -0.881132
                      -0.0071787       -0.914913      0.000690366    -0.000346123         0.365845        -0.15025     -0.000530156      0.00121802
                     0.000819657    -0.000596961       -0.0848865       -0.881025     -0.000371069      0.00104557         0.396723       -0.225955
281718                  0.370417         0.14318     -0.000739261    -0.000258985      -0.00790949       -0.914363      0.000857757    -0.000486478
                    -0.000873518    -0.000167517         0.434528        0.145365       0.00073191    -0.000481068       -0.0847623       -0.881101
                     -0.00743638       -0.914906      0.000690561    -0.000345766         0.365781       -0.150441     -0.000529749      0.00121842
                     0.000818789    -0.000596766       -0.0851366       -0.880997     -0.000369891      0.00105065         0.396618       -0.226162
281720                  0.370439        0.143164     -0.000739194    -0.000259027      -0.00817262       -0.914354      0.000858031     -0.00048759
                    -0.000873089    -0.000167334          0.43455        0.145339      0.000731255    -0.000483624       -0.0850155        -0.88107
                     -0.00769405       -0.914898      0.000690751     -0.00034541         0.365716       -0.150633     -0.000529403      0.00121858
                     0.000817923    -0.000596567       -0.0853871       -0.880968      -0.00036811      0.00105677         0.396513        -0.22637
281722                  0.370461        0.143148     -0.000739133    -0.000259072      -0.00843576       -0.914343      0.000858116    -0.000488628
                    -0.000872659    -0.000167151         0.434572        0.145313      0.000730184    -0.000486604       -0.0852688       -0.881039
                     -0.00795171       -0.914891      0.000690937    -0.000345055         0.365652       -0.150825     -0.000529148      0.00121854
                     0.000817061    -0.000596364       -0.0856378       -0.880939      -0.00036525      0.00106429         0.396409       -0.226577
281724                  0.370483        0.143131     -0.000739077     -0.00025912      -0.00869862        -0.91433      0.000858012    -0.000489548
                    -0.000872224     -0.00016697         0.434593        0.145287      0.000728399    -0.000490054       -0.0855222       -0.881008
                     -0.00820934       -0.914883      0.000691119    -0.000344701         0.365588       -0.151017     -0.000528995      0.00121833
                     0.000816203    -0.000596155       -0.0858888        -0.88091     -0.000360381      0.00107365         0.396304       -0.226785
281726                  0.370505        0.143115     -0.000739028    -0.000259171      -0.00896071       -0.914317      0.000857734    -0.000490303
                    -0.000871785     -0.00016679         0.434615        0.145262      0.000725404    -0.000493883       -0.0857756       -0.880976
                     -0.00846695       -0.914875      0.000691295    -0.000344347         0.365523        -0.15121      -0.00052895      0.00121799
                      0.00081535    -0.000595939       -0.0861401       -0.880881     -0.000351615      0.00108518         0.396199       -0.226992
281728                  0.370527        0.143098     -0.000738986    -0.000259227       -0.0092214       -0.914302      0.000857309    -0.000490843
                    -0.000871339    -0.000166612         0.434636        0.145236      0.000720496    -0.000497601       -0.0860291       -0.880945
                     -0.00872454       -0.914867      0.000691464    -0.000343995         0.365459       -0.151402     -0.000529013      0.00121756
                     0.000814503    -0.000595713       -0.0863916       -0.880852     -0.000335187      0.00109807         0.396094       -0.227199
281730                  0.370549        0.143082     -0.000738953    -0.000259289      -0.00948008       -0.914286       0.00085678    -0.000491125
                    -0.000870884    -0.000166435         0.434658         0.14521      0.000713109    -0.000499854       -0.0862827       -0.880914
                      -0.0089821       -0.914858      0.000691627    -0.000343644         0.365395       -0.151595     -0.000529178      0.00121706
                     0.000813665    -0.000595475       -0.0866433       -0.880823     -0.000305156       0.0011065         0.395989       -0.227406
281732                  0.370571        0.143065     -0.000738928    -0.000259357      -0.00973646       -0.914271      0.000856206    -0.000491115
                    -0.000870416    -0.000166258         0.434679        0.145184       0.00070402    -0.000498367       -0.0865363       -0.880882
                     -0.00923964        -0.91485      0.000691783    -0.000343296         0.365331       -0.151788     -0.000529438       0.0012165
                     0.000812838    -0.000595218       -0.0868952       -0.880793     -0.000262403      0.00109239         0.395884       -0.227613
281734                  0.370593        0.143049     -0.000738914    -0.000259432      -0.00999085       -0.914256      0.000855657    -0.000490793
                    -0.000869927    -0.000166081         0.434701        0.145158      0.000696498    -0.000491941       -0.0867898       -0.880851
                     -0.00949715       -0.914841      0.000691929     -0.00034295         0.365267       -0.151981     -0.000529786      0.00121591
                     0.000812028    -0.000594934       -0.0871473       -0.880764     -0.000238257      0.00104412         0.395779        -0.22782
281736                  0.370615        0.143032      -0.00073891    -0.000259515       -0.0102441       -0.914244      0.000855209    -0.000490158
                    -0.000869408      -0.0001659         0.434722        0.145133      0.000693832    -0.000483086       -0.0870434       -0.880819
                     -0.00975462       -0.914831      0.000692063    -0.000342608         0.365203       -0.152174     -0.000530213      0.00121529
                     0.000811246    -0.000594605       -0.0873995       -0.880734     -0.000254945     0.000999233         0.395674       -0.228027
281738                  0.370637        0.143016     -0.000738918     -0.00025961       -0.0104971       -0.914234      0.000854942    -0.000489229
                    -0.000868839    -0.000165703         0.434744        0.145107      0.000695605     -0.00047565        -0.087297       -0.880787
                      -0.0100121       -0.914822      0.000692185    -0.000342271         0.365139       -0.152367     -0.000530712      0.00121465
                     0.000810512      -0.0005942        -0.087652       -0.880704     -0.000283658     0.000981316         0.395569       -0.228234
281740                  0.370659           0.143     -0.000738939    -0.000259717       -0.0107507       -0.914225      0.000854933    -0.000488042
                    -0.000868191    -0.000165455         0.434766        0.145081      0.000699291     -0.00047105       -0.0875505       -0.880756
                      -0.0102694       -0.914811      0.000692288    -0.000341941         0.365075       -0.152559     -0.000531275      0.00121401
                     0.000809876    -0.000593639       -0.0879046       -0.880674     -0.000305937     0.000978908         0.395464       -0.228441
281742                  0.370681        0.142984     -0.000738974    -0.000259841       -0.0110053       -0.914217      0.000855252    -0.000486653
                    -0.000867441    -0.000165058         0.434787        0.145055       0.00070312    -0.000468753        -0.087804       -0.880724
                      -0.0105268       -0.914801      0.000692368    -0.000341621         0.365012       -0.152752     -0.000531895      0.00121337
                     0.000809487    -0.000592686       -0.0881573       -0.880644     -0.000320885     0.000981812         0.395358       -0.228647
281744                  0.370703        0.142968     -0.000739021    -0.000259983        -0.011261        -0.91421      0.000855964    -0.000485129
                    -0.000866711    -0.000164291         0.434809        0.145029      0.000706436    -0.000467884       -0.0880575       -0.880692
                      -0.0107842       -0.914789      0.000692413    -0.000341315         0.364948       -0.152944     -0.000532566      0.00121273
                     0.000810139    -0.000590109       -0.0884102       -0.880614     -0.000330915     0.000986008         0.395253       -0.228854
281746                  0.370725        0.142951     -0.000739081     -0.00026015       -0.0115176       -0.914203      0.000857131     -0.00048355
                    -0.000866572    -0.000163199         0.434831        0.145003      0.000709141    -0.000467809       -0.0883109        -0.88066
                      -0.0110415       -0.914777      0.000692404    -0.000341034         0.364884       -0.153137     -0.000533282       0.0012121
                     0.000756547     -0.00069259       -0.0886632       -0.880584     -0.000337906     0.000990188         0.395147       -0.229061
281748                  0.370747        0.142935     -0.000739152    -0.000260344        -0.011775       -0.914196      0.000858821    -0.000482017
                    -0.000867018    -0.000162701         0.434852        0.144977      0.000711318    -0.000468156       -0.0885643       -0.880628
                      -0.0112989       -0.914764      0.000692296    -0.000340798          0.36482       -0.153329     -0.000534039      0.00121148
                     0.000802719    -0.000598727       -0.0889164       -0.880554      -0.00034301     0.000993972         0.395042       -0.229267
281750                  0.370769        0.142919     -0.000739228    -0.000260571        -0.012033       -0.914189      0.000861113    -0.000480663
                    -0.000867163    -0.000162756         0.434874        0.144951      0.000713081    -0.000468714       -0.0888175       -0.880596
                      -0.0115568       -0.914748      0.000691964    -0.000340666         0.364756       -0.153521     -0.000534831      0.00121089
                     0.000803129    -0.000596453       -0.0891697       -0.880523     -0.000346913     0.000997282         0.394936       -0.229474
281752                  0.370791        0.142902     -0.000739304    -0.000260835       -0.0122915       -0.914181      0.000864107    -0.000479687
                    -0.000866972    -0.000162838         0.434896        0.144925      0.000714533    -0.000469368       -0.0890707       -0.880563
                      -0.0118157       -0.914729      0.000690868    -0.000340876         0.364692       -0.153712     -0.000535654      0.00121031
                     0.000802685    -0.000595555       -0.0894231       -0.880493     -0.000350034      0.00100013          0.39483        -0.22968
281754                  0.370813        0.142886      -0.00073937    -0.000261137       -0.0125504       -0.914173      0.000867914    -0.000479433
                     -0.00086664    -0.000162829         0.434918        0.144899      0.000715756     -0.00047005       -0.0893238       -0.880531
                      -0.0120787       -0.914705      0.000677798     -0.00034533         0.364628       -0.153904     -0.000536505      0.00120977
                     0.000802015    -0.000595012       -0.0896766       -0.880462     -0.000352635      0.00100256         0.394724       -0.229887
281756                  0.370835        0.142869     -0.000739414    -0.000261477       -0.0128095       -0.914165      0.000872576    -0.000480527
                    -0.000866258    -0.000162744          0.43494        0.144874      0.000716815    -0.000470719       -0.0895767       -0.880498
                      -0.0123576       -0.914671      0.000697674    -0.000336935         0.364564       -0.154095     -0.000537378      0.00120926
                     0.000801247    -0.000594612       -0.0899303       -0.880431     -0.000354887      0.00100458         0.394618       -0.230093
281758                  0.370857        0.142853     -0.000739421    -0.000261845       -0.0130688       -0.914156       0.00087772    -0.000484092
                    -0.000865858    -0.000162603         0.434961        0.144848      0.000717756    -0.000471347       -0.0898294       -0.880465
                      -0.0126828       -0.914665      0.000695546    -0.000337774         0.364499       -0.154286     -0.000538271      0.00120881
                     0.000800425    -0.000594285       -0.0901842         -0.8804       -0.0003569      0.00100623         0.394512         -0.2303
281760                  0.370879        0.142837     -0.000739381    -0.000262226       -0.0133282       -0.914148      0.000881547    -0.000491599
                    -0.000865455    -0.000162419         0.434983        0.144822      0.000718618     -0.00047191       -0.0900818       -0.880433
                      -0.0129474       -0.914738      0.000694977     -0.00033778         0.364434       -0.154477     -0.000539176      0.00120843
                     0.000799565    -0.000593999       -0.0904382       -0.880369     -0.000358746       0.0010075         0.394406       -0.230506
281762                    0.3709         0.14282     -0.000739289    -0.000262597       -0.0135877       -0.914138      0.000879605    -0.000502513
                    -0.000865053    -0.000162197         0.435005        0.144796      0.000719429    -0.000472384       -0.0903339         -0.8804
                      -0.0131614       -0.914746      0.000694723    -0.000337628         0.364369       -0.154668     -0.000540087      0.00120815
