! TOUCHSTONE file generated by CST MICROWAVE STUDIO
! Date and time: Tue Oct 14 17:38:06 2025
! Project name: Teste_Macro_Metasurface_Nanopilar.cst
! Parameters = {H=600; L_x=80; L_y=190; Lambda=1064; Max_L=200; Min_L=70; PathPara=1; Phi=0; Step_L=10; Theta=0; p=520; phaseX=180; phaseY=0}
! Header version: 2018
! Port assignment regex: !\s*Touchstone port\s*([0-9]+)\s*=\s*(CST MWS port|CST DS port)\s*([0-9]+|Zmin|Zmax)\s*\(\"(.*)\"\)(\s*mode\s*([0-9]+))?.*
! Touchstone port assignment:
! Touchstone port 1 = CST MWS port Zmax ("") mode 1
! Touchstone port 2 = CST MWS port Zmax ("") mode 2
! Touchstone port 3 = CST MWS port Zmin ("") mode 1
! Touchstone port 4 = CST MWS port Zmin ("") mode 2
! S-Parameters are not renormalized. Each port impedance will be approximated by the real part at minimum frequency. The values are described via the [Reference] keyword.
! Default impedance is overridden by [Reference]
[Version] 2.0
# GHz S RI R 376.73
[Number of Ports] 4
[Reference]
376.73 376.73 259.814 259.814 
[Number of Frequencies] 51
[Network Data]
281700                  0.141691        0.339996      0.000687177     7.22692e-05         0.782972       -0.488908     -9.75922e-05    -0.000113974
                     0.000940577     8.05161e-05       -0.0384228      -0.0211708     -0.000194032     0.000166909        -0.518357       -0.852236
                        0.782409       -0.488927     -0.000100851     0.000320301         0.245315         0.27183      0.000766532     0.000172813
                    -0.000260421     9.33635e-06        -0.518225       -0.852326       0.00092288     0.000277027       0.00115986       0.0444235
281702                  0.141751        0.340047      0.000687227     7.20457e-05         0.782764       -0.489188     -9.76769e-05    -0.000113986
                      0.00094051     7.99513e-05       -0.0384311      -0.0211574     -0.000194125     0.000167159        -0.518583       -0.852099
                        0.782201       -0.489207     -0.000100716     0.000320398         0.245541         0.27172      0.000766729     0.000172568
                     -0.00026022     9.66659e-06        -0.518451       -0.852188       0.00092314     0.000276571       0.00116763       0.0444242
281704                  0.141812        0.340097      0.000687275     7.18223e-05         0.782555       -0.489468     -9.77615e-05    -0.000113999
                     0.000940443     7.93869e-05       -0.0384395       -0.021144     -0.000194218      0.00016741        -0.518808       -0.851962
                        0.781992       -0.489486     -0.000100581     0.000320494         0.245766         0.27161      0.000766926     0.000172324
                    -0.000260019     9.99659e-06        -0.518676       -0.852051      0.000923399     0.000276114       0.00117541       0.0444249
281706                  0.141872        0.340148      0.000687324     7.15989e-05         0.782347       -0.489747     -9.78461e-05    -0.000114012
                     0.000940374     7.88229e-05       -0.0384479      -0.0211307     -0.000194311     0.000167661        -0.519034       -0.851825
                        0.781783       -0.489766     -0.000100446      0.00032059         0.245991        0.271501      0.000767123     0.000172079
                    -0.000259818     1.03263e-05        -0.518902       -0.851913      0.000923658     0.000275656       0.00118319       0.0444256
281708                  0.141933        0.340199      0.000687373     7.13755e-05         0.782138       -0.490027     -9.79307e-05    -0.000114025
                     0.000940305     7.82594e-05       -0.0384562      -0.0211173     -0.000194404     0.000167914        -0.519259       -0.851687
                        0.781575       -0.490045     -0.000100311     0.000320686         0.246216        0.271391       0.00076732     0.000171834
                    -0.000259618     1.06559e-05        -0.519127       -0.851776      0.000923916     0.000275197       0.00119096       0.0444263
281710                  0.141994         0.34025      0.000687422     7.11521e-05         0.781929       -0.490306     -9.80153e-05    -0.000114037
                     0.000940235     7.76962e-05       -0.0384646      -0.0211039     -0.000194496     0.000168168        -0.519485        -0.85155
                        0.781366       -0.490324     -0.000100175     0.000320782         0.246441         0.27128      0.000767517     0.000171589
                    -0.000259418     1.09851e-05        -0.519353       -0.851638      0.000924174     0.000274737       0.00119874        0.044427
281712                  0.142054        0.340301       0.00068747     7.09287e-05          0.78172       -0.490586     -9.80999e-05     -0.00011405
                     0.000940165     7.71335e-05       -0.0384729      -0.0210906     -0.000194589     0.000168422         -0.51971       -0.851412
                        0.781157       -0.490604     -0.000100039     0.000320878         0.246666         0.27117      0.000767713     0.000171344
                    -0.000259219     1.13142e-05        -0.519578         -0.8515       0.00092443     0.000274275       0.00120652       0.0444277
281714                  0.142115        0.340351      0.000687518     7.07053e-05         0.781511       -0.490865     -9.81846e-05    -0.000114063
                     0.000940093     7.65712e-05       -0.0384813      -0.0210772     -0.000194682     0.000168678        -0.519936       -0.851275
                        0.780948       -0.490883     -9.99037e-05     0.000320974         0.246891        0.271059       0.00076791     0.000171099
                    -0.000259019      1.1643e-05        -0.519804       -0.851363      0.000924686     0.000273813        0.0012143       0.0444285
281716                  0.142176        0.340402      0.000687566     7.04819e-05         0.781302       -0.491144     -9.82693e-05    -0.000114075
                     0.000940021     7.60093e-05       -0.0384896      -0.0210638     -0.000194774     0.000168934        -0.520161       -0.851137
                        0.780738       -0.491162     -9.97679e-05      0.00032107         0.247116        0.270949      0.000768106     0.000170854
                    -0.000258821     1.19715e-05        -0.520029       -0.851225      0.000924942      0.00027335       0.00122208       0.0444292
281718                  0.142237        0.340453      0.000687615     7.02586e-05         0.781093       -0.491423     -9.83541e-05    -0.000114088
                     0.000939948     7.54479e-05        -0.038498      -0.0210504     -0.000194866     0.000169191        -0.520387          -0.851
                        0.780529       -0.491441     -9.96319e-05     0.000321165         0.247341        0.270838      0.000768302     0.000170609
                    -0.000258622     1.22998e-05        -0.520255       -0.851087      0.000925196     0.000272886       0.00122987       0.0444299
281720                  0.142297        0.340504      0.000687662     7.00352e-05         0.780884       -0.491702     -9.84389e-05    -0.000114101
                     0.000939874     7.48868e-05       -0.0385063      -0.0210371     -0.000194959      0.00016945        -0.520612       -0.850862
                         0.78032        -0.49172     -9.94958e-05     0.000321261         0.247566        0.270727      0.000768498     0.000170364
                    -0.000258424     1.26279e-05         -0.52048       -0.850949       0.00092545      0.00027242       0.00123765       0.0444306
281722                  0.142358        0.340555       0.00068771     6.98119e-05         0.780674       -0.491981     -9.85237e-05    -0.000114113
                       0.0009398     7.43262e-05       -0.0385147      -0.0210237     -0.000195051     0.000169709        -0.520838       -0.850724
                         0.78011       -0.491998     -9.93595e-05     0.000321356         0.247791        0.270615      0.000768694     0.000170118
                    -0.000258227     1.29557e-05        -0.520705       -0.850811      0.000925704     0.000271954       0.00124543       0.0444313
281724                  0.142419        0.340606      0.000687758     6.95886e-05         0.780464        -0.49226     -9.86087e-05    -0.000114126
                     0.000939724      7.3766e-05        -0.038523      -0.0210103     -0.000195143     0.000169969        -0.521063       -0.850586
                          0.7799       -0.492277     -9.92231e-05     0.000321451         0.248016        0.270504       0.00076889     0.000169873
                     -0.00025803     1.32832e-05         -0.52093       -0.850673      0.000925956     0.000271487       0.00125322        0.044432
281726                   0.14248        0.340656      0.000687805     6.93653e-05         0.780255       -0.492539     -9.86936e-05    -0.000114138
                     0.000939648     7.32063e-05       -0.0385314      -0.0209969     -0.000195235      0.00017023        -0.521288       -0.850448
                         0.77969       -0.492556     -9.90866e-05     0.000321546         0.248241        0.270392      0.000769086     0.000169627
                    -0.000257833     1.36106e-05        -0.521156       -0.850535      0.000926208     0.000271019         0.001261       0.0444328
281728                  0.142541        0.340707      0.000687853      6.9142e-05         0.780045       -0.492817     -9.87787e-05    -0.000114151
                     0.000939571      7.2647e-05       -0.0385397      -0.0209835     -0.000195327     0.000170491        -0.521513        -0.85031
                         0.77948       -0.492834       -9.895e-05     0.000321641         0.248466        0.270281      0.000769281     0.000169381
                    -0.000257636     1.39376e-05        -0.521381       -0.850396       0.00092646     0.000270549       0.00126879       0.0444335
281730                  0.142602        0.340758        0.0006879     6.89187e-05         0.779835       -0.493096     -9.88638e-05    -0.000114163
                     0.000939493     7.20881e-05        -0.038548      -0.0209702     -0.000195419     0.000170753        -0.521739       -0.850172
                         0.77927       -0.493113     -9.88133e-05     0.000321736         0.248691        0.270169      0.000769477     0.000169135
                     -0.00025744     1.42644e-05        -0.521606       -0.850258       0.00092671     0.000270079       0.00127658       0.0444342
281732                  0.142663        0.340809      0.000687947     6.86954e-05         0.779625       -0.493374      -9.8949e-05    -0.000114176
                     0.000939415     7.15296e-05       -0.0385564      -0.0209568      -0.00019551     0.000171014        -0.521964       -0.850034
                         0.77906       -0.493391     -9.86764e-05     0.000321831         0.248916        0.270057      0.000769672     0.000168889
                    -0.000257245      1.4591e-05        -0.521831        -0.85012       0.00092696     0.000269608       0.00128437       0.0444349
281734                  0.142723         0.34086      0.000687994     6.84722e-05         0.779414       -0.493653     -9.90343e-05    -0.000114188
                     0.000939336     7.09716e-05       -0.0385647      -0.0209434     -0.000195601     0.000171274        -0.522189       -0.849896
                         0.77885       -0.493669     -9.85394e-05     0.000321926         0.249141        0.269944      0.000769867     0.000168643
                    -0.000257049     1.49173e-05        -0.522056       -0.849981      0.000927209     0.000269137       0.00129216       0.0444357
281736                  0.142784        0.340911      0.000688041      6.8249e-05         0.779204       -0.493931     -9.91196e-05      -0.0001142
                     0.000939256      7.0414e-05        -0.038573        -0.02093     -0.000195689     0.000171528        -0.522414       -0.849758
                        0.778639       -0.493948     -9.84023e-05     0.000322021         0.249365        0.269832      0.000770062     0.000168397
                    -0.000256854     1.52434e-05        -0.522281       -0.849843      0.000927457     0.000268665       0.00129995       0.0444364
281738                  0.142845        0.340962      0.000688088     6.80257e-05         0.778994       -0.494209      -9.9205e-05    -0.000114213
                     0.000939175     6.98569e-05       -0.0385814      -0.0209166     -0.000195748     0.000171776        -0.522639        -0.84962
                        0.778429       -0.494226      -9.8265e-05     0.000322115          0.24959        0.269719      0.000770257     0.000168151
                     -0.00025666     1.55692e-05        -0.522506       -0.849704      0.000927705     0.000268195       0.00130774       0.0444371
281740                  0.142907        0.341013      0.000688134     6.78025e-05         0.778783       -0.494488     -9.92905e-05    -0.000114225
                     0.000939094     6.93002e-05       -0.0385897      -0.0209032     -0.000195807     0.000172102        -0.522864       -0.849481
                        0.778218       -0.494504     -9.81276e-05     0.000322209         0.249815        0.269607      0.000770452     0.000167904
                    -0.000256466     1.58947e-05        -0.522731       -0.849566      0.000927956      0.00026773       0.00131553       0.0444379
281742                  0.142968        0.341063      0.000688181     6.75793e-05         0.778572       -0.494766     -9.93761e-05    -0.000114237
                     0.000939011     6.87439e-05        -0.038598      -0.0208898     -0.000195929     0.000172388        -0.523089       -0.849343
                        0.778008       -0.494782     -9.79901e-05     0.000322304          0.25004        0.269494      0.000770646     0.000167658
                    -0.000256272       1.622e-05        -0.522956       -0.849427      0.000928253     0.000267256       0.00132332       0.0444386
281744                  0.143029        0.341114      0.000688227     6.73561e-05         0.778361       -0.495044     -9.94617e-05    -0.000114249
                     0.000938928     6.81881e-05       -0.0386063      -0.0208764     -0.000196032     0.000172657        -0.523314       -0.849205
                        0.777797       -0.495059     -9.78525e-05     0.000322398         0.250264        0.269381      0.000770841     0.000167411
                    -0.000256079     1.65451e-05        -0.523181       -0.849289      0.000928468     0.000266734       0.00133112       0.0444393
281746                   0.14309        0.341165      0.000688273      6.7133e-05          0.77815       -0.495322     -9.95475e-05    -0.000114262
                     0.000938844     6.76327e-05       -0.0386147       -0.020863     -0.000196127     0.000172926        -0.523539       -0.849066
                        0.777586       -0.495337     -9.77147e-05     0.000322492         0.250489        0.269267      0.000771035     0.000167164
                    -0.000255886     1.68699e-05        -0.523406        -0.84915      0.000928702     0.000266261       0.00133891       0.0444401
281748                  0.143151        0.341216      0.000688319     6.69098e-05         0.777939       -0.495599     -9.96333e-05    -0.000114274
                      0.00093876     6.70778e-05        -0.038623      -0.0208496      -0.00019622     0.000173198        -0.523764       -0.848927
                        0.777375       -0.495615     -9.75768e-05     0.000322586         0.250714        0.269154       0.00077123     0.000166918
                    -0.000255694     1.71944e-05        -0.523631       -0.849011      0.000928943     0.000265784       0.00134671       0.0444408
281750                  0.143212        0.341267      0.000688365     6.66867e-05         0.777728       -0.495877     -9.97192e-05    -0.000114286
                     0.000938675     6.65233e-05       -0.0386313      -0.0208362     -0.000196311     0.000173471        -0.523989       -0.848789
                        0.777163       -0.495893     -9.74388e-05      0.00032268         0.250938         0.26904      0.000771424     0.000166671
                    -0.000255502     1.75187e-05        -0.523856       -0.848872      0.000929186     0.000265305        0.0013545       0.0444416
281752                  0.143273        0.341318      0.000688411     6.64635e-05         0.777517       -0.496155     -9.98051e-05    -0.000114298
                     0.000938589     6.59693e-05       -0.0386396      -0.0208228     -0.000196401     0.000173746        -0.524213        -0.84865
                        0.776952        -0.49617     -9.73006e-05     0.000322773         0.251163        0.268926      0.000771618     0.000166423
                    -0.000255311     1.78427e-05        -0.524081       -0.848733      0.000929428     0.000264823        0.0013623       0.0444423
281754                  0.143334        0.341369      0.000688457     6.62404e-05         0.777305       -0.496432     -9.98912e-05     -0.00011431
                     0.000938502     6.54157e-05       -0.0386479      -0.0208094     -0.000196491     0.000174022        -0.524438       -0.848511
                        0.776741       -0.496448     -9.71623e-05     0.000322867         0.251388        0.268812      0.000771812     0.000166176
                     -0.00025512     1.81664e-05        -0.524305       -0.848594       0.00092967     0.000264341        0.0013701       0.0444431
281756                  0.143396         0.34142      0.000688502     6.60173e-05         0.777094        -0.49671     -9.99773e-05    -0.000114322
                     0.000938414     6.48626e-05       -0.0386563       -0.020796     -0.000196581     0.000174299        -0.524663       -0.848373
                        0.776529       -0.496725     -9.70239e-05      0.00032296         0.251612        0.268698      0.000772005     0.000165929
                    -0.000254929     1.84899e-05         -0.52453       -0.848455      0.000929912     0.000263857        0.0013779       0.0444438
281758                  0.143457        0.341471      0.000688547     6.57942e-05         0.776882       -0.496987     -0.000100064    -0.000114333
                     0.000938326     6.43099e-05       -0.0386646      -0.0207826      -0.00019667     0.000174578        -0.524888       -0.848234
                        0.776317       -0.497002     -9.68853e-05     0.000323054         0.251837        0.268584      0.000772199     0.000165681
                    -0.000254739     1.88131e-05        -0.524755       -0.848316      0.000930153     0.000263372        0.0013857       0.0444446
281760                  0.143518        0.341522      0.000688593     6.55712e-05          0.77667       -0.497265      -0.00010015    -0.000114345
                     0.000938237     6.37577e-05       -0.0386729      -0.0207692     -0.000196758     0.000174858        -0.525112       -0.848095
                        0.776106       -0.497279     -9.67467e-05     0.000323147         0.252061         0.26847      0.000772392     0.000165434
                    -0.000254549     1.91361e-05        -0.524979       -0.848177      0.000930393     0.000262886        0.0013935       0.0444453
281762                   0.14358        0.341573      0.000688638     6.53481e-05         0.776458       -0.497542     -0.000100236    -0.000114357
                     0.000938147     6.32059e-05       -0.0386812      -0.0207558     -0.000196847     0.000175139        -0.525337       -0.847956
                        0.775894       -0.497556     -9.66078e-05      0.00032324         0.252286        0.268355      0.000772586     0.000165186
