! TOUCHSTONE file generated by CST MICROWAVE STUDIO
! Date and time: Tue Oct 14 17:37:59 2025
! Project name: Teste_Macro_Metasurface_Nanopilar.cst
! Parameters = {H=600; L_x=70; L_y=190; Lambda=1064; Max_L=200; Min_L=70; PathPara=1; Phi=0; Step_L=10; Theta=0; p=520; phaseX=180; phaseY=0}
! Header version: 2018
! Port assignment regex: !\s*Touchstone port\s*([0-9]+)\s*=\s*(CST MWS port|CST DS port)\s*([0-9]+|Zmin|Zmax)\s*\(\"(.*)\"\)(\s*mode\s*([0-9]+))?.*
! Touchstone port assignment:
! Touchstone port 1 = CST MWS port Zmax ("") mode 1
! Touchstone port 2 = CST MWS port Zmax ("") mode 2
! Touchstone port 3 = CST MWS port Zmin ("") mode 1
! Touchstone port 4 = CST MWS port Zmin ("") mode 2
! S-Parameters are not renormalized. Each port impedance will be approximated by the real part at minimum frequency. The values are described via the [Reference] keyword.
! Default impedance is overridden by [Reference]
[Version] 2.0
# GHz S RI R 376.73
[Number of Ports] 4
[Reference]
376.73 376.73 259.814 259.814 
[Number of Frequencies] 51
[Network Data]
281700                0.00113423        0.204196     -1.54221e-05     0.000191248         0.968975       0.0772669     -0.000114862    -7.90758e-05
                    -0.000117873     0.000196907      0.000203985      -0.0912826       -0.0001365    -0.000191587         -0.16947        -0.98075
                         0.96923       0.0769808     -0.000168136    -0.000181514       -0.0312516        0.201715      0.000258927    -9.45302e-05
                    -8.21751e-05     -0.00012501        -0.169165       -0.980747      0.000239725    -2.96433e-05        0.0306774        0.086148
281702                0.00116144        0.204232     -1.53054e-05     0.000191279         0.968995       0.0769166     -0.000114848    -7.90276e-05
                     -0.00011781      0.00019697      0.000191784      -0.0912782     -0.000136606    -0.000191568        -0.169711       -0.980709
                         0.96925       0.0766309     -0.000168271     -0.00018147       -0.0311383        0.201768      0.000258966    -9.45357e-05
                    -8.21366e-05    -0.000124934        -0.169406       -0.980706      0.000239812    -2.96518e-05        0.0307067       0.0861327
281704                0.00118865        0.204267     -1.51886e-05     0.000191309         0.969016       0.0765663     -0.000114834    -7.89794e-05
                    -0.000117747     0.000197033      0.000179584      -0.0912737     -0.000136713    -0.000191549        -0.169952       -0.980668
                        0.969271       0.0762811     -0.000168406    -0.000181427        -0.031025        0.201822      0.000259005     -9.4541e-05
                    -8.20984e-05    -0.000124859        -0.169648       -0.980665      0.000239899    -2.96602e-05        0.0307361       0.0861174
281706                0.00121587        0.204303     -1.50717e-05      0.00019134         0.969036       0.0762159      -0.00011482    -7.89313e-05
                    -0.000117684     0.000197096      0.000167384      -0.0912692     -0.000136819    -0.000191529        -0.170194       -0.980626
                        0.969291       0.0759312      -0.00016854    -0.000181384       -0.0309116        0.201875      0.000259045    -9.45463e-05
                    -8.20603e-05    -0.000124784        -0.169889       -0.980623      0.000239987    -2.96687e-05        0.0307654       0.0861021
281708                 0.0012431        0.204339     -1.49547e-05      0.00019137         0.969056       0.0758656     -0.000114806    -7.88832e-05
                     -0.00011762     0.000197159      0.000155185      -0.0912647     -0.000136926    -0.000191509        -0.170435       -0.980585
                        0.969311       0.0755813     -0.000168675     -0.00018134       -0.0307982        0.201928      0.000259084    -9.45515e-05
                    -8.20225e-05     -0.00012471         -0.17013       -0.980582      0.000240074    -2.96773e-05        0.0307948       0.0860868
281710                0.00127033        0.204375     -1.48377e-05       0.0001914         0.969076       0.0755153     -0.000114792    -7.88353e-05
                    -0.000117557     0.000197222      0.000142987      -0.0912602     -0.000137033     -0.00019149        -0.170676       -0.980543
                        0.969331       0.0752315     -0.000168809    -0.000181296       -0.0306847        0.201982      0.000259124    -9.45566e-05
                    -8.19849e-05    -0.000124636        -0.170372        -0.98054      0.000240161    -2.96858e-05        0.0308241       0.0860715
281712                0.00129756        0.204411     -1.47206e-05     0.000191431         0.969096        0.075165     -0.000114778    -7.87874e-05
                    -0.000117494     0.000197286      0.000130788      -0.0912557     -0.000137139     -0.00019147        -0.170918       -0.980502
                        0.969351       0.0748816     -0.000168944    -0.000181252       -0.0305712        0.202035      0.000259163    -9.45616e-05
                    -8.19474e-05    -0.000124562        -0.170613       -0.980499      0.000240249    -2.96943e-05        0.0308534       0.0860561
281714                 0.0013248        0.204447     -1.46034e-05     0.000191461         0.969115       0.0748146     -0.000114764    -7.87397e-05
                     -0.00011743     0.000197349      0.000118591      -0.0912512     -0.000137246    -0.000191449        -0.171159        -0.98046
                         0.96937       0.0745317     -0.000169078    -0.000181208       -0.0304576        0.202088      0.000259202    -9.45665e-05
                    -8.19102e-05    -0.000124489        -0.170855       -0.980457      0.000240336    -2.97028e-05        0.0308827       0.0860408
281716                0.00135204        0.204482     -1.44862e-05     0.000191492         0.969135       0.0744643      -0.00011475     -7.8692e-05
                    -0.000117367     0.000197413      0.000106394      -0.0912467     -0.000137352    -0.000191429          -0.1714       -0.980419
                         0.96939       0.0741819     -0.000169212    -0.000181164       -0.0303439        0.202141      0.000259241    -9.45714e-05
                    -8.18732e-05    -0.000124416        -0.171096       -0.980416      0.000240424    -2.97114e-05         0.030912       0.0860254
281718                0.00137929        0.204518     -1.43689e-05     0.000191522         0.969154       0.0741139     -0.000114736    -7.86443e-05
                    -0.000117304     0.000197476      9.41975e-05      -0.0912422     -0.000137459    -0.000191408        -0.171641       -0.980377
                        0.969409        0.073832     -0.000169346    -0.000181119       -0.0302302        0.202194       0.00025928    -9.45762e-05
                    -8.18363e-05    -0.000124343        -0.171337       -0.980374      0.000240512    -2.97199e-05        0.0309413       0.0860101
281720                0.00140655        0.204554     -1.42515e-05     0.000191552         0.969174       0.0737636     -0.000114722    -7.85968e-05
                     -0.00011724      0.00019754      8.20016e-05      -0.0912377     -0.000137565    -0.000191387        -0.171883       -0.980335
                        0.969429       0.0734821      -0.00016948    -0.000181075       -0.0301165        0.202247       0.00025932    -9.45809e-05
                    -8.17996e-05     -0.00012427        -0.171579       -0.980332        0.0002406    -2.97285e-05        0.0309706       0.0859947
281722                0.00143381         0.20459     -1.41341e-05     0.000191583         0.969193       0.0734132     -0.000114708    -7.85493e-05
                    -0.000117176     0.000197604      6.98063e-05      -0.0912332     -0.000137671    -0.000191366        -0.172124       -0.980293
                        0.969448       0.0731322     -0.000169614     -0.00018103       -0.0300027          0.2023      0.000259359    -9.45855e-05
                    -8.17632e-05    -0.000124198         -0.17182       -0.980291      0.000240689    -2.97371e-05        0.0309999       0.0859793
281724                0.00146107        0.204626     -1.40166e-05     0.000191613         0.969212       0.0730629     -0.000114693     -7.8502e-05
                    -0.000117113     0.000197667      5.76115e-05      -0.0912287     -0.000137778    -0.000191345        -0.172365       -0.980251
                        0.969467       0.0727823     -0.000169748    -0.000180985       -0.0298888        0.202353      0.000259398    -9.45901e-05
                    -8.17268e-05    -0.000124125        -0.172061       -0.980249      0.000240777    -2.97456e-05        0.0310292       0.0859639
281726                0.00148834        0.204662      -1.3899e-05     0.000191643         0.969231       0.0727125     -0.000114679    -7.84547e-05
                    -0.000117049     0.000197731      4.54173e-05      -0.0912242     -0.000137884    -0.000191324        -0.172607        -0.98021
                        0.969486       0.0724324     -0.000169882     -0.00018094       -0.0297749        0.202405      0.000259437    -9.45946e-05
                    -8.16907e-05    -0.000124054        -0.172303       -0.980207      0.000240866    -2.97542e-05        0.0310584       0.0859485
281728                0.00151562        0.204697     -1.37814e-05     0.000191674         0.969249       0.0723622     -0.000114664    -7.84075e-05
                    -0.000116985     0.000197795      3.32236e-05      -0.0912197      -0.00013799    -0.000191302        -0.172848       -0.980168
                        0.969505       0.0720825     -0.000170015    -0.000180894       -0.0296609        0.202458      0.000259476    -9.45989e-05
                    -8.16547e-05    -0.000123982        -0.172544       -0.980165      0.000240954    -2.97628e-05        0.0310877       0.0859331
281730                 0.0015429        0.204733     -1.36637e-05     0.000191704         0.969268       0.0720118      -0.00011465    -7.83603e-05
                     -0.00011692      0.00019786      2.10305e-05      -0.0912152     -0.000138096     -0.00019128        -0.173089       -0.980125
                        0.969523       0.0717326     -0.000170149    -0.000180849       -0.0295468        0.202511      0.000259515    -9.46032e-05
                    -8.16189e-05     -0.00012391        -0.172785       -0.980123      0.000241043    -2.97713e-05         0.031117       0.0859177
281732                0.00157019        0.204769     -1.35459e-05     0.000191734         0.969286       0.0716614     -0.000114636    -7.83133e-05
                    -0.000116856     0.000197924      8.83788e-06      -0.0912107     -0.000138202    -0.000191258         -0.17333       -0.980083
                        0.969542       0.0713827     -0.000170282    -0.000180803       -0.0294327        0.202563      0.000259554    -9.46075e-05
                    -8.15832e-05    -0.000123839        -0.173027       -0.980081      0.000241132    -2.97799e-05        0.0311462       0.0859023
281734                0.00159748        0.204805      -1.3428e-05     0.000191764         0.969305       0.0713111     -0.000114621    -7.82663e-05
                    -0.000116791     0.000197988     -3.35414e-06      -0.0912061     -0.000138308    -0.000191236        -0.173571       -0.980041
                         0.96956       0.0710328     -0.000170416    -0.000180757       -0.0293186        0.202616      0.000259593    -9.46116e-05
                    -8.15477e-05    -0.000123768        -0.173268       -0.980039      0.000241222    -2.97884e-05        0.0311754       0.0858868
281736                0.00162477        0.204841     -1.33101e-05     0.000191795         0.969323       0.0709607     -0.000114606    -7.82194e-05
                    -0.000116727     0.000198052     -1.55456e-05      -0.0912016     -0.000138413    -0.000191214        -0.173813       -0.979999
                        0.969579       0.0706828     -0.000170549    -0.000180711       -0.0292044        0.202668      0.000259632    -9.46156e-05
                    -8.15123e-05    -0.000123697        -0.173509       -0.979997      0.000241311     -2.9797e-05        0.0312047       0.0858714
281738                0.00165208        0.204877     -1.31922e-05     0.000191825         0.969341       0.0706103     -0.000114592    -7.81726e-05
                    -0.000116661     0.000198117     -2.77365e-05      -0.0911971     -0.000138519    -0.000191191        -0.174054       -0.979957
                        0.969597       0.0703329     -0.000170682    -0.000180665       -0.0290901        0.202721       0.00025967    -9.46196e-05
                    -8.14771e-05    -0.000123627        -0.173751       -0.979954      0.000241401    -2.98055e-05        0.0312339       0.0858559
281740                0.00167938        0.204912     -1.30741e-05     0.000191855         0.969359       0.0702599     -0.000114577    -7.81258e-05
                    -0.000116596     0.000198181     -3.99269e-05      -0.0911926     -0.000138624    -0.000191168        -0.174295       -0.979914
                        0.969615        0.069983     -0.000170815    -0.000180618       -0.0289758        0.202773      0.000259709    -9.46235e-05
                     -8.1442e-05    -0.000123556        -0.173992       -0.979912      0.000241491    -2.98139e-05        0.0312631       0.0858405
281742                 0.0017067        0.204948      -1.2956e-05     0.000191885         0.969377       0.0699095     -0.000114562    -7.80792e-05
                     -0.00011653     0.000198245     -5.21167e-05      -0.0911881     -0.000138729    -0.000191146        -0.174536       -0.979872
                        0.969633        0.069633     -0.000170948    -0.000180571       -0.0288614        0.202825      0.000259748    -9.46273e-05
                     -8.1407e-05    -0.000123486        -0.174233        -0.97987      0.000241581    -2.98224e-05        0.0312923        0.085825
281744                0.00173401        0.204984     -1.28378e-05     0.000191916         0.969395       0.0695591     -0.000114547    -7.80326e-05
                    -0.000116464     0.000198309     -6.43059e-05      -0.0911836     -0.000138833    -0.000191123        -0.174777       -0.979829
                        0.969651       0.0692831     -0.000171081    -0.000180525        -0.028747        0.202878      0.000259787     -9.4631e-05
                    -8.13722e-05    -0.000123416        -0.174474       -0.979827      0.000241671    -2.98308e-05        0.0313215       0.0858095
281746                0.00176133         0.20502     -1.27196e-05     0.000191946         0.969412       0.0692087     -0.000114533    -7.79861e-05
                    -0.000116398     0.000198374     -7.64946e-05      -0.0911791     -0.000138937      -0.0001911        -0.175018       -0.979787
                        0.969668       0.0689332     -0.000171214    -0.000180478       -0.0286325         0.20293      0.000259826    -9.46346e-05
                    -8.13375e-05    -0.000123346        -0.174716       -0.979785      0.000241762    -2.98391e-05        0.0313507        0.085794
281748                0.00178866        0.205056     -1.26013e-05     0.000191976          0.96943       0.0688583     -0.000114518    -7.79397e-05
                    -0.000116331     0.000198438     -8.86828e-05      -0.0911745     -0.000139041    -0.000191077         -0.17526       -0.979744
                        0.969686       0.0685832     -0.000171347     -0.00018043        -0.028518        0.202982      0.000259864    -9.46381e-05
                    -8.13029e-05    -0.000123276        -0.174957       -0.979742      0.000241853    -2.98474e-05        0.0313799       0.0857785
281750                  0.001816        0.205091      -1.2483e-05     0.000192006         0.969447       0.0685079     -0.000114503    -7.78934e-05
                    -0.000116264     0.000198502      -0.00010087        -0.09117     -0.000139143    -0.000191053        -0.175501       -0.979702
                        0.969703       0.0682333     -0.000171479    -0.000180383       -0.0284034        0.203034      0.000259903    -9.46416e-05
                    -8.12685e-05    -0.000123206        -0.175198       -0.979699      0.000241945    -2.98555e-05        0.0314091        0.085763
281752                0.00184333        0.205127     -1.23647e-05     0.000192037         0.969464       0.0681575     -0.000114488    -7.78471e-05
                    -0.000116197     0.000198565     -0.000113057      -0.0911655     -0.000139244    -0.000191026        -0.175742       -0.979659
                         0.96972       0.0678833     -0.000171612    -0.000180335       -0.0282888        0.203086      0.000259941    -9.46449e-05
                    -8.12342e-05    -0.000123137        -0.175439       -0.979657      0.000242039    -2.98641e-05        0.0314383       0.0857475
281754                0.00187068        0.205163     -1.22466e-05     0.000192068         0.969482       0.0678071     -0.000114473     -7.7801e-05
                    -0.000116129     0.000198629     -0.000125244       -0.091161     -0.000139348    -0.000190996        -0.175983       -0.979616
                        0.969737       0.0675334     -0.000171745    -0.000180287       -0.0281741        0.203138       0.00025998    -9.46483e-05
                       -8.12e-05    -0.000123067         -0.17568       -0.979614      0.000242136    -2.98807e-05        0.0314674       0.0857319
281756                0.00189803        0.205199     -1.21312e-05     0.000192103         0.969498       0.0674567     -0.000114457    -7.77546e-05
                    -0.000116061     0.000198692      -0.00013743      -0.0911564     -0.000139457    -0.000190969        -0.176224       -0.979573
                        0.969754       0.0671834      -0.00017188    -0.000180236       -0.0280593         0.20319      0.000260019    -9.46515e-05
                    -8.11659e-05    -0.000122998        -0.175922       -0.979571      0.000242213    -2.98898e-05        0.0314966       0.0857164
281758                0.00192538        0.205235     -1.20055e-05     0.000192122         0.969515       0.0671063     -0.000114442    -7.77087e-05
                    -0.000115993     0.000198756     -0.000149615      -0.0911519     -0.000139564    -0.000190946        -0.176465       -0.979531
                        0.969771       0.0668334     -0.000172006    -0.000180195       -0.0279445        0.203242      0.000260057    -9.46545e-05
                    -8.11319e-05    -0.000122929        -0.176163       -0.979528      0.000242305    -2.98933e-05        0.0315257       0.0857008
281760                0.00195274        0.205271     -1.18883e-05     0.000192154         0.969532       0.0667559     -0.000114427    -7.76628e-05
                    -0.000115924     0.000198819       -0.0001618      -0.0911474     -0.000139669    -0.000190924        -0.176706       -0.979488
                        0.969788       0.0664835     -0.000172139    -0.000180145       -0.0278296        0.203293      0.000260096    -9.46575e-05
                     -8.1098e-05     -0.00012286        -0.176404       -0.979485      0.000242398    -2.98999e-05        0.0315549       0.0856853
281762                 0.0019801        0.205306     -1.17698e-05     0.000192185         0.969549       0.0664055     -0.000114412    -7.76169e-05
                    -0.000115854     0.000198881     -0.000173984      -0.0911429     -0.000139773    -0.000190901        -0.176947       -0.979445
                        0.969805       0.0661335     -0.000172272    -0.000180097       -0.0277147        0.203345      0.000260134    -9.46605e-05
