! TOUCHSTONE file generated by CST MICROWAVE STUDIO
! Date and time: Tue Oct 14 17:38:54 2025
! Project name: Teste_Macro_Metasurface_Nanopilar.cst
! Parameters = {H=600; L_x=150; L_y=170; Lambda=1064; Max_L=200; Min_L=70; PathPara=1; Phi=0; Step_L=10; Theta=0; p=520; phaseX=180; phaseY=0}
! Header version: 2018
! Port assignment regex: !\s*Touchstone port\s*([0-9]+)\s*=\s*(CST MWS port|CST DS port)\s*([0-9]+|Zmin|Zmax)\s*\(\"(.*)\"\)(\s*mode\s*([0-9]+))?.*
! Touchstone port assignment:
! Touchstone port 1 = CST MWS port Zmax ("") mode 1
! Touchstone port 2 = CST MWS port Zmax ("") mode 2
! Touchstone port 3 = CST MWS port Zmin ("") mode 1
! Touchstone port 4 = CST MWS port Zmin ("") mode 2
! S-Parameters are not renormalized. Each port impedance will be approximated by the real part at minimum frequency. The values are described via the [Reference] keyword.
! Default impedance is overridden by [Reference]
[Version] 2.0
# GHz S RI R 376.73
[Number of Ports] 4
[Reference]
376.73 376.73 259.814 259.814 
[Number of Frequencies] 51
[Network Data]
281700                  0.169318       0.0105337      0.000175032    -0.000412733         0.605355        -0.77255      4.89289e-05     2.62571e-05
                     0.000102885    -0.000404849         0.177934      -0.0388427     -2.45862e-05     0.000128017         0.787335       -0.580236
                        0.605451       -0.772831      4.23033e-05     4.71563e-05        0.0501694        0.157976     -0.000537826     0.000110484
                     0.000138044    -4.76435e-05          0.78727       -0.580375     -0.000469569     5.85556e-06       -0.0884096        0.152099
281702                  0.169322       0.0105519      0.000174903    -0.000412831         0.605126        -0.77273      4.89635e-05      2.6257e-05
                      0.00010268     -0.00040507         0.177921      -0.0388069     -2.48335e-05     0.000127883          0.78715       -0.580495
                        0.605221       -0.773011      4.23546e-05     4.72666e-05        0.0502821        0.157946     -0.000537764     0.000110713
                     0.000138334    -4.74629e-05         0.787085       -0.580634     -0.000469088      6.1944e-06       -0.0882724        0.152157
281704                  0.169326       0.0105702      0.000174775    -0.000412928         0.604896       -0.772909      4.89981e-05     2.62569e-05
                     0.000102475    -0.000405291         0.177908      -0.0387712     -2.50816e-05     0.000127749         0.786965       -0.580754
                        0.604992        -0.77319      4.24052e-05      4.7377e-05        0.0503949        0.157916     -0.000537701     0.000110943
                     0.000138623     -4.7281e-05           0.7869       -0.580894     -0.000468606     6.53367e-06       -0.0881353        0.152216
281706                   0.16933       0.0105884      0.000174647    -0.000413026         0.604667       -0.773088      4.90328e-05     2.62568e-05
                     0.000102272    -0.000405513         0.177895      -0.0387354     -2.53306e-05     0.000127616          0.78678       -0.581013
                        0.604762       -0.773369      4.24552e-05     4.74874e-05        0.0505076        0.157886     -0.000537638     0.000111172
                     0.000138912    -4.70978e-05         0.786715       -0.581153     -0.000468123     6.87326e-06       -0.0879981        0.152274
281708                  0.169333       0.0106066      0.000174519    -0.000413124         0.604437       -0.773267      4.90675e-05     2.62566e-05
                     0.000102069    -0.000405736         0.177883      -0.0386997     -2.55803e-05     0.000127482         0.786595       -0.581272
                        0.604532       -0.773548      4.25045e-05      4.7598e-05        0.0506203        0.157856     -0.000537575     0.000111402
                     0.000139201    -4.69134e-05          0.78653       -0.581412     -0.000467638     7.21307e-06        -0.087861        0.152332
281710                  0.169337       0.0106248      0.000174391    -0.000413222         0.604208       -0.773447      4.91024e-05     2.62563e-05
                     0.000101867     -0.00040596          0.17787      -0.0386639     -2.58309e-05     0.000127349          0.78641       -0.581531
                        0.604302       -0.773727      4.25531e-05     4.77087e-05         0.050733        0.157826     -0.000537512     0.000111631
                      0.00013949    -4.67277e-05         0.786345       -0.581672     -0.000467152       7.553e-06       -0.0877238        0.152391
281712                  0.169341       0.0106431      0.000174264     -0.00041332         0.603978       -0.773626      4.91373e-05      2.6256e-05
                     0.000101666    -0.000406185         0.177857      -0.0386282     -2.60822e-05     0.000127216         0.786225        -0.58179
                        0.604072       -0.773906       4.2601e-05     4.78195e-05        0.0508456        0.157796     -0.000537449      0.00011186
                     0.000139779    -4.65408e-05         0.786159       -0.581931     -0.000466665     7.89295e-06       -0.0875866        0.152449
281714                  0.169345       0.0106613      0.000174137    -0.000413418         0.603749       -0.773804      4.91722e-05     2.62557e-05
                     0.000101467    -0.000406411         0.177844      -0.0385926     -2.63342e-05     0.000127083          0.78604       -0.582048
                        0.603842       -0.774084      4.26483e-05     4.79303e-05        0.0509583        0.157766     -0.000537385     0.000112089
                     0.000140067    -4.63526e-05         0.785974        -0.58219     -0.000466178     8.23285e-06       -0.0874494        0.152507
281716                  0.169349       0.0106795       0.00017401    -0.000413517         0.603519       -0.773983      4.92072e-05     2.62553e-05
                     0.000101267    -0.000406637         0.177831      -0.0385569     -2.65869e-05     0.000126951         0.785855       -0.582307
                        0.603611       -0.774263      4.26949e-05     4.80412e-05        0.0510709        0.157735     -0.000537322     0.000112318
                     0.000140354    -4.61631e-05         0.785788       -0.582449     -0.000465689     8.57261e-06       -0.0873123        0.152565
281718                  0.169352       0.0106976      0.000173883    -0.000413615         0.603289       -0.774162      4.92423e-05     2.62549e-05
                     0.000101069    -0.000406864         0.177819      -0.0385213     -2.68403e-05     0.000126819         0.785669       -0.582565
                        0.603381       -0.774442      4.27408e-05     4.81521e-05        0.0511835        0.157705     -0.000537259     0.000112547
                     0.000140642    -4.59724e-05         0.785603       -0.582708     -0.000465199     8.91217e-06       -0.0871751        0.152622
281720                  0.169356       0.0107158      0.000173756    -0.000413714          0.60306       -0.774341      4.92775e-05     2.62544e-05
                     0.000100872    -0.000407092         0.177806      -0.0384856     -2.70943e-05     0.000126687         0.785484       -0.582823
                        0.603151        -0.77462      4.27862e-05      4.8263e-05         0.051296        0.157675     -0.000537196     0.000112776
                     0.000140928    -4.57804e-05         0.785417       -0.582966     -0.000464708     9.25144e-06       -0.0870379         0.15268
281722                   0.16936        0.010734      0.000173629    -0.000413812          0.60283       -0.774519      4.93127e-05     2.62539e-05
                     0.000100676    -0.000407321         0.177793        -0.03845      -2.7349e-05     0.000126556         0.785298       -0.583082
                        0.602921       -0.774799      4.28309e-05      4.8374e-05        0.0514085        0.157644     -0.000537132     0.000113004
                     0.000141215    -4.55871e-05         0.785231       -0.583225     -0.000464217     9.59038e-06       -0.0869007        0.152738
281724                  0.169364       0.0107522      0.000173503    -0.000413911           0.6026       -0.774698       4.9348e-05     2.62533e-05
                      0.00010048    -0.000407551          0.17778      -0.0384145     -2.76043e-05     0.000126425         0.785113        -0.58334
                         0.60269       -0.774977       4.2875e-05     4.84851e-05         0.051521        0.157614     -0.000537069     0.000113232
                     0.000141501    -4.53926e-05         0.785045       -0.583484     -0.000463724     9.92891e-06       -0.0867635        0.152795
281726                  0.169368       0.0107704      0.000173376     -0.00041401          0.60237       -0.774877      4.93834e-05     2.62527e-05
                     0.000100286    -0.000407782         0.177768      -0.0383789     -2.78601e-05     0.000126294         0.784927       -0.583598
                         0.60246       -0.775155      4.29184e-05     4.85961e-05        0.0516335        0.157583     -0.000537005     0.000113461
                     0.000141786    -4.51968e-05          0.78486       -0.583742     -0.000463231      1.0267e-05       -0.0866262        0.152852
281728                  0.169372       0.0107885       0.00017325    -0.000414109          0.60214       -0.775055      4.94188e-05      2.6252e-05
                     0.000100092    -0.000408013         0.177755      -0.0383434     -2.81164e-05     0.000126164         0.784741       -0.583856
                         0.60223       -0.775333      4.29613e-05     4.87071e-05         0.051746        0.157552     -0.000536941     0.000113689
                     0.000142071    -4.49997e-05         0.784674          -0.584     -0.000462738     1.06045e-05        -0.086489        0.152909
281730                  0.169375       0.0108067      0.000173124    -0.000414207          0.60191       -0.775233      4.94543e-05     2.62513e-05
                     9.98999e-05    -0.000408245         0.177742      -0.0383078     -2.83733e-05     0.000126034         0.784556       -0.584114
                        0.601999       -0.775512      4.30036e-05     4.88182e-05        0.0518584        0.157521     -0.000536878     0.000113917
                     0.000142355    -4.48013e-05         0.784488       -0.584259     -0.000462244     1.09415e-05       -0.0863518        0.152967
281732                  0.169379       0.0108248      0.000172997    -0.000414306          0.60168       -0.775412      4.94898e-05     2.62505e-05
                     9.97083e-05    -0.000408478          0.17773      -0.0382723     -2.86307e-05     0.000125904          0.78437       -0.584372
                        0.601769        -0.77569      4.30453e-05     4.89292e-05        0.0519708        0.157491     -0.000536814     0.000114145
                     0.000142639    -4.46017e-05         0.784302       -0.584517     -0.000461749     1.12779e-05       -0.0862146        0.153023
281734                  0.169383        0.010843      0.000172871    -0.000414405          0.60145        -0.77559      4.95254e-05     2.62497e-05
                     9.95177e-05    -0.000408712         0.177717      -0.0382368     -2.88885e-05     0.000125775         0.784184       -0.584629
                        0.601538       -0.775868      4.30864e-05     4.90403e-05        0.0520831         0.15746      -0.00053675     0.000114373
                     0.000142922    -4.44008e-05         0.784115       -0.584775     -0.000461253     1.16136e-05       -0.0860773         0.15308
281736                  0.169387       0.0108611      0.000172745    -0.000414504          0.60122       -0.775768      4.95611e-05     2.62489e-05
                      9.9328e-05    -0.000408946         0.177705      -0.0382014     -2.91468e-05     0.000125646         0.783998       -0.584887
                        0.601307       -0.776046      4.31269e-05     4.91513e-05        0.0521955        0.157429     -0.000536686       0.0001146
                     0.000143204    -4.41985e-05         0.783929       -0.585033     -0.000460758     1.19487e-05       -0.0859401        0.153137
281738                  0.169391       0.0108792      0.000172619    -0.000414603          0.60099       -0.775946      4.95969e-05      2.6248e-05
                     9.91393e-05    -0.000409181         0.177692      -0.0381659     -2.94055e-05     0.000125517         0.783812       -0.585145
                        0.601077       -0.776224      4.31669e-05     4.92623e-05        0.0523078        0.157397     -0.000536622     0.000114828
                     0.000143486     -4.3995e-05         0.783743       -0.585291     -0.000460261      1.2283e-05       -0.0858029        0.153194
281740                  0.169395       0.0108974      0.000172493    -0.000414702          0.60076       -0.776124      4.96327e-05      2.6247e-05
                     9.89516e-05    -0.000409417         0.177679      -0.0381305     -2.96646e-05     0.000125389         0.783625       -0.585402
                        0.600846       -0.776401      4.32063e-05     4.93732e-05        0.0524201        0.157366     -0.000536558     0.000115055
                     0.000143767    -4.37902e-05         0.783556       -0.585549     -0.000459765     1.26165e-05       -0.0856656         0.15325
281742                  0.169399       0.0109155      0.000172367    -0.000414801         0.600529       -0.776302      4.96685e-05      2.6246e-05
                     9.87648e-05    -0.000409654         0.177667      -0.0380951     -2.99241e-05     0.000125262         0.783439       -0.585659
                        0.600615       -0.776579      4.32451e-05     4.94841e-05        0.0525324        0.157335     -0.000536494     0.000115283
                     0.000144047    -4.35841e-05          0.78337       -0.585807     -0.000459268     1.29492e-05       -0.0855284        0.153307
281744                  0.169402       0.0109336      0.000172241      -0.0004149         0.600299        -0.77648      4.97045e-05      2.6245e-05
                     9.85791e-05    -0.000409891         0.177654      -0.0380597     -3.01839e-05     0.000125135         0.783253       -0.585917
                        0.600384       -0.776757      4.32835e-05      4.9595e-05        0.0526446        0.157304      -0.00053643      0.00011551
                     0.000144326    -4.33766e-05         0.783183       -0.586065      -0.00045877     1.32811e-05       -0.0853911        0.153363
281746                  0.169406       0.0109517      0.000172114    -0.000414999         0.600069       -0.776658      4.97404e-05     2.62439e-05
                     9.83943e-05     -0.00041013         0.177642      -0.0380244      -3.0444e-05     0.000125008         0.783067       -0.586174
                        0.600153       -0.776934      4.33213e-05     4.97058e-05        0.0527568        0.157272     -0.000536366     0.000115737
                     0.000144605    -4.31679e-05         0.782997       -0.586322     -0.000458272     1.36121e-05       -0.0852539        0.153419
281748                   0.16941       0.0109698      0.000171988    -0.000415098         0.599838       -0.776835      4.97765e-05     2.62427e-05
                     9.82106e-05    -0.000410368         0.177629       -0.037989     -3.07044e-05     0.000124882          0.78288       -0.586431
                        0.599923       -0.777112      4.33585e-05     4.98166e-05         0.052869        0.157241     -0.000536302     0.000115964
                     0.000144882    -4.29578e-05          0.78281        -0.58658     -0.000457774     1.39422e-05       -0.0851166        0.153475
281750                  0.169414       0.0109879      0.000171862    -0.000415197         0.599608       -0.777013      4.98126e-05     2.62415e-05
                     9.80279e-05    -0.000410608         0.177617      -0.0379537     -3.09651e-05     0.000124756         0.782693       -0.586688
                        0.599692       -0.777289      4.33953e-05     4.99273e-05        0.0529812        0.157209     -0.000536238     0.000116191
                     0.000145159    -4.27463e-05         0.782623       -0.586837     -0.000457276     1.42713e-05       -0.0849793        0.153531
281752                  0.169418        0.011006      0.000171736    -0.000415296         0.599377       -0.777191      4.98487e-05     2.62403e-05
                     9.78461e-05    -0.000410848         0.177604      -0.0379184     -3.12261e-05     0.000124631         0.782507       -0.586945
                        0.599461       -0.777467      4.34315e-05      5.0038e-05        0.0530933        0.157178     -0.000536174     0.000116418
                     0.000145435    -4.25335e-05         0.782437       -0.587095     -0.000456778     1.45995e-05        -0.084842        0.153587
281754                  0.169422       0.0110241       0.00017161    -0.000415395         0.599147       -0.777368      4.98849e-05     2.62389e-05
                     9.76654e-05    -0.000411089         0.177592      -0.0378831     -3.14873e-05     0.000124506          0.78232       -0.587202
                        0.599229       -0.777644      4.34673e-05     5.01485e-05        0.0532054        0.157146     -0.000536109     0.000116645
                     0.000145709    -4.23193e-05          0.78225       -0.587352     -0.000456279     1.49267e-05       -0.0847048        0.153643
281756                  0.169426       0.0110422      0.000171484    -0.000415493         0.598916       -0.777545      4.99211e-05     2.62375e-05
                     9.74858e-05    -0.000411331         0.177579      -0.0378478     -3.17487e-05     0.000124382         0.782133       -0.587459
                        0.598998       -0.777821      4.35026e-05      5.0259e-05        0.0533175        0.157114     -0.000536045     0.000116871
                     0.000145982    -4.21038e-05         0.782063       -0.587609      -0.00045578     1.52528e-05       -0.0845675        0.153698
281758                   0.16943       0.0110603      0.000171358    -0.000415592         0.598685       -0.777723      4.99573e-05      2.6236e-05
                     9.73072e-05    -0.000411573         0.177567      -0.0378126     -3.20103e-05     0.000124258         0.781947       -0.587716
                        0.598767       -0.777998      4.35373e-05     5.03694e-05        0.0534296        0.157083     -0.000535981     0.000117098
                     0.000146254    -4.18869e-05         0.781876       -0.587867     -0.000455281     1.55779e-05       -0.0844302        0.153754
281760                  0.169434       0.0110783      0.000171232    -0.000415691         0.598455         -0.7779      4.99936e-05     2.62343e-05
                     9.71296e-05    -0.000411816         0.177554      -0.0377773     -3.22721e-05     0.000124135          0.78176       -0.587972
                        0.598536       -0.778175      4.35717e-05     5.04798e-05        0.0535416        0.157051     -0.000535917     0.000117325
                     0.000146525    -4.16685e-05         0.781689       -0.588124     -0.000454782     1.59019e-05       -0.0842929        0.153809
281762                  0.169437       0.0110964      0.000171106     -0.00041579         0.598224       -0.778077      5.00298e-05     2.62325e-05
                     9.69531e-05     -0.00041206         0.177542      -0.0377421     -3.25341e-05     0.000124012         0.781573       -0.588229
                        0.598305       -0.778352      4.36056e-05       5.059e-05        0.0536536        0.157019     -0.000535852     0.000117551
