! TOUCHSTONE file generated by CST MICROWAVE STUDIO
! Date and time: Tue Oct 14 17:38:07 2025
! Project name: Teste_Macro_Metasurface_Nanopilar.cst
! Parameters = {H=600; L_x=90; L_y=70; Lambda=1064; Max_L=200; Min_L=70; PathPara=1; Phi=0; Step_L=10; Theta=0; p=520; phaseX=180; phaseY=0}
! Header version: 2018
! Port assignment regex: !\s*Touchstone port\s*([0-9]+)\s*=\s*(CST MWS port|CST DS port)\s*([0-9]+|Zmin|Zmax)\s*\(\"(.*)\"\)(\s*mode\s*([0-9]+))?.*
! Touchstone port assignment:
! Touchstone port 1 = CST MWS port Zmax ("") mode 1
! Touchstone port 2 = CST MWS port Zmax ("") mode 2
! Touchstone port 3 = CST MWS port Zmin ("") mode 1
! Touchstone port 4 = CST MWS port Zmin ("") mode 2
! S-Parameters are not renormalized. Each port impedance will be approximated by the real part at minimum frequency. The values are described via the [Reference] keyword.
! Default impedance is overridden by [Reference]
[Version] 2.0
# GHz S RI R 376.73
[Number of Ports] 4
[Reference]
376.73 376.73 259.814 259.814 
[Number of Frequencies] 51
[Network Data]
281700                 0.0586309       -0.131944     -6.87444e-05    -4.99752e-05         0.185968       -0.971708      4.86679e-05     0.000104065
                    -7.85714e-05    -3.13749e-05        0.0328661        -0.11229       2.5813e-05    -0.000216357         0.022005       -0.992477
                        0.186276       -0.971687      4.12254e-05    -6.46617e-05       0.00564981        0.144307     -0.000118062     1.85513e-05
                     2.17836e-05     7.79332e-05        0.0218558       -0.992459      2.39059e-05     0.000192467        0.0277478        0.113678
281702                 0.0586188       -0.131947     -6.87379e-05    -4.99256e-05         0.185739       -0.971753      4.86477e-05     0.000104068
                    -7.85909e-05    -3.13182e-05        0.0328541       -0.112289      2.55656e-05    -0.000216337        0.0217653       -0.992483
                        0.186046       -0.971731      4.12035e-05    -6.46911e-05       0.00570571        0.144302     -0.000118011     1.84818e-05
                     2.18303e-05      7.7909e-05        0.0216162       -0.992465      2.41256e-05     0.000192222        0.0277907        0.113663
281704                 0.0586067        -0.13195     -6.87314e-05    -4.98761e-05          0.18551       -0.971797      4.86276e-05      0.00010407
                    -7.86105e-05    -3.12617e-05        0.0328421       -0.112289      2.53186e-05    -0.000216316        0.0215256       -0.992489
                        0.185817       -0.971775      4.11815e-05    -6.47207e-05       0.00576161        0.144298     -0.000117961     1.84122e-05
                      2.1877e-05     7.78848e-05        0.0213765        -0.99247      2.43447e-05     0.000191977        0.0278336        0.113649
281706                 0.0585947       -0.131953     -6.87247e-05    -4.98266e-05          0.18528       -0.971841      4.86074e-05     0.000104073
                      -7.863e-05    -3.12051e-05        0.0328301       -0.112288      2.50718e-05    -0.000216295        0.0212858       -0.992494
                        0.185587       -0.971819      4.11594e-05    -6.47503e-05       0.00581751        0.144293     -0.000117911     1.83425e-05
                     2.19237e-05     7.78605e-05        0.0211369       -0.992476      2.45631e-05     0.000191732        0.0278766        0.113634
281708                 0.0585826       -0.131956      -6.8718e-05    -4.97772e-05         0.185051       -0.971885      4.85872e-05     0.000104075
                    -7.86495e-05    -3.11487e-05        0.0328181       -0.112288      2.48253e-05    -0.000216274        0.0210461         -0.9925
                        0.185358       -0.971863      4.11371e-05      -6.478e-05        0.0058734        0.144289      -0.00011786     1.82727e-05
                     2.19704e-05     7.78362e-05        0.0208972       -0.992482      2.47808e-05     0.000191487        0.0279195         0.11362
281710                 0.0585705       -0.131959     -6.87112e-05    -4.97278e-05         0.184821       -0.971929      4.85671e-05     0.000104077
                     -7.8669e-05    -3.10923e-05        0.0328061       -0.112287      2.45791e-05    -0.000216252        0.0208064       -0.992505
                        0.185128       -0.971907      4.11148e-05    -6.48097e-05        0.0059293        0.144284      -0.00011781     1.82029e-05
                      2.2017e-05     7.78119e-05        0.0206576       -0.992487      2.49979e-05     0.000191242        0.0279624        0.113605
281712                 0.0585584       -0.131961     -6.87043e-05    -4.96785e-05         0.184592       -0.971973      4.85469e-05      0.00010408
                    -7.86886e-05    -3.10359e-05        0.0327941       -0.112286      2.43331e-05     -0.00021623        0.0205667       -0.992511
                        0.184898       -0.971951      4.10923e-05    -6.48396e-05       0.00598519         0.14428     -0.000117759      1.8133e-05
                     2.20636e-05     7.77876e-05        0.0204179       -0.992492      2.52144e-05     0.000190996        0.0280053        0.113591
281714                 0.0585464       -0.131964     -6.86973e-05    -4.96292e-05         0.184362       -0.972017      4.85267e-05     0.000104082
                    -7.87081e-05    -3.09797e-05        0.0327821       -0.112286      2.40874e-05    -0.000216207         0.020327       -0.992516
                        0.184669       -0.971995      4.10696e-05    -6.48695e-05       0.00604107        0.144275     -0.000117708      1.8063e-05
                     2.21102e-05     7.77633e-05        0.0201783       -0.992498      2.54301e-05      0.00019075        0.0280482        0.113576
281716                 0.0585343       -0.131967     -6.86902e-05    -4.95799e-05         0.184133       -0.972061      4.85065e-05     0.000104084
                    -7.87276e-05    -3.09235e-05        0.0327701       -0.112285       2.3842e-05    -0.000216183        0.0200873       -0.992522
                        0.184439       -0.972039      4.10469e-05    -6.48994e-05       0.00609696         0.14427     -0.000117657     1.79929e-05
                     2.21568e-05     7.77389e-05        0.0199386       -0.992503      2.56453e-05     0.000190504        0.0280911        0.113561
281718                 0.0585222        -0.13197     -6.86831e-05    -4.95307e-05         0.183903       -0.972105      4.84863e-05     0.000104086
                    -7.87472e-05    -3.08673e-05        0.0327581       -0.112285      2.35969e-05    -0.000216159        0.0198475       -0.992527
                         0.18421       -0.972083      4.10241e-05    -6.49294e-05       0.00615284        0.144266     -0.000117606     1.79227e-05
                     2.22033e-05     7.77145e-05        0.0196989       -0.992508      2.58597e-05     0.000190257         0.028134        0.113547
281720                 0.0585101       -0.131973     -6.86759e-05    -4.94815e-05         0.183674       -0.972149      4.84661e-05     0.000104089
                    -7.87667e-05    -3.08112e-05        0.0327461       -0.112284      2.33521e-05    -0.000216135        0.0196078       -0.992532
                         0.18398       -0.972127      4.10011e-05    -6.49595e-05       0.00620872        0.144261     -0.000117555     1.78525e-05
                     2.22499e-05     7.76901e-05        0.0194593       -0.992514      2.60736e-05     0.000190011        0.0281769        0.113532
281722                 0.0584981       -0.131976     -6.86686e-05    -4.94323e-05         0.183444       -0.972192      4.84459e-05     0.000104091
                    -7.87863e-05    -3.07551e-05        0.0327341       -0.112284      2.31075e-05     -0.00021611        0.0193681       -0.992537
                        0.183751       -0.972171       4.0978e-05    -6.49897e-05        0.0062646        0.144256     -0.000117504     1.77822e-05
                     2.22964e-05     7.76657e-05        0.0192196       -0.992519      2.62867e-05     0.000189764        0.0282197        0.113517
281724                  0.058486       -0.131978     -6.86612e-05    -4.93832e-05         0.183214       -0.972236      4.84257e-05     0.000104093
                    -7.88059e-05    -3.06992e-05        0.0327221       -0.112283      2.28632e-05    -0.000216084        0.0191284       -0.992542
                        0.183521       -0.972214      4.09548e-05    -6.50199e-05       0.00632047        0.144252     -0.000117453     1.77118e-05
                     2.23428e-05     7.76412e-05        0.0189799       -0.992524      2.64992e-05     0.000189517        0.0282626        0.113503
281726                 0.0584739       -0.131981     -6.86538e-05    -4.93341e-05         0.182985        -0.97228      4.84054e-05     0.000104095
                    -7.88254e-05    -3.06432e-05        0.0327101       -0.112283      2.26192e-05    -0.000216059        0.0188886       -0.992547
                        0.183291       -0.972258      4.09314e-05    -6.50502e-05       0.00637634        0.144247     -0.000117402     1.76413e-05
                     2.23893e-05     7.76167e-05        0.0187403       -0.992529      2.67111e-05      0.00018927        0.0283055        0.113488
281728                 0.0584618       -0.131984     -6.86463e-05    -4.92851e-05         0.182755       -0.972323      4.83852e-05     0.000104098
                     -7.8845e-05    -3.05874e-05        0.0326981       -0.112282      2.23755e-05    -0.000216032        0.0186489       -0.992552
                        0.183062       -0.972301       4.0908e-05    -6.50806e-05       0.00643221        0.144242      -0.00011735     1.75707e-05
                     2.24357e-05     7.75923e-05        0.0185006       -0.992534      2.69223e-05     0.000189022        0.0283483        0.113473
281730                 0.0584498       -0.131987     -6.86387e-05    -4.92361e-05         0.182526       -0.972367      4.83649e-05       0.0001041
                    -7.88646e-05    -3.05316e-05        0.0326861       -0.112282      2.21321e-05    -0.000216005        0.0184092       -0.992557
                        0.182832       -0.972345      4.08844e-05     -6.5111e-05       0.00648808        0.144237     -0.000117299     1.75001e-05
                     2.24821e-05     7.75677e-05        0.0182609       -0.992539      2.71328e-05     0.000188775        0.0283912        0.113459
281732                 0.0584377        -0.13199      -6.8631e-05    -4.91872e-05         0.182296        -0.97241      4.83447e-05     0.000104102
                    -7.88842e-05    -3.04758e-05         0.032674       -0.112281       2.1889e-05    -0.000215978        0.0181694       -0.992562
                        0.182602       -0.972388      4.08607e-05    -6.51415e-05       0.00654394        0.144233     -0.000117247     1.74294e-05
                     2.25284e-05     7.75432e-05        0.0180212       -0.992543      2.73427e-05     0.000188527         0.028434        0.113444
281734                 0.0584256       -0.131993     -6.86232e-05    -4.91383e-05         0.182067       -0.972453      4.83244e-05     0.000104104
                    -7.89038e-05    -3.04201e-05         0.032662        -0.11228      2.16461e-05     -0.00021595        0.0179297       -0.992567
                        0.182373       -0.972432      4.08369e-05     -6.5172e-05        0.0065998        0.144228     -0.000117196     1.73586e-05
                     2.25748e-05     7.75186e-05        0.0177816       -0.992548      2.75519e-05     0.000188279        0.0284768        0.113429
281736                 0.0584135       -0.131995     -6.86154e-05    -4.90894e-05         0.181837       -0.972497      4.83041e-05     0.000104106
                    -7.89233e-05    -3.03645e-05          0.03265        -0.11228      2.14035e-05    -0.000215921        0.0176899       -0.992572
                        0.182143       -0.972475       4.0813e-05    -6.52027e-05       0.00665566        0.144223     -0.000117144     1.72877e-05
                     2.26211e-05     7.74941e-05        0.0175419       -0.992553      2.77605e-05     0.000188031        0.0285196        0.113415
281738                 0.0584015       -0.131998     -6.86074e-05    -4.90406e-05         0.181607        -0.97254      4.82839e-05     0.000104108
                    -7.89429e-05    -3.03089e-05         0.032638       -0.112279      2.11613e-05    -0.000215892        0.0174502       -0.992576
                        0.181913       -0.972518      4.07889e-05    -6.52334e-05       0.00671151        0.144218     -0.000117092     1.72167e-05
                     2.26674e-05     7.74695e-05        0.0173022       -0.992558      2.79685e-05     0.000187782        0.0285625          0.1134
281740                 0.0583894       -0.132001     -6.85994e-05    -4.89918e-05         0.181378       -0.972583      4.82636e-05      0.00010411
                    -7.89625e-05    -3.02534e-05         0.032626       -0.112279      2.09193e-05    -0.000215863        0.0172105       -0.992581
                        0.181684       -0.972562      4.07648e-05    -6.52641e-05       0.00676736        0.144213      -0.00011704     1.71456e-05
                     2.27136e-05     7.74449e-05        0.0170625       -0.992562      2.81758e-05     0.000187534        0.0286053        0.113385
281742                 0.0583773       -0.132004     -6.85913e-05     -4.8943e-05         0.181148       -0.972626      4.82433e-05     0.000104112
                    -7.89821e-05    -3.01979e-05         0.032614       -0.112278      2.06776e-05    -0.000215833        0.0169707       -0.992585
                        0.181454       -0.972605      4.07405e-05     -6.5295e-05       0.00682321        0.144208     -0.000116988     1.70745e-05
                     2.27599e-05     7.74202e-05        0.0168228       -0.992567      2.83824e-05     0.000187285        0.0286481         0.11337
281744                 0.0583652       -0.132007     -6.85832e-05    -4.88943e-05         0.180918        -0.97267       4.8223e-05     0.000104114
                    -7.90017e-05    -3.01425e-05         0.032602       -0.112278      2.04362e-05    -0.000215803         0.016731        -0.99259
                        0.181224       -0.972648      4.07161e-05    -6.53259e-05       0.00687905        0.144203     -0.000116936     1.70033e-05
                     2.28061e-05     7.73956e-05        0.0165831       -0.992571      2.85884e-05     0.000187036        0.0286909        0.113355
281746                 0.0583532        -0.13201     -6.85749e-05    -4.88456e-05         0.180689       -0.972713      4.82027e-05     0.000104116
                    -7.90213e-05    -3.00872e-05          0.03259       -0.112277      2.01951e-05    -0.000215772        0.0164912       -0.992594
                        0.180995       -0.972691      4.06916e-05    -6.53569e-05        0.0069349        0.144198     -0.000116884      1.6932e-05
                     2.28522e-05     7.73709e-05        0.0163435       -0.992576      2.87938e-05     0.000186786        0.0287336        0.113341
281748                 0.0583411       -0.132012     -6.85666e-05     -4.8797e-05         0.180459       -0.972756      4.81825e-05     0.000104118
                     -7.9041e-05     -3.0032e-05         0.032578       -0.112277      1.99543e-05    -0.000215741        0.0162515       -0.992599
                        0.180765       -0.972734      4.06669e-05     -6.5388e-05       0.00699074        0.144193     -0.000116832     1.68606e-05
                     2.28984e-05     7.73462e-05        0.0161038        -0.99258      2.89986e-05     0.000186537        0.0287764        0.113326
281750                  0.058329       -0.132015     -6.85582e-05    -4.87484e-05         0.180229       -0.972799      4.81623e-05      0.00010412
                    -7.90606e-05    -2.99769e-05         0.032566       -0.112276      1.97138e-05    -0.000215709        0.0160117       -0.992603
                        0.180535       -0.972777      4.06422e-05    -6.54191e-05       0.00704657        0.144188     -0.000116779     1.67892e-05
                     2.29444e-05     7.73214e-05        0.0158641       -0.992584      2.92029e-05     0.000186287        0.0288192        0.113311
281752                 0.0583169       -0.132018     -6.85497e-05    -4.86998e-05             0.18       -0.972842      4.81424e-05     0.000104122
                    -7.90805e-05    -2.99222e-05         0.032554       -0.112275      1.94736e-05    -0.000215677         0.015772       -0.992607
                        0.180305        -0.97282      4.06173e-05    -6.54504e-05       0.00710241        0.144183     -0.000116727     1.67178e-05
                     2.29903e-05     7.72967e-05        0.0156244       -0.992589      2.94066e-05     0.000186038        0.0288619        0.113296
281754                 0.0583048       -0.132021     -6.85411e-05    -4.86513e-05          0.17977       -0.972884      4.81231e-05     0.000104121
                    -7.91025e-05    -2.98735e-05         0.032542       -0.112275      1.92338e-05    -0.000215644        0.0155322       -0.992612
                        0.180076       -0.972863      4.05923e-05    -6.54817e-05       0.00715824        0.144178     -0.000116672     1.66468e-05
                     2.30338e-05     7.72732e-05        0.0153847       -0.992593      2.96099e-05     0.000185788        0.0289047        0.113281
281756                 0.0582928       -0.132024     -6.85324e-05    -4.86029e-05          0.17954       -0.972927      4.80984e-05     0.000104125
                    -7.91182e-05    -2.98091e-05          0.03253       -0.112274      1.89944e-05    -0.000215612        0.0152925       -0.992616
                        0.179846       -0.972905      4.05671e-05    -6.55132e-05       0.00721407        0.144173     -0.000116628     1.65728e-05
                     2.30839e-05     7.72473e-05         0.015145       -0.992597      2.98134e-05     0.000185537        0.0289474        0.113266
281758                 0.0582807       -0.132027     -6.85236e-05    -4.85545e-05         0.179311        -0.97297      4.80789e-05     0.000104128
                    -7.91383e-05    -2.97549e-05         0.032518       -0.112274      1.87559e-05     -0.00021558        0.0150527        -0.99262
                        0.179616       -0.972948      4.05419e-05     -6.5545e-05       0.00726989        0.144168     -0.000116572     1.65017e-05
                     2.31295e-05     7.72224e-05        0.0149053       -0.992601      3.00196e-05     0.000185287        0.0289902        0.113251
281760                 0.0582686       -0.132029     -6.85146e-05    -4.85062e-05         0.179081       -0.973013      4.80587e-05      0.00010413
                     -7.9158e-05    -2.97002e-05         0.032506       -0.112273      1.85016e-05    -0.000215514         0.014813       -0.992624
                        0.179386       -0.972991      4.05164e-05     -6.5577e-05       0.00732573        0.144163     -0.000116519     1.64299e-05
                     2.31754e-05     7.71975e-05        0.0146656       -0.992605      3.01389e-05     0.000185043        0.0290329        0.113236
281762                 0.0582565       -0.132032     -6.85053e-05    -4.84581e-05         0.178851       -0.973055      4.80384e-05     0.000104132
                    -7.91776e-05    -2.96453e-05         0.032494       -0.112273       1.8275e-05    -0.000215505        0.0145732       -0.992628
                        0.179156       -0.973034      4.04907e-05    -6.56098e-05       0.00738154        0.144158     -0.000116466     1.63579e-05
