! TOUCHSTONE file generated by CST MICROWAVE STUDIO
! Date and time: Tue Oct 14 17:39:02 2025
! Project name: Teste_Macro_Metasurface_Nanopilar.cst
! Parameters = {H=600; L_x=160; L_y=190; Lambda=1064; Max_L=200; Min_L=70; PathPara=1; Phi=0; Step_L=10; Theta=0; p=520; phaseX=180; phaseY=0}
! Header version: 2018
! Port assignment regex: !\s*Touchstone port\s*([0-9]+)\s*=\s*(CST MWS port|CST DS port)\s*([0-9]+|Zmin|Zmax)\s*\(\"(.*)\"\)(\s*mode\s*([0-9]+))?.*
! Touchstone port assignment:
! Touchstone port 1 = CST MWS port Zmax ("") mode 1
! Touchstone port 2 = CST MWS port Zmax ("") mode 2
! Touchstone port 3 = CST MWS port Zmin ("") mode 1
! Touchstone port 4 = CST MWS port Zmin ("") mode 2
! S-Parameters are not renormalized. Each port impedance will be approximated by the real part at minimum frequency. The values are described via the [Reference] keyword.
! Default impedance is overridden by [Reference]
[Version] 2.0
# GHz S RI R 376.73
[Number of Ports] 4
[Reference]
376.73 376.73 259.814 259.814 
[Number of Frequencies] 51
[Network Data]
281700                   0.23691       0.0923289      0.000102604     8.08134e-05         0.201241       -0.942554     -7.43583e-05     7.29812e-05
                     5.59324e-06     0.000337152         0.103201      -0.0146385      0.000362909    -0.000126936         0.402746       -0.897378
                        0.201173        -0.94262     -7.75208e-05     3.94241e-06         0.252039       0.0106777      0.000333212    -0.000190771
                     -6.9941e-05     0.000187113         0.402631       -0.897335     -0.000133396    -5.66341e-05        0.0530333       0.0989745
281702                  0.236926       0.0923285      0.000102545     8.09463e-05         0.200969       -0.942608     -7.42756e-05       7.313e-05
                     5.69339e-06      0.00033772         0.103068      -0.0147129      0.000362929    -0.000127712         0.402355       -0.897548
                          0.2009       -0.942674      -7.7505e-05     4.01492e-06          0.25206       0.0105394      0.000333442    -0.000190829
                    -6.97094e-05     0.000188028          0.40224       -0.897505     -0.000133127    -5.70835e-05        0.0529636       0.0989088
281704                  0.236942       0.0923282      0.000102486     8.10797e-05         0.200697       -0.942662     -7.41935e-05     7.32793e-05
                     5.79451e-06      0.00033829         0.102934      -0.0147874      0.000362948    -0.000128489         0.401964       -0.897718
                        0.200626       -0.942728     -7.74893e-05     4.08693e-06          0.25208        0.010401      0.000333674    -0.000190888
                    -6.94748e-05     0.000188946         0.401848       -0.897676     -0.000132859    -5.75349e-05        0.0528936       0.0988431
281706                  0.236957       0.0923278      0.000102427     8.12135e-05         0.200424       -0.942716      -7.4112e-05     7.34292e-05
                     5.89658e-06     0.000338861           0.1028       -0.014862      0.000362966    -0.000129268         0.401573       -0.897888
                        0.200352       -0.942782     -7.74736e-05     4.15844e-06         0.252101       0.0102627      0.000333906     -0.00019095
                    -6.92371e-05     0.000189866         0.401456       -0.897846     -0.000132593    -5.79884e-05        0.0528232       0.0987775
281708                  0.236973       0.0923275      0.000102367     8.13477e-05         0.200152        -0.94277     -7.40311e-05     7.35797e-05
                     5.99962e-06     0.000339436         0.102665      -0.0149368      0.000362984    -0.000130048         0.401181       -0.898059
                        0.200079       -0.942836      -7.7458e-05     4.22948e-06         0.252121       0.0101244      0.000334138    -0.000191013
                    -6.89964e-05      0.00019079         0.401064       -0.898016     -0.000132326     -5.8444e-05        0.0527524       0.0987119
281710                  0.236989       0.0923271      0.000102308     8.14823e-05          0.19988       -0.942823     -7.39508e-05     7.37308e-05
                     6.10363e-06     0.000340012          0.10253      -0.0150116      0.000363001    -0.000130829         0.400789       -0.898229
                        0.199805        -0.94289     -7.74424e-05     4.30004e-06         0.252142      0.00998599      0.000334371    -0.000191077
                    -6.87527e-05     0.000191715         0.400671       -0.898186     -0.000132061    -5.89018e-05        0.0526812       0.0986465
281712                  0.237005       0.0923268      0.000102249     8.16174e-05         0.199607       -0.942877     -7.38712e-05     7.38823e-05
                     6.20861e-06      0.00034059         0.102395      -0.0150866      0.000363018    -0.000131611         0.400396       -0.898399
                        0.199532       -0.942944     -7.74269e-05     4.37015e-06         0.252162      0.00984761      0.000334605    -0.000191144
                    -6.85059e-05     0.000192644         0.400278       -0.898356     -0.000131797    -5.93616e-05        0.0526097       0.0985811
281714                  0.237021       0.0923264      0.000102189     8.17529e-05         0.199335        -0.94293     -7.37921e-05     7.40345e-05
                     6.31455e-06     0.000341171         0.102259      -0.0151617      0.000363034    -0.000132394         0.400003       -0.898568
                        0.199258       -0.942998     -7.74114e-05      4.4398e-06         0.252182      0.00970921      0.000334839    -0.000191212
                    -6.82561e-05     0.000193575         0.399885       -0.898525     -0.000131533    -5.98235e-05        0.0525378       0.0985157
281716                  0.237036       0.0923261       0.00010213     8.18887e-05         0.199063       -0.942984     -7.37137e-05     7.41872e-05
                     6.42147e-06     0.000341754         0.102123      -0.0152368      0.000363049    -0.000133179          0.39961       -0.898738
                        0.198984       -0.943051      -7.7396e-05     4.50901e-06         0.252202      0.00957079      0.000335074    -0.000191282
                    -6.80033e-05     0.000194509         0.399491       -0.898695      -0.00013127    -6.02875e-05        0.0524655       0.0984505
281718                  0.237052       0.0923257       0.00010207     8.20249e-05          0.19879       -0.943037     -7.36358e-05     7.43404e-05
                     6.52936e-06      0.00034234         0.101987      -0.0153121      0.000363064    -0.000133965         0.399216       -0.898908
                        0.198711       -0.943105     -7.73807e-05     4.57778e-06         0.252222      0.00943236       0.00033531    -0.000191353
                    -6.77473e-05     0.000195446         0.399097       -0.898865     -0.000131008    -6.07536e-05        0.0523929       0.0983853
281720                  0.237068       0.0923253      0.000102011     8.21615e-05         0.198518        -0.94309     -7.35586e-05     7.44941e-05
                     6.63823e-06     0.000342927          0.10185      -0.0153876      0.000363079    -0.000134752         0.398822       -0.899078
                        0.198437       -0.943159     -7.73654e-05     4.64613e-06         0.252242      0.00929392      0.000335546    -0.000191426
                    -6.74884e-05     0.000196386         0.398702       -0.899034     -0.000130747    -6.12219e-05        0.0523198       0.0983202
281722                  0.237084        0.092325      0.000101951     8.22985e-05         0.198245       -0.943144      -7.3482e-05     7.46484e-05
                     6.74808e-06     0.000343517         0.101713      -0.0154631      0.000363093     -0.00013554         0.398428       -0.899247
                        0.198164       -0.943212     -7.73502e-05     4.71407e-06         0.252262      0.00915545      0.000335783    -0.000191501
                    -6.72263e-05     0.000197328         0.398307       -0.899204     -0.000130487    -6.16923e-05        0.0522464       0.0982552
281724                    0.2371       0.0923246      0.000101891     8.24358e-05         0.197973       -0.943197     -7.34059e-05     7.48032e-05
                     6.85891e-06     0.000344109         0.101575      -0.0155387      0.000363106    -0.000136329         0.398033       -0.899417
                         0.19789       -0.943265      -7.7335e-05      4.7816e-06         0.252282      0.00901697      0.000336021    -0.000191578
                    -6.69612e-05     0.000198273         0.397911       -0.899373     -0.000130227    -6.21648e-05        0.0521727       0.0981902
281726                  0.237115       0.0923242      0.000101831     8.25734e-05         0.197701        -0.94325     -7.33305e-05     7.49586e-05
                     6.97073e-06     0.000344704         0.101438      -0.0156145      0.000363119     -0.00013712         0.397637       -0.899586
                        0.197616       -0.943319     -7.73199e-05     4.84873e-06         0.252302      0.00887848      0.000336259    -0.000191656
                     -6.6693e-05     0.000199221         0.397515       -0.899543     -0.000129969    -6.26395e-05        0.0520985       0.0981254
281728                  0.237131       0.0923238      0.000101772     8.27114e-05         0.197428       -0.943303     -7.32557e-05     7.51144e-05
                     7.08353e-06       0.0003453         0.101299      -0.0156903      0.000363131    -0.000137911         0.397242       -0.899755
                        0.197342       -0.943372     -7.73048e-05     4.91547e-06         0.252321      0.00873997      0.000336498    -0.000191736
                    -6.64218e-05     0.000200172         0.397119       -0.899712     -0.000129711    -6.31163e-05        0.0520239       0.0980606
281730                  0.237147       0.0923234      0.000101712     8.28497e-05         0.197156       -0.943356     -7.31815e-05     7.52708e-05
                     7.19732e-06       0.0003459         0.101161      -0.0157663      0.000363143    -0.000138704         0.396846       -0.899925
                        0.197069       -0.943425     -7.72898e-05     4.98183e-06         0.252341      0.00860144      0.000336738    -0.000191818
                    -6.61474e-05     0.000201126         0.396722       -0.899881     -0.000129454    -6.35952e-05         0.051949       0.0979958
281732                  0.237163        0.092323      0.000101652     8.29884e-05         0.196883       -0.943408      -7.3108e-05     7.54277e-05
                      7.3121e-06     0.000346501         0.101022      -0.0158424      0.000363154    -0.000139498         0.396449       -0.900094
                        0.196795       -0.943478     -7.72749e-05     5.04781e-06          0.25236       0.0084629      0.000336978    -0.000191901
                      -6.587e-05     0.000202083         0.396325        -0.90005     -0.000129198    -6.40763e-05        0.0518737       0.0979312
281734                  0.237179       0.0923227      0.000101592     8.31273e-05         0.196611       -0.943461      -7.3035e-05     7.55851e-05
                     7.42788e-06     0.000347105         0.100883      -0.0159186      0.000363164    -0.000140294         0.396052       -0.900263
                        0.196521       -0.943531       -7.726e-05     5.11342e-06          0.25238      0.00832434       0.00033722    -0.000191986
                    -6.55896e-05     0.000203042         0.395928       -0.900219     -0.000128942    -6.45596e-05         0.051798       0.0978667
281736                  0.237194       0.0923223      0.000101532     8.32666e-05         0.196338       -0.943514     -7.29626e-05      7.5743e-05
                     7.54465e-06     0.000347711         0.100743      -0.0159949      0.000363175     -0.00014109         0.395655       -0.900432
                        0.196247       -0.943584     -7.72452e-05     5.17868e-06         0.252399      0.00818577      0.000337462    -0.000192073
                     -6.5306e-05     0.000204005          0.39553       -0.900388     -0.000128688     -6.5045e-05        0.0517219       0.0978022
281738                   0.23721       0.0923219      0.000101472     8.34061e-05         0.196066       -0.943566     -7.28908e-05     7.59015e-05
                     7.66242e-06      0.00034832         0.100603      -0.0160714      0.000363184    -0.000141887         0.395257       -0.900601
                        0.195974       -0.943637     -7.72304e-05     5.24358e-06         0.252418      0.00804718      0.000337704    -0.000192162
                    -6.50194e-05      0.00020497         0.395132       -0.900557     -0.000128434    -6.55326e-05        0.0516454       0.0977378
281740                  0.237226       0.0923214      0.000101412     8.35459e-05         0.195793       -0.943619     -7.28197e-05     7.60604e-05
                     7.78119e-06     0.000348931         0.100463      -0.0161479      0.000363193    -0.000142685         0.394859        -0.90077
                          0.1957        -0.94369     -7.72156e-05     5.30815e-06         0.252437      0.00790857      0.000337948    -0.000192252
                    -6.47298e-05     0.000205938         0.394733       -0.900725     -0.000128181    -6.60223e-05        0.0515685       0.0976735
281742                  0.237242        0.092321      0.000101352      8.3686e-05         0.195521       -0.943671     -7.27491e-05     7.62198e-05
                     7.90095e-06     0.000349545         0.100322      -0.0162246      0.000363203    -0.000143482          0.39446       -0.900938
                        0.195426       -0.943742     -7.72009e-05     5.37237e-06         0.252457      0.00776995      0.000338192    -0.000192344
                    -6.44371e-05      0.00020691         0.394334       -0.900894     -0.000127929    -6.65141e-05        0.0514913       0.0976093
281744                  0.237258       0.0923206      0.000101292     8.38264e-05         0.195248       -0.943723      -7.2679e-05     7.63797e-05
                     8.02171e-06     0.000350161         0.100181      -0.0163014      0.000363213    -0.000144274         0.394061       -0.901107
                        0.195152       -0.943795     -7.71863e-05     5.43627e-06         0.252476      0.00763131      0.000338437    -0.000192438
                    -6.41414e-05     0.000207885         0.393934       -0.901063     -0.000127678    -6.70079e-05        0.0514137       0.0975451
281746                  0.237273       0.0923202      0.000101231      8.3967e-05         0.194973       -0.943778     -7.26094e-05       7.654e-05
                     8.14345e-06     0.000350779         0.100039      -0.0163782       0.00036281    -0.000144986         0.393662       -0.901276
                        0.194878       -0.943847     -7.71717e-05     5.49985e-06         0.252495      0.00749037      0.000338683    -0.000192533
                    -6.38428e-05     0.000208863         0.393534       -0.901231     -0.000127428     -6.7503e-05        0.0513357       0.0974811
281748                  0.237289       0.0923198      0.000101171     8.41079e-05         0.194703       -0.943828     -7.25398e-05     7.67006e-05
                     8.26613e-06       0.0003514        0.0998972      -0.0164553      0.000363211    -0.000145922         0.393262       -0.901444
                        0.194604         -0.9439     -7.71571e-05     5.56312e-06         0.252513      0.00735402      0.000338928     -0.00019263
                    -6.35414e-05     0.000209845         0.393133       -0.901399     -0.000127192    -6.79904e-05        0.0512572       0.0974171
281750                  0.237305       0.0923194       0.00010111      8.4249e-05          0.19443        -0.94388      -7.2472e-05     7.68789e-05
                     8.38966e-06     0.000352024        0.0997549      -0.0165324      0.000363221    -0.000146718         0.392861       -0.901613
                         0.19433       -0.943952     -7.71426e-05     5.62609e-06         0.252532      0.00721533      0.000339148     -0.00019274
                    -6.32376e-05     0.000210831         0.392733       -0.901568     -0.000126931    -6.85093e-05        0.0511784       0.0973532
281752                  0.237321       0.0923189       0.00010105     8.43903e-05         0.194158       -0.943932     -7.24075e-05     7.70255e-05
                     8.51365e-06     0.000352652        0.0996123      -0.0166096      0.000363228    -0.000147522         0.392461       -0.901781
                        0.194057       -0.944005     -7.71281e-05     5.68877e-06         0.252551      0.00707663       0.00033943    -0.000192832
                    -6.29324e-05     0.000211823         0.392331       -0.901736     -0.000126682    -6.90105e-05        0.0510992       0.0972894
281754                  0.237336       0.0923185      0.000100989     8.45319e-05         0.193885       -0.943984     -7.23399e-05     7.71874e-05
                     8.63565e-06     0.000353284        0.0994692       -0.016687      0.000363233    -0.000148329          0.39206       -0.901949
                        0.193783       -0.944057     -7.71136e-05     5.75117e-06          0.25257      0.00693792      0.000339678    -0.000192933
                      -6.263e-05     0.000212827          0.39193       -0.901904     -0.000126435    -6.95153e-05        0.0510196       0.0972257
281756                  0.237352       0.0923179      0.000100928     8.46736e-05         0.193612       -0.944035     -7.22734e-05     7.73501e-05
                     8.74295e-06     0.000353901        0.0993258      -0.0167644      0.000363237    -0.000149138         0.391658       -0.902117
                        0.193508       -0.944109     -7.70992e-05     5.81331e-06         0.252588      0.00679919      0.000339928    -0.000193037
                    -6.24058e-05     0.000213905         0.391528       -0.902072     -0.000126189    -7.00227e-05        0.0509396       0.0971621
281758                  0.237368       0.0923176      0.000100867     8.48156e-05          0.19334       -0.944087     -7.22077e-05     7.75133e-05
                     8.89247e-06     0.000354527         0.099182       -0.016842      0.000363241    -0.000149948         0.391256       -0.902285
                        0.193235       -0.944161     -7.70847e-05      5.8752e-06         0.252607      0.00666045      0.000340178    -0.000193143
                    -6.19541e-05     0.000214695         0.391125        -0.90224     -0.000125944    -7.05324e-05        0.0508592       0.0970985
281760                  0.237384       0.0923172      0.000100806     8.49577e-05         0.193067       -0.944139     -7.21426e-05     7.76771e-05
                     9.02455e-06     0.000355167        0.0990378      -0.0169197      0.000363244     -0.00015076         0.390854       -0.902453
                        0.192961       -0.944213     -7.70703e-05     5.93686e-06         0.252625      0.00652169       0.00034043    -0.000193251
                    -6.16429e-05     0.000215741         0.390722       -0.902408     -0.000125699    -7.10445e-05        0.0507784       0.0970351
281762                    0.2374       0.0923168      0.000100745     8.50999e-05         0.192794        -0.94419     -7.20781e-05     7.78413e-05
                      9.1553e-06     0.000355807        0.0988933      -0.0169975      0.000363246    -0.000151573         0.390451       -0.902621
                        0.192687       -0.944265     -7.70558e-05     5.99834e-06         0.252643      0.00638292      0.000340683     -0.00019336
