! TOUCHSTONE file generated by CST MICROWAVE STUDIO
! Date and time: Tue Oct 14 17:38:12 2025
! Project name: Teste_Macro_Metasurface_Nanopilar.cst
! Parameters = {H=600; L_x=90; L_y=180; Lambda=1064; Max_L=200; Min_L=70; PathPara=1; Phi=0; Step_L=10; Theta=0; p=520; phaseX=180; phaseY=0}
! Header version: 2018
! Port assignment regex: !\s*Touchstone port\s*([0-9]+)\s*=\s*(CST MWS port|CST DS port)\s*([0-9]+|Zmin|Zmax)\s*\(\"(.*)\"\)(\s*mode\s*([0-9]+))?.*
! Touchstone port assignment:
! Touchstone port 1 = CST MWS port Zmax ("") mode 1
! Touchstone port 2 = CST MWS port Zmax ("") mode 2
! Touchstone port 3 = CST MWS port Zmin ("") mode 1
! Touchstone port 4 = CST MWS port Zmin ("") mode 2
! S-Parameters are not renormalized. Each port impedance will be approximated by the real part at minimum frequency. The values are described via the [Reference] keyword.
! Default impedance is overridden by [Reference]
[Version] 2.0
# GHz S RI R 376.73
[Number of Ports] 4
[Reference]
376.73 376.73 259.814 259.814 
[Number of Frequencies] 51
[Network Data]
281700                  0.190035        0.351271      0.000189853     -0.00073661          0.69636       -0.586168     -0.000464325    -0.000683706
                     7.99781e-05    -0.000629634       -0.0127453        0.100596      0.000224305     0.000991829        -0.892968       -0.430201
                        0.696337       -0.585539      0.000116279     0.000843254         0.315108        0.240756       0.00075522     0.000469275
                    -0.000391299    -0.000809625         -0.89328       -0.429874      0.000598809     0.000436739        -0.069771       0.0736508
281702                  0.190109        0.351326      0.000189806     -0.00073664         0.696105       -0.586412     -0.000464659    -0.000683676
                     8.01059e-05    -0.000629471       -0.0127348        0.100616      0.000224791     0.000991649        -0.893097       -0.429927
                        0.696082       -0.585783      0.000116609     0.000843358         0.315337        0.240592      0.000755678     0.000468769
                     -0.00039187    -0.000809677        -0.893409         -0.4296      0.000599233     0.000436576       -0.0697487       0.0736981
281704                  0.190183        0.351382      0.000189759     -0.00073667         0.695849       -0.586656     -0.000464993    -0.000683645
                     8.02339e-05    -0.000629308       -0.0127242        0.100637      0.000225276     0.000991468        -0.893226       -0.429653
                        0.695827       -0.586027      0.000116938     0.000843462         0.315567        0.240428      0.000756135     0.000468262
                    -0.000392441    -0.000809728        -0.893538       -0.429327      0.000599656     0.000436412       -0.0697263       0.0737453
281706                  0.190257        0.351437      0.000189712      -0.0007367         0.695594         -0.5869     -0.000465328    -0.000683615
                     8.03623e-05    -0.000629145       -0.0127137        0.100657      0.000225762     0.000991287        -0.893355       -0.429379
                        0.695572       -0.586271      0.000117267     0.000843566         0.315796        0.240264      0.000756592     0.000467755
                    -0.000393011    -0.000809778        -0.893667       -0.429053      0.000600079     0.000436247       -0.0697039       0.0737926
281708                  0.190332        0.351492      0.000189665     -0.00073673         0.695338       -0.587143     -0.000465662    -0.000683584
                      8.0491e-05    -0.000628983       -0.0127031        0.100678      0.000226247     0.000991106        -0.893484       -0.429106
                        0.695317       -0.586515      0.000117597     0.000843669         0.316026          0.2401      0.000757049     0.000467247
                    -0.000393582    -0.000809829        -0.893796       -0.428779      0.000600502     0.000436082       -0.0696815       0.0738398
281710                  0.190406        0.351548      0.000189618    -0.000736761         0.695082       -0.587387     -0.000465997    -0.000683553
                     8.06201e-05    -0.000628821       -0.0126925        0.100699      0.000226733     0.000990925        -0.893613       -0.428832
                        0.695062       -0.586758      0.000117927     0.000843773         0.316255        0.239935      0.000757505     0.000466739
                    -0.000394154    -0.000809878        -0.893925       -0.428506      0.000600924     0.000435917       -0.0696591       0.0738871
281712                   0.19048        0.351603      0.000189571    -0.000736791         0.694827       -0.587631     -0.000466332    -0.000683522
                     8.07494e-05     -0.00062866        -0.012682        0.100719      0.000227218     0.000990745        -0.893741       -0.428558
                        0.694807       -0.587002      0.000118257     0.000843877         0.316484        0.239771      0.000757961      0.00046623
                    -0.000394725    -0.000809927        -0.894054       -0.428232      0.000601347     0.000435751       -0.0696366       0.0739343
281714                  0.190555        0.351659      0.000189525    -0.000736821         0.694571       -0.587874     -0.000466666     -0.00068349
                     8.08791e-05    -0.000628499       -0.0126714         0.10074      0.000227704     0.000990564         -0.89387       -0.428284
                        0.694551       -0.587245      0.000118587      0.00084398         0.316714        0.239606      0.000758417     0.000465721
                    -0.000395297    -0.000809976        -0.894182       -0.427958      0.000601769     0.000435584       -0.0696142       0.0739815
281716                  0.190629        0.351714      0.000189478    -0.000736852         0.694315       -0.588117     -0.000467001    -0.000683458
                     8.10091e-05    -0.000628339       -0.0126608         0.10076       0.00022819     0.000990383        -0.893998        -0.42801
                        0.694296       -0.587488      0.000118917     0.000844084         0.316943        0.239441      0.000758872     0.000465211
                    -0.000395868    -0.000810024        -0.894311       -0.427684      0.000602191     0.000435416       -0.0695916       0.0740288
281718                  0.190704         0.35177      0.000189432    -0.000736883         0.694058       -0.588361     -0.000467336    -0.000683425
                     8.11394e-05    -0.000628178       -0.0126502        0.100781      0.000228675     0.000990203        -0.894127       -0.427736
                         0.69404       -0.587732      0.000119248     0.000844187         0.317172        0.239275      0.000759327       0.0004647
                    -0.000396441    -0.000810072        -0.894439        -0.42741      0.000602613     0.000435248       -0.0695691        0.074076
281720                  0.190778        0.351825      0.000189385    -0.000736913         0.693802       -0.588604      -0.00046767    -0.000683393
                       8.127e-05    -0.000628019       -0.0126397        0.100801      0.000229161     0.000990022        -0.894255       -0.427462
                        0.693784       -0.587975      0.000119578     0.000844291         0.317401         0.23911      0.000759781     0.000464189
                    -0.000397013    -0.000810119        -0.894568       -0.427136      0.000603034     0.000435079       -0.0695465       0.0741232
281722                  0.190853        0.351881      0.000189339    -0.000736944         0.693546       -0.588847     -0.000468005    -0.000683359
                      8.1401e-05    -0.000627859       -0.0126291        0.100822      0.000229646     0.000989842        -0.894383       -0.427188
                        0.693528       -0.588218      0.000119909     0.000844394          0.31763        0.238944      0.000760234     0.000463676
                    -0.000397585    -0.000810166        -0.894696       -0.426862      0.000603456      0.00043491       -0.0695239       0.0741704
281724                  0.190927        0.351936      0.000189293    -0.000736975         0.693289        -0.58909     -0.000468339    -0.000683325
                     8.15323e-05    -0.000627701       -0.0126185        0.100842      0.000230132     0.000989662        -0.894511       -0.426914
                        0.693272       -0.588461       0.00012024     0.000844498         0.317859        0.238778      0.000760685     0.000463161
                    -0.000398158    -0.000810212        -0.894824       -0.426588      0.000603877      0.00043474       -0.0695012       0.0742177
281726                  0.191002        0.351992      0.000189247    -0.000737006         0.693032       -0.589333     -0.000468672     -0.00068329
                     8.16639e-05    -0.000627542       -0.0126079        0.100863      0.000230617     0.000989481         -0.89464        -0.42664
                        0.693016       -0.588704      0.000120571     0.000844601         0.318088        0.238612      0.000761131     0.000462639
                    -0.000398731    -0.000810258        -0.894952       -0.426314      0.000604299     0.000434569       -0.0694786       0.0742649
281728                  0.191077        0.352047      0.000189201    -0.000737037         0.692775       -0.589576     -0.000469003    -0.000683253
                     8.17958e-05    -0.000627384       -0.0125973        0.100883      0.000231103     0.000989301        -0.894767       -0.426368
                         0.69276       -0.588946      0.000120902     0.000844705         0.318317        0.238446      0.000761566     0.000462059
                    -0.000399304    -0.000810304        -0.895081        -0.42604       0.00060472     0.000434398       -0.0694563       0.0743127
281730                  0.191152        0.352103      0.000189155    -0.000737068         0.692519       -0.589818     -0.000469327    -0.000683213
                     8.19281e-05    -0.000627226       -0.0125867        0.100904      0.000231588     0.000989121        -0.894895       -0.426091
                        0.692504       -0.589189      0.000121233     0.000844808         0.318546         0.23828      0.000762127     0.000461646
                    -0.000399877    -0.000810348        -0.895208       -0.425765      0.000605141     0.000434226       -0.0694331       0.0743592
281732                  0.191226        0.352159      0.000189109    -0.000737099         0.692261       -0.590061     -0.000469604    -0.000683172
                     8.20606e-05    -0.000627069        -0.012576        0.100924      0.000232074     0.000988941        -0.895023       -0.425817
                        0.692247       -0.589431      0.000121565     0.000844911         0.318775        0.238113      0.000762542     0.000461132
                    -0.000400451    -0.000810393        -0.895336       -0.425491      0.000605561     0.000434053       -0.0694103       0.0744064
281734                  0.191301        0.352214      0.000189063    -0.000737131         0.692004       -0.590303     -0.000470041    -0.000683257
                     8.21935e-05    -0.000626912       -0.0125654        0.100945      0.000232559     0.000988761         -0.89515       -0.425542
                         0.69199       -0.589674      0.000121896     0.000845014         0.319004        0.237946      0.000762986     0.000460615
                    -0.000401024    -0.000810437        -0.895464       -0.425217      0.000605982     0.000433879       -0.0693875       0.0744536
281736                  0.191376         0.35227      0.000189017    -0.000737162         0.691747       -0.590546      -0.00047038    -0.000683164
                     8.23268e-05    -0.000626756       -0.0125548        0.100965      0.000233045     0.000988581        -0.895278       -0.425268
                        0.691734       -0.589916      0.000122228     0.000845118         0.319233        0.237779      0.000763435     0.000460099
                    -0.000401598     -0.00081048        -0.895592       -0.424942      0.000606402     0.000433705       -0.0693647       0.0745008
281738                  0.191451        0.352325      0.000188971    -0.000737194          0.69149       -0.590788     -0.000470712    -0.000683116
                     8.24603e-05    -0.000626599       -0.0125442        0.100986       0.00023353     0.000988401        -0.895406       -0.424994
                        0.691477       -0.590158       0.00012256     0.000845221         0.319461        0.237612      0.000763886     0.000459584
                    -0.000402172    -0.000810523         -0.89572       -0.424668      0.000606822      0.00043353       -0.0693419        0.074548
281740                  0.191526        0.352381      0.000188926    -0.000737225         0.691232        -0.59103     -0.000471045    -0.000683077
                     8.25942e-05    -0.000626444       -0.0125335        0.101006      0.000234015     0.000988222        -0.895533       -0.424719
                         0.69122         -0.5904      0.000122892     0.000845324          0.31969        0.237445      0.000764338     0.000459068
                    -0.000402747    -0.000810565        -0.895847       -0.424394      0.000607242     0.000433355        -0.069319       0.0745952
281742                  0.191601        0.352437       0.00018888    -0.000737257         0.690974       -0.591272      -0.00047138    -0.000683039
                     8.27284e-05    -0.000626288       -0.0125229        0.101027      0.000234501     0.000988042        -0.895661       -0.424445
                        0.690963       -0.590642      0.000123224     0.000845427         0.319919        0.237277      0.000764789     0.000458552
                    -0.000403321    -0.000810607        -0.895975       -0.424119      0.000607662     0.000433178       -0.0692961       0.0746424
281744                  0.191676        0.352492      0.000188835    -0.000737289         0.690716       -0.591514     -0.000471716    -0.000683002
                     8.28629e-05    -0.000626134       -0.0125123        0.101047      0.000234986     0.000987863        -0.895788        -0.42417
                        0.690705       -0.590884      0.000123557      0.00084553         0.320147        0.237109      0.000765241     0.000458035
                    -0.000403896    -0.000810649        -0.896102       -0.423845      0.000608082     0.000433001       -0.0692731       0.0746896
281746                  0.191751        0.352548      0.000188789    -0.000737321         0.690459       -0.591756     -0.000472052    -0.000682965
                     8.29977e-05    -0.000625979       -0.0125016        0.101068      0.000235471     0.000987683        -0.895915       -0.423896
                        0.690448       -0.591126      0.000123889     0.000845633         0.320376        0.236941      0.000765693     0.000457518
                    -0.000404471     -0.00081069         -0.89623        -0.42357      0.000608502     0.000432824       -0.0692501       0.0747367
281748                  0.191826        0.352603      0.000188744    -0.000737352           0.6902       -0.591998     -0.000472389    -0.000682929
                     8.31329e-05    -0.000625825        -0.012491        0.101088      0.000235956     0.000987504        -0.896042       -0.423621
                         0.69019       -0.591368      0.000124222     0.000845736         0.320604        0.236773      0.000766145     0.000457001
                    -0.000405046     -0.00081073        -0.896357       -0.423295      0.000608921     0.000432645       -0.0692271       0.0747839
281750                  0.191901        0.352659      0.000188698    -0.000737385         0.689942       -0.592239     -0.000472726    -0.000682892
                     8.32683e-05    -0.000625671       -0.0124803        0.101109      0.000236442     0.000987325        -0.896169       -0.423346
                        0.689933       -0.591609      0.000124555     0.000845839         0.320833        0.236605      0.000766596     0.000456483
                    -0.000405621     -0.00081077        -0.896484       -0.423021       0.00060934     0.000432466       -0.0692041       0.0748311
281752                  0.191976        0.352715      0.000188653    -0.000737417         0.689684       -0.592481     -0.000473063    -0.000682856
                     8.34041e-05    -0.000625518       -0.0124696        0.101129      0.000236927     0.000987146        -0.896296       -0.423071
                        0.689675       -0.591851      0.000124888     0.000845942         0.321061        0.236436      0.000767048     0.000455965
                    -0.000406197     -0.00081081        -0.896611       -0.422746      0.000609759     0.000432285        -0.069181       0.0748782
281754                  0.192051         0.35277      0.000188608    -0.000737449         0.689426       -0.592722       -0.0004734    -0.000682819
                     8.35403e-05    -0.000625365        -0.012459        0.101149      0.000237412     0.000986969        -0.896423       -0.422797
                        0.689417       -0.592092      0.000125221     0.000846045         0.321289        0.236268      0.000767499     0.000455447
                    -0.000406773    -0.000810849        -0.896738       -0.422471      0.000610179     0.000432104       -0.0691579       0.0749254
281756                  0.192127        0.352826      0.000188563    -0.000737481         0.689167       -0.592963     -0.000473737    -0.000682782
                     8.36767e-05    -0.000625213       -0.0124483         0.10117      0.000237895     0.000986791         -0.89655       -0.422522
                        0.689159       -0.592334      0.000125554     0.000846147         0.321518        0.236099      0.000767951     0.000454928
                    -0.000407349    -0.000810887        -0.896865       -0.422197      0.000610598     0.000431922       -0.0691348       0.0749725
281758                  0.192202        0.352882      0.000188518    -0.000737514         0.688908       -0.593205     -0.000474075    -0.000682745
                     8.38135e-05    -0.000625061       -0.0124376         0.10119      0.000238379     0.000986611        -0.896677       -0.422247
                        0.688901       -0.592575      0.000125888      0.00084625         0.321746        0.235929      0.000768402     0.000454409
                    -0.000407925    -0.000810926        -0.896992       -0.421922      0.000611018     0.000431739       -0.0691116       0.0750197
281760                  0.192277        0.352938      0.000188473    -0.000737546          0.68865       -0.593446     -0.000474412    -0.000682707
                     8.39506e-05    -0.000624909       -0.0124269        0.101211      0.000238864     0.000986432        -0.896804       -0.421972
                        0.688643       -0.592816      0.000126222     0.000846353         0.321974         0.23576      0.000768852     0.000453889
                    -0.000408501    -0.000810963        -0.897119       -0.421647      0.000611438     0.000431557       -0.0690885       0.0750668
281762                  0.192353        0.352993      0.000188428    -0.000737579         0.688391       -0.593687      -0.00047475     -0.00068267
                      8.4088e-05    -0.000624758       -0.0124162        0.101231      0.000239349     0.000986254         -0.89693       -0.421697
                        0.688384       -0.593057      0.000126555     0.000846456         0.322202        0.235591      0.000769303     0.000453369
