! TOUCHSTONE file generated by CST MICROWAVE STUDIO
! Date and time: Tue Oct 14 17:38:42 2025
! Project name: Teste_Macro_Metasurface_Nanopilar.cst
! Parameters = {H=600; L_x=140; L_y=80; Lambda=1064; Max_L=200; Min_L=70; PathPara=1; Phi=0; Step_L=10; Theta=0; p=520; phaseX=180; phaseY=0}
! Header version: 2018
! Port assignment regex: !\s*Touchstone port\s*([0-9]+)\s*=\s*(CST MWS port|CST DS port)\s*([0-9]+|Zmin|Zmax)\s*\(\"(.*)\"\)(\s*mode\s*([0-9]+))?.*
! Touchstone port assignment:
! Touchstone port 1 = CST MWS port Zmax ("") mode 1
! Touchstone port 2 = CST MWS port Zmax ("") mode 2
! Touchstone port 3 = CST MWS port Zmin ("") mode 1
! Touchstone port 4 = CST MWS port Zmin ("") mode 2
! S-Parameters are not renormalized. Each port impedance will be approximated by the real part at minimum frequency. The values are described via the [Reference] keyword.
! Default impedance is overridden by [Reference]
[Version] 2.0
# GHz S RI R 376.73
[Number of Ports] 4
[Reference]
376.73 376.73 259.814 259.814 
[Number of Frequencies] 51
[Network Data]
281700               -0.00770527      -0.0809881      0.000589122      0.00036239        -0.222098       -0.970851     -0.000314513     0.000295766
                      0.00058736     0.000260779        0.0778036       -0.148458       0.00029704     0.000259652         -0.38492        0.897431
                       -0.222255       -0.971055      0.000303008     0.000272501        0.0281624       0.0765457     -0.000535744     0.000300958
                    -0.000221567     0.000225674        -0.384946        0.897481     -0.000594038     0.000170034       -0.0558711        0.158228
281702                -0.0077178       -0.080982      0.000589305      0.00036212        -0.222342       -0.970795     -0.000314433     0.000295892
                     0.000587582     0.000260542        0.0777593       -0.148457      0.000297131     0.000259664         -0.38456        0.897589
                       -0.222498       -0.970999       0.00030313     0.000272451        0.0281869       0.0765315     -0.000535779     0.000301033
                    -0.000221456      0.00022572        -0.384587        0.897638      -0.00059414     0.000170153       -0.0557743         0.15824
281704               -0.00773033      -0.0809759      0.000589488     0.000361849        -0.222586        -0.97074     -0.000314353     0.000296018
                     0.000587804     0.000260306         0.077715       -0.148456      0.000297221     0.000259676          -0.3842        0.897747
                       -0.222742       -0.970944      0.000303252     0.000272402        0.0282113       0.0765174     -0.000535813     0.000301108
                    -0.000221346     0.000225765        -0.384227        0.897796     -0.000594242     0.000170272       -0.0556775        0.158252
281706               -0.00774286      -0.0809698      0.000589671     0.000361579         -0.22283       -0.970684     -0.000314273     0.000296143
                     0.000588026     0.000260069        0.0776706       -0.148455       0.00029731     0.000259688        -0.383841        0.897904
                       -0.222986       -0.970889      0.000303374     0.000272352        0.0282358       0.0765032     -0.000535847     0.000301184
                    -0.000221236      0.00022581        -0.383867        0.897953     -0.000594344     0.000170391       -0.0555807        0.158264
281708                -0.0077554      -0.0809637      0.000589854     0.000361309        -0.223074       -0.970629     -0.000314193     0.000296269
                     0.000588247     0.000259832        0.0776263       -0.148455      0.000297398     0.000259699        -0.383481        0.898062
                       -0.223229       -0.970833      0.000303496     0.000272302        0.0282602        0.076489     -0.000535881     0.000301259
                    -0.000221126     0.000225855        -0.383507         0.89811     -0.000594445      0.00017051       -0.0554839        0.158276
281710               -0.00776792      -0.0809576      0.000590037     0.000361039        -0.223318       -0.970573     -0.000314113     0.000296395
                     0.000588469     0.000259595         0.077582       -0.148454      0.000297487     0.000259708        -0.383121        0.898219
                       -0.223473       -0.970778      0.000303618     0.000272252        0.0282846       0.0764748     -0.000535915     0.000301334
                    -0.000221017     0.000225901        -0.383147        0.898268     -0.000594547      0.00017063       -0.0553871        0.158287
281712               -0.00778045      -0.0809515      0.000590219     0.000360769        -0.223562       -0.970518     -0.000314033     0.000296521
                     0.000588691     0.000259358        0.0775377       -0.148453      0.000297575     0.000259717         -0.38276        0.898376
                       -0.223716       -0.970722       0.00030374     0.000272202         0.028309       0.0764607     -0.000535949      0.00030141
                    -0.000220907     0.000225946        -0.382787        0.898425     -0.000594648      0.00017075       -0.0552903        0.158299
281714               -0.00779298      -0.0809454      0.000590402     0.000360499        -0.223806       -0.970462     -0.000313953     0.000296646
                     0.000588913     0.000259121        0.0774933       -0.148452      0.000297665     0.000259725          -0.3824        0.898533
                        -0.22396       -0.970666      0.000303862     0.000272152        0.0283334       0.0764465     -0.000535983     0.000301485
                    -0.000220798      0.00022599        -0.382427        0.898581      -0.00059475      0.00017087       -0.0551935        0.158311
281716               -0.00780551      -0.0809393      0.000590584      0.00036023         -0.22405       -0.970406     -0.000313873     0.000296772
                     0.000589134     0.000258884         0.077449       -0.148451      0.000297756     0.000259733         -0.38204         0.89869
                       -0.224204       -0.970611      0.000303984     0.000272102        0.0283578       0.0764323     -0.000536016     0.000301561
                    -0.000220688     0.000226035        -0.382067        0.898738     -0.000594851      0.00017099       -0.0550968        0.158322
281718               -0.00781804      -0.0809332      0.000590765      0.00035996        -0.224294        -0.97035     -0.000313793     0.000296898
                     0.000589356     0.000258647        0.0774047        -0.14845      0.000297847     0.000259741         -0.38168        0.898847
                       -0.224447       -0.970555      0.000304107     0.000272051        0.0283822       0.0764181      -0.00053605     0.000301637
                    -0.000220579      0.00022608        -0.381707        0.898895     -0.000594952     0.000171111           -0.055        0.158334
281720               -0.00783056      -0.0809271      0.000590947     0.000359691        -0.224538       -0.970294     -0.000313713     0.000297024
                     0.000589578     0.000258409        0.0773603        -0.14845      0.000297939      0.00025975        -0.381319        0.899003
                       -0.224691       -0.970499      0.000304229        0.000272        0.0284066       0.0764038     -0.000536083     0.000301712
                     -0.00022047     0.000226125        -0.381346        0.899051     -0.000595052     0.000171232       -0.0549032        0.158345
281722               -0.00784309      -0.0809209      0.000591128     0.000359422        -0.224782       -0.970238     -0.000313633      0.00029715
                     0.000589799     0.000258172         0.077316       -0.148449      0.000298031     0.000259758        -0.380959        0.899159
                       -0.224934       -0.970443      0.000304351      0.00027195        0.0284309       0.0763896     -0.000536117     0.000301788
                    -0.000220361     0.000226169        -0.380986        0.899207     -0.000595153     0.000171353       -0.0548065        0.158356
281724               -0.00785561      -0.0809148      0.000591309     0.000359153        -0.225026       -0.970182     -0.000313553     0.000297275
                     0.000590021     0.000257934        0.0772716       -0.148448      0.000298123     0.000259767        -0.380598        0.899316
                       -0.225178       -0.970387      0.000304473     0.000271899        0.0284553       0.0763754      -0.00053615     0.000301864
                    -0.000220252     0.000226214        -0.380625        0.899364     -0.000595253     0.000171474       -0.0547097        0.158367
281726               -0.00786814      -0.0809087       0.00059149     0.000358884         -0.22527       -0.970126     -0.000313472     0.000297401
                     0.000590243     0.000257696        0.0772273       -0.148447      0.000298215     0.000259777        -0.380238        0.899472
                       -0.225422       -0.970331      0.000304595     0.000271848        0.0284796       0.0763612     -0.000536183      0.00030194
                    -0.000220143     0.000226258        -0.380265         0.89952     -0.000595354     0.000171595        -0.054613        0.158379
281728               -0.00788066      -0.0809026      0.000591671     0.000358615        -0.225513        -0.97007     -0.000313392     0.000297527
                     0.000590464     0.000257459        0.0771829       -0.148446      0.000298308     0.000259786        -0.379877        0.899628
                       -0.225665       -0.970275      0.000304717     0.000271796         0.028504       0.0763469     -0.000536216     0.000302016
                    -0.000220035     0.000226303        -0.379904        0.899675     -0.000595454     0.000171716       -0.0545163         0.15839
281730               -0.00789319      -0.0808965      0.000591851     0.000358346        -0.225757       -0.970014     -0.000313312     0.000297653
                     0.000590685     0.000257221        0.0771386       -0.148445        0.0002984     0.000259795        -0.379516        0.899783
                       -0.225909       -0.970219      0.000304839     0.000271745        0.0285283       0.0763327     -0.000536249     0.000302092
                    -0.000219926     0.000226347        -0.379544        0.899831     -0.000595554     0.000171837       -0.0544195        0.158401
281732               -0.00790571      -0.0808904      0.000592032     0.000358077        -0.226001       -0.969958     -0.000313232     0.000297779
                     0.000590907     0.000256982        0.0770942       -0.148444      0.000298492     0.000259805        -0.379156        0.899939
                       -0.226152       -0.970163      0.000304962     0.000271693        0.0285527       0.0763184     -0.000536281     0.000302168
                    -0.000219818     0.000226391        -0.379183        0.899987     -0.000595653     0.000171959       -0.0543228        0.158412
281734               -0.00791823      -0.0808842      0.000592211     0.000357808        -0.226245       -0.969901     -0.000313152     0.000297905
                     0.000591128     0.000256744        0.0770499       -0.148443      0.000298585     0.000259814        -0.378795        0.900095
                       -0.226396       -0.970107      0.000305084     0.000271642         0.028577       0.0763041     -0.000536314     0.000302244
                     -0.00021971     0.000226436        -0.378822        0.900142     -0.000595753      0.00017208       -0.0542261        0.158423
281736               -0.00793075      -0.0808781      0.000592391      0.00035754        -0.226489       -0.969845     -0.000313071     0.000298031
                      0.00059135     0.000256506        0.0770055       -0.148442      0.000298677     0.000259824        -0.378434         0.90025
                       -0.226639        -0.97005      0.000305206      0.00027159        0.0286013       0.0762899     -0.000536347      0.00030232
                    -0.000219601      0.00022648        -0.378461        0.900297     -0.000595852     0.000172202       -0.0541294        0.158433
281738               -0.00794327       -0.080872      0.000592571     0.000357272        -0.226733       -0.969788     -0.000312991     0.000298157
                     0.000591571     0.000256268        0.0769611       -0.148441      0.000298769     0.000259834        -0.378073        0.900405
                       -0.226882       -0.969994      0.000305328     0.000271538        0.0286256       0.0762756     -0.000536379     0.000302396
                    -0.000219493     0.000226524          -0.3781        0.900452     -0.000595951     0.000172323       -0.0540327        0.158444
281740               -0.00795579      -0.0808659       0.00059275     0.000357003        -0.226976       -0.969732     -0.000312911     0.000298283
                     0.000591792     0.000256029        0.0769168        -0.14844      0.000298862     0.000259843        -0.377712         0.90056
                       -0.227126       -0.969937       0.00030545     0.000271486        0.0286499       0.0762613     -0.000536412     0.000302472
                    -0.000219386     0.000226568        -0.377739        0.900607      -0.00059605     0.000172445        -0.053936        0.158455
281742               -0.00796831      -0.0808597      0.000592929     0.000356735         -0.22722       -0.969675      -0.00031283     0.000298409
                     0.000592013      0.00025579        0.0768724       -0.148439      0.000298954     0.000259853        -0.377351        0.900715
                       -0.227369       -0.969881      0.000305573     0.000271433        0.0286742        0.076247     -0.000536444     0.000302548
                    -0.000219278     0.000226612        -0.377378        0.900762     -0.000596149     0.000172567       -0.0538394        0.158466
281744               -0.00798083      -0.0808536      0.000593108     0.000356467        -0.227464       -0.969619      -0.00031275     0.000298535
                     0.000592234     0.000255552        0.0768281       -0.148438      0.000299046     0.000259863         -0.37699         0.90087
                       -0.227613       -0.969824      0.000305695     0.000271381        0.0286985       0.0762327     -0.000536476     0.000302625
                     -0.00021917     0.000226656        -0.377017        0.900917     -0.000596248     0.000172688       -0.0537427        0.158476
281746               -0.00799334      -0.0808475      0.000593286     0.000356199        -0.227708       -0.969562      -0.00031267     0.000298661
                     0.000592455     0.000255313        0.0767837       -0.148437      0.000299139     0.000259873        -0.376628        0.901025
                       -0.227856       -0.969768      0.000305817     0.000271328        0.0287228       0.0762184     -0.000536508     0.000302701
                    -0.000219062       0.0002267        -0.376656        0.901072     -0.000596346      0.00017281        -0.053646        0.158487
281748               -0.00800586      -0.0808413      0.000593464     0.000355931        -0.227951       -0.969505     -0.000312589     0.000298787
                     0.000592676     0.000255074        0.0767393       -0.148436      0.000299231     0.000259882        -0.376267        0.901179
                         -0.2281       -0.969711      0.000305939     0.000271275        0.0287471       0.0762041      -0.00053654     0.000302777
                    -0.000218955     0.000226744        -0.376295        0.901226     -0.000596445     0.000172931       -0.0535494        0.158497
281750               -0.00801838      -0.0808352      0.000593643     0.000355663        -0.228195       -0.969448     -0.000312509     0.000298914
                     0.000592896     0.000254835        0.0766949       -0.148435      0.000299324     0.000259892        -0.375906        0.901334
                       -0.228343       -0.969654      0.000306062     0.000271222        0.0287714       0.0761898     -0.000536572     0.000302853
                    -0.000218848     0.000226787        -0.375933         0.90138     -0.000596543     0.000173053       -0.0534527        0.158508
281752               -0.00803089      -0.0808291       0.00059382     0.000355395        -0.228439       -0.969391     -0.000312429      0.00029904
                     0.000593117     0.000254595        0.0766506       -0.148433      0.000299416     0.000259902        -0.375544        0.901488
                       -0.228586       -0.969597      0.000306184     0.000271169        0.0287956       0.0761754     -0.000536604     0.000302929
                     -0.00021874     0.000226831        -0.375572        0.901534     -0.000596642     0.000173174       -0.0533561        0.158518
281754               -0.00804341      -0.0808229      0.000593998     0.000355127        -0.228683       -0.969334     -0.000312348     0.000299166
                     0.000593337     0.000254356        0.0766062       -0.148432      0.000299509     0.000259912        -0.375183        0.901642
                        -0.22883       -0.969541      0.000306306     0.000271116        0.0288199       0.0761611     -0.000536636     0.000303006
                    -0.000218633     0.000226875        -0.375211        0.901688      -0.00059674     0.000173296       -0.0532595        0.158528
281756               -0.00805592      -0.0808168      0.000594175     0.000354859        -0.228926       -0.969277     -0.000312268     0.000299293
                     0.000593558     0.000254117        0.0765618       -0.148431      0.000299601     0.000259921        -0.374821        0.901796
                       -0.229073       -0.969484      0.000306429     0.000271062        0.0288442       0.0761468     -0.000536668     0.000303082
                    -0.000218526     0.000226918        -0.374849        0.901842     -0.000596838     0.000173418       -0.0531628        0.158538
281758               -0.00806843      -0.0808106      0.000594352     0.000354592         -0.22917        -0.96922     -0.000312187     0.000299419
                     0.000593778     0.000253877        0.0765174        -0.14843      0.000299694     0.000259931        -0.374459         0.90195
                       -0.229316       -0.969427      0.000306551     0.000271009        0.0288684       0.0761324       -0.0005367     0.000303158
                    -0.000218419     0.000226962        -0.374487        0.901996     -0.000596936     0.000173539       -0.0530662        0.158549
281760               -0.00808095      -0.0808045      0.000594529     0.000354324        -0.229414       -0.969163     -0.000312107     0.000299545
                     0.000593997     0.000253638         0.076473       -0.148429      0.000299786     0.000259941        -0.374098        0.902103
                        -0.22956        -0.96937      0.000306673     0.000270955        0.0288926       0.0761181     -0.000536731     0.000303235
                    -0.000218312     0.000227006        -0.374126         0.90215     -0.000597034     0.000173661       -0.0529696        0.158559
281762               -0.00809346      -0.0807983      0.000594705     0.000354057        -0.229657       -0.969106     -0.000312026     0.000299672
                     0.000594216     0.000253398        0.0764286       -0.148428      0.000299879      0.00025995        -0.373736        0.902257
                       -0.229803       -0.969313      0.000306795     0.000270901        0.0289169       0.0761037     -0.000536763     0.000303311
