! TOUCHSTONE file generated by CST MICROWAVE STUDIO
! Date and time: Tue Oct 14 17:39:32 2025
! Project name: Teste_Macro_Metasurface_Nanopilar.cst
! Parameters = {H=600; L_x=200; L_y=200; Lambda=1064; Max_L=200; Min_L=70; PathPara=1; Phi=0; Step_L=10; Theta=0; p=520; phaseX=180; phaseY=0}
! Header version: 2018
! Port assignment regex: !\s*Touchstone port\s*([0-9]+)\s*=\s*(CST MWS port|CST DS port)\s*([0-9]+|Zmin|Zmax)\s*\(\"(.*)\"\)(\s*mode\s*([0-9]+))?.*
! Touchstone port assignment:
! Touchstone port 1 = CST MWS port Zmax ("") mode 1
! Touchstone port 2 = CST MWS port Zmax ("") mode 2
! Touchstone port 3 = CST MWS port Zmin ("") mode 1
! Touchstone port 4 = CST MWS port Zmin ("") mode 2
! S-Parameters are not renormalized. Each port impedance will be approximated by the real part at minimum frequency. The values are described via the [Reference] keyword.
! Default impedance is overridden by [Reference]
[Version] 2.0
# GHz S RI R 376.73
[Number of Ports] 4
[Reference]
376.73 376.73 259.814 259.814 
[Number of Frequencies] 51
[Network Data]
281700                   0.44874        0.127679     -0.000469164    -3.84307e-05        -0.162344       -0.865369      0.000399057    -0.000317181
                    -0.000428623    -3.64807e-05         0.448342        0.128092      0.000441572    -0.000349161        -0.162739       -0.865602
                       -0.162091        -0.86517      0.000461751    -0.000252512         0.368632       -0.282755     -3.40346e-05     0.000354093
                     0.000454796    -0.000305831        -0.162393       -0.865271     -7.00073e-05      0.00052746         0.367803       -0.283386
281702                  0.448771        0.127653     -0.000469284    -3.83518e-05        -0.162597       -0.865308      0.000398976    -0.000317224
                    -0.000428644    -3.64044e-05         0.448373        0.128067      0.000441622    -0.000349282        -0.162993       -0.865541
                       -0.162344       -0.865109      0.000462038    -0.000252778         0.368503       -0.282962     -3.36599e-05     0.000353807
                     0.000454939    -0.000305939        -0.162646       -0.865209     -6.97312e-05     0.000527672         0.367673       -0.283593
281704                  0.448803        0.127628     -0.000469402     -3.8273e-05         -0.16285       -0.865247      0.000398895    -0.000317267
                    -0.000428665     -3.6328e-05         0.448405        0.128041      0.000441672    -0.000349404        -0.163247        -0.86548
                       -0.162597       -0.865048      0.000462325    -0.000253044         0.368373       -0.283168     -3.32854e-05     0.000353521
                     0.000455075    -0.000306042        -0.162898       -0.865148     -6.94551e-05     0.000527883         0.367543       -0.283799
281706                  0.448834        0.127602     -0.000469515    -3.81962e-05        -0.163104       -0.865186      0.000398813     -0.00031731
                    -0.000428686    -3.62515e-05         0.448437        0.128016      0.000441722    -0.000349525        -0.163501       -0.865419
                       -0.162851       -0.864987      0.000462613    -0.000253311         0.368243       -0.283375     -3.29113e-05     0.000353235
                     0.000455203    -0.000306144        -0.163151       -0.865086     -6.91789e-05     0.000528094         0.367413       -0.284005
281708                  0.448866        0.127577     -0.000469624    -3.81257e-05        -0.163357       -0.865125      0.000398731    -0.000317353
                    -0.000428707    -3.61748e-05         0.448468         0.12799      0.000441772    -0.000349647        -0.163755       -0.865358
                       -0.163104       -0.864926      0.000462901    -0.000253578         0.368113       -0.283581     -3.25375e-05     0.000352948
                     0.000455327    -0.000306245        -0.163403       -0.865024     -6.89027e-05     0.000528304         0.367283       -0.284211
281710                  0.448897        0.127551     -0.000469735     -3.8065e-05         -0.16361       -0.865064      0.000398648    -0.000317397
                    -0.000428728    -3.60979e-05           0.4485        0.127965      0.000441822    -0.000349768        -0.164009       -0.865297
                       -0.163357       -0.864866       0.00046319    -0.000253846         0.367983       -0.283787     -3.21639e-05     0.000352662
                     0.000455447    -0.000306348        -0.163656       -0.864962     -6.86265e-05     0.000528513         0.367152       -0.284417
281712                  0.448928        0.127525     -0.000469855    -3.80085e-05        -0.163864       -0.865003      0.000398564     -0.00031744
                    -0.000428748     -3.6021e-05         0.448531        0.127939      0.000441871     -0.00034989        -0.164262       -0.865236
                       -0.163613       -0.864804      0.000463479    -0.000254114         0.367853       -0.283994     -3.17905e-05     0.000352376
                     0.000455564    -0.000306451        -0.163908         -0.8649     -6.83503e-05     0.000528721         0.367021       -0.284624
281714                   0.44896          0.1275     -0.000469983    -3.79482e-05        -0.164117       -0.864942       0.00039848    -0.000317484
                    -0.000428769    -3.59438e-05         0.448563        0.127914      0.000441921    -0.000350012        -0.164516       -0.865175
                       -0.163865       -0.864741      0.000463768    -0.000254383         0.367723         -0.2842     -3.14172e-05      0.00035209
                     0.000455681    -0.000306556        -0.164161       -0.864838      -6.8074e-05     0.000528928         0.366891        -0.28483
281716                  0.448991        0.127474     -0.000470112    -3.78831e-05         -0.16437        -0.86488      0.000398395    -0.000317528
                    -0.000428789    -3.58666e-05         0.448595        0.127888       0.00044197    -0.000350134         -0.16477       -0.865114
                       -0.164118       -0.864679      0.000464058    -0.000254652         0.367592       -0.284406      -3.1044e-05     0.000351804
                     0.000455796    -0.000306662        -0.164413       -0.864776     -6.77974e-05     0.000529134          0.36676       -0.285036
281718                  0.449023        0.127448      -0.00047024    -3.78149e-05        -0.164623        -0.86482      0.000398309    -0.000317572
                    -0.000428809    -3.57892e-05         0.448626        0.127863      0.000442019    -0.000350257        -0.165023       -0.865053
                       -0.164371       -0.864618      0.000464348    -0.000254922         0.367462       -0.284613     -3.06708e-05     0.000351518
                     0.000455912    -0.000306769        -0.164666       -0.864714     -6.75204e-05     0.000529338         0.366629       -0.285242
281720                  0.449054        0.127423     -0.000470367    -3.77455e-05        -0.164879       -0.864758      0.000398223    -0.000317616
                    -0.000428829    -3.57117e-05         0.448658        0.127837      0.000442068     -0.00035038        -0.165277       -0.864991
                       -0.164624       -0.864556      0.000464639    -0.000255192         0.367331       -0.284816     -3.02975e-05     0.000351233
                     0.000456028    -0.000306876        -0.164918       -0.864651     -6.72426e-05     0.000529541         0.366498       -0.285447
281722                  0.449086        0.127397     -0.000470492    -3.76756e-05        -0.165131       -0.864695      0.000398135    -0.000317661
                    -0.000428849     -3.5634e-05          0.44869        0.127812      0.000442117    -0.000350503        -0.165531        -0.86493
                       -0.164877       -0.864495       0.00046493    -0.000255462           0.3672       -0.285023     -2.99241e-05     0.000350947
                     0.000456145    -0.000306984        -0.165171       -0.864589     -6.69635e-05     0.000529742         0.366367       -0.285653
281724                  0.449117        0.127372     -0.000470617    -3.76056e-05        -0.165384       -0.864634      0.000398046    -0.000317705
                    -0.000428869    -3.55562e-05         0.448721        0.127786      0.000442166    -0.000350627        -0.165784       -0.864869
                        -0.16513       -0.864433      0.000465221    -0.000255733         0.367069        -0.28523     -2.95505e-05     0.000350662
                     0.000456262    -0.000307092        -0.165423       -0.864526     -6.66823e-05     0.000529942         0.366235       -0.285859
281726                  0.449149        0.127346      -0.00047074    -3.75358e-05        -0.165638       -0.864572      0.000397957     -0.00031775
                    -0.000428889    -3.54783e-05         0.448753         0.12776      0.000442215    -0.000350751        -0.166038       -0.864807
                       -0.165384       -0.864371      0.000465514    -0.000256005         0.366938       -0.285436     -2.91767e-05     0.000350377
                     0.000456381      -0.0003072        -0.165675       -0.864464     -6.63981e-05     0.000530141         0.366104       -0.286065
281728                   0.44918         0.12732     -0.000470864    -3.74663e-05        -0.165891        -0.86451      0.000397866    -0.000317795
                    -0.000428909    -3.54002e-05         0.448784        0.127735      0.000442263    -0.000350876        -0.166291       -0.864745
                       -0.165637       -0.864309      0.000465807    -0.000256277         0.366807       -0.285642     -2.88025e-05     0.000350092
                       0.0004565    -0.000307308        -0.165928       -0.864401     -6.61105e-05     0.000530341         0.365972       -0.286271
281730                  0.449212        0.127295     -0.000470986     -3.7397e-05        -0.166144       -0.864448      0.000397775    -0.000317841
                    -0.000428929     -3.5322e-05         0.448816        0.127709      0.000442312    -0.000351001        -0.166545       -0.864684
                        -0.16589       -0.864247      0.000466102     -0.00025655         0.366676       -0.285847     -2.84279e-05     0.000349807
                     0.000456621    -0.000307416         -0.16618       -0.864339     -6.58196e-05     0.000530543          0.36584       -0.286476
281732                  0.449243        0.127269     -0.000471109    -3.73281e-05        -0.166397       -0.864386      0.000397682    -0.000317887
                    -0.000428948    -3.52437e-05         0.448848        0.127684      0.000442361    -0.000351127        -0.166798       -0.864622
                       -0.166143       -0.864184        0.0004664    -0.000256827         0.366544       -0.286053     -2.80527e-05     0.000349522
                     0.000456742    -0.000307523        -0.166432       -0.864276      -6.5527e-05      0.00053075         0.365709       -0.286682
281734                  0.449275        0.127243     -0.000471231    -3.72594e-05         -0.16665       -0.864324      0.000397588    -0.000317932
                    -0.000428968    -3.51652e-05         0.448879        0.127658      0.000442411    -0.000351253        -0.167052        -0.86456
                       -0.166396       -0.864122      0.000466694    -0.000257119         0.366413       -0.286259      -2.7677e-05     0.000349238
                     0.000456865     -0.00030763        -0.166685       -0.864213     -6.52352e-05     0.000530962         0.365577       -0.286888
281736                  0.449306        0.127218     -0.000471352     -3.7191e-05        -0.166904       -0.864261      0.000397492    -0.000317979
                    -0.000428988    -3.50866e-05         0.448911        0.127633       0.00044246    -0.000351379        -0.167305       -0.864498
                       -0.166649        -0.86406      0.000466964    -0.000257391         0.366281       -0.286465     -2.73006e-05     0.000348954
                     0.000456988    -0.000307737        -0.166937        -0.86415     -6.49465e-05     0.000531177         0.365445       -0.287093
281738                  0.449338        0.127192     -0.000471474    -3.71229e-05        -0.167157       -0.864199      0.000397396    -0.000318025
                    -0.000429007    -3.50078e-05         0.448943        0.127607      0.000442509    -0.000351506        -0.167559       -0.864436
                       -0.166902       -0.863997      0.000467257    -0.000257655          0.36615        -0.28667     -2.69235e-05      0.00034867
                     0.000457113    -0.000307844        -0.167189       -0.864087      -6.4662e-05     0.000531394         0.365313       -0.287299
281740                  0.449369        0.127166     -0.000471595     -3.7055e-05         -0.16741       -0.864137      0.000397297    -0.000318072
                    -0.000429027    -3.49288e-05         0.448974        0.127582      0.000442559    -0.000351633        -0.167813       -0.864374
                       -0.167156       -0.863935      0.000467552    -0.000257926         0.366018       -0.286876     -2.65455e-05     0.000348387
                     0.000457238     -0.00030795        -0.167442       -0.864024     -6.43815e-05     0.000531612          0.36518       -0.287504
281742                  0.449401        0.127141     -0.000471716    -3.69873e-05        -0.167663       -0.864074      0.000397198    -0.000318119
                    -0.000429046    -3.48496e-05         0.449006        0.127556      0.000442608     -0.00035176        -0.168066       -0.864312
                       -0.167409       -0.863872      0.000467848      -0.0002582         0.365886       -0.287081     -2.61666e-05     0.000348104
                     0.000457365    -0.000308055        -0.167694        -0.86396     -6.41042e-05     0.000531828         0.365048        -0.28771
281744                  0.449432        0.127115     -0.000471837    -3.69199e-05        -0.167916       -0.864011      0.000397096    -0.000318166
                    -0.000429066    -3.47703e-05         0.449038         0.12753      0.000442658    -0.000351888         -0.16832        -0.86425
                       -0.167662       -0.863809      0.000468143    -0.000258475         0.365754       -0.287287     -2.57868e-05     0.000347821
                     0.000457492    -0.000308161        -0.167946       -0.863897     -6.38291e-05     0.000532043         0.364916       -0.287915
281746                  0.449464        0.127089     -0.000471958    -3.68527e-05        -0.168169       -0.863949      0.000396993    -0.000318214
                    -0.000429085    -3.46907e-05         0.449069        0.127505      0.000442707    -0.000352016        -0.168573       -0.864187
                       -0.167915       -0.863746      0.000468439    -0.000258751         0.365622       -0.287492     -2.54059e-05     0.000347538
                      0.00045762    -0.000308265        -0.168199       -0.863834     -6.35555e-05     0.000532256         0.364783        -0.28812
281748                  0.449495        0.127064     -0.000472079    -3.67857e-05        -0.168423       -0.863886      0.000396889    -0.000318262
                    -0.000429105    -3.46109e-05         0.449101        0.127479      0.000442757    -0.000352144        -0.168827       -0.864125
                       -0.168168       -0.863684      0.000468735    -0.000259027          0.36549       -0.287697      -2.5024e-05     0.000347256
                     0.000457749     -0.00030837        -0.168451        -0.86377     -6.32829e-05     0.000532468          0.36465       -0.288326
281750                  0.449527        0.127038     -0.000472199    -3.67189e-05        -0.168676       -0.863823      0.000396783    -0.000318311
                    -0.000429124    -3.45309e-05         0.449133        0.127454      0.000442807    -0.000352272         -0.16908       -0.864062
                       -0.168421       -0.863621      0.000469032    -0.000259304         0.365357       -0.287903     -2.46411e-05     0.000346975
                     0.000457879    -0.000308474        -0.168703       -0.863707      -6.3011e-05     0.000532679         0.364518       -0.288531
281752                  0.449559        0.127012     -0.000472319    -3.66523e-05        -0.168929        -0.86376      0.000396675    -0.000318359
                    -0.000429143    -3.44506e-05         0.449165        0.127428      0.000442857    -0.000352401        -0.169334       -0.863999
                       -0.168674       -0.863558      0.000469328    -0.000259582         0.365225       -0.288108     -2.42573e-05     0.000346693
                      0.00045801    -0.000308578        -0.168955       -0.863643     -6.27395e-05     0.000532889         0.364385       -0.288736
281754                   0.44959        0.126986      -0.00047244    -3.65859e-05        -0.169182       -0.863697      0.000396566    -0.000318408
                    -0.000429163    -3.43701e-05         0.449196        0.127402      0.000442907     -0.00035253        -0.169587       -0.863937
                       -0.168927       -0.863494      0.000469625     -0.00025986         0.365092       -0.288313     -2.38728e-05     0.000346413
                     0.000458141    -0.000308681        -0.169208       -0.863579     -6.24685e-05     0.000533098         0.364252       -0.288941
281756                  0.449622        0.126961      -0.00047256    -3.65196e-05        -0.169435       -0.863634      0.000396455    -0.000318457
                    -0.000429182    -3.42894e-05         0.449228        0.127377      0.000442957     -0.00035266        -0.169841       -0.863874
                        -0.16918       -0.863431      0.000469923    -0.000260138         0.364959       -0.288518     -2.34879e-05     0.000346132
                     0.000458273    -0.000308784         -0.16946       -0.863516     -6.21979e-05     0.000533307         0.364118       -0.289146
281758                  0.449653        0.126935      -0.00047268    -3.64535e-05        -0.169688       -0.863571      0.000396344    -0.000318507
                    -0.000429201    -3.42084e-05          0.44926        0.127351      0.000443006     -0.00035279        -0.170094       -0.863811
                       -0.169433       -0.863368      0.000470221    -0.000260417         0.364827       -0.288724     -2.31031e-05     0.000345852
                     0.000458406    -0.000308886        -0.169712       -0.863452     -6.19276e-05     0.000533516         0.363985       -0.289351
281760                  0.449685        0.126909       -0.0004728    -3.63875e-05        -0.169941       -0.863508      0.000396232    -0.000318556
                     -0.00042922    -3.41272e-05         0.449292        0.127326      0.000443056     -0.00035292        -0.170348       -0.863748
                       -0.169686       -0.863304      0.000470519    -0.000260696         0.364694       -0.288929     -2.27192e-05     0.000345572
                      0.00045854    -0.000308989        -0.169964       -0.863388     -6.16577e-05     0.000533725         0.363852       -0.289556
281762                  0.449717        0.126884     -0.000472919    -3.63217e-05        -0.170194       -0.863445       0.00039612    -0.000318606
                    -0.000429239    -3.40457e-05         0.449323          0.1273      0.000443106     -0.00035305        -0.170601       -0.863685
                       -0.169939       -0.863241      0.000470818    -0.000260976         0.364561       -0.289134     -2.23374e-05     0.000345292
