! TOUCHSTONE file generated by CST MICROWAVE STUDIO
! Date and time: Tue Oct 14 17:38:43 2025
! Project name: Teste_Macro_Metasurface_Nanopilar.cst
! Parameters = {H=600; L_x=140; L_y=90; Lambda=1064; Max_L=200; Min_L=70; PathPara=1; Phi=0; Step_L=10; Theta=0; p=520; phaseX=180; phaseY=0}
! Header version: 2018
! Port assignment regex: !\s*Touchstone port\s*([0-9]+)\s*=\s*(CST MWS port|CST DS port)\s*([0-9]+|Zmin|Zmax)\s*\(\"(.*)\"\)(\s*mode\s*([0-9]+))?.*
! Touchstone port assignment:
! Touchstone port 1 = CST MWS port Zmax ("") mode 1
! Touchstone port 2 = CST MWS port Zmax ("") mode 2
! Touchstone port 3 = CST MWS port Zmin ("") mode 1
! Touchstone port 4 = CST MWS port Zmin ("") mode 2
! S-Parameters are not renormalized. Each port impedance will be approximated by the real part at minimum frequency. The values are described via the [Reference] keyword.
! Default impedance is overridden by [Reference]
[Version] 2.0
# GHz S RI R 376.73
[Number of Ports] 4
[Reference]
376.73 376.73 259.814 259.814 
[Number of Frequencies] 51
[Network Data]
281700                 -0.026823      0.00371751      0.000907861    -0.000570105        -0.592664       -0.802386      0.000167298     7.24223e-06
                     0.000797339    -0.000547335       -0.0358169      -0.0437141      3.51623e-06     4.86567e-05         0.354716        0.923462
                       -0.592515       -0.803303     -5.53828e-05     8.70779e-07       -0.0114457       0.0252824     -0.000988619     0.000415542
                     0.000239555    -0.000115884          0.35494        0.923463      -0.00114391     0.000427177       0.00029129       0.0586073
281702                -0.0268273      0.00373194      0.000907627    -0.000570507        -0.592884       -0.802222      0.000167297     7.18585e-06
                     0.000797099    -0.000547664       -0.0358303      -0.0436726      3.49731e-06     4.86133e-05         0.355085        0.923322
                       -0.592735       -0.803139     -5.54067e-05     8.70086e-07       -0.0114469       0.0252886     -0.000988556     0.000415762
                     0.000239483    -0.000115896         0.355309        0.923323      -0.00114383      0.00042751      0.000300026       0.0585847
281704                -0.0268316      0.00374637      0.000907393     -0.00057091        -0.593104       -0.802059      0.000167296     7.12953e-06
                     0.000796859    -0.000547996       -0.0358436       -0.043631       3.4784e-06       4.857e-05         0.355454        0.923182
                       -0.592956       -0.802976     -5.54305e-05     8.69424e-07       -0.0114481       0.0252948     -0.000988493     0.000415982
                     0.000239402    -0.000115915         0.355677        0.923182      -0.00114374     0.000427843      0.000308734       0.0585622
281706                 -0.026836       0.0037608      0.000907158    -0.000571312        -0.593325       -0.801895      0.000167295      7.0733e-06
                     0.000796619    -0.000548329       -0.0358569      -0.0435895      3.45949e-06     4.85269e-05         0.355823        0.923042
                       -0.593176       -0.802812     -5.54542e-05     8.68796e-07       -0.0114493       0.0253011      -0.00098843     0.000416202
                     0.000239316    -0.000115941         0.356046        0.923042      -0.00114366     0.000428177      0.000317414       0.0585397
281708                -0.0268403      0.00377523      0.000906924    -0.000571713        -0.593545       -0.801732      0.000167294     7.01716e-06
                     0.000796378    -0.000548665       -0.0358702       -0.043548      3.44059e-06      4.8484e-05         0.356192        0.922901
                       -0.593396       -0.802648     -5.54778e-05     8.68205e-07       -0.0114505       0.0253073     -0.000988367     0.000416421
                     0.000239227    -0.000115971         0.356415        0.922901      -0.00114357      0.00042851      0.000326067       0.0585172
281710                -0.0268446      0.00378966      0.000906689    -0.000572115        -0.593765       -0.801568      0.000167293     6.96113e-06
                     0.000796137    -0.000549002       -0.0358835      -0.0435064      3.42169e-06     4.84412e-05          0.35656        0.922761
                       -0.593616       -0.802484     -5.55012e-05     8.67653e-07       -0.0114516       0.0253136     -0.000988303     0.000416641
                     0.000239137    -0.000116005         0.356784         0.92276      -0.00114349     0.000428843      0.000334692       0.0584948
281712                -0.0268489       0.0038041      0.000906453    -0.000572517        -0.593985       -0.801404      0.000167292     6.90523e-06
                     0.000795895     -0.00054934       -0.0358968      -0.0434649      3.40279e-06     4.83988e-05         0.356929         0.92262
                       -0.593836        -0.80232     -5.55246e-05     8.67142e-07       -0.0114528       0.0253199      -0.00098824     0.000416861
                     0.000239046    -0.000116042         0.357152         0.92262       -0.0011434     0.000429176      0.000343289       0.0584723
281714                -0.0268533      0.00381854      0.000906218    -0.000572918        -0.594205       -0.801241      0.000167291      6.8495e-06
                     0.000795654    -0.000549679         -0.03591      -0.0434233      3.38392e-06     4.83566e-05         0.357297        0.922479
                       -0.594056       -0.802156     -5.55479e-05     8.66672e-07        -0.011454       0.0253262     -0.000988177     0.000417081
                     0.000238954    -0.000116081         0.357521        0.922478      -0.00114332     0.000429509      0.000351858       0.0584498
281716                -0.0268576      0.00383297      0.000905983    -0.000573319        -0.594426       -0.801077       0.00016729     6.79396e-06
                     0.000795413    -0.000550019       -0.0359233      -0.0433818      3.36507e-06     4.83148e-05         0.357666        0.922338
                       -0.594276       -0.801992     -5.55711e-05     8.66245e-07       -0.0114551       0.0253324     -0.000988114     0.000417301
                     0.000238862    -0.000116122         0.357889        0.922337      -0.00114323     0.000429842      0.000360399       0.0584274
281718                -0.0268619      0.00384742      0.000905747     -0.00057372        -0.594646       -0.800913      0.000167289     6.73865e-06
                     0.000795171    -0.000550361       -0.0359365      -0.0433402      3.34627e-06     4.82735e-05         0.358034        0.922197
                       -0.594496       -0.801827     -5.55942e-05      8.6586e-07       -0.0114563       0.0253387      -0.00098805      0.00041752
                     0.000238771    -0.000116164         0.358258        0.922196      -0.00114314     0.000430176      0.000368913        0.058405
281720                -0.0268662      0.00386186      0.000905511    -0.000574121        -0.594866       -0.800749      0.000167289     6.68363e-06
                     0.000794929    -0.000550702       -0.0359498      -0.0432987      3.32755e-06     4.82329e-05         0.358402        0.922055
                       -0.594716       -0.801663     -5.56173e-05     8.65518e-07       -0.0114575        0.025345     -0.000987987      0.00041774
                     0.000238679    -0.000116207         0.358626        0.922054      -0.00114305     0.000430509      0.000377398       0.0583826
281722                -0.0268705       0.0038763      0.000905274    -0.000574522        -0.595086       -0.800585      0.000167288     6.62894e-06
                     0.000794688    -0.000551045        -0.035963      -0.0432571      3.30898e-06     4.81934e-05         0.358771        0.921914
                       -0.594936       -0.801499     -5.56403e-05     8.65219e-07       -0.0114586       0.0253513     -0.000987923      0.00041796
                     0.000238587    -0.000116251         0.358994        0.921913      -0.00114297     0.000430843      0.000385856       0.0583602
281724                -0.0268749      0.00389075      0.000905038    -0.000574922        -0.595305       -0.800421      0.000167287     6.57463e-06
                     0.000794446    -0.000551388       -0.0359762      -0.0432155      3.29076e-06     4.81555e-05         0.359139        0.921772
                       -0.595156       -0.801334     -5.56633e-05     8.64962e-07       -0.0114598       0.0253576      -0.00098786      0.00041818
                     0.000238496    -0.000116296         0.359362        0.921771      -0.00114288     0.000431178      0.000394286       0.0583378
281726                -0.0268792      0.00390519      0.000904801    -0.000575323        -0.595525       -0.800257      0.000167286     6.52074e-06
                     0.000794205    -0.000551731       -0.0359893       -0.043174      3.27337e-06      4.8121e-05         0.359507        0.921631
                       -0.595376        -0.80117     -5.56862e-05     8.64746e-07       -0.0114609       0.0253639     -0.000987796     0.000418401
                     0.000238405    -0.000116341          0.35973        0.921629      -0.00114278     0.000431514      0.000402686       0.0583154
281728                -0.0268835      0.00391964      0.000904564    -0.000575723        -0.595745       -0.800093      0.000167285     6.46725e-06
                     0.000793963    -0.000552075       -0.0360025      -0.0431324      3.25868e-06     4.80944e-05         0.359875        0.921489
                       -0.595595       -0.801005      -5.5709e-05     8.64572e-07       -0.0114621       0.0253703     -0.000987733     0.000418621
                     0.000238313    -0.000116387         0.360099        0.921487      -0.00114268     0.000431854      0.000411057        0.058293
281730                -0.0268878      0.00393409      0.000904327    -0.000576123        -0.595965       -0.799928      0.000167284      6.4141e-06
                     0.000793721    -0.000552419       -0.0360157      -0.0430908      3.25979e-06     4.80948e-05         0.360244        0.921347
                       -0.595815       -0.800841     -5.57318e-05     8.64438e-07       -0.0114632       0.0253766     -0.000987671     0.000418842
                     0.000238222    -0.000116434         0.360467        0.921345      -0.00114257     0.000432208       0.00041944       0.0582707
281732                -0.0268921      0.00394854       0.00090409    -0.000576523        -0.596184       -0.799767      0.000167282     6.36108e-06
                     0.000793479    -0.000552763       -0.0360288      -0.0430493      3.58153e-06     4.79898e-05         0.360611        0.921204
                       -0.596035       -0.800676     -5.57546e-05     8.64344e-07       -0.0114656       0.0253826     -0.000987609     0.000419063
                     0.000238131     -0.00011648         0.360835        0.921202      -0.00114228     0.000432826      0.000427761       0.0582483
281734                -0.0268964        0.003963      0.000903852    -0.000576923        -0.596404       -0.799601       0.00016728     6.30787e-06
                     0.000793238    -0.000553108       -0.0360419      -0.0430077      3.21745e-06     4.78156e-05         0.360979        0.921062
                       -0.596254       -0.800511     -5.57773e-05     8.64289e-07       -0.0114655       0.0253892     -0.000987549     0.000419284
                      0.00023804    -0.000116527         0.361202         0.92106       -0.0011426     0.000432782      0.000436047        0.058226
281736                -0.0269007      0.00397745      0.000903614    -0.000577323        -0.596624       -0.799436      0.000167277     6.25411e-06
                     0.000792996    -0.000553453        -0.036055      -0.0429661      3.17861e-06     4.78217e-05         0.361347        0.920919
                       -0.596474       -0.800347        -5.58e-05     8.64273e-07       -0.0114666       0.0253956     -0.000987494     0.000419504
                     0.000237949    -0.000116575          0.36157        0.920917      -0.00114244     0.000433134       0.00044431       0.0582037
281738                 -0.026905      0.00399191      0.000903376    -0.000577723        -0.596844       -0.799271      0.000167274      6.1995e-06
                     0.000792754    -0.000553798       -0.0360681      -0.0429245      3.15595e-06     4.77966e-05         0.361714        0.920777
                       -0.596694       -0.800182     -5.58227e-05     8.64295e-07       -0.0114678       0.0254019     -0.000987448     0.000419712
                     0.000237858    -0.000116622         0.361938        0.920774      -0.00114233     0.000433474      0.000452547       0.0581814
281740                -0.0269093      0.00400636      0.000903138    -0.000578122        -0.597063       -0.799107      0.000167271     6.14393e-06
                     0.000792512    -0.000554143       -0.0360812      -0.0428829      3.13561e-06     4.77631e-05         0.362082        0.920634
                       -0.596913       -0.800017     -5.58453e-05     8.64353e-07       -0.0114689       0.0254083     -0.000987372     0.000419896
                     0.000237768     -0.00011667         0.362306        0.920632      -0.00114224      0.00043381      0.000460757       0.0581591
281742                -0.0269136      0.00402082      0.000902899    -0.000578522        -0.597283       -0.798942      0.000167268     6.08746e-06
                     0.000792269    -0.000554489       -0.0360943      -0.0428414      3.11589e-06     4.77261e-05          0.36245        0.920491
                       -0.597133       -0.799852     -5.58679e-05     8.64448e-07         -0.01147       0.0254147     -0.000987281     0.000420119
                     0.000237677    -0.000116718         0.362673        0.920488      -0.00114214     0.000434144       0.00046894       0.0581368
281744                -0.0269179      0.00403528       0.00090266    -0.000578921        -0.597502       -0.798778      0.000167266     6.03027e-06
                     0.000792027    -0.000554834       -0.0361074      -0.0427998      3.09638e-06     4.76874e-05         0.362817        0.920348
                       -0.597352       -0.799687     -5.58905e-05      8.6458e-07       -0.0114711        0.025421      -0.00098721     0.000420348
                     0.000237586    -0.000116767         0.363041        0.920345      -0.00114205     0.000434477      0.000477096       0.0581146
281746                -0.0269222      0.00404974      0.000902421     -0.00057932        -0.597722       -0.798613      0.000167264     5.97259e-06
                     0.000791785     -0.00055518       -0.0361204      -0.0427582      3.07695e-06     4.76478e-05         0.363185        0.920205
                       -0.597571       -0.799522      -5.5913e-05     8.64746e-07       -0.0114722       0.0254274     -0.000987143     0.000420573
                     0.000237496    -0.000116815         0.363409        0.920202      -0.00114196      0.00043481      0.000485224       0.0580923
281748                -0.0269265      0.00406421      0.000902182    -0.000579719        -0.597941       -0.798448      0.000167262     5.91458e-06
                     0.000791543    -0.000555527       -0.0361334      -0.0427166      3.05754e-06     4.76076e-05         0.363552        0.920061
                       -0.597791       -0.799356     -5.59355e-05     8.64947e-07       -0.0114734       0.0254338     -0.000987078     0.000420796
                     0.000237405    -0.000116865         0.363776        0.920058      -0.00114187     0.000435142      0.000493326       0.0580701
281750                -0.0269308      0.00407867      0.000901942    -0.000580118        -0.598161       -0.798283       0.00016726     5.85639e-06
                       0.0007913    -0.000555874       -0.0361465       -0.042675      3.03814e-06      4.7567e-05          0.36392        0.919918
                        -0.59801       -0.799191     -5.59579e-05     8.65182e-07       -0.0114745       0.0254402     -0.000987013     0.000421018
                     0.000237314    -0.000116916         0.364143        0.919915      -0.00114179     0.000435474        0.0005014       0.0580479
281752                -0.0269351      0.00409314      0.000901702    -0.000580516         -0.59838       -0.798118      0.000167259     5.79813e-06
                     0.000791058    -0.000556224       -0.0361595      -0.0426334      3.01872e-06     4.75262e-05         0.364287        0.919774
                       -0.598229       -0.799026     -5.59802e-05     8.65447e-07       -0.0114756       0.0254466     -0.000986948     0.000421238
                     0.000237223    -0.000116971         0.364511        0.919771       -0.0011417     0.000435806      0.000509447       0.0580256
281754                -0.0269394      0.00410761      0.000901462    -0.000580915        -0.598599       -0.797953      0.000167258     5.73985e-06
                     0.000790815    -0.000556578       -0.0361725      -0.0425918      2.99928e-06     4.74852e-05         0.364654         0.91963
                       -0.598449        -0.79886     -5.60024e-05     8.65738e-07       -0.0114767        0.025453     -0.000986883     0.000421459
                     0.000237126    -0.000117037         0.364878        0.919627      -0.00114161     0.000436138      0.000517467       0.0580035
281756                -0.0269437      0.00412209      0.000901222    -0.000581313        -0.598818       -0.797788      0.000167256      5.6816e-06
                     0.000790562    -0.000556953       -0.0361854      -0.0425502      2.97982e-06      4.7444e-05         0.365022        0.919486
                       -0.598668       -0.798695     -5.60244e-05     8.66032e-07       -0.0114778       0.0254594     -0.000986818     0.000421679
                     0.000236881    -0.000117088         0.365245        0.919483      -0.00114152     0.000436469      0.000525459       0.0579813
281758                 -0.026948      0.00413658      0.000900982    -0.000581711        -0.599038       -0.797623      0.000167254     5.62341e-06
                     0.000790226    -0.000557228       -0.0361984      -0.0425086      2.96034e-06     4.74028e-05         0.365389        0.919342
                       -0.598887       -0.798529     -5.60459e-05     8.66246e-07       -0.0114789       0.0254658     -0.000986753     0.000421899
                     0.000236942    -0.000117049         0.365612        0.919338      -0.00114143       0.0004368      0.000533425       0.0579591
281760                -0.0269524      0.00415114      0.000900741    -0.000582109        -0.599257       -0.797458      0.000167253      5.5653e-06
                     0.000790054    -0.000557559       -0.0362113       -0.042467      2.94083e-06     4.73616e-05         0.365756        0.919198
                       -0.599107       -0.798363     -5.60664e-05     8.65943e-07         -0.01148       0.0254723     -0.000986687     0.000422119
                     0.000236861    -0.000117118          0.36598        0.919194      -0.00114135     0.000437132      0.000541363       0.0579369
281762                 -0.026956       0.0041654      0.000900501    -0.000582506        -0.599476       -0.797293      0.000167251     5.50729e-06
                     0.000789823    -0.000557913       -0.0362243      -0.0424254       2.9213e-06     4.73203e-05         0.366123        0.919054
                       -0.599322       -0.798199     -5.60846e-05     8.61484e-07       -0.0114811       0.0254787     -0.000986622     0.000422339
