! TOUCHSTONE file generated by CST MICROWAVE STUDIO
! Date and time: Tue Oct 14 17:39:20 2025
! Project name: Teste_Macro_Metasurface_Nanopilar.cst
! Parameters = {H=600; L_x=190; L_y=110; Lambda=1064; Max_L=200; Min_L=70; PathPara=1; Phi=0; Step_L=10; Theta=0; p=520; phaseX=180; phaseY=0}
! Header version: 2018
! Port assignment regex: !\s*Touchstone port\s*([0-9]+)\s*=\s*(CST MWS port|CST DS port)\s*([0-9]+|Zmin|Zmax)\s*\(\"(.*)\"\)(\s*mode\s*([0-9]+))?.*
! Touchstone port assignment:
! Touchstone port 1 = CST MWS port Zmax ("") mode 1
! Touchstone port 2 = CST MWS port Zmax ("") mode 2
! Touchstone port 3 = CST MWS port Zmin ("") mode 1
! Touchstone port 4 = CST MWS port Zmin ("") mode 2
! S-Parameters are not renormalized. Each port impedance will be approximated by the real part at minimum frequency. The values are described via the [Reference] keyword.
! Default impedance is overridden by [Reference]
[Version] 2.0
# GHz S RI R 376.73
[Number of Ports] 4
[Reference]
376.73 376.73 259.814 259.814 
[Number of Frequencies] 51
[Network Data]
281700                 0.0833965       0.0100702      0.000301403    -0.000246804         0.691223        0.707375     -0.000269284     0.000417534
                     0.000288723      -0.0002568         0.195966       -0.207568      0.000215289     0.000455548          0.80911       -0.499473
                        0.691294        0.707856      1.96329e-05     0.000326564      -0.00748674        -0.08088     -0.000121447    -0.000397569
                    -0.000278608     0.000362739         0.809225       -0.499572       -0.0004093    -0.000589454        -0.269568       0.0710959
281702                 0.0833873       0.0100845      0.000301275    -0.000246995         0.691485        0.707121      -0.00026904     0.000417657
                     0.000288644    -0.000256955         0.195913       -0.207499      0.000215552     0.000455452         0.808947       -0.499788
                        0.691556        0.707601      1.96571e-05     0.000326478      -0.00756134      -0.0808657     -0.000121589    -0.000397542
                     -0.00027842     0.000362861         0.809063       -0.499887     -0.000409816    -0.000589199        -0.269429       0.0712849
281704                  0.083378       0.0100988      0.000301148    -0.000247186         0.691746        0.706866     -0.000268795      0.00041778
                     0.000288564    -0.000257109         0.195861        -0.20743      0.000215815     0.000455356         0.808785       -0.500104
                        0.691817        0.707347      1.96813e-05     0.000326392      -0.00763592      -0.0808513      -0.00012173    -0.000397516
                    -0.000278233     0.000362982           0.8089       -0.500203     -0.000410331    -0.000588943         -0.26929       0.0714737
281706                 0.0833688       0.0101131      0.000301021    -0.000247377         0.692008        0.706612     -0.000268551     0.000417902
                     0.000288485    -0.000257264         0.195809       -0.207361      0.000216078      0.00045526         0.808622       -0.500419
                        0.692079        0.707092      1.97056e-05     0.000326306      -0.00771049      -0.0808368     -0.000121872    -0.000397489
                    -0.000278046     0.000363104         0.808737       -0.500518     -0.000410846    -0.000588687        -0.269151       0.0716624
281708                 0.0833596       0.0101274      0.000300893    -0.000247568         0.692269        0.706357     -0.000268307     0.000418024
                     0.000288406    -0.000257419         0.195756       -0.207292      0.000216341     0.000455163         0.808459       -0.500734
                         0.69234        0.706838        1.973e-05     0.000326219      -0.00778504      -0.0808223     -0.000122014    -0.000397462
                    -0.000277859     0.000363226         0.808574       -0.500834     -0.000411362    -0.000588429        -0.269012        0.071851
281710                 0.0833503       0.0101417      0.000300766     -0.00024776          0.69253        0.706102     -0.000268062     0.000418147
                     0.000288326    -0.000257574         0.195704       -0.207223      0.000216604     0.000455066         0.808297        -0.50105
                        0.692601        0.706583      1.97544e-05     0.000326133      -0.00785958      -0.0808077     -0.000122155    -0.000397435
                    -0.000277672     0.000363347         0.808411       -0.501149     -0.000411877    -0.000588171        -0.268873       0.0720393
281712                 0.0833411        0.010156      0.000300639    -0.000247951         0.692791        0.705847     -0.000267817      0.00041827
                     0.000288247    -0.000257729         0.195652       -0.207154      0.000216867     0.000454968         0.808134       -0.501365
                        0.692862        0.706328      1.97788e-05     0.000326046       -0.0079341      -0.0807931     -0.000122297    -0.000397407
                    -0.000277486     0.000363469         0.808248       -0.501464     -0.000412392    -0.000587912        -0.268734       0.0722275
281714                 0.0833319       0.0101703      0.000300512    -0.000248143         0.693052        0.705592     -0.000267571     0.000418393
                     0.000288168    -0.000257884           0.1956       -0.207085      0.000217129      0.00045487          0.80797        -0.50168
                        0.693123        0.706073      1.98033e-05     0.000325959      -0.00800861      -0.0807784     -0.000122438    -0.000397379
                    -0.000277299      0.00036359         0.808084       -0.501779     -0.000412907    -0.000587652        -0.268595        0.072416
281716                 0.0833227       0.0101846      0.000300385    -0.000248335         0.693313        0.705337     -0.000267324     0.000418516
                     0.000288089    -0.000258038         0.195548       -0.207016      0.000217392     0.000454772         0.807807       -0.501994
                        0.693384        0.705818      1.98279e-05     0.000325871       -0.0080831      -0.0807636      -0.00012258    -0.000397349
                    -0.000277113     0.000363712         0.807921       -0.502094     -0.000413422    -0.000587392        -0.268455       0.0726037
281718                 0.0833135       0.0101989      0.000300258    -0.000248527         0.693574        0.705082     -0.000267076      0.00041864
                      0.00028801    -0.000258193         0.195495       -0.206947      0.000217655     0.000454673         0.807644       -0.502309
                        0.693645        0.705563      1.98525e-05     0.000325784      -0.00815757      -0.0807488      -0.00012272    -0.000397315
                    -0.000276927     0.000363834         0.807757       -0.502409     -0.000413936    -0.000587131        -0.268316       0.0727915
281720                 0.0833043       0.0102132      0.000300131    -0.000248719         0.693835        0.704827     -0.000266826     0.000418764
                     0.000287931    -0.000258348         0.195443       -0.206878      0.000217918     0.000454573          0.80748       -0.502624
                        0.693906        0.705308      1.98771e-05     0.000325696      -0.00823203      -0.0807339     -0.000122857    -0.000397274
                    -0.000276741     0.000363955         0.807594       -0.502724     -0.000414451    -0.000586869        -0.268176        0.072979
281722                 0.0832951       0.0102275      0.000300004    -0.000248911         0.694095        0.704571     -0.000266573     0.000418887
                     0.000287852    -0.000258503         0.195391       -0.206809       0.00021818     0.000454473         0.807316       -0.502938
                        0.694166        0.705053      1.99018e-05     0.000325608      -0.00830647       -0.080719      -0.00012293      -0.0003972
                    -0.000276555     0.000364077          0.80743       -0.503039     -0.000414965    -0.000586607        -0.268037       0.0731664
281724                 0.0832859       0.0102418      0.000299878    -0.000249104         0.694356        0.704316     -0.000266316     0.000419007
                     0.000287773    -0.000258658         0.195339        -0.20674      0.000218443     0.000454373         0.807153       -0.503253
                        0.694427        0.704797      1.99264e-05      0.00032552       -0.0083809       -0.080704     -0.000123115    -0.000397317
                    -0.000276369     0.000364198         0.807266       -0.503353      -0.00041548    -0.000586344        -0.267897       0.0733537
281726                 0.0832767       0.0102561      0.000299751    -0.000249296         0.694616         0.70406     -0.000266058     0.000419121
                     0.000287694    -0.000258813         0.195287       -0.206671      0.000218706     0.000454272         0.806989       -0.503567
                        0.694687        0.704542      1.99511e-05     0.000325432      -0.00845531      -0.0806889     -0.000123282    -0.000397259
                    -0.000276184     0.000364319         0.807102       -0.503668     -0.000415994    -0.000586081        -0.267757       0.0735408
281728                 0.0832675       0.0102704      0.000299624    -0.000249489         0.694877        0.703805     -0.000265801     0.000419229
                     0.000287615    -0.000258968         0.195235       -0.206602       0.00021897      0.00045417         0.806825       -0.503881
                        0.694947        0.704286      1.99758e-05     0.000325343       -0.0085297      -0.0806738     -0.000123427    -0.000397221
                    -0.000275999     0.000364441         0.806937       -0.503982     -0.000416508    -0.000585817        -0.267617       0.0737278
281730                 0.0832583       0.0102847      0.000299498    -0.000249682         0.695137        0.703549     -0.000265551     0.000419334
                     0.000287536    -0.000259123         0.195184       -0.206533      0.000219233     0.000454068         0.806661       -0.504196
                        0.695207        0.704031      2.00003e-05     0.000325255      -0.00860407      -0.0806586      -0.00012357    -0.000397189
                    -0.000275814     0.000364562         0.806773       -0.504297     -0.000417021    -0.000585553        -0.267477       0.0739145
281732                 0.0832492       0.0102991      0.000299371    -0.000249875         0.695397        0.703293     -0.000265306     0.000419439
                     0.000287457    -0.000259278         0.195132       -0.206465      0.000219497     0.000453966         0.806497        -0.50451
                        0.695467        0.703775      2.00247e-05     0.000325166      -0.00867843      -0.0806434     -0.000123712    -0.000397159
                    -0.000275629     0.000364684         0.806609       -0.504611     -0.000417534    -0.000585289        -0.267337       0.0741012
281734                   0.08324       0.0103134      0.000299244    -0.000250068         0.695657        0.703037     -0.000265064     0.000419547
                     0.000287379    -0.000259433          0.19508       -0.206396      0.000219761     0.000453864         0.806332       -0.504824
                        0.695727        0.703519      2.00484e-05     0.000325077      -0.00875277      -0.0806281     -0.000123854    -0.000397129
                    -0.000275444     0.000364805         0.806444       -0.504925     -0.000418047    -0.000585024        -0.267197       0.0742876
281736                 0.0832308       0.0103277      0.000299117    -0.000250261         0.695917        0.702781     -0.000264822     0.000419659
                       0.0002873    -0.000259588         0.195028       -0.206327      0.000220026     0.000453761         0.806168       -0.505137
                        0.695987        0.703263      2.00709e-05      0.00032499       -0.0088271      -0.0806127     -0.000123996      -0.0003971
                     -0.00027526     0.000364926          0.80628       -0.505239      -0.00041856     -0.00058476        -0.267056       0.0744739
281738                 0.0832217        0.010342      0.000298988    -0.000250456         0.696177        0.702525      -0.00026458     0.000419772
                     0.000287222    -0.000259742         0.194977       -0.206258      0.000220291     0.000453659         0.806003       -0.505451
                        0.696247        0.703007      2.01017e-05     0.000324906      -0.00890141      -0.0805973     -0.000124138    -0.000397072
                    -0.000275076     0.000365048         0.806115       -0.505553     -0.000419072    -0.000584495        -0.266916       0.0746601
281740                 0.0832126       0.0103564      0.000298865    -0.000250652         0.696437        0.702269     -0.000264337     0.000419886
                     0.000287143    -0.000259897         0.194925       -0.206189      0.000220556     0.000453556         0.805838       -0.505765
                        0.696507        0.702751        2.013e-05     0.000324812       -0.0089757      -0.0805818      -0.00012428    -0.000397043
                    -0.000274892     0.000365169          0.80595       -0.505867     -0.000419583     -0.00058423        -0.266776       0.0748461
281742                 0.0832034       0.0103707       0.00029874    -0.000250844         0.696696        0.702013     -0.000264094     0.000420001
                     0.000287065    -0.000260052         0.194873       -0.206121      0.000220821     0.000453454         0.805674       -0.506079
                        0.696766        0.702495      2.01549e-05      0.00032472      -0.00904997      -0.0805662     -0.000124421    -0.000397015
                    -0.000274708     0.000365291         0.805785       -0.506181     -0.000420094    -0.000583966        -0.266635       0.0750319
281744                 0.0831943        0.010385      0.000298614    -0.000251038         0.696956        0.701756     -0.000263849     0.000420116
                     0.000286986    -0.000260207         0.194822       -0.206052      0.000221085     0.000453353         0.805509       -0.506392
                        0.697026        0.702239      2.01798e-05     0.000324629      -0.00912422      -0.0805506     -0.000124563    -0.000396986
                    -0.000274524     0.000365412          0.80562       -0.506494     -0.000420604    -0.000583701        -0.266494       0.0752175
281746                 0.0831851       0.0103994      0.000298488    -0.000251231         0.697215          0.7015     -0.000263604     0.000420231
                     0.000286908    -0.000260362          0.19477       -0.205983      0.000221349     0.000453251         0.805344       -0.506705
                        0.697285        0.701982      2.02049e-05     0.000324538      -0.00919846       -0.080535     -0.000124705    -0.000396958
                    -0.000274341     0.000365534         0.805454       -0.506808     -0.000421114    -0.000583436        -0.266354       0.0754031
281748                  0.083176       0.0104137      0.000298362    -0.000251425         0.697475        0.701243     -0.000263358     0.000420346
                      0.00028683    -0.000260518         0.194719       -0.205914      0.000221613      0.00045315         0.805178       -0.507019
                        0.697544        0.701726        2.023e-05     0.000324447      -0.00927268      -0.0805193     -0.000124846    -0.000396929
                    -0.000274159     0.000365657         0.805289       -0.507121     -0.000421623    -0.000583172        -0.266213       0.0755884
281750                 0.0831669       0.0104281      0.000298236     -0.00025162         0.697734        0.700987     -0.000263111     0.000420461
                      0.00028675    -0.000260672         0.194667       -0.205846      0.000221875     0.000453048         0.805013       -0.507332
                        0.697803        0.701469      2.02553e-05     0.000324356      -0.00934689      -0.0805035     -0.000124988      -0.0003969
                    -0.000273973     0.000365776         0.805123       -0.507435     -0.000422131    -0.000582907        -0.266072       0.0757736
281752                 0.0831578       0.0104424       0.00029811    -0.000251814         0.697993         0.70073     -0.000262865     0.000420576
                     0.000286673    -0.000260827         0.194616       -0.205777      0.000222137     0.000452947         0.804848       -0.507645
                        0.698062        0.701213      2.02807e-05     0.000324265      -0.00942107      -0.0804876      -0.00012513    -0.000396872
                    -0.000273791     0.000365897         0.804958       -0.507748     -0.000422639    -0.000582643        -0.265931       0.0759586
281754                 0.0831487       0.0104567      0.000297984    -0.000252009         0.698252        0.700473     -0.000262617     0.000420691
                     0.000286595    -0.000260982         0.194565       -0.205708      0.000222397     0.000452846         0.804682       -0.507958
                        0.698321        0.700956      2.03061e-05     0.000324174      -0.00949524      -0.0804717     -0.000125271    -0.000396843
                    -0.000273609     0.000366018         0.804792       -0.508061     -0.000423146    -0.000582379         -0.26579       0.0761435
281756                 0.0831396       0.0104711      0.000297858    -0.000252203         0.698511        0.700216      -0.00026237     0.000420807
                     0.000286517    -0.000261137         0.194513        -0.20564      0.000222657     0.000452744         0.804517       -0.508271
                         0.69858        0.700699      2.03316e-05     0.000324082      -0.00956939      -0.0804558     -0.000125413    -0.000396814
                    -0.000273427      0.00036614         0.804626       -0.508374     -0.000423652    -0.000582115        -0.265648       0.0763282
281758                 0.0831305       0.0104854      0.000297733    -0.000252398          0.69877        0.699959     -0.000262123     0.000420922
                      0.00028644    -0.000261292         0.194462       -0.205571      0.000222915     0.000452642         0.804351       -0.508584
                        0.698839        0.700442      2.03571e-05      0.00032399      -0.00964352      -0.0804397     -0.000125554    -0.000396785
                    -0.000273246     0.000366261          0.80446       -0.508687     -0.000424157    -0.000581851        -0.265507       0.0765127
281760                 0.0831214       0.0104998      0.000297607    -0.000252593         0.699028        0.699702     -0.000261875     0.000421037
                     0.000286362    -0.000261447         0.194411       -0.205502      0.000223173      0.00045254         0.804185       -0.508897
                        0.699098        0.700185      2.03827e-05     0.000323898      -0.00971763      -0.0804237     -0.000125696    -0.000396756
                    -0.000273064     0.000366382         0.804294          -0.509     -0.000424662    -0.000581587        -0.265366       0.0766971
281762                 0.0831123       0.0105142      0.000297481    -0.000252788         0.699287        0.699445     -0.000261628     0.000421152
                     0.000286284    -0.000261602          0.19436       -0.205434      0.000223431     0.000452439         0.804019       -0.509209
                        0.699356        0.699928      2.04084e-05     0.000323805      -0.00979173      -0.0804075     -0.000125837    -0.000396726
