! TOUCHSTONE file generated by CST MICROWAVE STUDIO
! Date and time: Tue Oct 14 17:38:41 2025
! Project name: Teste_Macro_Metasurface_Nanopilar.cst
! Parameters = {H=600; L_x=130; L_y=200; Lambda=1064; Max_L=200; Min_L=70; PathPara=1; Phi=0; Step_L=10; Theta=0; p=520; phaseX=180; phaseY=0}
! Header version: 2018
! Port assignment regex: !\s*Touchstone port\s*([0-9]+)\s*=\s*(CST MWS port|CST DS port)\s*([0-9]+|Zmin|Zmax)\s*\(\"(.*)\"\)(\s*mode\s*([0-9]+))?.*
! Touchstone port assignment:
! Touchstone port 1 = CST MWS port Zmax ("") mode 1
! Touchstone port 2 = CST MWS port Zmax ("") mode 2
! Touchstone port 3 = CST MWS port Zmin ("") mode 1
! Touchstone port 4 = CST MWS port Zmin ("") mode 2
! S-Parameters are not renormalized. Each port impedance will be approximated by the real part at minimum frequency. The values are described via the [Reference] keyword.
! Default impedance is overridden by [Reference]
[Version] 2.0
# GHz S RI R 376.73
[Number of Ports] 4
[Reference]
376.73 376.73 259.814 259.814 
[Number of Frequencies] 51
[Network Data]
281700                  0.191044       0.0427419     -0.000111581    -0.000318041         0.381098       -0.899162       0.00048612     0.000753807
                     -0.00011798    -0.000346999         0.201318        0.364686      0.000757692    -2.73959e-06         0.625973       -0.637472
                        0.381112       -0.899362      0.000894593    -5.24324e-05         0.161822        0.103549     -0.000404513     0.000497318
                     0.000491547     0.000740799         0.626543       -0.638099     -0.000436698     0.000422752         0.369799         0.16505
281702                  0.191061       0.0427591     -0.000112004    -0.000318674         0.380828       -0.899273      0.000487116     0.000753864
                    -0.000118269    -0.000347307         0.201511        0.364919      0.000758968    -3.52991e-06         0.625461       -0.637748
                        0.380842       -0.899475      0.000895383    -5.25099e-05         0.161908        0.103453     -0.000404664     0.000498456
                     0.000492195     0.000740507         0.626025       -0.638369     -0.000436779     0.000424883         0.370258        0.164714
281704                  0.191078       0.0427763     -0.000112435    -0.000319315         0.380557       -0.899384        0.0004881     0.000753926
                    -0.000118535    -0.000347611         0.201704        0.365152      0.000760297     -4.3376e-06         0.624947       -0.638023
                        0.380571       -0.899589      0.000896214    -5.25718e-05         0.161995        0.103357     -0.000404808     0.000499601
                     0.000492809     0.000740223         0.625507       -0.638638     -0.000436878     0.000427097         0.370718        0.164376
281706                  0.191095       0.0427936     -0.000112875    -0.000319965         0.380287       -0.899495      0.000489071      0.00075399
                    -0.000118777    -0.000347915         0.201899        0.365386      0.000761691    -5.16641e-06         0.624433       -0.638297
                          0.3803       -0.899702      0.000897098    -5.26157e-05         0.162081         0.10326     -0.000404942     0.000500755
                     0.000493387     0.000739953         0.624989       -0.638906     -0.000436998     0.000429407         0.371179        0.164038
281708                  0.191113       0.0428108     -0.000113325    -0.000320626         0.380017       -0.899606      0.000490025     0.000754054
                    -0.000118992    -0.000348224         0.202094        0.365619      0.000763162    -6.02134e-06         0.623918        -0.63857
                        0.380029       -0.899815      0.000898046    -5.26388e-05         0.162167        0.103164     -0.000405065     0.000501918
                     0.000493927     0.000739705         0.624472       -0.639174     -0.000437144     0.000431834         0.371639        0.163699
281710                   0.19113       0.0428279     -0.000113787    -0.000321302         0.379746       -0.899716      0.000490956     0.000754113
                    -0.000119178    -0.000348544         0.202289        0.365854      0.000764727    -6.90931e-06         0.623402       -0.638843
                        0.379758       -0.899927      0.000899078    -5.26381e-05         0.162253        0.103067     -0.000405174     0.000503091
                     0.000494431     0.000739489         0.623956        -0.63944     -0.000437325     0.000434406           0.3721        0.163358
281712                  0.191147       0.0428451     -0.000114264    -0.000321994         0.379476       -0.899826      0.000491864     0.000754161
                    -0.000119336    -0.000348881         0.202485        0.366088      0.000766411    -7.84008e-06         0.622885       -0.639116
                        0.379487       -0.900039      0.000900218    -5.26101e-05         0.162339        0.102971     -0.000405265     0.000504276
                     0.000494901     0.000739314          0.62344       -0.639707     -0.000437547     0.000437158         0.372561        0.163017
281714                  0.191165       0.0428622      -0.00011476    -0.000322707         0.379205       -0.899936      0.000492747     0.000754188
                    -0.000119468    -0.000349242         0.202682        0.366323      0.000768244    -8.82772e-06         0.622367       -0.639388
                        0.379216       -0.900151      0.000901502    -5.25522e-05         0.162426        0.102875     -0.000405332     0.000505475
                     0.000495345     0.000739191         0.622926       -0.639974     -0.000437825     0.000440142         0.373023        0.162674
281716                  0.191182       0.0428793      -0.00011528     -0.00032345         0.378935       -0.900046       0.00049361     0.000754183
                    -0.000119578    -0.000349633         0.202879        0.366558      0.000770271    -9.89332e-06         0.621849       -0.639659
                        0.378944       -0.900263      0.000902983    -5.24631e-05         0.162512        0.102778     -0.000405366     0.000506688
                     0.000495773     0.000739129         0.622413       -0.640241     -0.000438173     0.000443427         0.373484         0.16233
281718                  0.191199       0.0428964     -0.000115833    -0.000324231         0.378664       -0.900155      0.000494463     0.000754137
                    -0.000119672    -0.000350061         0.203077        0.366794      0.000772556    -1.10696e-05         0.621329        -0.63993
                        0.378673       -0.900374      0.000904745    -5.23473e-05         0.162598        0.102682     -0.000405356     0.000507919
                     0.000496198     0.000739135         0.621902        -0.64051     -0.000438615      0.00044712         0.373946        0.161985
281720                  0.191217       0.0429135     -0.000116431    -0.000325067         0.378394       -0.900265      0.000495319     0.000754045
                    -0.000119757    -0.000350529         0.203275        0.367029      0.000775192    -1.24099e-05         0.620809       -0.640201
                        0.378401       -0.900484       0.00090692    -5.22246e-05         0.162684        0.102585     -0.000405278     0.000509168
                     0.000496636     0.000739214         0.621391       -0.640781     -0.000439185     0.000451381         0.374409        0.161639
281722                  0.191234       0.0429305     -0.000117095    -0.000325989         0.378123       -0.900373      0.000496195      0.00075391
                    -0.000119841    -0.000351039         0.203474        0.367266      0.000778327    -1.40062e-05         0.620288       -0.640471
                        0.378129       -0.900594      0.000909733     -5.2157e-05          0.16277        0.102489     -0.000405099     0.000510434
                     0.000497106     0.000739362          0.62088       -0.641055      -0.00043993     0.000456471         0.374872        0.161292
281724                  0.191251       0.0429476     -0.000117864    -0.000327049         0.377853       -0.900482      0.000497105      0.00075374
                    -0.000119934    -0.000351591         0.203673        0.367502      0.000782204    -1.60295e-05         0.619766       -0.640741
                        0.377858       -0.900704      0.000913584    -5.23309e-05         0.162857        0.102393     -0.000404753       0.0005117
                     0.000497626     0.000739574         0.620367       -0.641332     -0.000440925     0.000462839         0.375335        0.160944
281726                  0.191269       0.0429646     -0.000118811    -0.000328363         0.377582        -0.90059      0.000498054     0.000753551
                    -0.000120044    -0.000352181         0.203874        0.367739      0.000787244    -1.88301e-05         0.619243        -0.64101
                        0.377587       -0.900813      0.000919202    -5.33298e-05         0.162943        0.102296     -0.000404121     0.000512908
                     0.000498209     0.000739836          0.61985       -0.641612     -0.000442288     0.000471336         0.375798        0.160595
281728                  0.191286       0.0429816       -0.0001201     -0.00033022         0.377312       -0.900697      0.000499044     0.000753358
                    -0.000120177    -0.000352806         0.204074        0.367976      0.000794242    -2.32274e-05         0.618719       -0.641279
                        0.377315       -0.900922      0.000927717    -5.71373e-05         0.163029        0.102199     -0.000402987     0.000513834
                     0.000498868     0.000740133         0.619329       -0.641892     -0.000444194     0.000483783         0.376262        0.160244
281730                  0.191304       0.0429986     -0.000122171    -0.000333623         0.377042       -0.900804      0.000500069      0.00075317
                    -0.000120339    -0.000353458         0.204276        0.368214      0.000804776    -3.15359e-05         0.618195       -0.641548
                        0.377044        -0.90103      0.000938253    -7.02791e-05         0.163115        0.102103     -0.000401198      0.00051366
                     0.000499608     0.000740447         0.618804       -0.642172     -0.000446794     0.000504882         0.376726        0.159893
281732                  0.191321       0.0430155     -0.000125872    -0.000345158         0.376773        -0.90091       0.00050112     0.000752996
                    -0.000120533    -0.000354132         0.204478        0.368451      0.000821407     -5.2348e-05          0.61767       -0.641816
                        0.376774       -0.901138      0.000932195    -9.80447e-05         0.163201        0.102006     -0.000400504     0.000510771
                     0.000500428     0.000740759         0.618276       -0.642449     -0.000448531     0.000551395          0.37719         0.15954
281734                  0.191339       0.0430325     -7.55752e-05    -0.000327123         0.376506       -0.901014       0.00050219     0.000752837
                    -0.000120761     -0.00035482          0.20468        0.368689      0.000825148    -0.000124677         0.617143       -0.642084
                        0.376503       -0.901245      0.000902961    -0.000102723         0.163287        0.101909     -0.000404556     0.000508769
                     0.000501326     0.000741055         0.617745       -0.642724      -0.00038664     0.000737404         0.377655        0.159187
281736                  0.191356       0.0430494     -0.000108118    -0.000321607         0.376244       -0.901118      0.000503272     0.000752695
                    -0.000121022    -0.000355518         0.204883        0.368928      0.000678735     -0.00012376         0.616616       -0.642352
                        0.376233       -0.901352      0.000890927     -8.9331e-05         0.163373        0.101812     -0.000408059     0.000511102
                     0.000502294     0.000741321         0.617213       -0.642996      -0.00019542      0.00022294         0.378119        0.158832
281738                  0.191374       0.0430664      -0.00011327    -0.000324667         0.375991        -0.90123      0.000504361     0.000752567
                    -0.000121315     -0.00035622         0.205087        0.369166      0.000695755    -3.69926e-05         0.616088       -0.642619
                        0.375964       -0.901459      0.000889523    -7.98607e-05         0.163459        0.101715     -0.000409324      0.00051389
                     0.000503323     0.000741548          0.61668       -0.643266      -0.00037617      0.00034053         0.378585        0.158476
281740                  0.191391       0.0430833     -0.000115431    -0.000326481         0.375729        -0.90136      0.000505454     0.000752452
                    -0.000121639    -0.000356922         0.205291        0.369406      0.000721447    -2.00753e-05          0.61556       -0.642886
                        0.375695       -0.901566      0.000890608    -7.43741e-05         0.163545        0.101618     -0.000409759     0.000516152
                     0.000504405     0.000741733         0.616148       -0.643533     -0.000402746     0.000381028          0.37905        0.158119
281742                  0.191409       0.0431002     -0.000116752    -0.000327797         0.375446       -0.901484      0.000506547     0.000752346
                    -0.000121991    -0.000357621         0.205496        0.369645      0.000735509    -1.59709e-05          0.61503       -0.643153
                        0.375426       -0.901672      0.000892112     -7.1052e-05          0.16363        0.101521     -0.000409948     0.000518032
                     0.000505532     0.000741872         0.615615         -0.6438     -0.000412443     0.000400502         0.379516        0.157761
281744                  0.191426       0.0431171     -0.000117726    -0.000328877         0.375164       -0.901594      0.000507641     0.000752249
                    -0.000122371    -0.000358316         0.205702        0.369884      0.000744182    -1.48533e-05         0.614499       -0.643419
                        0.375157       -0.901778      0.000893575     -6.8903e-05         0.163716        0.101424     -0.000410062     0.000519685
                     0.000506698     0.000741967         0.615083       -0.644065     -0.000417386     0.000412327         0.379982        0.157402
281746                  0.191443        0.043134     -0.000118527    -0.000329829         0.374887       -0.901701      0.000508734     0.000752158
                    -0.000122775    -0.000359006         0.205908        0.370124      0.000750176    -1.46527e-05         0.613968       -0.643685
                        0.374889       -0.901885      0.000894909    -6.74285e-05         0.163801        0.101327     -0.000410157     0.000521201
                     0.000507901     0.000742022         0.614551        -0.64433     -0.000420403     0.000420561         0.380449        0.157042
281748                  0.191461       0.0431509     -0.000119228    -0.000330705         0.374612       -0.901806      0.000509826     0.000752072
                    -0.000123204    -0.000359691         0.206115        0.370365      0.000754679    -1.47612e-05         0.613436       -0.643951
                         0.37462        -0.90199      0.000896114    -6.63638e-05         0.163886         0.10123      -0.00041025     0.000522631
                      0.00050914     0.000742044         0.614018       -0.644593     -0.000422487     0.000426827         0.380916        0.156681
281750                  0.191478       0.0431678     -0.000119869    -0.000331533         0.374339       -0.901912      0.000510916      0.00075199
                    -0.000123657    -0.000360374         0.206322        0.370605      0.000758276    -1.49491e-05         0.612903       -0.644216
                        0.374352       -0.902096      0.000897211    -6.55572e-05         0.163972        0.101132     -0.000410347     0.000524004
                     0.000510414     0.000742043         0.613486       -0.644856     -0.000424082     0.000431899         0.381383        0.156319
281752                  0.191496       0.0431846     -0.000120471    -0.000332331         0.374067       -0.902018      0.000512006      0.00075191
                    -0.000124134    -0.000361058          0.20653        0.370846      0.000761277    -1.51054e-05         0.612369       -0.644481
                        0.374084       -0.902202      0.000898221    -6.49151e-05         0.164057        0.101035     -0.000410449     0.000525337
                     0.000511727     0.000742032         0.612953       -0.645119     -0.000425423     0.000436182          0.38185        0.155955
281754                  0.191513       0.0432015     -0.000121046    -0.000333108         0.373795       -0.902125      0.000513094     0.000751833
                    -0.000124635     -0.00036175         0.206739        0.371087      0.000763852    -1.51586e-05         0.611834       -0.644746
                        0.373815       -0.902307      0.000899162    -6.43745e-05         0.164142        0.100938     -0.000410555     0.000526641
                     0.000513079     0.000742031          0.61242       -0.645381     -0.000426665     0.000439903         0.382318        0.155591
281756                  0.191531       0.0432183     -0.000121605    -0.000333873         0.373524       -0.902231      0.000514183     0.000751757
                     -0.00012516    -0.000362459         0.206948        0.371328       0.00076609    -1.50476e-05         0.611299        -0.64501
                        0.373546       -0.902412      0.000900054    -6.38884e-05         0.164226        0.100841     -0.000410666     0.000527922
                     0.000514464     0.000742066         0.611886       -0.645643     -0.000427924     0.000443183         0.382786        0.155225
281758                  0.191548        0.043235     -0.000122152    -0.000334632         0.373253       -0.902338      0.000515272     0.000751683
                    -0.000125705    -0.000363201         0.207158         0.37157      0.000768009    -1.47106e-05         0.610762       -0.645275
                        0.373277       -0.902518      0.000900911     -6.3417e-05         0.164311        0.100744     -0.000410781     0.000529183
                     0.000515867     0.000742166         0.611352       -0.645905     -0.000429311     0.000446059         0.383254        0.154858
281760                  0.191566       0.0432516     -0.000122694    -0.000335389         0.372982       -0.902444      0.000516363     0.000751612
                    -0.000126254    -0.000363997         0.207368        0.371812      0.000769561    -1.40861e-05         0.610225       -0.645538
                        0.373007       -0.902623      0.000901755     -6.2921e-05         0.164396        0.100647     -0.000410899     0.000530425
                     0.000517254     0.000742357         0.610818       -0.646167     -0.000430936     0.000448482         0.383723        0.154491
281762                  0.191584       0.0432684     -0.000123233    -0.000336149         0.372711       -0.902551      0.000517457     0.000751543
                    -0.000126775    -0.000364866         0.207579        0.372054      0.000770606    -1.31344e-05         0.609687       -0.645802
                        0.372736       -0.902728      0.000902612    -6.23553e-05         0.164481        0.100549      -0.00041102     0.000531645
