! TOUCHSTONE file generated by CST MICROWAVE STUDIO
! Date and time: Tue Oct 14 17:39:15 2025
! Project name: Teste_Macro_Metasurface_Nanopilar.cst
! Parameters = {H=600; L_x=180; L_y=160; Lambda=1064; Max_L=200; Min_L=70; PathPara=1; Phi=0; Step_L=10; Theta=0; p=520; phaseX=180; phaseY=0}
! Header version: 2018
! Port assignment regex: !\s*Touchstone port\s*([0-9]+)\s*=\s*(CST MWS port|CST DS port)\s*([0-9]+|Zmin|Zmax)\s*\(\"(.*)\"\)(\s*mode\s*([0-9]+))?.*
! Touchstone port assignment:
! Touchstone port 1 = CST MWS port Zmax ("") mode 1
! Touchstone port 2 = CST MWS port Zmax ("") mode 2
! Touchstone port 3 = CST MWS port Zmin ("") mode 1
! Touchstone port 4 = CST MWS port Zmin ("") mode 2
! S-Parameters are not renormalized. Each port impedance will be approximated by the real part at minimum frequency. The values are described via the [Reference] keyword.
! Default impedance is overridden by [Reference]
[Version] 2.0
# GHz S RI R 376.73
[Number of Ports] 4
[Reference]
376.73 376.73 259.814 259.814 
[Number of Frequencies] 51
[Network Data]
281700                  0.176133       0.0414533     -0.000179174     0.000222111         0.545138       -0.814422     -0.000101782    -3.48535e-06
                    -9.26984e-05     0.000233442         0.203237       0.0706896       -3.129e-05    -0.000102872         0.362586       -0.902997
                        0.545168       -0.814216      3.89604e-05    -0.000118031         0.104509        0.144904      0.000154615     -0.00024345
                    -0.000110309     2.34351e-05         0.362245        -0.90338      0.000174386    -0.000277314         0.194215       0.0872323
281702                  0.176136       0.0414573     -0.000179105     0.000222261         0.544902       -0.814579     -0.000101843      -3.415e-06
                    -9.26903e-05     0.000233571         0.203249       0.0706946     -3.13398e-05    -0.000102863         0.362325       -0.903099
                        0.544931       -0.814374      3.87643e-05     -0.00011812         0.104598        0.144845      0.000154601     -0.00024367
                    -0.000110414     2.33923e-05         0.361984       -0.903481      0.000174323    -0.000277465         0.194278       0.0871259
281704                  0.176139       0.0414612     -0.000179035     0.000222412         0.544665       -0.814737     -0.000101903    -3.34477e-06
                    -9.26821e-05       0.0002337         0.203261       0.0706995     -3.13898e-05    -0.000102853         0.362065       -0.903201
                        0.544695       -0.814531      3.85683e-05    -0.000118209         0.104687        0.144786      0.000154587    -0.000243889
                     -0.00011052     2.33493e-05         0.361724       -0.903582       0.00017426    -0.000277615          0.19434       0.0870193
281706                  0.176142       0.0414651     -0.000178966     0.000222562         0.544428       -0.814894     -0.000101964    -3.27468e-06
                    -9.26737e-05      0.00023383         0.203273       0.0707045       -3.144e-05    -0.000102844         0.361804       -0.903302
                        0.544458       -0.814688      3.83727e-05    -0.000118298         0.104776        0.144727      0.000154573    -0.000244109
                    -0.000110624     2.33063e-05         0.361463       -0.903683      0.000174197    -0.000277766         0.194403       0.0869128
281708                  0.176145        0.041469     -0.000178897     0.000222713         0.544191       -0.815051     -0.000102025    -3.20473e-06
                    -9.26653e-05     0.000233959         0.203286       0.0707094     -3.14903e-05    -0.000102834         0.361544       -0.903403
                        0.544221       -0.814846      3.81772e-05    -0.000118387         0.104865        0.144668      0.000154559    -0.000244328
                    -0.000110727     2.32635e-05         0.361203       -0.903784      0.000174135    -0.000277917         0.194465       0.0868062
281710                  0.176148        0.041473     -0.000178828     0.000222864         0.543955       -0.815209     -0.000102086     -3.1349e-06
                    -9.26568e-05     0.000234089         0.203298       0.0707143     -3.15407e-05    -0.000102825         0.361283       -0.903505
                        0.543984       -0.815003       3.7982e-05    -0.000118475         0.104954        0.144609      0.000154545    -0.000244547
                     -0.00011083     2.32209e-05         0.360942       -0.903884      0.000174072    -0.000278067         0.194527       0.0866996
281712                  0.176151       0.0414769     -0.000178759     0.000223015         0.543718       -0.815366     -0.000102146    -3.06521e-06
                    -9.26481e-05     0.000234218          0.20331       0.0707193     -3.15913e-05    -0.000102815         0.361023       -0.903606
                        0.543747        -0.81516       3.7787e-05    -0.000118563         0.105043         0.14455       0.00015453    -0.000244765
                    -0.000110933     2.31785e-05         0.360681       -0.903985       0.00017401    -0.000278218          0.19459       0.0865929
281714                  0.176154       0.0414808      -0.00017869     0.000223166         0.543481       -0.815523     -0.000102207    -2.99564e-06
                    -9.26394e-05     0.000234348         0.203323       0.0707242      -3.1642e-05    -0.000102806         0.360762       -0.903707
                        0.543511       -0.815317      3.75923e-05    -0.000118651         0.105131        0.144491      0.000154515    -0.000244984
                    -0.000111035     2.31364e-05         0.360421       -0.904086      0.000173947    -0.000278369         0.194652       0.0864862
281716                  0.176157       0.0414847     -0.000178621     0.000223317         0.543244        -0.81568     -0.000102267     -2.9262e-06
                    -9.26305e-05     0.000234477         0.203335       0.0707291     -3.16929e-05    -0.000102797         0.360502       -0.903808
                        0.543274       -0.815474      3.73978e-05    -0.000118738          0.10522        0.144431      0.000154501    -0.000245202
                    -0.000111137     2.30947e-05          0.36016       -0.904186      0.000173885    -0.000278519         0.194714       0.0863794
281718                   0.17616       0.0414886     -0.000178553     0.000223468         0.543007       -0.815837     -0.000102328     -2.8569e-06
                    -9.26215e-05     0.000234607         0.203347        0.070734     -3.17438e-05    -0.000102787         0.360241       -0.903909
                        0.543037       -0.815631      3.72036e-05    -0.000118825         0.105309        0.144372      0.000154486     -0.00024542
                    -0.000111238     2.30533e-05         0.359899       -0.904287      0.000173823     -0.00027867         0.194776       0.0862726
281720                  0.176163       0.0414925     -0.000178484      0.00022362          0.54277       -0.815994     -0.000102388    -2.78772e-06
                    -9.26124e-05     0.000234736         0.203359       0.0707389     -3.17949e-05    -0.000102778          0.35998        -0.90401
                          0.5428       -0.815788      3.70095e-05    -0.000118912         0.105397        0.144313       0.00015447    -0.000245638
                    -0.000111339     2.30122e-05         0.359639       -0.904387      0.000173761    -0.000278821         0.194838       0.0861658
281722                  0.176166       0.0414964     -0.000178415     0.000223771         0.542533       -0.816151     -0.000102449    -2.71867e-06
                    -9.26031e-05     0.000234866         0.203372       0.0707439     -3.18461e-05    -0.000102769          0.35972       -0.904111
                        0.542563       -0.815945      3.68157e-05    -0.000118999         0.105486        0.144254      0.000154455    -0.000245855
                     -0.00011144     2.29715e-05         0.359378       -0.904488      0.000173699    -0.000278971           0.1949       0.0860589
281724                  0.176169       0.0415003     -0.000178347     0.000223923         0.542296       -0.816307     -0.000102509    -2.64975e-06
                    -9.25937e-05     0.000234995         0.203384       0.0707488     -3.18973e-05     -0.00010276         0.359459       -0.904212
                        0.542325       -0.816101      3.66221e-05    -0.000119086         0.105574        0.144194       0.00015444    -0.000246073
                    -0.000111541     2.29312e-05         0.359117       -0.904588      0.000173637    -0.000279122         0.194962        0.085952
281726                  0.176172       0.0415042     -0.000178278     0.000224075         0.542058       -0.816464     -0.000102569    -2.58096e-06
                    -9.25842e-05     0.000235125         0.203396       0.0707537     -3.19487e-05    -0.000102751         0.359198       -0.904312
                        0.542088       -0.816258      3.64287e-05    -0.000119172         0.105663        0.144135      0.000154424     -0.00024629
                    -0.000111642     2.28912e-05         0.358856       -0.904688      0.000173575    -0.000279273         0.195024       0.0858451
281728                  0.176175        0.041508      -0.00017821     0.000224227         0.541821       -0.816621      -0.00010263     -2.5123e-06
                    -9.25745e-05     0.000235255         0.203409       0.0707586     -3.20001e-05    -0.000102742         0.358937       -0.904413
                        0.541851       -0.816415      3.62356e-05    -0.000119258         0.105751        0.144075      0.000154409    -0.000246507
                    -0.000111742     2.28515e-05         0.358595       -0.904788      0.000173514    -0.000279423         0.195086       0.0857381
281730                  0.176178       0.0415119     -0.000178142     0.000224379         0.541584       -0.816777      -0.00010269    -2.44376e-06
                    -9.25646e-05     0.000235384         0.203421       0.0707635     -3.20515e-05    -0.000102733         0.358676       -0.904513
                        0.541614       -0.816571      3.60426e-05    -0.000119344          0.10584        0.144016      0.000154393    -0.000246724
                    -0.000111843     2.28121e-05         0.358334       -0.904888      0.000173452    -0.000279574         0.195148       0.0856311
281732                  0.176181       0.0415158     -0.000178073     0.000224531         0.541347       -0.816934      -0.00010275    -2.37537e-06
                    -9.25546e-05     0.000235514         0.203433       0.0707684      -3.2103e-05    -0.000102724         0.358416       -0.904614
                        0.541377       -0.816728      3.58499e-05    -0.000119429         0.105928        0.143956      0.000154377    -0.000246941
                    -0.000111943     2.27731e-05         0.358074       -0.904988       0.00017339    -0.000279724         0.195209        0.085524
281734                  0.176184       0.0415196     -0.000178005     0.000224683         0.541109        -0.81709      -0.00010281     -2.3071e-06
                    -9.25445e-05     0.000235644         0.203445       0.0707732     -3.21545e-05    -0.000102715         0.358155       -0.904714
                        0.541139       -0.816884      3.56574e-05    -0.000119515         0.106016        0.143896      0.000154361    -0.000247157
                    -0.000112044     2.27343e-05         0.357813       -0.905088      0.000173329    -0.000279875         0.195271       0.0854169
281736                  0.176187       0.0415235     -0.000177937     0.000224836         0.540872       -0.817247     -0.000102871    -2.23899e-06
                    -9.25342e-05     0.000235773         0.203458       0.0707781     -3.22061e-05    -0.000102707         0.357894       -0.904814
                        0.540902        -0.81704      3.54651e-05      -0.0001196         0.106105        0.143837      0.000154344    -0.000247374
                    -0.000112145     2.26958e-05         0.357552       -0.905188      0.000173267    -0.000280025         0.195333       0.0853098
281738                   0.17619       0.0415274     -0.000177868     0.000224989         0.540634       -0.817403     -0.000102931    -2.17104e-06
                    -9.25237e-05     0.000235903          0.20347        0.070783     -3.22577e-05    -0.000102698         0.357633       -0.904915
                        0.540664       -0.817197      3.52729e-05    -0.000119685         0.106193        0.143777      0.000154328     -0.00024759
                    -0.000112245     2.26576e-05         0.357291       -0.905288      0.000173206    -0.000280175         0.195394       0.0852026
281740                  0.176193       0.0415312       -0.0001778     0.000225141         0.540397       -0.817559     -0.000102992     -2.1033e-06
                    -9.25131e-05     0.000236033         0.203482       0.0707879     -3.23092e-05    -0.000102689         0.357372       -0.905015
                        0.540427       -0.817353       3.5081e-05    -0.000119769         0.106281        0.143717      0.000154312    -0.000247806
                    -0.000112346     2.26197e-05          0.35703       -0.905388      0.000173144    -0.000280326         0.195456       0.0850954
281742                  0.176196       0.0415351     -0.000177732     0.000225294         0.540159       -0.817715     -0.000103053    -2.03589e-06
                    -9.25023e-05     0.000236163         0.203495       0.0707928     -3.23608e-05    -0.000102681         0.357111       -0.905115
                        0.540189       -0.817509      3.48893e-05    -0.000119854         0.106369        0.143657      0.000154296    -0.000248022
                    -0.000112447     2.25821e-05         0.356769       -0.905487      0.000173083    -0.000280476         0.195517       0.0849882
281744                  0.176199       0.0415389     -0.000177664     0.000225448         0.539922       -0.817871     -0.000103119     -1.9695e-06
                    -9.24913e-05     0.000236293         0.203507       0.0707976     -3.24123e-05    -0.000102673          0.35685       -0.905215
                        0.539952       -0.817665      3.46978e-05    -0.000119938         0.106457        0.143597      0.000154282    -0.000248238
                    -0.000112547     2.25447e-05         0.356507       -0.905587      0.000173021    -0.000280626         0.195578       0.0848809
281746                  0.176202       0.0415427     -0.000177596     0.000225601         0.539684       -0.818027     -0.000103336    -1.98981e-06
                    -9.24802e-05     0.000236422         0.203519       0.0708025     -3.24639e-05    -0.000102664          0.35659       -0.905311
                        0.539714       -0.817821      3.45064e-05    -0.000120021         0.106546        0.143537      0.000154281    -0.000248433
                    -0.000112648     2.25075e-05         0.356246       -0.905686       0.00017296    -0.000280776          0.19564       0.0847737
281748                  0.176205       0.0415466     -0.000177527     0.000225755         0.539446       -0.818183     -0.000103213     -1.8292e-06
                    -9.24689e-05     0.000236552         0.203532       0.0708074     -3.25153e-05    -0.000102656         0.356328       -0.905415
                        0.539477       -0.817977      3.43152e-05    -0.000120105         0.106634        0.143477      0.000154237    -0.000248661
                    -0.000112749     2.24706e-05         0.355985       -0.905785      0.000172899    -0.000280926         0.195701       0.0846661
281750                  0.176208       0.0415504     -0.000177458     0.000225909         0.539209       -0.818339     -0.000103279    -1.76308e-06
                    -9.24574e-05     0.000236682         0.203544       0.0708122     -3.25666e-05    -0.000102648         0.356067       -0.905514
                        0.539239       -0.818132      3.41237e-05    -0.000120188         0.106722        0.143417      0.000154222    -0.000248879
                     -0.00011285      2.2434e-05         0.355724       -0.905885      0.000172837    -0.000281076         0.195762       0.0845587
281752                  0.176211       0.0415542     -0.000177394     0.000226062         0.538971       -0.818495     -0.000103341    -1.69624e-06
                    -9.24458e-05     0.000236812         0.203556       0.0708171     -3.26178e-05     -0.00010264         0.355806       -0.905614
                        0.539001       -0.818288      3.39351e-05    -0.000120273          0.10681        0.143357      0.000154205    -0.000249095
                    -0.000112951     2.23976e-05         0.355463       -0.905984      0.000172776    -0.000281225         0.195823       0.0844513
281754                  0.176214        0.041558     -0.000177324     0.000226215         0.538733       -0.818651     -0.000103401    -1.62931e-06
                    -9.24341e-05     0.000236942         0.203568       0.0708219     -3.26684e-05    -0.000102632         0.355545       -0.905714
                        0.538763       -0.818444      3.37437e-05    -0.000120355         0.106898        0.143297      0.000154187    -0.000249309
                    -0.000113051     2.23614e-05         0.355202       -0.906083      0.000172714    -0.000281375         0.195884       0.0843438
281756                  0.176217       0.0415619     -0.000177256     0.000226369         0.538495       -0.818806     -0.000103461     -1.5624e-06
                    -9.24221e-05     0.000237072         0.203581       0.0708268     -3.27175e-05    -0.000102624         0.355284       -0.905813
                        0.538526       -0.818599      3.35532e-05    -0.000120437         0.106985        0.143236       0.00015417    -0.000249524
                    -0.000113152     2.23255e-05          0.35494       -0.906182      0.000172652    -0.000281523         0.195945       0.0842363
281758                   0.17622       0.0415657     -0.000177188     0.000226524         0.538257       -0.818962      -0.00010352    -1.49557e-06
                      -9.241e-05     0.000237202         0.203593       0.0708316     -3.27611e-05    -0.000102608         0.355023       -0.905913
                        0.538288       -0.818755       3.3363e-05     -0.00012052         0.107073        0.143176      0.000154152    -0.000249738
                    -0.000113253     2.22898e-05         0.354679       -0.906281      0.000172579    -0.000281671         0.196006       0.0841287
281760                  0.176223       0.0415695      -0.00017712     0.000226678          0.53802       -0.819118      -0.00010358    -1.42882e-06
                    -9.23978e-05     0.000237332         0.203605       0.0708364     -3.28278e-05    -0.000102598         0.354761       -0.906012
                         0.53805        -0.81891      3.31729e-05    -0.000120602         0.107161        0.143116      0.000154134    -0.000249952
                    -0.000113354     2.22544e-05         0.354418        -0.90638       0.00017253    -0.000281829         0.196067       0.0840211
281762                  0.176226       0.0415733     -0.000177051     0.000226833         0.537782       -0.819273     -0.000103639    -1.36217e-06
                    -9.23854e-05     0.000237462         0.203618       0.0708413      -3.2879e-05    -0.000102594           0.3545       -0.906111
                        0.537812       -0.819066      3.29831e-05    -0.000120684         0.107249        0.143055      0.000154115    -0.000250166
