! TOUCHSTONE file generated by CST MICROWAVE STUDIO
! Date and time: Tue Oct 14 17:38:14 2025
! Project name: Teste_Macro_Metasurface_Nanopilar.cst
! Parameters = {H=600; L_x=100; L_y=80; Lambda=1064; Max_L=200; Min_L=70; PathPara=1; Phi=0; Step_L=10; Theta=0; p=520; phaseX=180; phaseY=0}
! Header version: 2018
! Port assignment regex: !\s*Touchstone port\s*([0-9]+)\s*=\s*(CST MWS port|CST DS port)\s*([0-9]+|Zmin|Zmax)\s*\(\"(.*)\"\)(\s*mode\s*([0-9]+))?.*
! Touchstone port assignment:
! Touchstone port 1 = CST MWS port Zmax ("") mode 1
! Touchstone port 2 = CST MWS port Zmax ("") mode 2
! Touchstone port 3 = CST MWS port Zmin ("") mode 1
! Touchstone port 4 = CST MWS port Zmin ("") mode 2
! S-Parameters are not renormalized. Each port impedance will be approximated by the real part at minimum frequency. The values are described via the [Reference] keyword.
! Default impedance is overridden by [Reference]
[Version] 2.0
# GHz S RI R 376.73
[Number of Ports] 4
[Reference]
376.73 376.73 259.814 259.814 
[Number of Frequencies] 51
[Network Data]
281700                 0.0257707       -0.111275      0.000328939     0.000145923      -0.00150345        -0.99305     -4.73885e-05     5.06055e-05
                     0.000523409     8.26698e-05       0.00166714      -0.0612227     -9.97772e-05    -1.27403e-05        -0.279867       -0.957434
                     -0.00161716       -0.993202     -0.000104295    -6.65654e-05        0.0260221        0.111287      0.000354972    -0.000189753
                    -0.000223902      0.00012099        -0.280301       -0.957057      0.000259797    -0.000111435        0.0341486       0.0509257
281702                 0.0257583       -0.111273      0.000328939      0.00014587        -0.001744        -0.99305     -4.73743e-05     5.06368e-05
                     0.000523335      8.2491e-05       0.00165725      -0.0612156     -9.97573e-05      -1.269e-05        -0.280112       -0.957363
                     -0.00185809       -0.993203       -0.0001043    -6.65546e-05        0.0260636        0.111273      0.000354897    -0.000189865
                    -0.000223864     0.000121157        -0.280545       -0.956986      0.000259595    -0.000111441        0.0341624       0.0509076
281704                 0.0257459       -0.111272       0.00032894     0.000145816      -0.00198455        -0.99305       -4.736e-05     5.06682e-05
                     0.000523259     8.23124e-05       0.00164736      -0.0612084     -9.97372e-05    -1.26396e-05        -0.280356       -0.957292
                     -0.00209902       -0.993203     -0.000104304    -6.65437e-05        0.0261051        0.111259      0.000354821    -0.000189977
                    -0.000223825     0.000121324         -0.28079       -0.956914      0.000259394    -0.000111447        0.0341762       0.0508895
281706                 0.0257335       -0.111271      0.000328941     0.000145763       -0.0022251        -0.99305     -4.73458e-05     5.06996e-05
                     0.000523182      8.2134e-05       0.00163747      -0.0612013      -9.9717e-05     -1.2589e-05        -0.280601       -0.957221
                     -0.00233995       -0.993203     -0.000104308    -6.65329e-05        0.0261466        0.111246      0.000354745    -0.000190089
                    -0.000223787      0.00012149        -0.281034       -0.956843      0.000259192    -0.000111453        0.0341899       0.0508714
281708                  0.025721       -0.111269      0.000328941      0.00014571      -0.00246565       -0.993049     -4.73316e-05     5.07311e-05
                     0.000523105     8.19557e-05       0.00162759      -0.0611942     -9.96968e-05    -1.25382e-05        -0.280845       -0.957149
                     -0.00258088       -0.993203     -0.000104312     -6.6522e-05         0.026188        0.111232      0.000354669    -0.000190201
                    -0.000223748     0.000121656        -0.281279       -0.956772       0.00025899    -0.000111459        0.0342037       0.0508533
281710                 0.0257086       -0.111268      0.000328942     0.000145657       -0.0027062       -0.993049     -4.73175e-05     5.07626e-05
                     0.000523026     8.17775e-05        0.0016177      -0.0611871     -9.96764e-05    -1.24873e-05         -0.28109       -0.957078
                     -0.00282181       -0.993203     -0.000104316     -6.6511e-05        0.0262295        0.111218      0.000354593    -0.000190313
                    -0.000223709     0.000121822        -0.281523         -0.9567      0.000258788    -0.000111464        0.0342174       0.0508352
281712                 0.0256962       -0.111267      0.000328943     0.000145603      -0.00294675       -0.993049     -4.73033e-05     5.07942e-05
                     0.000522947     8.15994e-05       0.00160782      -0.0611799     -9.96559e-05    -1.24361e-05        -0.281334       -0.957007
                     -0.00306275       -0.993203      -0.00010432    -6.65001e-05         0.026271        0.111204      0.000354516    -0.000190426
                    -0.000223669     0.000121987        -0.281767       -0.956629      0.000258585    -0.000111469        0.0342312        0.050817
281714                 0.0256838       -0.111266      0.000328943      0.00014555       -0.0031873       -0.993049     -4.72892e-05     5.08259e-05
                     0.000522866     8.14215e-05       0.00159793      -0.0611728     -9.96353e-05    -1.23847e-05        -0.281579       -0.956935
                     -0.00330368       -0.993203     -0.000104324    -6.64891e-05        0.0263124         0.11119      0.000354439    -0.000190538
                    -0.000223628     0.000122152        -0.282012       -0.956557      0.000258383    -0.000111474        0.0342449       0.0507989
281716                 0.0256714       -0.111264      0.000328944     0.000145497      -0.00342785       -0.993048     -4.72751e-05     5.08577e-05
                     0.000522785     8.12437e-05       0.00158805      -0.0611657     -9.96147e-05    -1.23331e-05        -0.281823       -0.956864
                     -0.00354462       -0.993203     -0.000104328    -6.64781e-05        0.0263539        0.111176      0.000354363    -0.000190651
                    -0.000223587     0.000122316        -0.282256       -0.956486       0.00025818    -0.000111479        0.0342586       0.0507808
281718                  0.025659       -0.111263      0.000328944     0.000145443       -0.0036684       -0.993048      -4.7261e-05     5.08895e-05
                     0.000522702      8.1066e-05       0.00157816      -0.0611586     -9.95939e-05    -1.22813e-05        -0.282068       -0.956792
                     -0.00378555       -0.993203     -0.000104332    -6.64671e-05        0.0263953        0.111162      0.000354286    -0.000190764
                    -0.000223545     0.000122481          -0.2825       -0.956414      0.000257976    -0.000111484        0.0342723       0.0507627
281720                 0.0256466       -0.111262      0.000328944      0.00014539      -0.00390895       -0.993047      -4.7247e-05     5.09214e-05
                     0.000522619     8.08884e-05       0.00156828      -0.0611514     -9.95731e-05    -1.22292e-05        -0.282312       -0.956721
                     -0.00402649       -0.993203     -0.000104336     -6.6456e-05        0.0264367        0.111148      0.000354208    -0.000190877
                    -0.000223502     0.000122646        -0.282745       -0.956342      0.000257773    -0.000111488         0.034286       0.0507445
281722                 0.0256341       -0.111261      0.000328945     0.000145337       -0.0041495       -0.993046      -4.7233e-05     5.09534e-05
                     0.000522535     8.07109e-05        0.0015584      -0.0611443     -9.95522e-05    -1.21769e-05        -0.282556       -0.956649
                     -0.00426743       -0.993203     -0.000104341    -6.64449e-05        0.0264782        0.111134      0.000354131    -0.000190991
                    -0.000223459     0.000122811        -0.282989        -0.95627      0.000257569    -0.000111493        0.0342997       0.0507264
281724                 0.0256217       -0.111259      0.000328945     0.000145284      -0.00439006       -0.993046      -4.7219e-05     5.09855e-05
                      0.00052245     8.05335e-05       0.00154852      -0.0611372     -9.95313e-05    -1.21244e-05        -0.282801       -0.956577
                     -0.00450837       -0.993202     -0.000104345    -6.64338e-05        0.0265196         0.11112      0.000354053    -0.000191104
                    -0.000223414     0.000122976        -0.283233       -0.956198      0.000257364    -0.000111497        0.0343134       0.0507083
281726                 0.0256093       -0.111258      0.000328945     0.000145231      -0.00463061       -0.993045      -4.7205e-05     5.10176e-05
                     0.000522364     8.03562e-05       0.00153864        -0.06113     -9.95103e-05    -1.20715e-05        -0.283045       -0.956506
                      -0.0047493       -0.993202     -0.000104349    -6.64227e-05         0.026561        0.111106      0.000353975    -0.000191218
                     -0.00022337     0.000123143        -0.283478       -0.956126       0.00025716    -0.000111501        0.0343271       0.0506901
281728                 0.0255969       -0.111257      0.000328945     0.000145177      -0.00487116       -0.993044     -4.71911e-05     5.10499e-05
                     0.000522278      8.0179e-05       0.00152876      -0.0611229     -9.94892e-05    -1.20184e-05        -0.283289       -0.956434
                     -0.00499024       -0.993202     -0.000104353    -6.64116e-05        0.0266024        0.111092      0.000353897    -0.000191331
                    -0.000223325     0.000123309        -0.283722       -0.956054      0.000256955    -0.000111505        0.0343407        0.050672
281730                 0.0255845       -0.111255      0.000328945     0.000145124      -0.00511172       -0.993044     -4.71772e-05     5.10822e-05
                      0.00052219     8.00018e-05       0.00151889      -0.0611158     -9.94682e-05     -1.1965e-05        -0.283534       -0.956362
                     -0.00523118       -0.993201     -0.000104357    -6.64004e-05        0.0266438        0.111078      0.000353819    -0.000191445
                    -0.000223281     0.000123476        -0.283966       -0.955982      0.000256749    -0.000111508        0.0343544       0.0506539
281732                 0.0255721       -0.111254      0.000328945     0.000145071      -0.00535227       -0.993043     -4.71634e-05     5.11146e-05
                     0.000522102     7.98248e-05       0.00150901      -0.0611086     -9.94471e-05    -1.19114e-05        -0.283778        -0.95629
                     -0.00547212       -0.993201     -0.000104361    -6.63892e-05        0.0266852        0.111064       0.00035374     -0.00019156
                    -0.000223236     0.000123643        -0.284211        -0.95591      0.000256543    -0.000111512         0.034368       0.0506357
281734                 0.0255596       -0.111253      0.000328945     0.000145018      -0.00559283       -0.993042     -4.71496e-05     5.11472e-05
                     0.000522014     7.96478e-05       0.00149913      -0.0611015      -9.9426e-05    -1.18574e-05        -0.284022       -0.956218
                     -0.00571306         -0.9932     -0.000104365     -6.6378e-05        0.0267266         0.11105      0.000353661    -0.000191674
                    -0.000223191      0.00012381        -0.284455       -0.955838      0.000256337    -0.000111516        0.0343816       0.0506176
281736                 0.0255472       -0.111252      0.000328945     0.000144964      -0.00583338       -0.993041     -4.71359e-05     5.11798e-05
                     0.000521926     7.94709e-05       0.00148926      -0.0610944     -9.94049e-05    -1.18031e-05        -0.284267       -0.956146
                       -0.005954       -0.993199     -0.000104369    -6.63667e-05        0.0267679        0.111036      0.000353582    -0.000191789
                    -0.000223146     0.000123978        -0.284699       -0.955766      0.000256129    -0.000111519        0.0343953       0.0505994
281738                 0.0255348        -0.11125      0.000328945     0.000144911      -0.00607394        -0.99304     -4.71222e-05     5.12125e-05
                     0.000521839     7.92942e-05       0.00147939      -0.0610872     -9.93838e-05    -1.17485e-05        -0.284511       -0.956074
                     -0.00619493       -0.993199     -0.000104373    -6.63554e-05        0.0268093        0.111022      0.000353503    -0.000191903
                    -0.000223101     0.000124145        -0.284943       -0.955693      0.000255922    -0.000111523        0.0344089       0.0505813
281740                 0.0255224       -0.111249      0.000328945     0.000144858       -0.0063145       -0.993039     -4.71087e-05     5.12452e-05
                     0.000521759     7.91185e-05       0.00146951      -0.0610801     -9.93627e-05    -1.16936e-05        -0.284755       -0.956002
                     -0.00643584       -0.993198     -0.000104377    -6.63441e-05        0.0268507        0.111007      0.000353424    -0.000192018
                    -0.000223055     0.000124313        -0.285187       -0.955621      0.000255714    -0.000111526        0.0344225       0.0505631
281742                   0.02551       -0.111248      0.000328945     0.000144805      -0.00655506       -0.993037     -4.70952e-05     5.12781e-05
                     0.000521722      7.8967e-05       0.00145964      -0.0610729     -9.93417e-05    -1.16383e-05        -0.284999       -0.955929
                     -0.00667639       -0.993197     -0.000104381    -6.63328e-05         0.026892        0.110993      0.000353344    -0.000192134
                     -0.00022301     0.000124481        -0.285431       -0.955549      0.000255505     -0.00011153        0.0344361        0.050545
281744                 0.0254976       -0.111246      0.000328944     0.000144752      -0.00679561       -0.993036      -4.7082e-05     5.13109e-05
                     0.000521479     7.87978e-05       0.00144977      -0.0610658     -9.93207e-05    -1.15827e-05        -0.285244       -0.955857
                     -0.00691787       -0.993196     -0.000104385    -6.63215e-05        0.0269334        0.110979      0.000353265    -0.000192249
                    -0.000222965     0.000124649        -0.285676       -0.955476      0.000255296    -0.000111534        0.0344497       0.0505268
281746                 0.0254851       -0.111245      0.000328944     0.000144699      -0.00703617       -0.993035     -4.70692e-05     5.13437e-05
                      0.00052142     7.85964e-05        0.0014399      -0.0610586     -9.92997e-05    -1.15268e-05        -0.285488       -0.955785
                     -0.00715877       -0.993195     -0.000104389    -6.63101e-05        0.0269747        0.110965      0.000353186    -0.000192365
                     -0.00022292     0.000124817         -0.28592       -0.955403      0.000255085    -0.000111537        0.0344632       0.0505087
281748                 0.0254727       -0.111244      0.000328944     0.000144645      -0.00727674       -0.993033      -4.7057e-05     5.13763e-05
                     0.000521334     7.84166e-05       0.00143003      -0.0610515     -9.92789e-05    -1.14704e-05        -0.285732       -0.955712
                      -0.0073997       -0.993194     -0.000104393    -6.62987e-05         0.027016        0.110951      0.000353107    -0.000192481
                    -0.000222875     0.000124984        -0.286164       -0.955331      0.000254875    -0.000111541        0.0344768       0.0504905
281750                 0.0254603       -0.111242      0.000328943     0.000144592       -0.0075173       -0.993032     -4.70463e-05     5.14084e-05
                     0.000521242     7.82391e-05       0.00142016      -0.0610443     -9.92581e-05    -1.14137e-05        -0.285976        -0.95564
                     -0.00764064       -0.993193     -0.000104397    -6.62873e-05        0.0270573        0.110937       0.00035303    -0.000192598
                     -0.00022283     0.000125152        -0.286408       -0.955258      0.000254663    -0.000111545        0.0344903       0.0504723
281752                 0.0254479       -0.111241      0.000328943     0.000144539      -0.00775786       -0.993031     -4.70401e-05     5.14389e-05
                     0.000521146     7.80623e-05       0.00141029      -0.0610372     -9.92374e-05    -1.13567e-05         -0.28622       -0.955567
                     -0.00788158       -0.993192       -0.0001044    -6.62758e-05        0.0270987        0.110922      0.000352957    -0.000192716
                    -0.000222785     0.000125319        -0.286652       -0.955185      0.000254451    -0.000111549        0.0345039       0.0504542
281754                 0.0254355        -0.11124      0.000328942     0.000144486      -0.00799842       -0.993029     -4.70619e-05      5.1467e-05
                      0.00052105     7.78859e-05       0.00140043        -0.06103     -9.92168e-05    -1.12992e-05        -0.286465       -0.955494
                     -0.00812253       -0.993191     -0.000104404    -6.62644e-05          0.02714        0.110908      0.000352911    -0.000192848
                    -0.000222739     0.000125485        -0.286896       -0.955112      0.000254238    -0.000111553        0.0345174        0.050436
281756                 0.0254231       -0.111239      0.000328942     0.000144433      -0.00823899       -0.993027     -4.69548e-05      5.1584e-05
                     0.000520951     7.77096e-05       0.00139056      -0.0610229     -9.91963e-05    -1.12414e-05        -0.286708       -0.955422
                     -0.00836347       -0.993189     -0.000104408    -6.62529e-05        0.0271813        0.110894      0.000352654    -0.000192964
                    -0.000222693     0.000125651         -0.28714        -0.95504      0.000254024    -0.000111558         0.034531       0.0504179
281758                 0.0254107       -0.111237      0.000328941      0.00014438      -0.00847955       -0.993026     -4.69602e-05     5.15694e-05
                     0.000520852     7.75334e-05        0.0013807      -0.0610157      -9.9176e-05    -1.11832e-05        -0.286953       -0.955349
                     -0.00860441       -0.993188     -0.000104412    -6.62414e-05        0.0272226         0.11088      0.000352652    -0.000193058
                    -0.000222646     0.000125818        -0.287384       -0.954967       0.00025381    -0.000111562        0.0345445       0.0503996
281760                 0.0253983       -0.111236       0.00032894     0.000144327      -0.00872012       -0.993024     -4.69527e-05     5.15967e-05
                     0.000520752     7.73574e-05       0.00137083      -0.0610086     -9.91557e-05    -1.11246e-05        -0.287197       -0.955276
                     -0.00884536       -0.993187     -0.000104416    -6.62298e-05        0.0272638        0.110865      0.000352582    -0.000193174
                    -0.000222598     0.000125985        -0.287628       -0.954894      0.000253594    -0.000111567         0.034558       0.0503815
281762                 0.0253858       -0.111235      0.000328939     0.000144274      -0.00896069       -0.993022     -4.69415e-05     5.16287e-05
                     0.000520651     7.71814e-05       0.00136097      -0.0610014     -9.91356e-05    -1.10655e-05        -0.287441       -0.955203
                      -0.0090863       -0.993185      -0.00010442    -6.62183e-05        0.0273051        0.110851      0.000352503    -0.000193292
