! TOUCHSTONE file generated by CST MICROWAVE STUDIO
! Date and time: Tue Oct 14 17:39:06 2025
! Project name: Teste_Macro_Metasurface_Nanopilar.cst
! Parameters = {H=600; L_x=170; L_y=130; Lambda=1064; Max_L=200; Min_L=70; PathPara=1; Phi=0; Step_L=10; Theta=0; p=520; phaseX=180; phaseY=0}
! Header version: 2018
! Port assignment regex: !\s*Touchstone port\s*([0-9]+)\s*=\s*(CST MWS port|CST DS port)\s*([0-9]+|Zmin|Zmax)\s*\(\"(.*)\"\)(\s*mode\s*([0-9]+))?.*
! Touchstone port assignment:
! Touchstone port 1 = CST MWS port Zmax ("") mode 1
! Touchstone port 2 = CST MWS port Zmax ("") mode 2
! Touchstone port 3 = CST MWS port Zmin ("") mode 1
! Touchstone port 4 = CST MWS port Zmin ("") mode 2
! S-Parameters are not renormalized. Each port impedance will be approximated by the real part at minimum frequency. The values are described via the [Reference] keyword.
! Default impedance is overridden by [Reference]
[Version] 2.0
# GHz S RI R 376.73
[Number of Ports] 4
[Reference]
376.73 376.73 259.814 259.814 
[Number of Frequencies] 51
[Network Data]
281700                  0.110275        0.157838     -0.000399566     0.000441159         0.923901       -0.317487     -5.25118e-05    -0.000301248
                    -0.000488661     0.000306077         0.190787       -0.130263        6.402e-05    -0.000435425         0.813749       -0.521025
                        0.924375       -0.317906      -0.00010375    -0.000385241        0.0112531        0.190891      0.000672214     4.92659e-05
                     2.37754e-05    -0.000139195         0.813972       -0.520277      0.000427387     0.000120516         -0.19508        0.109022
281702                   0.11029         0.15786     -0.000399213     0.000440905         0.923793       -0.317783     -5.26018e-05    -0.000301234
                    -0.000488467     0.000306265         0.190752       -0.130202      6.39531e-05    -0.000435432         0.813577       -0.521326
                        0.924267       -0.318203     -0.000103991    -0.000384495        0.0113779         0.19091      0.000672301      4.8944e-05
                     2.34934e-05    -0.000139018           0.8138       -0.520575       0.00042737     0.000120027        -0.194932         0.10916
281704                  0.110305        0.157881     -0.000398862     0.000440657         0.923686       -0.318079     -5.26921e-05    -0.000301218
                    -0.000488274     0.000306454         0.190718       -0.130142      6.38859e-05    -0.000435439         0.813404       -0.521626
                        0.924158         -0.3185     -0.000104234    -0.000383756        0.0115027        0.190928      0.000672388     4.86197e-05
                     2.32112e-05    -0.000138842         0.813627       -0.520873      0.000427353     0.000119538        -0.194784        0.109298
281706                   0.11032        0.157902     -0.000398513     0.000440415         0.923578       -0.318375      -5.2783e-05    -0.000301202
                     -0.00048808     0.000306643         0.190683       -0.130081      6.38185e-05    -0.000435445         0.813231       -0.521926
                         0.92405       -0.318797      -0.00010448    -0.000383024        0.0116276        0.190946      0.000672476     4.82932e-05
                      2.2929e-05    -0.000138665         0.813455       -0.521171      0.000427337     0.000119048        -0.194636        0.109436
281708                  0.110335        0.157924     -0.000398165      0.00044018         0.923471       -0.318671     -5.28742e-05    -0.000301184
                    -0.000487887     0.000306832         0.190648        -0.13002      6.37508e-05     -0.00043545         0.813059       -0.522227
                        0.923942       -0.319094     -0.000104727    -0.000382299        0.0117525        0.190964      0.000672564     4.79643e-05
                     2.26468e-05    -0.000138489         0.813282       -0.521469      0.000427321     0.000118559        -0.194488        0.109573
281710                   0.11035        0.157945     -0.000397818      0.00043995         0.923363       -0.318967     -5.29659e-05    -0.000301164
                    -0.000487694     0.000307022         0.190613        -0.12996      6.36829e-05    -0.000435454         0.812886       -0.522527
                        0.923833       -0.319391     -0.000104978    -0.000381582        0.0118775        0.190982      0.000672653     4.76329e-05
                     2.23645e-05    -0.000138313          0.81311       -0.521766      0.000427305      0.00011807         -0.19434        0.109711
281712                  0.110365        0.157966     -0.000397473     0.000439726         0.923255       -0.319263     -5.30581e-05    -0.000301144
                    -0.000487501     0.000307212         0.190578       -0.129899      6.36146e-05    -0.000435457         0.812713       -0.522827
                        0.923724       -0.319688     -0.000105231    -0.000380871        0.0120025           0.191      0.000672741      4.7299e-05
                     2.20821e-05    -0.000138138         0.812937       -0.522064      0.000427289      0.00011758        -0.194192        0.109848
281714                   0.11038        0.157988     -0.000397129     0.000439508         0.923147       -0.319559     -5.31507e-05    -0.000301122
                    -0.000487308     0.000307403         0.190543       -0.129839       6.3546e-05     -0.00043546          0.81254       -0.523127
                        0.923615       -0.319985     -0.000105486    -0.000380167        0.0121275        0.191018       0.00067283     4.69625e-05
                     2.17996e-05    -0.000137962         0.812764       -0.522362      0.000427273     0.000117091        -0.194044        0.109985
281716                  0.110395        0.158009     -0.000396787     0.000439295         0.923039       -0.319855     -5.32438e-05    -0.000301099
                    -0.000487115     0.000307594         0.190509       -0.129778      6.34771e-05    -0.000435461         0.812367       -0.523427
                        0.923507       -0.320282     -0.000105743     -0.00037947        0.0122525        0.191035      0.000672918     4.66232e-05
                      2.1517e-05    -0.000137786         0.812591       -0.522659      0.000427258     0.000116601        -0.193895        0.110122
281718                   0.11041        0.158031     -0.000396446     0.000439087         0.922931       -0.320151     -5.33373e-05    -0.000301074
                    -0.000486922     0.000307786         0.190474       -0.129718      6.34079e-05    -0.000435462         0.812194       -0.523726
                        0.923398       -0.320579     -0.000106003    -0.000378779        0.0123776        0.191053      0.000673007     4.62812e-05
                     2.12342e-05    -0.000137611         0.812418       -0.522957      0.000427244     0.000116112        -0.193747        0.110259
281720                  0.110425        0.158052     -0.000396105     0.000438885         0.922823       -0.320446     -5.34313e-05    -0.000301048
                    -0.000486729     0.000307978         0.190439       -0.129657      6.33383e-05    -0.000435461         0.812021       -0.524026
                        0.923288       -0.320876     -0.000106266    -0.000378094        0.0125027         0.19107      0.000673096     4.59363e-05
                     2.09514e-05    -0.000137435         0.812245       -0.523254       0.00042723     0.000115622        -0.193599        0.110395
281722                   0.11044        0.158073     -0.000395766     0.000438688         0.922715       -0.320742     -5.35258e-05     -0.00030102
                    -0.000486537     0.000308171         0.190405       -0.129597      6.32683e-05     -0.00043546         0.811847       -0.524325
                        0.923179       -0.321172      -0.00010653    -0.000377415        0.0126279        0.191088      0.000673185     4.55884e-05
                     2.06684e-05     -0.00013726         0.812071       -0.523551      0.000427217     0.000115131         -0.19345        0.110532
281724                  0.110455        0.158095     -0.000395428     0.000438496         0.922606       -0.321038     -5.36207e-05    -0.000300991
                    -0.000486344     0.000308364          0.19037       -0.129537      6.31978e-05    -0.000435457         0.811674       -0.524625
                         0.92307       -0.321469     -0.000106798    -0.000376742        0.0127531        0.191105      0.000673273     4.52375e-05
                     2.03853e-05    -0.000137085         0.811898       -0.523848      0.000427204     0.000114641        -0.193302        0.110668
281726                   0.11047        0.158116     -0.000395091     0.000438308         0.922498       -0.321334     -5.37161e-05     -0.00030096
                    -0.000486151     0.000308557         0.190336       -0.129476       6.3127e-05    -0.000435453           0.8115       -0.524924
                        0.922961       -0.321766     -0.000107067    -0.000376075        0.0128783        0.191123      0.000673362     4.48834e-05
                     2.01021e-05     -0.00013691         0.811724       -0.524146      0.000427193      0.00011415        -0.193153        0.110804
281728                  0.110485        0.158138     -0.000394755     0.000438126         0.922389        -0.32163      -5.3812e-05    -0.000300927
                    -0.000485959     0.000308751         0.190301       -0.129416      6.30556e-05    -0.000435447         0.811326       -0.525223
                        0.922851       -0.322063     -0.000107339    -0.000375413        0.0130035         0.19114       0.00067345     4.45261e-05
                     1.98186e-05    -0.000136735          0.81155       -0.524443      0.000427182     0.000113658        -0.193005         0.11094
281730                    0.1105        0.158159     -0.000394419     0.000437948         0.922281       -0.321925     -5.39084e-05    -0.000300893
                    -0.000485767     0.000308945         0.190267       -0.129355      6.29838e-05    -0.000435441         0.811153       -0.525523
                        0.922742        -0.32236     -0.000107614    -0.000374757        0.0131288        0.191157      0.000673538     4.41655e-05
                      1.9535e-05     -0.00013656         0.811377       -0.524739      0.000427173     0.000113167        -0.192856        0.111076
281732                  0.110515        0.158181     -0.000394085     0.000437774         0.922172       -0.322221     -5.40053e-05    -0.000300857
                    -0.000485574      0.00030914         0.190232       -0.129295      6.29114e-05    -0.000435433         0.810979       -0.525822
                        0.922632       -0.322656      -0.00010789    -0.000374106        0.0132541        0.191174      0.000673625     4.38014e-05
                     1.92513e-05    -0.000136385         0.811203       -0.525036      0.000427164     0.000112674        -0.192708        0.111212
281734                   0.11053        0.158202     -0.000393751     0.000437605         0.922063       -0.322517     -5.41027e-05    -0.000300818
                    -0.000485382     0.000309335         0.190198       -0.129235      6.28385e-05    -0.000435423         0.810805       -0.526121
                        0.922522       -0.322953      -0.00010817     -0.00037346        0.0133794        0.191191      0.000673712     4.34339e-05
                     1.89673e-05    -0.000136211         0.811029       -0.525333      0.000427157     0.000112181        -0.192559        0.111348
281736                  0.110545        0.158223     -0.000393418     0.000437441         0.921954       -0.322812     -5.42006e-05    -0.000300778
                     -0.00048519     0.000309531         0.190163       -0.129175       6.2765e-05    -0.000435412         0.810631       -0.526419
                        0.922412       -0.323249     -0.000108451    -0.000372819        0.0135048        0.191208      0.000673798     4.30626e-05
                     1.86831e-05    -0.000136036         0.810854        -0.52563      0.000427152     0.000111688         -0.19241        0.111483
281738                   0.11056        0.158245     -0.000393085      0.00043728         0.921845       -0.323108     -5.42991e-05    -0.000300736
                    -0.000484997     0.000309727         0.190129       -0.129114      6.26908e-05    -0.000435399         0.810457       -0.526718
                        0.922302       -0.323546     -0.000108735    -0.000372183        0.0136302        0.191225      0.000673884     4.26877e-05
                     1.83987e-05    -0.000135862          0.81068       -0.525926      0.000427148     0.000111193        -0.192261        0.111618
281740                  0.110575        0.158266     -0.000392753     0.000437124         0.921736       -0.323403      -5.4398e-05    -0.000300691
                    -0.000484805     0.000309923         0.190095       -0.129054      6.26159e-05    -0.000435384         0.810282       -0.527017
                        0.922192       -0.323843     -0.000109021    -0.000371552        0.0137557        0.191242      0.000673969     4.23088e-05
                     1.81141e-05    -0.000135687         0.810506       -0.526223      0.000427145     0.000110698        -0.192112        0.111753
281742                   0.11059        0.158288     -0.000392422     0.000436972         0.921626       -0.323699     -5.44974e-05    -0.000300644
                    -0.000484613     0.000310119         0.190061       -0.128994      6.25403e-05    -0.000435368         0.810108       -0.527315
                        0.922082       -0.324139      -0.00010931    -0.000370926        0.0138811        0.191259      0.000674053     4.19261e-05
                     1.78292e-05    -0.000135513         0.810331       -0.526519      0.000427145     0.000110202        -0.191964        0.111888
281744                  0.110605        0.158309     -0.000392091     0.000436824         0.921517       -0.323994     -5.45973e-05    -0.000300595
                    -0.000484421     0.000310316         0.190026       -0.128934      6.24639e-05     -0.00043535         0.809934       -0.527614
                        0.921972       -0.324436     -0.000109601    -0.000370304        0.0140066        0.191275      0.000674137     4.15392e-05
                     1.75441e-05    -0.000135339         0.810157       -0.526815      0.000427147     0.000109705        -0.191815        0.112023
281746                   0.11062        0.158331     -0.000391761     0.000436679         0.921407       -0.324289     -5.46977e-05    -0.000300543
                    -0.000484229     0.000310514         0.189992       -0.128874      6.23866e-05     -0.00043533         0.809759       -0.527912
                        0.921861       -0.324732     -0.000109894    -0.000369687        0.0141322        0.191292      0.000674219     4.11482e-05
                     1.72587e-05    -0.000135165         0.809982       -0.527112       0.00042715     0.000109207        -0.191666        0.112158
281748                  0.110635        0.158352     -0.000391431     0.000436539         0.921298       -0.324585     -5.47986e-05    -0.000300488
                    -0.000484037     0.000310712         0.189958       -0.128814      6.23084e-05    -0.000435308         0.809584        -0.52821
                        0.921751       -0.325029      -0.00011019    -0.000369074        0.0142577        0.191309        0.0006743     4.07528e-05
                     1.69731e-05    -0.000134991         0.809807       -0.527408      0.000427156     0.000108708        -0.191517        0.112292
281750                   0.11065        0.158374     -0.000391102     0.000436402         0.921188        -0.32488     -5.48999e-05    -0.000300431
                    -0.000483845      0.00031091         0.189924       -0.128754      6.22293e-05    -0.000435284          0.80941       -0.528508
                         0.92164       -0.325325     -0.000110488    -0.000368465        0.0143833        0.191325      0.000674379      4.0353e-05
                     1.66872e-05    -0.000134817         0.809632       -0.527704      0.000427165     0.000108207        -0.191368        0.112427
281752                  0.110665        0.158395     -0.000390773     0.000436269         0.921078       -0.325175     -5.50017e-05     -0.00030037
                    -0.000483652     0.000311108          0.18989       -0.128694      6.21492e-05    -0.000435258         0.809235       -0.528806
                         0.92153       -0.325621     -0.000110788     -0.00036786         0.014509        0.191341      0.000674458     3.99487e-05
                     1.64009e-05    -0.000134643         0.809457          -0.528      0.000427176     0.000107705        -0.191218        0.112561
281754                   0.11068        0.158417     -0.000390445      0.00043614         0.920968        -0.32547     -5.51037e-05    -0.000300307
                     -0.00048346     0.000311307         0.189856       -0.128634       6.2068e-05     -0.00043523          0.80906       -0.529104
                        0.921419       -0.325918     -0.000111091    -0.000367259        0.0146346        0.191358      0.000674534     3.95396e-05
                     1.61143e-05    -0.000134469         0.809282       -0.528295       0.00042719     0.000107201        -0.191069        0.112695
281756                  0.110695        0.158439     -0.000390116     0.000436014         0.920858       -0.325766      -5.5206e-05    -0.000300239
                    -0.000483268     0.000311506         0.189822       -0.128574      6.19858e-05    -0.000435201         0.808885       -0.529402
                        0.921308       -0.326214     -0.000111396    -0.000366662        0.0147603        0.191374      0.000674609     3.91257e-05
                     1.58274e-05    -0.000134295         0.809107       -0.528591      0.000427206     0.000106696         -0.19092        0.112829
281758                   0.11071         0.15846     -0.000389788     0.000435891         0.920748       -0.326061     -5.53085e-05    -0.000300168
                    -0.000483076     0.000311706         0.189788       -0.128514      6.19023e-05     -0.00043517          0.80871         -0.5297
                        0.921197        -0.32651     -0.000111703    -0.000366069         0.014886         0.19139      0.000674682     3.87068e-05
                     1.55402e-05    -0.000134122         0.808931       -0.528887      0.000427224     0.000106188        -0.190771        0.112962
281760                  0.110725        0.158482      -0.00038946     0.000435772         0.920637       -0.326356      -5.5411e-05    -0.000300093
                    -0.000482884     0.000311906         0.189754       -0.128454      6.18177e-05    -0.000435139         0.808534       -0.529997
                        0.921086       -0.326807     -0.000112014     -0.00036548        0.0150118        0.191406      0.000674752     3.82826e-05
                     1.52525e-05    -0.000133948         0.808756       -0.529182      0.000427245      0.00010568        -0.190621        0.113096
281762                   0.11074        0.158503     -0.000389133     0.000435656         0.920527       -0.326651     -5.55132e-05    -0.000300014
                    -0.000482692     0.000312106          0.18972       -0.128394      6.17319e-05    -0.000435107         0.808359       -0.530295
                        0.920975       -0.327103     -0.000112326    -0.000364894        0.0151376        0.191422      0.000674821      3.7853e-05
