! TOUCHSTONE file generated by CST MICROWAVE STUDIO
! Date and time: Tue Oct 14 17:39:00 2025
! Project name: Teste_Macro_Metasurface_Nanopilar.cst
! Parameters = {H=600; L_x=160; L_y=150; Lambda=1064; Max_L=200; Min_L=70; PathPara=1; Phi=0; Step_L=10; Theta=0; p=520; phaseX=180; phaseY=0}
! Header version: 2018
! Port assignment regex: !\s*Touchstone port\s*([0-9]+)\s*=\s*(CST MWS port|CST DS port)\s*([0-9]+|Zmin|Zmax)\s*\(\"(.*)\"\)(\s*mode\s*([0-9]+))?.*
! Touchstone port assignment:
! Touchstone port 1 = CST MWS port Zmax ("") mode 1
! Touchstone port 2 = CST MWS port Zmax ("") mode 2
! Touchstone port 3 = CST MWS port Zmin ("") mode 1
! Touchstone port 4 = CST MWS port Zmin ("") mode 2
! S-Parameters are not renormalized. Each port impedance will be approximated by the real part at minimum frequency. The values are described via the [Reference] keyword.
! Default impedance is overridden by [Reference]
[Version] 2.0
# GHz S RI R 376.73
[Number of Ports] 4
[Reference]
376.73 376.73 259.814 259.814 
[Number of Frequencies] 51
[Network Data]
281700                  0.206279        -0.12005      0.000631199    -0.000240643         0.861564        -0.43018      0.000207891     0.000427589
                     0.000618095    -0.000209764         0.171108      -0.0570402      1.50557e-05     0.000445269         0.771519        -0.60175
                        0.861744       -0.430022      3.48241e-05     0.000450445        -0.214661       0.0806044     -0.000544754     0.000245708
                     0.000226701     0.000376294         0.771447       -0.601724     -0.000606879     0.000284839       -0.0958046        0.145517
281702                  0.206223       -0.119972      0.000630956    -0.000240725         0.861421       -0.430523      0.000208012     0.000427274
                     0.000618071    -0.000209854         0.171094      -0.0570016      1.52396e-05     0.000445197         0.771328       -0.602004
                        0.861599       -0.430371      3.49795e-05     0.000450215        -0.214501       0.0807842     -0.000544508     0.000245887
                       0.0002265     0.000375884         0.771257       -0.601978     -0.000605769     0.000285379       -0.0956692        0.145578
281704                  0.206166       -0.119894      0.000630713    -0.000240808         0.861278       -0.430866      0.000208133     0.000426959
                     0.000618047    -0.000209945         0.171081       -0.056963       1.5423e-05     0.000445118         0.771138       -0.602258
                        0.861454       -0.430719      3.51345e-05     0.000449985        -0.214341       0.0809636     -0.000544262     0.000246066
                     0.000226297     0.000375474         0.771066       -0.602232      -0.00060471       0.0002859       -0.0955337        0.145639
281706                   0.20611       -0.119816      0.000630469    -0.000240891         0.861134       -0.431209      0.000208253     0.000426644
                     0.000618023    -0.000210036         0.171067      -0.0569244      1.56058e-05     0.000445031         0.770947       -0.602511
                        0.861308       -0.431067      3.52892e-05     0.000449755        -0.214181       0.0811427     -0.000544016     0.000246245
                     0.000226094     0.000375065         0.770875       -0.602486     -0.000603708     0.000286401       -0.0953982        0.145699
281708                  0.206054       -0.119739      0.000630226    -0.000240973         0.860988       -0.431553      0.000208373     0.000426329
                     0.000617999    -0.000210128         0.171054      -0.0568859      1.57878e-05     0.000444936         0.770755       -0.602765
                        0.861163       -0.431415      3.54436e-05     0.000449524        -0.214021       0.0813215     -0.000543771     0.000246424
                      0.00022589     0.000374657         0.770684       -0.602739     -0.000602769      0.00028688       -0.0952627         0.14576
281710                  0.205997       -0.119661      0.000629982    -0.000241056         0.860842       -0.431897      0.000208493     0.000426014
                     0.000617975     -0.00021022          0.17104      -0.0568473       1.5969e-05     0.000444832         0.770564       -0.603018
                        0.861017       -0.431763      3.55977e-05     0.000449294        -0.213862          0.0815     -0.000543525     0.000246603
                     0.000225685      0.00037425         0.770493       -0.602993     -0.000601899     0.000287338       -0.0951272        0.145821
281712                  0.205941       -0.119583      0.000629739    -0.000241138         0.860695       -0.432241      0.000208612     0.000425699
                     0.000617951    -0.000210312         0.171027      -0.0568088      1.61493e-05     0.000444718         0.770373       -0.603272
                        0.860871        -0.43211      3.57514e-05     0.000449064        -0.213704       0.0816783      -0.00054328     0.000246781
                     0.000225479     0.000373844         0.770302       -0.603246     -0.000601108      0.00028777       -0.0949917        0.145881
281714                  0.205885       -0.119505      0.000629495     -0.00024122         0.860547       -0.432587      0.000208731     0.000425385
                     0.000617926    -0.000210405         0.171014      -0.0567703      1.63284e-05     0.000444591         0.770182       -0.603525
                        0.860725       -0.432458      3.59048e-05     0.000448835        -0.213545       0.0818562     -0.000543035      0.00024696
                     0.000225273     0.000373439         0.770111       -0.603499     -0.000600405     0.000288176       -0.0948561        0.145942
281716                  0.205829       -0.119428      0.000629252    -0.000241301         0.860398       -0.432933      0.000208849      0.00042507
                     0.000617902    -0.000210498            0.171      -0.0567318      1.65063e-05     0.000444452         0.769991       -0.603778
                        0.860579       -0.432805      3.60579e-05     0.000448605        -0.213387        0.082034      -0.00054279     0.000247139
                     0.000225066     0.000373034          0.76992       -0.603753     -0.000599801     0.000288552       -0.0947206        0.146002
281718                  0.205773        -0.11935      0.000629008    -0.000241383          0.86025       -0.433281      0.000208968     0.000424755
                     0.000617877    -0.000210591         0.170987      -0.0566933      1.66827e-05     0.000444298         0.769799       -0.604032
                        0.860433       -0.433152      3.62107e-05     0.000448375        -0.213229       0.0822115     -0.000542546     0.000247317
                     0.000224858     0.000372631         0.769728       -0.604006     -0.000599309     0.000288896        -0.094585        0.146062
281720                  0.205717       -0.119273      0.000628765    -0.000241465         0.860101        -0.43363      0.000209085     0.000424441
                     0.000617852    -0.000210685         0.170973      -0.0566549      1.68573e-05     0.000444126         0.769608       -0.604285
                        0.860287       -0.433499      3.63632e-05     0.000448145        -0.213071       0.0823888     -0.000542301     0.000247496
                      0.00022465     0.000372228         0.769537       -0.604259     -0.000598944     0.000289204       -0.0944495        0.146122
281722                  0.205661       -0.119195      0.000628521    -0.000241546         0.859953        -0.43398      0.000209203     0.000424127
                     0.000617828     -0.00021078          0.17096      -0.0566165      1.70298e-05     0.000443936         0.769416       -0.604538
                        0.860141       -0.433846      3.65153e-05     0.000447915        -0.212913       0.0825659     -0.000542057     0.000247674
                     0.000224441     0.000371826         0.769346       -0.604512     -0.000598724     0.000289471       -0.0943139        0.146182
281724                  0.205605       -0.119118      0.000628277    -0.000241627         0.859805        -0.43433       0.00020932     0.000423812
                     0.000617803    -0.000210874         0.170947       -0.056578      1.71999e-05     0.000443724         0.769224       -0.604791
                        0.859994       -0.434193      3.66671e-05     0.000447686        -0.212756       0.0827428     -0.000541813     0.000247853
                     0.000224231     0.000371425         0.769154       -0.604765      -0.00059867     0.000289691       -0.0941783        0.146242
281726                   0.20555        -0.11904      0.000628034    -0.000241709         0.859659       -0.434681      0.000209436     0.000423498
                     0.000617778    -0.000210969         0.170933      -0.0565396      1.73671e-05     0.000443487         0.769033       -0.605044
                        0.859847        -0.43454      3.68186e-05     0.000447456        -0.212598       0.0829195     -0.000541569     0.000248031
                     0.000224021     0.000371025         0.768963       -0.605018     -0.000598806     0.000289858       -0.0940427        0.146302
281728                  0.205494       -0.118963       0.00062779     -0.00024179         0.859513       -0.435033      0.000209552     0.000423184
                     0.000617752    -0.000211065          0.17092      -0.0565012      1.75308e-05     0.000443221         0.768841       -0.605296
                        0.859701       -0.434886      3.69698e-05     0.000447226        -0.212441        0.083096     -0.000541325      0.00024821
                      0.00022381     0.000370626         0.768771        -0.60527      -0.00059916     0.000289963       -0.0939071        0.146361
281730                  0.205438       -0.118886      0.000627546     -0.00024187         0.859368       -0.435383      0.000209668      0.00042287
                     0.000617727     -0.00021116         0.170906      -0.0564629      1.76904e-05     0.000442924         0.768649       -0.605549
                        0.859554       -0.435232      3.71207e-05     0.000446997        -0.212284       0.0832723     -0.000541081     0.000248388
                     0.000223598     0.000370228         0.768579       -0.605523     -0.000599765     0.000289997       -0.0937715        0.146421
281732                  0.205383       -0.118808      0.000627303    -0.000241951         0.859223       -0.435734      0.000209784     0.000422556
                     0.000617702    -0.000211256         0.170893      -0.0564245       1.7845e-05      0.00044259         0.768457       -0.605802
                        0.859407       -0.435579      3.72712e-05     0.000446767        -0.212127       0.0834485     -0.000540838     0.000248567
                     0.000223386      0.00036983         0.768387       -0.605776     -0.000600653     0.000289948       -0.0936359         0.14648
281734                  0.205327       -0.118731      0.000627059    -0.000242032         0.859079       -0.436084      0.000209899     0.000422242
                     0.000617676    -0.000211353          0.17088      -0.0563862      1.79939e-05     0.000442215         0.768265       -0.606054
                        0.859259       -0.435925      3.74214e-05     0.000446538        -0.211969       0.0836244     -0.000540594     0.000248745
                     0.000223173     0.000369434         0.768196       -0.606028     -0.000601858     0.000289805       -0.0935002        0.146539
281736                  0.205272       -0.118654      0.000626815    -0.000242112         0.858935       -0.436433      0.000210014     0.000421929
                      0.00061765     -0.00021145         0.170867      -0.0563479      1.81362e-05     0.000441799         0.768073       -0.606307
                        0.859112        -0.43627      3.75713e-05     0.000446309        -0.211812       0.0838002     -0.000540351     0.000248923
                      0.00022296     0.000369038         0.768004       -0.606281     -0.000603406     0.000289556       -0.0933646        0.146598
281738                  0.205217       -0.118577      0.000626572    -0.000242192         0.858791       -0.436782      0.000210128     0.000421615
                     0.000617624    -0.000211546         0.170853      -0.0563096      1.82714e-05      0.00044134         0.767881       -0.606559
                        0.858965       -0.436616      3.77209e-05     0.000446079        -0.211655       0.0839757     -0.000540108     0.000249102
                     0.000222746     0.000368643         0.767812       -0.606533     -0.000605296     0.000289196       -0.0932289        0.146658
281740                  0.205162         -0.1185      0.000626328    -0.000242273         0.858646        -0.43713      0.000210242     0.000421302
                     0.000617598    -0.000211643          0.17084      -0.0562713      1.83999e-05     0.000440848         0.767689       -0.606811
                        0.858817       -0.436962      3.78702e-05      0.00044585        -0.211497       0.0841511     -0.000539865      0.00024928
                     0.000222532      0.00036825          0.76762       -0.606785     -0.000607468     0.000288738       -0.0930933        0.146716
281742                  0.205106       -0.118423      0.000626084    -0.000242353         0.858501       -0.437477      0.000210355     0.000420988
                     0.000617573     -0.00021174         0.170827       -0.056233      1.85248e-05     0.000440348         0.767496       -0.607063
                        0.858669       -0.437307      3.80191e-05     0.000445621        -0.211339       0.0843262     -0.000539622     0.000249458
                     0.000222317     0.000367856         0.767427       -0.607037     -0.000609724     0.000288238       -0.0929576        0.146775
281744                  0.205051       -0.118346       0.00062584    -0.000242432         0.858355       -0.437823      0.000210468     0.000420675
                     0.000617549     -0.00021184         0.170814      -0.0561947      1.86544e-05     0.000439901         0.767304       -0.607315
                        0.858522       -0.437652      3.81677e-05     0.000445392        -0.211181       0.0845011     -0.000539379     0.000249637
                     0.000222102     0.000367464         0.767235       -0.607289     -0.000611582     0.000287848       -0.0928219        0.146834
281746                  0.204996       -0.118269      0.000625597    -0.000242512         0.858207       -0.438168      0.000210581     0.000420362
                     0.000617523    -0.000211941           0.1708      -0.0561565      1.88084e-05     0.000439633         0.767112       -0.607567
                        0.858373       -0.437998      3.83159e-05     0.000445163        -0.211022       0.0846756     -0.000539137     0.000249815
                     0.000221887     0.000367071         0.767043       -0.607541     -0.000612005     0.000287911       -0.0926862        0.146893
281748                  0.204941       -0.118192      0.000625353    -0.000242591         0.858056       -0.438511      0.000210693     0.000420049
                     0.000617496    -0.000212041         0.170787      -0.0561183      1.90244e-05      0.00043979         0.766919       -0.607819
                        0.858225       -0.438343      3.84635e-05     0.000444934        -0.210862       0.0848498     -0.000538894     0.000249994
                     0.000221665     0.000366681          0.76685       -0.607793     -0.000609006     0.000289059       -0.0925505        0.146951
281750                  0.204887       -0.118116      0.000625108     -0.00024267         0.857896       -0.438848      0.000210804     0.000419737
                     0.000617468    -0.000212142         0.170774      -0.0560801      1.93549e-05     0.000440774         0.766726       -0.608071
                        0.858077       -0.438688      3.86096e-05     0.000444708        -0.210698       0.0850235      -0.00053865     0.000250172
                      0.00022145     0.000366294         0.766658       -0.608045     -0.000599488     0.000292092       -0.0924148         0.14701
281752                  0.204832       -0.118039      0.000624852    -0.000242748         0.857717       -0.439145      0.000210915     0.000419427
                      0.00061744    -0.000212242         0.170761      -0.0560419      1.98224e-05     0.000443042         0.766534       -0.608323
                        0.857929       -0.439032      3.87479e-05      0.00044443        -0.210523        0.085197     -0.000538405     0.000250351
                     0.000221233     0.000365906         0.766465       -0.608296     -0.000580517     0.000297137       -0.0922791        0.147068
281754                  0.204777       -0.117962      0.000624624    -0.000242833          0.85776       -0.439439      0.000211018     0.000419126
                     0.000617412    -0.000212343         0.170748      -0.0560037       2.0329e-05     0.000446664         0.766341       -0.608575
                         0.85778       -0.439377      3.89093e-05     0.000444239        -0.210228       0.0854641      -0.00053815     0.000250532
                     0.000221016     0.000365519         0.766273       -0.608548     -0.000553191     0.000302496       -0.0921434        0.147126
281756                  0.204722       -0.117885      0.000624379    -0.000242911         0.857567       -0.439889      0.000211155     0.000418768
                     0.000617384    -0.000212444         0.170735      -0.0559656      2.06915e-05     0.000450804         0.766148       -0.608826
                        0.857632       -0.439721      3.90554e-05     0.000444012        -0.210299       0.0855741     -0.000537959     0.000250698
                     0.000220798     0.000365132          0.76608         -0.6088     -0.000524949     0.000305855       -0.0920076        0.147184
281758                  0.204668       -0.117809      0.000624135     -0.00024299         0.857398       -0.440243      0.000211256     0.000418473
                     0.000617356    -0.000212546         0.170722      -0.0559274      2.08704e-05     0.000454164         0.765955       -0.609078
                        0.857483       -0.440066      3.92018e-05     0.000443784        -0.210115       0.0857323     -0.000537697     0.000250882
                      0.00022058     0.000364747         0.765887       -0.609051     -0.000503749     0.000307011       -0.0918719        0.147242
281760                  0.204613       -0.117732      0.000623891    -0.000243068         0.857241       -0.440589      0.000211365     0.000418164
                     0.000617327    -0.000212648         0.170709      -0.0558893      2.09876e-05     0.000456116         0.765762       -0.609329
                        0.857334        -0.44041      3.93479e-05     0.000443555        -0.209949       0.0859024     -0.000537452     0.000251061
                     0.000220361     0.000364362         0.765695       -0.609303     -0.000491644     0.000307226       -0.0917361          0.1473
281762                  0.204559       -0.117656      0.000623648    -0.000243147         0.857089       -0.440934      0.000211474     0.000417852
                     0.000617298    -0.000212751         0.170695      -0.0558512      2.11315e-05     0.000456869         0.765569        -0.60958
                        0.857185       -0.440754      3.94939e-05     0.000443326        -0.209787       0.0860742      -0.00053721     0.000251239
