! TOUCHSTONE file generated by CST MICROWAVE STUDIO
! Date and time: Tue Oct 14 17:38:27 2025
! Project name: Teste_Macro_Metasurface_Nanopilar.cst
! Parameters = {H=600; L_x=110; L_y=200; Lambda=1064; Max_L=200; Min_L=70; PathPara=1; Phi=0; Step_L=10; Theta=0; p=520; phaseX=180; phaseY=0}
! Header version: 2018
! Port assignment regex: !\s*Touchstone port\s*([0-9]+)\s*=\s*(CST MWS port|CST DS port)\s*([0-9]+|Zmin|Zmax)\s*\(\"(.*)\"\)(\s*mode\s*([0-9]+))?.*
! Touchstone port assignment:
! Touchstone port 1 = CST MWS port Zmax ("") mode 1
! Touchstone port 2 = CST MWS port Zmax ("") mode 2
! Touchstone port 3 = CST MWS port Zmin ("") mode 1
! Touchstone port 4 = CST MWS port Zmin ("") mode 2
! S-Parameters are not renormalized. Each port impedance will be approximated by the real part at minimum frequency. The values are described via the [Reference] keyword.
! Default impedance is overridden by [Reference]
[Version] 2.0
# GHz S RI R 376.73
[Number of Ports] 4
[Reference]
376.73 376.73 259.814 259.814 
[Number of Frequencies] 51
[Network Data]
281700                  0.153418       -0.130437     -9.88846e-05      0.00013763         0.696775       -0.680141      0.000277869     0.000295545
                    -0.000144408     0.000114491        0.0790558       0.0249324     -0.000160152     0.000303579         0.788005        0.598489
                        0.696845       -0.680263      -0.00016048     0.000331213        -0.133475        0.142217      6.90994e-06     5.83393e-05
                     0.000181441     0.000251244         0.787981        0.598303      4.04508e-05     7.71266e-05       -0.0440373      -0.0671233
281702                  0.153402       -0.130386     -9.88943e-05     0.000137662         0.696555       -0.680381      0.000277896     0.000295333
                    -0.000144449     0.000114553        0.0790507       0.0249479     -0.000160271     0.000303714         0.788221        0.598205
                        0.696625       -0.680504     -0.000160298     0.000331285        -0.133328        0.142293       6.7391e-06     5.85226e-05
                     0.000181449      0.00025124         0.788197        0.598019      4.02077e-05     7.73435e-05       -0.0440996      -0.0670826
281704                  0.153385       -0.130335     -9.89039e-05     0.000137693         0.696333       -0.680622      0.000277921      0.00029512
                    -0.000144488     0.000114615        0.0790456       0.0249635     -0.000160391     0.000303849         0.788436        0.597922
                        0.696404       -0.680745     -0.000160115     0.000331357         -0.13318        0.142369       6.5701e-06     5.87077e-05
                     0.000181458     0.000251237         0.788413        0.597735      3.99655e-05     7.75596e-05       -0.0441619      -0.0670419
281706                  0.153369       -0.130285     -9.89135e-05     0.000137725         0.696112       -0.680862      0.000277946     0.000294906
                    -0.000144527     0.000114677        0.0790405       0.0249791     -0.000160513     0.000303986         0.788652        0.597638
                        0.696183       -0.680985     -0.000159933     0.000331429        -0.133033        0.142445      6.40297e-06     5.88945e-05
                     0.000181466     0.000251232         0.788629        0.597451      3.97243e-05     7.77751e-05       -0.0442242      -0.0670011
281708                  0.153353       -0.130234      -9.8923e-05     0.000137756         0.695891       -0.681102      0.000277969     0.000294691
                    -0.000144566     0.000114738        0.0790355       0.0249946     -0.000160636     0.000304122         0.788867        0.597354
                        0.695961       -0.681226     -0.000159751     0.000331501        -0.132885        0.142521      6.23768e-06     5.90829e-05
                     0.000181475     0.000251228         0.788844        0.597167      3.94839e-05     7.79899e-05       -0.0442864      -0.0669603
281710                  0.153337       -0.130183     -9.89324e-05     0.000137788          0.69567       -0.681342       0.00027799     0.000294476
                    -0.000144605     0.000114799        0.0790304       0.0250102     -0.000160761     0.000304259         0.789082         0.59707
                         0.69574       -0.681466     -0.000159568     0.000331573        -0.132738        0.142597      6.07424e-06      5.9273e-05
                     0.000181484     0.000251224          0.78906        0.596883      3.92443e-05     7.82043e-05       -0.0443486      -0.0669194
281712                  0.153321       -0.130133     -9.89417e-05     0.000137819         0.695449       -0.681582      0.000278011      0.00029426
                    -0.000144643      0.00011486        0.0790254       0.0250258      -0.00016089     0.000304394         0.789297        0.596786
                        0.695519       -0.681706     -0.000159386     0.000331645        -0.132591        0.142672      5.91265e-06     5.94646e-05
                     0.000181492     0.000251219         0.789275        0.596599      3.90055e-05     7.84182e-05       -0.0444108      -0.0668784
281714                  0.153305       -0.130082      -9.8951e-05     0.000137851         0.695227       -0.681822       0.00027803     0.000294044
                    -0.000144681     0.000114921        0.0790203       0.0250413     -0.000161021     0.000304525         0.789512        0.596502
                        0.695298       -0.681946     -0.000159204     0.000331716        -0.132443        0.142748      5.75291e-06     5.96578e-05
                     0.000181501     0.000251214         0.789491        0.596315      3.87674e-05     7.86317e-05       -0.0444729      -0.0668375
281716                  0.153289       -0.130031     -9.89602e-05     0.000137882         0.695006       -0.682062      0.000278049     0.000293826
                    -0.000144719     0.000114981        0.0790153       0.0250569     -0.000161151      0.00030465         0.789727        0.596218
                        0.695076       -0.682187     -0.000159022     0.000331788        -0.132296        0.142823      5.59501e-06     5.98526e-05
                     0.000181509     0.000251209         0.789706        0.596031      3.85299e-05      7.8845e-05        -0.044535      -0.0667964
281718                  0.153273       -0.129981     -9.89693e-05     0.000137914         0.694784       -0.682302      0.000278066     0.000293609
                    -0.000144756     0.000115042        0.0790102       0.0250725     -0.000161276     0.000304771         0.789942        0.595934
                        0.694855       -0.682427      -0.00015884     0.000331859        -0.132148        0.142898      5.43894e-06     6.00488e-05
                     0.000181518     0.000251203         0.789921        0.595746      3.82931e-05      7.9058e-05       -0.0445971      -0.0667553
281720                  0.153257        -0.12993     -9.89783e-05     0.000137945         0.694562       -0.682542      0.000278082      0.00029339
                    -0.000144794     0.000115101        0.0790052        0.025088     -0.000161396     0.000304894         0.790156        0.595649
                        0.694633       -0.682666     -0.000158658      0.00033193        -0.132001        0.142973       5.2847e-06     6.02464e-05
                     0.000181526     0.000251198         0.790136        0.595462      3.80569e-05     7.92708e-05       -0.0446591      -0.0667142
281722                  0.153242        -0.12988     -9.89873e-05     0.000137977         0.694341       -0.682781      0.000278097     0.000293171
                    -0.000144831     0.000115161        0.0790002       0.0251036     -0.000161513      0.00030502         0.790371        0.595365
                        0.694411       -0.682906     -0.000158476     0.000332002        -0.131853        0.143048      5.13228e-06     6.04454e-05
                     0.000181534     0.000251192         0.790351        0.595178      3.78212e-05     7.94836e-05       -0.0447211       -0.066673
281724                  0.153226       -0.129829     -9.89961e-05     0.000138008         0.694119       -0.683021      0.000278111     0.000292952
                    -0.000144868     0.000115221        0.0789952       0.0251192      -0.00016163     0.000305148         0.790585        0.595081
                         0.69419       -0.683146     -0.000158294     0.000332073        -0.131705        0.143123      4.98168e-06     6.06459e-05
                     0.000181543     0.000251186         0.790565        0.594893      3.75859e-05     7.96963e-05       -0.0447831      -0.0666318
281726                   0.15321       -0.129779     -9.90049e-05      0.00013804         0.693897        -0.68326      0.000278124     0.000292732
                    -0.000144905      0.00011528        0.0789901       0.0251347     -0.000161747     0.000305279         0.790799        0.594796
                        0.693968       -0.683386     -0.000158112     0.000332143        -0.131558        0.143198       4.8329e-06     6.08476e-05
                     0.000181551      0.00025118          0.79078        0.594609       3.7351e-05      7.9909e-05        -0.044845      -0.0665905
281728                  0.153194       -0.129728     -9.90136e-05     0.000138071         0.693675         -0.6835      0.000278136     0.000292511
                    -0.000144942     0.000115339        0.0789851       0.0251503     -0.000161864     0.000305411         0.791014        0.594512
                        0.693746       -0.683625     -0.000157931     0.000332214         -0.13141        0.143272      4.68591e-06     6.10507e-05
                     0.000181559     0.000251174         0.790994        0.594324      3.71165e-05     8.01217e-05       -0.0449069      -0.0665492
281730                  0.153178       -0.129677     -9.90223e-05     0.000138103         0.693453       -0.683739      0.000278147      0.00029229
                    -0.000144979     0.000115398        0.0789801       0.0251659     -0.000161983     0.000305543         0.791228        0.594227
                        0.693524       -0.683865     -0.000157749     0.000332285        -0.131262        0.143347      4.54073e-06      6.1255e-05
                     0.000181566     0.000251168         0.791209        0.594039      3.68822e-05     8.03346e-05       -0.0449687      -0.0665078
281732                  0.153162       -0.129627     -9.90308e-05     0.000138134         0.693231       -0.683978      0.000278158     0.000292068
                    -0.000145016     0.000115457        0.0789751       0.0251815     -0.000162102     0.000305676         0.791442        0.593942
                        0.693302       -0.684104     -0.000157567     0.000332356        -0.131115        0.143421      4.39733e-06     6.14606e-05
                     0.000181574     0.000251162         0.791423        0.593754      3.66482e-05     8.05476e-05       -0.0450305      -0.0664664
281734                  0.153146       -0.129576     -9.90393e-05     0.000138166         0.693009       -0.684217      0.000278167     0.000291846
                    -0.000145053     0.000115516        0.0789701        0.025197     -0.000162222     0.000305809         0.791656        0.593658
                         0.69308       -0.684343     -0.000157386     0.000332426        -0.130967        0.143496      4.25571e-06     6.16674e-05
                     0.000181582     0.000251155         0.791637         0.59347      3.64144e-05     8.07608e-05       -0.0450923      -0.0664249
281736                  0.153131       -0.129526     -9.90476e-05     0.000138197         0.692786       -0.684456      0.000278175     0.000291623
                     -0.00014509     0.000115574        0.0789651       0.0252126     -0.000162342     0.000305943         0.791869        0.593373
                        0.692858       -0.684582     -0.000157204     0.000332497        -0.130819         0.14357      4.11586e-06     6.18754e-05
                     0.000181589     0.000251149         0.791852        0.593185      3.61807e-05     8.09743e-05       -0.0451541      -0.0663834
281738                  0.153115       -0.129475     -9.90559e-05     0.000138229         0.692564       -0.684695      0.000278183       0.0002914
                    -0.000145127     0.000115633        0.0789601       0.0252282     -0.000162463     0.000306077         0.792083        0.593088
                        0.692635       -0.684821     -0.000157023     0.000332567        -0.130672        0.143644      3.97778e-06     6.20845e-05
                     0.000181596     0.000251142         0.792065          0.5929       3.5947e-05      8.1188e-05       -0.0452158      -0.0663418
281740                  0.153099       -0.129425     -9.90641e-05      0.00013826         0.692342       -0.684934      0.000278189     0.000291176
                    -0.000145164     0.000115691        0.0789552       0.0252438     -0.000162584     0.000306211         0.792297        0.592803
                        0.692413       -0.685061     -0.000156841     0.000332637        -0.130524        0.143718      3.84147e-06     6.22948e-05
                     0.000181603     0.000251136         0.792279        0.592615      3.57134e-05     8.14021e-05       -0.0452775      -0.0663002
281742                  0.153083       -0.129374     -9.90722e-05     0.000138291         0.692119       -0.685173      0.000278195     0.000290952
                    -0.000145201      0.00011575        0.0789502       0.0252593     -0.000162705     0.000306345          0.79251        0.592518
                        0.692191       -0.685299      -0.00015666     0.000332707        -0.130376        0.143791      3.70691e-06     6.25061e-05
                      0.00018161     0.000251129         0.792493        0.592329      3.54797e-05     8.16165e-05       -0.0453391      -0.0662585
281744                  0.153068       -0.129324     -9.90802e-05     0.000138323         0.691897       -0.685411        0.0002782     0.000290728
                    -0.000145237     0.000115808        0.0789452       0.0252749     -0.000162827     0.000306479         0.792723        0.592232
                        0.691968       -0.685538     -0.000156478     0.000332778        -0.130228        0.143865      3.57412e-06     6.27184e-05
                     0.000181617     0.000251122         0.792707        0.592044      3.52459e-05     8.18314e-05       -0.0454007      -0.0662168
281746                  0.153052       -0.129273     -9.90881e-05     0.000138354         0.691674        -0.68565      0.000278204     0.000290503
                    -0.000145274     0.000115866        0.0789403       0.0252905     -0.000162949     0.000306613         0.792937        0.591947
                        0.691746       -0.685777     -0.000156297     0.000332848         -0.13008        0.143938      3.44315e-06     6.29317e-05
                     0.000181624     0.000251115          0.79292        0.591759       3.5012e-05     8.20466e-05       -0.0454623       -0.066175
281748                  0.153036       -0.129223     -9.90959e-05     0.000138385         0.691451       -0.685888      0.000278207     0.000290278
                    -0.000145311     0.000115924        0.0789353       0.0253061     -0.000163072     0.000306748          0.79315        0.591662
                        0.691523       -0.686016     -0.000156116     0.000332917        -0.129932        0.144012      3.31417e-06     6.31457e-05
                      0.00018163     0.000251108         0.793134        0.591473      3.47779e-05     8.22624e-05       -0.0455238      -0.0661332
281750                   0.15302       -0.129172     -9.91035e-05     0.000138417         0.691228       -0.686127       0.00027821     0.000290052
                    -0.000145348     0.000115982        0.0789304       0.0253217     -0.000163195     0.000306882         0.793363        0.591377
                          0.6913       -0.686254     -0.000155935     0.000332987        -0.129784        0.144085      3.18847e-06     6.33601e-05
                     0.000181637     0.000251102         0.793347        0.591188      3.45435e-05     8.24786e-05       -0.0455853      -0.0660913
281752                  0.153005       -0.129122     -9.91108e-05     0.000138448         0.691005       -0.686365      0.000278212     0.000289826
                    -0.000145385      0.00011604        0.0789254       0.0253372     -0.000163318     0.000307017         0.793576        0.591091
                        0.691077       -0.686493     -0.000155754     0.000333056        -0.129636        0.144158      3.06504e-06     6.35876e-05
                     0.000181643     0.000251095          0.79356        0.590903      3.43088e-05     8.26954e-05       -0.0456468      -0.0660494
281754                  0.152989       -0.129072     -9.91173e-05     0.000138479         0.690782       -0.686603      0.000278213     0.000289601
                    -0.000145422     0.000116098        0.0789205       0.0253528     -0.000163441     0.000307152         0.793789        0.590806
                        0.690854       -0.686731     -0.000155572     0.000333124        -0.129488        0.144231      2.93415e-06     6.38004e-05
                     0.000181649     0.000251088         0.793773        0.590617      3.40737e-05     8.29127e-05       -0.0457082      -0.0660074
281756                  0.152974       -0.129021     -9.91197e-05     0.000138509         0.690559       -0.686841      0.000278218     0.000289375
                    -0.000145459     0.000116156        0.0789155       0.0253684     -0.000163565     0.000307286         0.794001         0.59052
                        0.690632       -0.686969      -0.00015539     0.000333177         -0.12934        0.144304      2.81131e-06     6.40174e-05
                     0.000181655     0.000251081         0.793986        0.590331      3.38383e-05     8.31307e-05       -0.0457696      -0.0659654
281758                  0.152958       -0.128971     -9.91375e-05     0.000138534         0.690336       -0.687079      0.000278217     0.000289143
                    -0.000145496     0.000116214        0.0789106        0.025384      -0.00016369     0.000307421         0.794214        0.590234
                        0.690408       -0.687208     -0.000155213     0.000333277        -0.129192        0.144377      2.69025e-06     6.42362e-05
                     0.000181661     0.000251074         0.794199        0.590046      3.36024e-05     8.33492e-05       -0.0458309      -0.0659233
281760                  0.152942        -0.12892     -9.91444e-05     0.000138569         0.690113       -0.687317      0.000278215     0.000288915
                    -0.000145533     0.000116272        0.0789057       0.0253996     -0.000163814     0.000307556         0.794426        0.589949
                        0.690185       -0.687446     -0.000155031     0.000333342        -0.129044         0.14445      2.57079e-06     6.44562e-05
                     0.000181667     0.000251068         0.794412         0.58976      3.33661e-05     8.35684e-05       -0.0458923      -0.0658812
281762                  0.152927        -0.12887     -9.91513e-05     0.000138601          0.68989       -0.687555      0.000278212     0.000288687
                     -0.00014557      0.00011633        0.0789008       0.0254152      -0.00016394     0.000307691         0.794639        0.589663
                        0.689962       -0.687684      -0.00015485      0.00033341        -0.128896        0.144522      2.45293e-06     6.46772e-05
