! TOUCHSTONE file generated by CST MICROWAVE STUDIO
! Date and time: Tue Oct 14 17:38:57 2025
! Project name: Teste_Macro_Metasurface_Nanopilar.cst
! Parameters = {H=600; L_x=160; L_y=90; Lambda=1064; Max_L=200; Min_L=70; PathPara=1; Phi=0; Step_L=10; Theta=0; p=520; phaseX=180; phaseY=0}
! Header version: 2018
! Port assignment regex: !\s*Touchstone port\s*([0-9]+)\s*=\s*(CST MWS port|CST DS port)\s*([0-9]+|Zmin|Zmax)\s*\(\"(.*)\"\)(\s*mode\s*([0-9]+))?.*
! Touchstone port assignment:
! Touchstone port 1 = CST MWS port Zmax ("") mode 1
! Touchstone port 2 = CST MWS port Zmax ("") mode 2
! Touchstone port 3 = CST MWS port Zmin ("") mode 1
! Touchstone port 4 = CST MWS port Zmin ("") mode 2
! S-Parameters are not renormalized. Each port impedance will be approximated by the real part at minimum frequency. The values are described via the [Reference] keyword.
! Default impedance is overridden by [Reference]
[Version] 2.0
# GHz S RI R 376.73
[Number of Ports] 4
[Reference]
376.73 376.73 259.814 259.814 
[Number of Frequencies] 51
[Network Data]
281700                -0.0240361       0.0520652     -0.000187927    -0.000570726        -0.767708       -0.634128      0.000373753     7.96224e-05
                    -0.000324986    -0.000581303        0.0476499        0.157322       0.00021611     1.82972e-05         0.979882       0.0433534
                       -0.767652       -0.633918      5.62138e-05     5.17729e-05       -0.0462262        0.034377     -0.000652775     0.000295777
                     0.000403619     0.000202317         0.979259       0.0431211      -0.00066061     0.000256123       -0.0600759        0.152975
281702                -0.0240343       0.0520832     -0.000187975    -0.000570622        -0.767891       -0.633905       0.00037379     7.92647e-05
                    -0.000325077    -0.000581275        0.0476717        0.157339      0.000216108     1.82738e-05         0.979893       0.0430205
                       -0.767835       -0.633695      5.60481e-05     5.15996e-05       -0.0462244       0.0344055     -0.000652612      0.00029629
                     0.000403733     0.000202317          0.97927       0.0427878     -0.000660554     0.000256379       -0.0599952         0.15303
281704                -0.0240325       0.0521013     -0.000188022    -0.000570517        -0.768074       -0.633682      0.000373828     7.89068e-05
                    -0.000325167    -0.000581248        0.0476935        0.157356      0.000216106     1.82504e-05         0.979904       0.0426875
                       -0.768018       -0.633472      5.58815e-05     5.14256e-05       -0.0462226        0.034434     -0.000652449     0.000296803
                     0.000403846     0.000202318          0.97928       0.0424545     -0.000660499     0.000256634       -0.0599144        0.153086
281706                -0.0240307       0.0521193     -0.000188068    -0.000570412        -0.768257       -0.633458      0.000373866     7.85487e-05
                    -0.000325258     -0.00058122        0.0477153        0.157373      0.000216103     1.82269e-05         0.979915       0.0423546
                       -0.768201       -0.633249       5.5714e-05     5.12507e-05       -0.0462208       0.0344626     -0.000652286     0.000297317
                     0.000403959      0.00020232         0.979291       0.0421212     -0.000660442      0.00025689       -0.0598336        0.153142
281708                -0.0240289       0.0521373     -0.000188114    -0.000570306        -0.768439       -0.633235      0.000373905     7.81904e-05
                    -0.000325348    -0.000581192        0.0477371         0.15739      0.000216101     1.82034e-05         0.979926       0.0420217
                       -0.768384       -0.633026      5.55458e-05      5.1075e-05       -0.0462189       0.0344911     -0.000652123      0.00029783
                     0.000404072     0.000202323         0.979301       0.0417879     -0.000660386     0.000257145       -0.0597527        0.153197
281710                 -0.024027       0.0521554     -0.000188159    -0.000570199        -0.768622       -0.633011      0.000373944     7.78321e-05
                    -0.000325438    -0.000581164        0.0477589        0.157407      0.000216098     1.81799e-05         0.979937       0.0416888
                       -0.768567       -0.632803      5.53766e-05     5.08984e-05       -0.0462171       0.0345196      -0.00065196     0.000298344
                     0.000404183     0.000202326         0.979312       0.0414546      -0.00066033       0.0002574       -0.0596718        0.153253
281712                -0.0240252       0.0521734     -0.000188203    -0.000570092        -0.768805       -0.632788      0.000373984     7.74735e-05
                    -0.000325528    -0.000581135        0.0477807        0.157425      0.000216096     1.81563e-05         0.979948       0.0413558
                        -0.76875       -0.632579      5.52067e-05     5.07211e-05       -0.0462152       0.0345482     -0.000651797     0.000298858
                     0.000404294      0.00020233         0.979322       0.0411213     -0.000660273     0.000257655       -0.0595908        0.153308
281714                -0.0240234       0.0521914     -0.000188247    -0.000569984        -0.768987       -0.632564      0.000374024      7.7115e-05
                    -0.000325618    -0.000581107        0.0478025        0.157442      0.000216093     1.81327e-05         0.979959       0.0410229
                       -0.768932       -0.632356      5.50359e-05     5.05429e-05       -0.0462133       0.0345767     -0.000651634     0.000299372
                     0.000404405     0.000202334         0.979332        0.040788     -0.000660216     0.000257911       -0.0595098        0.153364
281716                -0.0240215       0.0522095      -0.00018829    -0.000569875         -0.76917        -0.63234      0.000374064     7.67563e-05
                    -0.000325707    -0.000581079        0.0478243        0.157459       0.00021609     1.81091e-05         0.979969         0.04069
                       -0.769115       -0.632132      5.48642e-05     5.03639e-05       -0.0462114       0.0346053     -0.000651471     0.000299887
                     0.000404515     0.000202339         0.979342       0.0404547     -0.000660159     0.000258166       -0.0594288        0.153419
281718                -0.0240197       0.0522275     -0.000188332    -0.000569766        -0.769352       -0.632117      0.000374104     7.63976e-05
                    -0.000325796     -0.00058105        0.0478461        0.157476      0.000216087     1.80855e-05          0.97998       0.0403571
                       -0.769298       -0.631909      5.46917e-05     5.01841e-05       -0.0462095       0.0346338     -0.000651308     0.000300401
                     0.000404624     0.000202345         0.979352       0.0401214     -0.000660101     0.000258421       -0.0593477        0.153474
281720                -0.0240178       0.0522455     -0.000188374    -0.000569656        -0.769535       -0.631893      0.000374145     7.60388e-05
                    -0.000325885    -0.000581022        0.0478679        0.157493      0.000216084     1.80618e-05          0.97999       0.0400242
                        -0.76948       -0.631686      5.45184e-05     5.00035e-05       -0.0462076       0.0346624     -0.000651145     0.000300915
                     0.000404733     0.000202352         0.979361       0.0397881     -0.000660044     0.000258676       -0.0592666         0.15353
281722                 -0.024016       0.0522636     -0.000188415    -0.000569545        -0.769717       -0.631669      0.000374185     7.56799e-05
                    -0.000325974    -0.000580993        0.0478897         0.15751       0.00021608     1.80381e-05             0.98       0.0396913
                       -0.769663       -0.631462      5.43442e-05     4.98221e-05       -0.0462056        0.034691     -0.000650982      0.00030143
                     0.000404841     0.000202359         0.979371       0.0394548     -0.000659986     0.000258931       -0.0591854        0.153585
281724                -0.0240142       0.0522816     -0.000188455    -0.000569434        -0.769899       -0.631445      0.000374226     7.53211e-05
                    -0.000326063    -0.000580964        0.0479115        0.157527      0.000216077     1.80144e-05          0.98001       0.0393584
                       -0.769845       -0.631238      5.41692e-05     4.96399e-05       -0.0462036       0.0347195     -0.000650819     0.000301945
                     0.000404949     0.000202366         0.979381       0.0391215     -0.000659928     0.000259186       -0.0591042         0.15364
281726                -0.0240123       0.0522996     -0.000188495    -0.000569323        -0.770081       -0.631221      0.000374267     7.49622e-05
                    -0.000326152    -0.000580935        0.0479333        0.157544      0.000216073     1.79907e-05          0.98002       0.0390255
                       -0.770028       -0.631015      5.39933e-05     4.94569e-05       -0.0462016       0.0347481     -0.000650656     0.000302459
                     0.000405056     0.000202375          0.97939       0.0387882      -0.00065987     0.000259441       -0.0590229        0.153695
281728                -0.0240104       0.0523177     -0.000188534     -0.00056921        -0.770263       -0.630997      0.000374307     7.46033e-05
                     -0.00032624    -0.000580906        0.0479551        0.157562       0.00021607     1.79669e-05          0.98003       0.0386925
                        -0.77021       -0.630791      5.38166e-05     4.92732e-05       -0.0461996       0.0347767     -0.000650493     0.000302974
                     0.000405163     0.000202384         0.979399       0.0384549     -0.000659812     0.000259695       -0.0589416        0.153751
281730                -0.0240086       0.0523357     -0.000188572    -0.000569097        -0.770445       -0.630773      0.000374348     7.42443e-05
                    -0.000326329    -0.000580877        0.0479769        0.157579      0.000216066     1.79432e-05          0.98004       0.0383596
                       -0.770392       -0.630567      5.36391e-05     4.90886e-05       -0.0461976       0.0348053      -0.00065033     0.000303489
                     0.000405268     0.000202394         0.979408       0.0381216     -0.000659753      0.00025995       -0.0588602        0.153806
281732                -0.0240067       0.0523537     -0.000188609    -0.000568984        -0.770627       -0.630549      0.000374389     7.38854e-05
                    -0.000326417    -0.000580848        0.0479987        0.157596      0.000216062     1.79194e-05         0.980049       0.0380267
                       -0.770574       -0.630343      5.34607e-05     4.89032e-05       -0.0461956       0.0348339     -0.000650166     0.000304003
                     0.000405374     0.000202404         0.979417       0.0377883     -0.000659694     0.000260205       -0.0587788        0.153861
281734                -0.0240048       0.0523718     -0.000188646     -0.00056887        -0.770809       -0.630325      0.000374429     7.35264e-05
                    -0.000326505    -0.000580819        0.0480206        0.157613      0.000216058     1.78955e-05         0.980059       0.0376938
                       -0.770757       -0.630119      5.32815e-05     4.87171e-05       -0.0461935       0.0348625     -0.000650003     0.000304518
                     0.000405479     0.000202415         0.979426        0.037455     -0.000659635     0.000260459       -0.0586973        0.153916
281736                 -0.024003       0.0523898     -0.000188682    -0.000568755        -0.770991         -0.6301       0.00037447     7.31674e-05
                    -0.000326594     -0.00058079        0.0480424         0.15763      0.000216054     1.78717e-05         0.980068        0.037361
                       -0.770939       -0.629895      5.31015e-05     4.85302e-05       -0.0461914       0.0348911      -0.00064984     0.000305033
                     0.000405584     0.000202428         0.979435       0.0371217     -0.000659576     0.000260714       -0.0586158        0.153971
281738                -0.0240011       0.0524078     -0.000188718     -0.00056864        -0.771173       -0.629876      0.000374511     7.28084e-05
                    -0.000326683    -0.000580762        0.0480642        0.157647      0.000216049     1.78478e-05         0.980077       0.0370281
                       -0.771121       -0.629671      5.29206e-05     4.83425e-05       -0.0461893       0.0349198     -0.000649677     0.000305548
                     0.000405689     0.000202441         0.979444       0.0367884     -0.000659517     0.000260968       -0.0585343        0.154026
281740                -0.0239992       0.0524259     -0.000188753    -0.000568524        -0.771355       -0.629652      0.000374552     7.24493e-05
                    -0.000326772    -0.000580735         0.048086        0.157664      0.000216045     1.78239e-05         0.980087       0.0366952
                       -0.771303       -0.629447      5.27389e-05     4.81541e-05       -0.0461872       0.0349484     -0.000649513     0.000306063
                     0.000405795     0.000202456         0.979452       0.0364551     -0.000659457     0.000261223       -0.0584527        0.154081
281742                -0.0239974       0.0524439     -0.000188787    -0.000568407        -0.771536       -0.629427      0.000374593     7.20901e-05
                    -0.000326865    -0.000580711        0.0481078        0.157681       0.00021604        1.78e-05         0.980096       0.0363623
                       -0.771484       -0.629223      5.25563e-05     4.79649e-05       -0.0461851        0.034977      -0.00064935     0.000306578
                     0.000405909     0.000202478         0.979461       0.0361218     -0.000659397     0.000261477        -0.058371        0.154135
281744                -0.0239954        0.052462      -0.00018882     -0.00056829        -0.771718       -0.629203      0.000374635     7.17308e-05
                     -0.00032696    -0.000580733        0.0481296        0.157698      0.000216036     1.77761e-05         0.980105       0.0360294
                       -0.771666       -0.628999      5.23729e-05      4.7775e-05        -0.046183       0.0350057     -0.000649188     0.000307094
                     0.000405768     0.000202813         0.979469       0.0357885     -0.000659338     0.000261731       -0.0582893         0.15419
281746                -0.0239936         0.05248     -0.000188853    -0.000568173          -0.7719       -0.628978      0.000374678     7.13714e-05
                    -0.000326989    -0.000580629        0.0481515        0.157716      0.000216031     1.77521e-05         0.980113       0.0356965
                       -0.771848       -0.628775      5.21887e-05     4.75843e-05       -0.0461808       0.0350343     -0.000649026      0.00030761
                     0.000406058     0.000202481         0.979478       0.0354552     -0.000659278     0.000261985       -0.0582076        0.154245
281748                -0.0239917        0.052498     -0.000188885    -0.000568054        -0.772081       -0.628754      0.000374724     7.10115e-05
                    -0.000327097    -0.000580601        0.0481733        0.157733      0.000216026     1.77284e-05         0.980122       0.0353637
                        -0.77203       -0.628551      5.20037e-05     4.73929e-05       -0.0461786        0.035063     -0.000648866     0.000308129
                     0.000406171     0.000202502         0.979486        0.035122     -0.000659217      0.00026224       -0.0581258          0.1543
281750                -0.0239898        0.052516     -0.000188916    -0.000567936        -0.772263       -0.628529      0.000374777     7.06507e-05
                    -0.000327188    -0.000580572        0.0481951         0.15775      0.000216021     1.77039e-05         0.980131       0.0350308
                       -0.772211       -0.628326      5.18179e-05     4.72007e-05       -0.0461764       0.0350917     -0.000648711     0.000308652
                     0.000406274      0.00020252         0.979494       0.0347887     -0.000659156     0.000262494        -0.058044        0.154354
281752                -0.0239879       0.0525341     -0.000188947    -0.000567816        -0.772444       -0.628304      0.000374856      7.0287e-05
                    -0.000327277    -0.000580543        0.0482169        0.157767      0.000216016     1.76799e-05         0.980139        0.034698
                       -0.772393       -0.628102      5.16313e-05     4.70078e-05       -0.0461742       0.0351203     -0.000648575     0.000309191
                     0.000406374     0.000202538         0.979502       0.0344554     -0.000659095     0.000262748       -0.0579621        0.154409
281754                 -0.023986       0.0525521     -0.000188977    -0.000567697        -0.772625        -0.62808      0.000375302     6.99102e-05
                    -0.000327365    -0.000580513        0.0482387        0.157784       0.00021601     1.76559e-05          0.98015       0.0343602
                       -0.772574       -0.627877      5.14439e-05     4.68143e-05        -0.046172        0.035149      -0.00064899     0.000309402
                     0.000406473     0.000202556          0.97951       0.0341221     -0.000659034     0.000263002       -0.0578798        0.154464
281756                -0.0239841       0.0525701     -0.000189006    -0.000567576        -0.772806       -0.627855      0.000374695     6.96058e-05
                    -0.000327452    -0.000580483        0.0482606        0.157801      0.000216005     1.76318e-05         0.980156       0.0340319
                       -0.772756       -0.627653      5.12558e-05     4.66203e-05       -0.0461698       0.0351777      -0.00064814     0.000310085
                      0.00040657     0.000202574         0.979517       0.0337888     -0.000658973     0.000263256       -0.0577982        0.154518
281758                -0.0239822       0.0525882     -0.000189035    -0.000567455        -0.772988        -0.62763      0.000374811     6.92326e-05
                    -0.000327538    -0.000580452        0.0482824        0.157818      0.000215999     1.76077e-05         0.980164       0.0336991
                       -0.772937       -0.627428       5.1067e-05     4.64262e-05       -0.0461675       0.0352064     -0.000647996     0.000310636
                     0.000406666     0.000202594         0.979525       0.0334555     -0.000658912      0.00026351       -0.0577162        0.154573
281760                -0.0239803       0.0526062     -0.000189063    -0.000567334        -0.773169       -0.627405      0.000374869     6.88703e-05
                    -0.000327624    -0.000580422        0.0483042        0.157835      0.000215994     1.75836e-05         0.980172       0.0333662
                       -0.773119       -0.627204      5.08747e-05     4.62335e-05       -0.0461652       0.0352351     -0.000647838     0.000311161
                     0.000406762     0.000202613         0.979532       0.0331222      -0.00065885     0.000263764       -0.0576342        0.154627
281762                -0.0239784       0.0526242     -0.000189099    -0.000567213         -0.77335        -0.62718      0.000374915       6.851e-05
                     -0.00032771    -0.000580391         0.048326        0.157852      0.000215988     1.75594e-05          0.98018       0.0330334
                         -0.7733       -0.626979      5.06813e-05     4.60328e-05       -0.0461629       0.0352638     -0.000647675     0.000311678
