! TOUCHSTONE file generated by CST MICROWAVE STUDIO
! Date and time: Tue Oct 14 17:38:54 2025
! Project name: Teste_Macro_Metasurface_Nanopilar.cst
! Parameters = {H=600; L_x=150; L_y=160; Lambda=1064; Max_L=200; Min_L=70; PathPara=1; Phi=0; Step_L=10; Theta=0; p=520; phaseX=180; phaseY=0}
! Header version: 2018
! Port assignment regex: !\s*Touchstone port\s*([0-9]+)\s*=\s*(CST MWS port|CST DS port)\s*([0-9]+|Zmin|Zmax)\s*\(\"(.*)\"\)(\s*mode\s*([0-9]+))?.*
! Touchstone port assignment:
! Touchstone port 1 = CST MWS port Zmax ("") mode 1
! Touchstone port 2 = CST MWS port Zmax ("") mode 2
! Touchstone port 3 = CST MWS port Zmin ("") mode 1
! Touchstone port 4 = CST MWS port Zmin ("") mode 2
! S-Parameters are not renormalized. Each port impedance will be approximated by the real part at minimum frequency. The values are described via the [Reference] keyword.
! Default impedance is overridden by [Reference]
[Version] 2.0
# GHz S RI R 376.73
[Number of Ports] 4
[Reference]
376.73 376.73 259.814 259.814 
[Number of Frequencies] 51
[Network Data]
281700                  0.172171      -0.0551311     -0.000316687     0.000186253         0.771203       -0.601425      3.30379e-05    -0.000442419
                     -0.00038076      0.00013438         0.209102        -0.11864     -0.000249456    -0.000214315         0.861993       -0.428226
                          0.7717       -0.601897     -0.000150587    -0.000430177       -0.0942128        0.146953      0.000361897    -0.000100124
                    -5.32578e-06    -0.000373661         0.861801       -0.427671      0.000460654    -0.000231628        -0.215433       0.0826805
281702                  0.172158      -0.0550926      -0.00031672     0.000185987         0.771012       -0.601679      3.27447e-05    -0.000442248
                    -0.000380622     0.000134418         0.209047       -0.118561     -0.000249823    -0.000214112         0.861847       -0.428577
                        0.771508        -0.60215     -0.000150646    -0.000429552       -0.0940768        0.147014       0.00036186    -0.000100402
                    -5.55085e-06    -0.000373426         0.861655       -0.428023      0.000460626    -0.000232522        -0.215273       0.0828631
281704                  0.172146      -0.0550542     -0.000316752     0.000185722         0.770821       -0.601933      3.24516e-05    -0.000442076
                    -0.000380484     0.000134457         0.208991       -0.118482     -0.000250187    -0.000213909         0.861702       -0.428927
                        0.771317       -0.602404     -0.000150707    -0.000428929       -0.0939407        0.147075      0.000361823     -0.00010068
                    -5.77555e-06     -0.00037319         0.861509       -0.428375      0.000460595    -0.000233414        -0.215112       0.0830456
281706                  0.172134      -0.0550158     -0.000316783     0.000185456         0.770629       -0.602187      3.21586e-05    -0.000441904
                    -0.000380345     0.000134495         0.208935       -0.118403     -0.000250551    -0.000213706         0.861557       -0.429278
                        0.771125       -0.602657     -0.000150773    -0.000428307       -0.0938046        0.147136      0.000361786    -0.000100958
                     -5.9999e-06    -0.000372955         0.861362       -0.428727      0.000460563    -0.000234303        -0.214952       0.0832277
281708                  0.172121      -0.0549774     -0.000316813      0.00018519         0.770438        -0.60244      3.18656e-05    -0.000441732
                    -0.000380207     0.000134533         0.208879       -0.118324     -0.000250914    -0.000213502         0.861411       -0.429628
                        0.770933       -0.602911     -0.000150841    -0.000427686       -0.0936685        0.147197      0.000361749    -0.000101236
                    -6.22388e-06     -0.00037272         0.861216       -0.429078      0.000460529    -0.000235191        -0.214792       0.0834097
281710                  0.172109       -0.054939     -0.000316841     0.000184924         0.770246       -0.602694      3.15727e-05    -0.000441559
                    -0.000380068     0.000134571         0.208824       -0.118245     -0.000251275    -0.000213298         0.861265       -0.429978
                        0.770742       -0.603164     -0.000150913    -0.000427066       -0.0935324        0.147258      0.000361712    -0.000101514
                     -6.4475e-06    -0.000372484         0.861069        -0.42943      0.000460493    -0.000236076        -0.214632       0.0835914
281712                  0.172096      -0.0549007     -0.000316869     0.000184657         0.770055       -0.602948      3.12799e-05    -0.000441386
                     -0.00037993     0.000134609         0.208768       -0.118167     -0.000251635    -0.000213094         0.861119       -0.430327
                         0.77055       -0.603417     -0.000150988    -0.000426447       -0.0933963        0.147319      0.000361674    -0.000101792
                    -6.67076e-06    -0.000372248         0.860922       -0.429781      0.000460455    -0.000236959        -0.214471       0.0837729
281714                  0.172084      -0.0548624     -0.000316895     0.000184391         0.769863       -0.603201      3.09872e-05    -0.000441213
                    -0.000379791     0.000134647         0.208713       -0.118088     -0.000251995     -0.00021289         0.860973       -0.430677
                        0.770358        -0.60367     -0.000151067     -0.00042583       -0.0932602        0.147379      0.000361636     -0.00010207
                    -6.89366e-06    -0.000372012         0.860776       -0.430132      0.000460415     -0.00023784        -0.214311       0.0839542
281716                  0.172072       -0.054824     -0.000316919     0.000184125         0.769672       -0.603454      3.06945e-05    -0.000441039
                    -0.000379652     0.000134684         0.208657       -0.118009     -0.000252353    -0.000212685         0.860827       -0.431027
                        0.770166       -0.603923     -0.000151149    -0.000425214        -0.093124        0.147439      0.000361598    -0.000102348
                    -7.11621e-06    -0.000371776         0.860629       -0.430483      0.000460374    -0.000238719         -0.21415       0.0841352
281718                  0.172059      -0.0547857     -0.000316943     0.000183858          0.76948       -0.603708       3.0402e-05    -0.000440865
                    -0.000379513     0.000134722         0.208602       -0.117931     -0.000252709     -0.00021248         0.860681       -0.431376
                        0.769974       -0.604176     -0.000151234    -0.000424599       -0.0929879          0.1475       0.00036156    -0.000102627
                     -7.3384e-06    -0.000371539         0.860481       -0.430834       0.00046033    -0.000239596         -0.21399       0.0843161
281720                  0.172047      -0.0547475     -0.000316965     0.000183591         0.769288       -0.603961      3.01095e-05     -0.00044069
                    -0.000379374     0.000134759         0.208547       -0.117852     -0.000253065    -0.000212275         0.860535       -0.431725
                        0.769782       -0.604429     -0.000151322    -0.000423985       -0.0928517         0.14756      0.000361521    -0.000102905
                    -7.56023e-06    -0.000371303         0.860334       -0.431185      0.000460285     -0.00024047        -0.213829       0.0844967
281722                  0.172035      -0.0547092     -0.000316986     0.000183324         0.769096       -0.604214       2.9817e-05    -0.000440515
                    -0.000379235     0.000134796         0.208491       -0.117774     -0.000253419    -0.000212069         0.860388       -0.432074
                         0.76959       -0.604682     -0.000151414    -0.000423373       -0.0927156         0.14762      0.000361482    -0.000103183
                    -7.78171e-06    -0.000371066         0.860187       -0.431535      0.000460238    -0.000241343        -0.213669        0.084677
281724                  0.172022      -0.0546709     -0.000317006     0.000183057         0.768904       -0.604467      2.95247e-05     -0.00044034
                    -0.000379095     0.000134834         0.208436       -0.117696     -0.000253773    -0.000211864         0.860242       -0.432423
                        0.769397       -0.604935     -0.000151508    -0.000422762       -0.0925794         0.14768      0.000361443    -0.000103462
                    -8.00284e-06    -0.000370829         0.860039       -0.431886      0.000460189    -0.000242213        -0.213508       0.0848572
281726                   0.17201      -0.0546327     -0.000317025     0.000182789         0.768712        -0.60472      2.92325e-05    -0.000440164
                    -0.000378956     0.000134871         0.208381       -0.117617     -0.000254125    -0.000211657         0.860095       -0.432772
                        0.769205       -0.605187     -0.000151606    -0.000422152       -0.0924432         0.14774      0.000361404     -0.00010374
                    -8.22361e-06    -0.000370592         0.859892       -0.432236      0.000460138    -0.000243081        -0.213347       0.0850371
281728                  0.171998      -0.0545945     -0.000317042     0.000182521          0.76852       -0.604973      2.89403e-05    -0.000439987
                    -0.000378816     0.000134908         0.208326       -0.117539     -0.000254476    -0.000211451         0.859948       -0.433121
                        0.769012        -0.60544     -0.000151707    -0.000421543        -0.092307        0.147799      0.000361365    -0.000104019
                    -8.44404e-06    -0.000370355         0.859744       -0.432586      0.000460086    -0.000243947        -0.213186       0.0852168
281730                  0.171986      -0.0545563     -0.000317059     0.000182253         0.768328       -0.605226      2.86483e-05    -0.000439811
                    -0.000378677     0.000134944         0.208271       -0.117461     -0.000254825    -0.000211244         0.859801       -0.433469
                         0.76882       -0.605692     -0.000151811    -0.000420936       -0.0921708        0.147859      0.000361325    -0.000104297
                    -8.66412e-06    -0.000370118         0.859596       -0.432936      0.000460032    -0.000244811        -0.213026       0.0853962
281732                  0.171973      -0.0545181     -0.000317074     0.000181985         0.768135       -0.605479      2.83563e-05    -0.000439634
                    -0.000378537     0.000134981         0.208217       -0.117383     -0.000255174    -0.000211037         0.859654       -0.433817
                        0.768627       -0.605945     -0.000151918     -0.00042033       -0.0920346        0.147918      0.000361285    -0.000104576
                    -8.88385e-06     -0.00036988         0.859448       -0.433286      0.000459975    -0.000245673        -0.212865       0.0855755
281734                  0.171961        -0.05448     -0.000317087     0.000181716         0.767943       -0.605731      2.80644e-05    -0.000439456
                    -0.000378397     0.000135018         0.208162       -0.117305     -0.000255522     -0.00021083         0.859506       -0.434166
                        0.768435       -0.606197     -0.000152029    -0.000419726       -0.0918984        0.147978      0.000361245    -0.000104855
                    -9.10325e-06    -0.000369643           0.8593       -0.433635      0.000459917    -0.000246534        -0.212704       0.0857545
281736                  0.171949      -0.0544418       -0.0003171     0.000181447         0.767751       -0.605984      2.77726e-05    -0.000439278
                    -0.000378257     0.000135054         0.208107       -0.117226     -0.000255868    -0.000210622         0.859359       -0.434514
                        0.768242       -0.606449     -0.000152142    -0.000419122       -0.0917621        0.148037      0.000361204    -0.000105133
                     -9.3223e-06    -0.000369405         0.859152       -0.433985      0.000459857    -0.000247392        -0.212543       0.0859333
281738                  0.171937      -0.0544037     -0.000317112     0.000181177         0.767558       -0.606237      2.74809e-05      -0.0004391
                    -0.000378117      0.00013509         0.208053       -0.117148     -0.000256213    -0.000210414         0.859211       -0.434861
                        0.768049       -0.606701     -0.000152258     -0.00041852       -0.0916259        0.148096      0.000361163    -0.000105412
                    -9.54102e-06    -0.000369167         0.859003       -0.434334      0.000459795    -0.000248249        -0.212382       0.0861118
281740                  0.171925      -0.0543656     -0.000317122     0.000180907         0.767366       -0.606489      2.71893e-05    -0.000438921
                    -0.000377977     0.000135127         0.207998       -0.117071     -0.000256557    -0.000210206         0.859064       -0.435209
                        0.767856       -0.606953     -0.000152378     -0.00041792       -0.0914896        0.148155      0.000361122    -0.000105691
                    -9.75942e-06    -0.000368929         0.858855       -0.434683      0.000459731    -0.000249105        -0.212221       0.0862902
281742                  0.171912      -0.0543275     -0.000317131     0.000180637         0.767173       -0.606741      2.68979e-05    -0.000438742
                    -0.000377837     0.000135163         0.207944       -0.116993       -0.0002569    -0.000209996         0.858916       -0.435557
                        0.767663       -0.607205       -0.0001525     -0.00041732       -0.0913533        0.148214      0.000361081     -0.00010597
                     -9.9775e-06    -0.000368691         0.858706       -0.435032      0.000459665    -0.000249963         -0.21206       0.0864683
281744                    0.1719      -0.0542894     -0.000317139     0.000180366          0.76698       -0.606993      2.66066e-05    -0.000438563
                    -0.000377697     0.000135199         0.207889       -0.116915     -0.000257242    -0.000209785         0.858768       -0.435904
                         0.76747       -0.607457     -0.000152625    -0.000416722       -0.0912171        0.148273      0.000361039    -0.000106249
                    -1.01953e-05    -0.000368452         0.858558       -0.435381      0.000459594    -0.000250826        -0.211899       0.0866462
281746                  0.171888      -0.0542514     -0.000317146     0.000180095         0.766787       -0.607245      2.63155e-05    -0.000438383
                    -0.000377556     0.000135235         0.207835       -0.116837     -0.000257582    -0.000209566          0.85862       -0.436251
                        0.767277       -0.607709     -0.000152753    -0.000416125       -0.0910808        0.148332      0.000360997    -0.000106528
                    -1.04128e-05    -0.000368214         0.858409        -0.43573      0.000459513     -0.00025172        -0.211737       0.0868238
281748                  0.171876      -0.0542133     -0.000317152     0.000179823         0.766611       -0.607522      2.60247e-05    -0.000438202
                    -0.000377416      0.00013527         0.207781       -0.116759     -0.000257766    -0.000209553         0.858471       -0.436599
                        0.767084       -0.607961     -0.000152885    -0.000415529       -0.0909531        0.148387      0.000360954    -0.000106807
                    -1.06302e-05    -0.000367975          0.85826       -0.436078      0.000459971    -0.000250185        -0.211576       0.0870013
281750                  0.171864      -0.0541753     -0.000317157     0.000179551         0.766402        -0.60775      2.57351e-05    -0.000438021
                    -0.000377276     0.000135306         0.207727       -0.116682     -0.000258256    -0.000209186         0.858323       -0.436946
                        0.766891       -0.608212      -0.00015302    -0.000414933       -0.0908082        0.148449      0.000360909    -0.000107086
                    -1.08476e-05    -0.000367736         0.858111       -0.436427       0.00045942    -0.000253217        -0.211415       0.0871785
281752                  0.171852      -0.0541373     -0.000317161     0.000179279         0.766209       -0.608002      2.54958e-05    -0.000437769
                    -0.000377138     0.000135343         0.207673       -0.116604     -0.000258595    -0.000208968         0.858175       -0.437292
                        0.766698       -0.608464     -0.000153178    -0.000414342       -0.0906719        0.148507      0.000360877    -0.000107532
                    -1.10659e-05    -0.000367497         0.857961       -0.436775      0.000459336    -0.000254098        -0.211253       0.0873555
281754                   0.17184      -0.0540993     -0.000317156     0.000179008         0.766016       -0.608254      2.51463e-05     -0.00043766
                    -0.000377008     0.000135383         0.207619       -0.116526     -0.000258931    -0.000208756         0.858026       -0.437639
                        0.766504       -0.608715     -0.000153292    -0.000413759       -0.0905356        0.148566      0.000360836    -0.000107646
                    -1.12938e-05    -0.000367258         0.857812       -0.437123      0.000459257    -0.000254949        -0.211092       0.0875322
281756                  0.171828      -0.0540614     -0.000317161     0.000178732         0.765823       -0.608505      2.48572e-05    -0.000437478
                    -0.000376839     0.000135406         0.207565       -0.116449     -0.000259266    -0.000208544         0.857877       -0.437986
                        0.766311       -0.608967     -0.000153435    -0.000413166       -0.0903992        0.148624       0.00036079    -0.000107925
                    -1.14803e-05    -0.000367019         0.857663       -0.437471      0.000459178     -0.00025579        -0.210931       0.0877088
281758                  0.171816      -0.0540234     -0.000317161     0.000178457          0.76563       -0.608757       2.4567e-05    -0.000437296
                    -0.000376706     0.000135444         0.207511       -0.116371     -0.000259599    -0.000208334         0.857728       -0.438332
                        0.766117       -0.609218      -0.00015358    -0.000412576       -0.0902629        0.148682      0.000360745    -0.000108204
                     -1.1703e-05     -0.00036678         0.857513       -0.437819      0.000459099    -0.000256625        -0.210769       0.0878851
281760                  0.171804      -0.0539855     -0.000317161     0.000178182         0.765436       -0.609009      2.42766e-05    -0.000437113
                    -0.000376567      0.00013548         0.207457       -0.116294     -0.000259932    -0.000208123         0.857579       -0.438678
                        0.765924       -0.609469     -0.000153728    -0.000411989       -0.0901265         0.14874      0.000360701    -0.000108484
                    -1.19196e-05     -0.00036654         0.857363       -0.438166      0.000459018    -0.000257456        -0.210608       0.0880612
281762                  0.171792      -0.0539476     -0.000317159     0.000177906         0.765243        -0.60926      2.39861e-05     -0.00043693
                    -0.000376426     0.000135515         0.207403       -0.116216     -0.000260263    -0.000207912          0.85743       -0.439024
                         0.76573        -0.60972     -0.000153878    -0.000411402       -0.0899902        0.148798      0.000360657    -0.000108763
