! TOUCHSTONE file generated by CST MICROWAVE STUDIO
! Date and time: Tue Oct 14 17:39:03 2025
! Project name: Teste_Macro_Metasurface_Nanopilar.cst
! Parameters = {H=600; L_x=170; L_y=70; Lambda=1064; Max_L=200; Min_L=70; PathPara=1; Phi=0; Step_L=10; Theta=0; p=520; phaseX=180; phaseY=0}
! Header version: 2018
! Port assignment regex: !\s*Touchstone port\s*([0-9]+)\s*=\s*(CST MWS port|CST DS port)\s*([0-9]+|Zmin|Zmax)\s*\(\"(.*)\"\)(\s*mode\s*([0-9]+))?.*
! Touchstone port assignment:
! Touchstone port 1 = CST MWS port Zmax ("") mode 1
! Touchstone port 2 = CST MWS port Zmax ("") mode 2
! Touchstone port 3 = CST MWS port Zmin ("") mode 1
! Touchstone port 4 = CST MWS port Zmin ("") mode 2
! S-Parameters are not renormalized. Each port impedance will be approximated by the real part at minimum frequency. The values are described via the [Reference] keyword.
! Default impedance is overridden by [Reference]
[Version] 2.0
# GHz S RI R 376.73
[Number of Ports] 4
[Reference]
376.73 376.73 259.814 259.814 
[Number of Frequencies] 51
[Network Data]
281700                 0.0124973       -0.102542     -1.65641e-05    -7.09547e-05       -0.0969959       -0.989244      5.00076e-05     2.54947e-05
                     3.00125e-05    -6.06372e-05       -0.0847133        0.035609      9.42655e-05     0.000150463         0.664359        0.730602
                      -0.0972297       -0.990016      3.05718e-05      9.4255e-05        0.0320658       0.0983399     -7.36443e-05    -0.000227546
                     8.64626e-05       7.316e-05         0.664251        0.730711     -7.26339e-05    -4.70222e-06       -0.0445346       0.0835182
281702                 0.0124847        -0.10254     -1.66701e-05    -7.09991e-05       -0.0972373        -0.98922      5.00772e-05     2.54922e-05
                     3.00539e-05    -6.05776e-05       -0.0847057       0.0356556      9.43622e-05     0.000150468         0.664636        0.730349
                      -0.0974717       -0.989992      3.07574e-05     9.43842e-05         0.032101       0.0983247     -7.38571e-05    -0.000227361
                     8.62939e-05     7.30926e-05         0.664528        0.730458     -7.26206e-05     -4.6797e-06       -0.0445171       0.0835397
281704                 0.0124721       -0.102537     -1.67763e-05    -7.10434e-05       -0.0974787       -0.989197       5.0147e-05     2.54897e-05
                     3.00956e-05     -6.0518e-05        -0.084698       0.0357022      9.44588e-05     0.000150472         0.664912        0.730097
                      -0.0977136       -0.989968      3.09432e-05     9.45134e-05        0.0321362       0.0983095     -7.40692e-05    -0.000227176
                     8.61251e-05     7.30256e-05         0.664805        0.730205     -7.26073e-05    -4.65718e-06       -0.0444996       0.0835611
281706                 0.0124594       -0.102535     -1.68827e-05    -7.10876e-05       -0.0977201       -0.989173       5.0217e-05      2.5487e-05
                     3.01373e-05    -6.04586e-05       -0.0846903       0.0357489      9.45553e-05     0.000150477         0.665189        0.729844
                      -0.0979556       -0.989944      3.11294e-05     9.46425e-05        0.0321714       0.0982943     -7.42806e-05     -0.00022699
                     8.59562e-05     7.29588e-05         0.665081        0.729952      -7.2594e-05    -4.63466e-06       -0.0444821       0.0835826
281708                 0.0124468       -0.102533     -1.69893e-05    -7.11317e-05       -0.0979614        -0.98915      5.02872e-05     2.54843e-05
                     3.01793e-05    -6.03992e-05       -0.0846827       0.0357955      9.46518e-05     0.000150481         0.665465        0.729591
                      -0.0981976        -0.98992      3.13159e-05     9.47715e-05        0.0322065       0.0982791     -7.44914e-05    -0.000226804
                     8.57873e-05     7.28924e-05         0.665358        0.729699     -7.25807e-05    -4.61216e-06       -0.0444645       0.0836041
281710                 0.0124342       -0.102531     -1.70962e-05    -7.11757e-05       -0.0982028       -0.989126      5.03575e-05     2.54815e-05
                     3.02213e-05    -6.03399e-05        -0.084675       0.0358421      9.47483e-05     0.000150486         0.665741        0.729337
                      -0.0984395       -0.989896      3.15028e-05     9.49005e-05        0.0322417       0.0982638     -7.47015e-05    -0.000226619
                     8.56183e-05     7.28262e-05         0.665634        0.729446     -7.25673e-05    -4.58966e-06        -0.044447       0.0836256
281712                 0.0124216       -0.102529     -1.72032e-05    -7.12197e-05       -0.0984442       -0.989103       5.0428e-05     2.54787e-05
                     3.02635e-05    -6.02807e-05       -0.0846672       0.0358887      9.48447e-05      0.00015049         0.666018        0.729084
                      -0.0986815       -0.989872      3.16899e-05     9.50294e-05        0.0322768       0.0982486      -7.4911e-05    -0.000226433
                     8.54493e-05     7.27602e-05         0.665911        0.729193      -7.2554e-05    -4.56717e-06       -0.0444294       0.0836471
281714                  0.012409       -0.102527     -1.73104e-05    -7.12635e-05       -0.0986855       -0.989079      5.04987e-05     2.54757e-05
                     3.03059e-05    -6.02215e-05       -0.0846595       0.0359353       9.4941e-05     0.000150494         0.666294        0.728831
                      -0.0989234       -0.989848      3.18774e-05     9.51583e-05         0.032312       0.0982333     -7.51198e-05    -0.000226247
                     8.52802e-05     7.26946e-05         0.666187         0.72894     -7.25407e-05    -4.54469e-06       -0.0444118       0.0836686
281716                 0.0123964       -0.102525     -1.74179e-05    -7.13072e-05       -0.0989269       -0.989055      5.05695e-05     2.54727e-05
                     3.03484e-05    -6.01624e-05       -0.0846518       0.0359819      9.50372e-05     0.000150498          0.66657        0.728577
                      -0.0991653       -0.989823      3.20651e-05     9.52871e-05        0.0323471       0.0982181      -7.5328e-05     -0.00022606
                      8.5111e-05     7.26292e-05         0.666463        0.728686     -7.25273e-05    -4.52222e-06       -0.0443943       0.0836901
281718                 0.0123837       -0.102523     -1.75255e-05    -7.13508e-05       -0.0991682       -0.989031      5.06405e-05     2.54696e-05
                      3.0391e-05    -6.01034e-05       -0.0846441       0.0360285      9.51334e-05     0.000150502         0.666846        0.728324
                      -0.0994073       -0.989799      3.22532e-05     9.54159e-05        0.0323823       0.0982028     -7.55355e-05    -0.000225874
                     8.49418e-05     7.25641e-05         0.666739        0.728433      -7.2514e-05    -4.49975e-06       -0.0443767       0.0837116
281720                 0.0123711       -0.102521     -1.76334e-05    -7.13944e-05       -0.0994096       -0.989007      5.07116e-05     2.54665e-05
                     3.04337e-05    -6.00445e-05       -0.0846363       0.0360751      9.52296e-05     0.000150506         0.667121         0.72807
                      -0.0996492       -0.989775      3.24415e-05     9.55446e-05        0.0324174       0.0981875     -7.57425e-05    -0.000225688
                     8.47725e-05     7.24993e-05         0.667015        0.728179     -7.25006e-05    -4.47729e-06       -0.0443591       0.0837332
281722                 0.0123585       -0.102519     -1.77414e-05    -7.14378e-05       -0.0996509       -0.988983      5.07829e-05     2.54633e-05
                     3.04767e-05    -5.99857e-05       -0.0846286       0.0361217      9.53256e-05      0.00015051         0.667397        0.727816
                      -0.0998911        -0.98975      3.26302e-05     9.56733e-05        0.0324525       0.0981722      -7.5949e-05    -0.000225502
                     8.46032e-05     7.24348e-05         0.667291        0.727926     -7.24872e-05    -4.45484e-06       -0.0443415       0.0837547
281724                 0.0123459       -0.102517     -1.78496e-05    -7.14812e-05       -0.0998922       -0.988959      5.08544e-05     2.54601e-05
                     3.05197e-05    -5.99269e-05       -0.0846208       0.0361683      9.54217e-05     0.000150514         0.667673        0.727563
                       -0.100133       -0.989726      3.28192e-05      9.5802e-05        0.0324876       0.0981568     -7.61549e-05    -0.000225316
                     8.44338e-05     7.23705e-05         0.667566        0.727672     -7.24739e-05    -4.43239e-06       -0.0443238       0.0837763
281726                 0.0123333       -0.102515     -1.79581e-05    -7.15245e-05        -0.100134       -0.988935      5.09259e-05     2.54568e-05
                     3.05629e-05    -5.98683e-05        -0.084613       0.0362149      9.55176e-05     0.000150518         0.667948        0.727309
                       -0.100375       -0.989701      3.30084e-05     9.59306e-05        0.0325227       0.0981415     -7.63604e-05     -0.00022513
                     8.42643e-05     7.23065e-05         0.667842        0.727418     -7.24605e-05    -4.40995e-06       -0.0443062       0.0837979
281728                 0.0123207       -0.102513     -1.80667e-05    -7.15677e-05        -0.100375       -0.988911      5.09976e-05     2.54535e-05
                     3.06062e-05    -5.98096e-05       -0.0846052       0.0362615      9.56135e-05     0.000150522         0.668224        0.727055
                       -0.100617       -0.989676      3.31979e-05     9.60592e-05        0.0325578       0.0981262     -7.65655e-05    -0.000224944
                     8.40948e-05     7.22428e-05         0.668118        0.727164     -7.24471e-05    -4.38752e-06       -0.0442886       0.0838195
281730                 0.0123081       -0.102511     -1.81755e-05    -7.16108e-05        -0.100616       -0.988887      5.10694e-05     2.54502e-05
                     3.06497e-05    -5.97511e-05       -0.0845974       0.0363081      9.57093e-05     0.000150525         0.668499          0.7268
                       -0.100859       -0.989652      3.33877e-05     9.61878e-05        0.0325929       0.0981108     -7.67704e-05    -0.000224759
                     8.39252e-05     7.21793e-05         0.668393         0.72691     -7.24337e-05    -4.36509e-06       -0.0442709       0.0838411
281732                 0.0122954       -0.102508     -1.82845e-05    -7.16538e-05        -0.100857       -0.988863      5.11411e-05     2.54469e-05
                     3.06933e-05    -5.96927e-05       -0.0845896       0.0363547      9.58051e-05     0.000150529         0.668774        0.726546
                       -0.101101       -0.989627      3.35778e-05     9.63163e-05         0.032628       0.0980954      -7.6975e-05    -0.000224573
                     8.37556e-05     7.21161e-05         0.668668        0.726656     -7.24203e-05    -4.34267e-06       -0.0442532       0.0838627
281734                 0.0122828       -0.102506     -1.83938e-05    -7.16967e-05        -0.101099       -0.988838      5.12129e-05     2.54436e-05
                     3.07371e-05    -5.96343e-05       -0.0845818       0.0364012      9.59008e-05     0.000150533         0.669049        0.726292
                       -0.101342       -0.989602      3.37681e-05     9.64449e-05        0.0326631       0.0980801     -7.71796e-05    -0.000224387
                     8.35859e-05     7.20532e-05         0.668943        0.726401     -7.24069e-05    -4.32025e-06       -0.0442356       0.0838843
281736                 0.0122702       -0.102504     -1.85031e-05    -7.17395e-05         -0.10134       -0.988814      5.12845e-05     2.54405e-05
                     3.07809e-05     -5.9576e-05        -0.084574       0.0364478      9.59965e-05     0.000150536         0.669324        0.726037
                       -0.101584       -0.989577      3.39587e-05     9.65734e-05        0.0326982       0.0980647     -7.73844e-05    -0.000224202
                     8.34162e-05     7.19906e-05         0.669219        0.726147     -7.23935e-05    -4.29784e-06       -0.0442179        0.083906
281738                 0.0122576       -0.102502     -1.86127e-05    -7.17823e-05        -0.101581       -0.988789       5.1356e-05     2.54375e-05
                      3.0825e-05    -5.95178e-05       -0.0845661       0.0364944      9.60921e-05     0.000150539         0.669599        0.725783
                       -0.101826       -0.989552      3.41496e-05     9.67019e-05        0.0327332       0.0980493     -7.75895e-05    -0.000224016
                     8.32464e-05     7.19283e-05         0.669494        0.725893     -7.23801e-05    -4.27542e-06       -0.0442002       0.0839276
281740                  0.012245         -0.1025     -1.87225e-05     -7.1825e-05        -0.101823       -0.988765       5.1427e-05     2.54346e-05
                     3.08691e-05    -5.94596e-05       -0.0845583        0.036541      9.61876e-05     0.000150543         0.669874        0.725528
                       -0.102068       -0.989527      3.43407e-05     9.68305e-05        0.0327683       0.0980338     -7.77953e-05    -0.000223831
                     8.30765e-05     7.18662e-05         0.669768        0.725638     -7.23667e-05    -4.25301e-06       -0.0441825       0.0839493
281742                 0.0122324       -0.102498     -1.88324e-05    -7.18676e-05        -0.102064        -0.98874      5.14974e-05      2.5432e-05
                     3.09134e-05    -5.94016e-05       -0.0845504       0.0365875      9.62831e-05     0.000150546         0.670149        0.725273
                        -0.10231       -0.989502       3.4532e-05     9.69591e-05        0.0328033       0.0980184     -7.80022e-05    -0.000223645
                     8.29066e-05     7.18044e-05         0.670043        0.725383     -7.23533e-05    -4.23059e-06       -0.0441648       0.0839709
281744                 0.0122197       -0.102496     -1.89425e-05    -7.19101e-05        -0.102305       -0.988716      5.15668e-05     2.54298e-05
                     3.09579e-05    -5.93436e-05       -0.0845425       0.0366341      9.63785e-05     0.000150549         0.670423        0.725018
                       -0.102552       -0.989477      3.47235e-05     9.70877e-05        0.0328384        0.098003     -7.82107e-05    -0.000223458
                     8.27366e-05     7.17428e-05         0.670318        0.725128     -7.23399e-05    -4.20816e-06        -0.044147       0.0839926
281746                 0.0122071       -0.102494     -1.90527e-05    -7.19527e-05        -0.102546       -0.988691       5.1635e-05     2.54282e-05
                     3.10025e-05    -5.92856e-05       -0.0845347       0.0366806       9.6474e-05     0.000150553         0.670698        0.724763
                       -0.102794       -0.989452      3.49152e-05     9.72165e-05        0.0328734       0.0979875     -7.84216e-05    -0.000223272
                     8.25666e-05     7.16816e-05         0.670593        0.724874     -7.23266e-05     -4.1857e-06       -0.0441293       0.0840143
281748                 0.0121945       -0.102492     -1.91631e-05    -7.19951e-05        -0.102788       -0.988666      5.17015e-05     2.54273e-05
                     3.10472e-05    -5.92278e-05       -0.0845268       0.0367272      9.65695e-05     0.000150556         0.670972        0.724508
                       -0.103035       -0.989426       3.5107e-05     9.73454e-05        0.0329084       0.0979721      -7.8636e-05    -0.000223085
                     8.23965e-05     7.16206e-05         0.670867        0.724619     -7.23134e-05    -4.16319e-06       -0.0441115        0.084036
281750                 0.0121819        -0.10249     -1.92735e-05    -7.20377e-05        -0.103029       -0.988642      5.17661e-05     2.54275e-05
                      3.1092e-05    -5.91701e-05       -0.0845189       0.0367738      9.66651e-05     0.000150559         0.671246        0.724253
                       -0.103277       -0.989401      3.52987e-05     9.74748e-05        0.0329434       0.0979566     -7.88553e-05      -0.0002229
                     8.22264e-05     7.15599e-05         0.671142        0.724363     -7.23004e-05    -4.14052e-06       -0.0440938       0.0840577
281752                 0.0121693       -0.102488     -1.93838e-05    -7.20805e-05         -0.10327       -0.988617      5.18288e-05     2.54293e-05
                      3.1137e-05    -5.91124e-05        -0.084511       0.0368203      9.67614e-05     0.000150561         0.671521        0.723998
                       -0.103519       -0.989376      3.54897e-05     9.76052e-05        0.0329784       0.0979411     -7.90802e-05    -0.000222719
                     8.20562e-05     7.14995e-05         0.671416        0.724108     -7.22884e-05    -4.11728e-06        -0.044076       0.0840794
281754                 0.0121567       -0.102486     -1.94929e-05     -7.2125e-05        -0.103512       -0.988591      5.18905e-05     2.54329e-05
                     3.11822e-05    -5.90549e-05        -0.084503       0.0368668      9.68744e-05     0.000150562         0.671795        0.723742
                       -0.103761        -0.98935      3.56763e-05      9.7741e-05        0.0330135       0.0979256     -7.93069e-05    -0.000222548
                      8.1886e-05     7.14395e-05          0.67169        0.723853     -7.22944e-05    -4.08292e-06       -0.0440583       0.0841012
281756                  0.012144       -0.102483     -1.96269e-05    -7.21458e-05        -0.103753       -0.988567      5.19527e-05     2.54379e-05
                     3.12275e-05    -5.89976e-05       -0.0844951       0.0369134      9.69452e-05     0.000150568         0.672068        0.723487
                       -0.104003       -0.989325      3.59055e-05     9.78134e-05        0.0330484       0.0979101     -7.95244e-05    -0.000222388
                      8.1716e-05       7.138e-05         0.671964        0.723598     -7.22538e-05    -4.07733e-06       -0.0440404       0.0841229
281758                 0.0121314       -0.102481     -1.97218e-05    -7.22016e-05        -0.103994       -0.988542      5.20172e-05     2.54429e-05
                     3.12732e-05    -5.89416e-05       -0.0844872       0.0369599       9.7042e-05     0.000150571         0.672342        0.723231
                       -0.104244       -0.989299      3.60798e-05     9.79766e-05        0.0330834       0.0978945     -7.97253e-05    -0.000222225
                     8.15472e-05     7.13228e-05         0.672238        0.723342     -7.22426e-05    -4.05354e-06       -0.0440226       0.0841447
281760                 0.0121188       -0.102479     -1.98322e-05    -7.22447e-05        -0.104235       -0.988517      5.20852e-05      2.5446e-05
                      3.1318e-05    -5.88799e-05       -0.0844792       0.0370065      9.71374e-05     0.000150573         0.672616        0.722976
                       -0.104486       -0.989274      3.62709e-05     9.81087e-05        0.0331184        0.097879     -7.99178e-05    -0.000222049
                     8.13718e-05     7.12563e-05         0.672512        0.723086     -7.22297e-05    -4.03081e-06       -0.0440048       0.0841664
281762                 0.0121062       -0.102477     -1.99434e-05     -7.2287e-05        -0.104476       -0.988492      5.21563e-05     2.54456e-05
                     3.13639e-05     -5.8824e-05       -0.0844712        0.037053      9.72325e-05     0.000150576          0.67289         0.72272
                       -0.104728       -0.989248      3.64638e-05     9.82386e-05        0.0331534       0.0978635     -8.01113e-05    -0.000221861
