! TOUCHSTONE file generated by CST MICROWAVE STUDIO
! Date and time: Tue Oct 14 17:39:21 2025
! Project name: Teste_Macro_Metasurface_Nanopilar.cst
! Parameters = {H=600; L_x=190; L_y=140; Lambda=1064; Max_L=200; Min_L=70; PathPara=1; Phi=0; Step_L=10; Theta=0; p=520; phaseX=180; phaseY=0}
! Header version: 2018
! Port assignment regex: !\s*Touchstone port\s*([0-9]+)\s*=\s*(CST MWS port|CST DS port)\s*([0-9]+|Zmin|Zmax)\s*\(\"(.*)\"\)(\s*mode\s*([0-9]+))?.*
! Touchstone port assignment:
! Touchstone port 1 = CST MWS port Zmax ("") mode 1
! Touchstone port 2 = CST MWS port Zmax ("") mode 2
! Touchstone port 3 = CST MWS port Zmin ("") mode 1
! Touchstone port 4 = CST MWS port Zmin ("") mode 2
! S-Parameters are not renormalized. Each port impedance will be approximated by the real part at minimum frequency. The values are described via the [Reference] keyword.
! Default impedance is overridden by [Reference]
[Version] 2.0
# GHz S RI R 376.73
[Number of Ports] 4
[Reference]
376.73 376.73 259.814 259.814 
[Number of Frequencies] 51
[Network Data]
281700                  0.199586      -0.0670511      8.58034e-05    -0.000120561         0.856419       -0.456062       3.9309e-07    -0.000179308
                     0.000130235    -0.000130923         0.191865       0.0503654     -0.000145052      7.3619e-05         0.400035       -0.890571
                        0.856169       -0.456143     -0.000142749     5.05105e-05        -0.163173         0.11784     -9.19069e-05     5.42834e-05
                     3.67391e-05      5.4703e-05         0.399647       -0.891011     -2.19735e-05     0.000136061         0.163539         0.10658
281702                  0.199547      -0.0669878      8.55603e-05    -0.000120546         0.856263       -0.456389      3.50088e-07    -0.000179195
                     0.000130055     -0.00013095         0.191879        0.050379     -0.000144787      7.3485e-05         0.399772       -0.890686
                        0.856013        -0.45647     -0.000143351     5.07963e-05        -0.163012        0.117973     -9.18285e-05     5.42215e-05
                     3.65839e-05     5.52142e-05         0.399383       -0.891124      -2.2204e-05     0.000135923         0.163621        0.106485
281704                  0.199507      -0.0669246      8.53165e-05    -0.000120531         0.856107       -0.456716      3.06891e-07    -0.000179081
                     0.000129876    -0.000130977         0.191893       0.0503925     -0.000144522     7.33515e-05          0.39951         -0.8908
                        0.855857       -0.456797     -0.000143949     5.10773e-05        -0.162851        0.118106     -9.17502e-05     5.41589e-05
                      3.6428e-05     5.57248e-05         0.399119       -0.891237      -2.2435e-05     0.000135786         0.163703        0.106391
281706                  0.199468      -0.0668615      8.50722e-05    -0.000120516         0.855951       -0.457043      2.63502e-07    -0.000178966
                     0.000129697    -0.000131004         0.191907        0.050406     -0.000144257     7.32185e-05         0.399247       -0.890914
                          0.8557       -0.457123     -0.000144544     5.13533e-05        -0.162689        0.118239      -9.1672e-05     5.40957e-05
                     3.62716e-05     5.62349e-05         0.398855        -0.89135     -2.26667e-05      0.00013565         0.163786        0.106297
281708                  0.199429      -0.0667984      8.48273e-05    -0.000120501         0.855795        -0.45737      2.19928e-07    -0.000178852
                     0.000129518    -0.000131032         0.191921       0.0504196     -0.000143993      7.3086e-05         0.398984       -0.891029
                        0.855544        -0.45745     -0.000145135     5.16244e-05        -0.162528        0.118371     -9.15938e-05     5.40319e-05
                     3.61144e-05     5.67445e-05         0.398592       -0.891463     -2.28989e-05     0.000135514         0.163868        0.106202
281710                   0.19939      -0.0667354      8.45818e-05    -0.000120486         0.855639       -0.457696      1.76174e-07    -0.000178737
                     0.000129339     -0.00013106         0.191935       0.0504331      -0.00014373     7.29541e-05         0.398721       -0.891143
                        0.855387       -0.457776     -0.000145724     5.18906e-05        -0.162367        0.118503     -9.15157e-05     5.39674e-05
                     3.59567e-05     5.72534e-05         0.398328       -0.891576     -2.31318e-05      0.00013538          0.16395        0.106108
281712                  0.199351      -0.0666724      8.43356e-05    -0.000120471         0.855482       -0.458023      1.32245e-07    -0.000178622
                     0.000129161    -0.000131088         0.191949       0.0504466     -0.000143466     7.28226e-05         0.398458       -0.891257
                         0.85523       -0.458102     -0.000146309     5.21519e-05        -0.162206        0.118635     -9.14377e-05     5.39022e-05
                     3.57984e-05     5.77618e-05         0.398064       -0.891689     -2.33652e-05     0.000135247         0.164032        0.106013
281714                  0.199312      -0.0666094      8.40889e-05    -0.000120457         0.855326       -0.458349      8.81468e-08    -0.000178506
                     0.000128982    -0.000131117         0.191963       0.0504602     -0.000143203     7.26916e-05         0.398195       -0.891371
                        0.855073       -0.458428     -0.000146891     5.24082e-05        -0.162045        0.118767     -9.13598e-05     5.38364e-05
                     3.56394e-05     5.82696e-05           0.3978       -0.891801     -2.35991e-05     0.000135114         0.164114        0.105919
281716                  0.199273      -0.0665465      8.38414e-05    -0.000120442         0.855169       -0.458675      4.38845e-08    -0.000178391
                     0.000128804    -0.000131146         0.191977       0.0504737     -0.000142941     7.25611e-05         0.397932       -0.891485
                        0.854916       -0.458754     -0.000147469     5.26596e-05        -0.161883        0.118899      -9.1282e-05       5.377e-05
                     3.54798e-05     5.87768e-05         0.397536       -0.891914     -2.38336e-05     0.000134982         0.164196        0.105824
281718                  0.199234      -0.0664837      8.35933e-05    -0.000120428         0.855013       -0.459001     -5.36972e-10    -0.000178275
                     0.000128626    -0.000131175         0.191991       0.0504872     -0.000142678     7.24311e-05         0.397669       -0.891599
                        0.854759       -0.459079     -0.000148044     5.29061e-05        -0.161722         0.11903     -9.12043e-05     5.37029e-05
                     3.53196e-05     5.92834e-05         0.397272       -0.892027     -2.40686e-05     0.000134851         0.164278        0.105729
281720                  0.199195      -0.0664209      8.33444e-05    -0.000120413         0.854856       -0.459327     -4.51125e-08    -0.000178159
                     0.000128448    -0.000131205         0.192005       0.0505007     -0.000142416     7.23015e-05         0.397406       -0.891712
                        0.854602       -0.459405     -0.000148616     5.31477e-05        -0.161561        0.119161     -9.11268e-05     5.36352e-05
                     3.51588e-05     5.97895e-05         0.397008       -0.892139     -2.43042e-05     0.000134721          0.16436        0.105635
281722                  0.199156      -0.0663582      8.30949e-05    -0.000120399         0.854699       -0.459652     -8.98373e-08    -0.000178043
                      0.00012827    -0.000131235         0.192019       0.0505142     -0.000142155     7.21724e-05         0.397143       -0.891826
                        0.854445        -0.45973     -0.000149184     5.33844e-05        -0.161399        0.119292     -9.10494e-05     5.35669e-05
                     3.49973e-05      6.0295e-05         0.396744       -0.892251     -2.45402e-05     0.000134591         0.164442         0.10554
281724                  0.199117      -0.0662955      8.28446e-05    -0.000120384         0.854542       -0.459978     -1.34706e-07    -0.000177926
                     0.000128092    -0.000131265         0.192033       0.0505277     -0.000141893     7.20437e-05          0.39688        -0.89194
                        0.854287       -0.460055     -0.000149749     5.36162e-05        -0.161238        0.119423     -9.09721e-05     5.34979e-05
                     3.48353e-05     6.07999e-05          0.39648       -0.892364     -2.47767e-05     0.000134461         0.164524        0.105445
281726                  0.199078      -0.0662329      8.25935e-05     -0.00012037         0.854385       -0.460303     -1.79715e-07    -0.000177809
                     0.000127915    -0.000131296         0.192047       0.0505412     -0.000141632     7.19154e-05         0.396617       -0.892053
                         0.85413        -0.46038     -0.000150311     5.38431e-05        -0.161077        0.119554     -9.08949e-05     5.34283e-05
                     3.46726e-05     6.13042e-05         0.396216       -0.892476     -2.50137e-05     0.000134332         0.164605         0.10535
281728                   0.19904      -0.0661703      8.23416e-05    -0.000120355         0.854227       -0.460628      -2.2486e-07    -0.000177692
                     0.000127738    -0.000131327         0.192061       0.0505547     -0.000141371     7.17876e-05         0.396353       -0.892167
                        0.853972       -0.460705     -0.000150869      5.4065e-05        -0.160916        0.119684      -9.0818e-05      5.3358e-05
                     3.45094e-05     6.18079e-05         0.395952       -0.892588     -2.52512e-05     0.000134204         0.164687        0.105255
281730                  0.199001      -0.0661077      8.20887e-05    -0.000120341          0.85407       -0.460954     -2.70136e-07    -0.000177575
                     0.000127561    -0.000131358         0.192075       0.0505681      -0.00014111     7.16601e-05          0.39609        -0.89228
                        0.853814        -0.46103     -0.000151424     5.42821e-05        -0.160754        0.119814     -9.07412e-05     5.32872e-05
                     3.43455e-05      6.2311e-05         0.395688         -0.8927     -2.54891e-05     0.000134076         0.164769         0.10516
281732                  0.198963      -0.0660453      8.18349e-05    -0.000120326         0.853912       -0.461279     -3.15539e-07    -0.000177458
                     0.000127384     -0.00013139         0.192089       0.0505816      -0.00014085      7.1533e-05         0.395827       -0.892393
                        0.853657       -0.461355     -0.000151975     5.44941e-05        -0.160593        0.119944     -9.06645e-05     5.32158e-05
                     3.41811e-05     6.28135e-05         0.395424       -0.892812     -2.57275e-05     0.000133948          0.16485        0.105065
281734                  0.198924      -0.0659828      8.15798e-05    -0.000120311         0.853755       -0.461603     -3.61066e-07     -0.00017734
                     0.000127207    -0.000131422         0.192104       0.0505951      -0.00014059     7.14063e-05         0.395564       -0.892507
                        0.853499        -0.46168     -0.000152522     5.47013e-05        -0.160431        0.120074      -9.0588e-05     5.31437e-05
                      3.4016e-05     6.33154e-05          0.39516       -0.892924     -2.59663e-05     0.000133821         0.164932         0.10497
281736                  0.198886      -0.0659204      8.13232e-05    -0.000120295         0.853597       -0.461928     -4.06716e-07    -0.000177222
                     0.000127031    -0.000131455         0.192118       0.0506086      -0.00014033       7.128e-05           0.3953        -0.89262
                        0.853341       -0.462004     -0.000153066     5.49033e-05         -0.16027        0.120204     -9.05117e-05     5.30711e-05
                     3.38504e-05     6.38167e-05         0.394896       -0.893036     -2.62055e-05     0.000133694         0.165013        0.104875
281738                  0.198847      -0.0658581      8.10646e-05    -0.000120279         0.853439       -0.462253     -4.52487e-07    -0.000177104
                     0.000126855    -0.000131488         0.192132        0.050622      -0.00014007     7.11541e-05         0.395037       -0.892733
                        0.853182       -0.462328     -0.000153605     5.51001e-05        -0.160109        0.120333     -9.04356e-05     5.29979e-05
                     3.36842e-05     6.43174e-05         0.394631       -0.893148     -2.64451e-05     0.000133567         0.165094         0.10478
281740                  0.198809      -0.0657958      8.08026e-05    -0.000120262         0.853281       -0.462577     -4.98382e-07    -0.000176985
                     0.000126679    -0.000131521         0.192146       0.0506355      -0.00013981     7.10285e-05         0.394774       -0.892846
                        0.853024       -0.462652      -0.00015414     5.52914e-05        -0.159947        0.120462     -9.03597e-05     5.29241e-05
                     3.35174e-05     6.48174e-05         0.394367        -0.89326     -2.66851e-05     0.000133441         0.165176        0.104685
281742                  0.198771      -0.0657336      8.05338e-05     -0.00012024         0.853123       -0.462901     -5.44411e-07    -0.000176867
                     0.000126503    -0.000131554          0.19216       0.0506489      -0.00013955     7.09032e-05          0.39451       -0.892959
                        0.852866       -0.462976     -0.000154666     5.54763e-05        -0.159786        0.120591     -9.02841e-05     5.28499e-05
                     3.33501e-05     6.53168e-05         0.394103       -0.893371     -2.69254e-05     0.000133314         0.165257        0.104589
281744                  0.198732      -0.0656714      8.02437e-05    -0.000120205         0.852965       -0.463226     -5.90599e-07    -0.000176748
                     0.000126327    -0.000131588         0.192174       0.0506624     -0.000139291     7.07782e-05         0.394247       -0.893072
                        0.852707         -0.4633     -0.000155175     5.56517e-05        -0.159625         0.12072     -9.02086e-05     5.27752e-05
                     3.31822e-05     6.58156e-05         0.393839       -0.893483     -2.71662e-05     0.000133188         0.165338        0.104494
281746                  0.198694      -0.0656093      7.97575e-05    -0.000119861         0.852807        -0.46355      -6.3703e-07    -0.000176628
                     0.000126152    -0.000131623         0.192188        0.050676     -0.000139031     7.06536e-05         0.393983       -0.893184
                        0.852549       -0.463624     -0.000155483     5.58514e-05        -0.159463        0.120849     -9.01335e-05     5.27005e-05
                     3.30137e-05     6.63136e-05         0.393574       -0.893591     -2.74073e-05     0.000133063         0.165419        0.104398
281748                  0.198656      -0.0655472      7.99279e-05    -0.000120266         0.852649       -0.463873     -6.84058e-07    -0.000176509
                     0.000125976    -0.000131657         0.192202       0.0506892     -0.000138772     7.05293e-05          0.39372       -0.893297
                         0.85239       -0.463948     -0.000156345     5.60766e-05        -0.159302        0.120977     -9.00587e-05     5.26265e-05
                     3.28448e-05     6.68107e-05          0.39331       -0.893707     -2.76487e-05     0.000132937           0.1655        0.104303
281750                  0.198618      -0.0654852      7.95994e-05    -0.000120231          0.85249       -0.464197     -7.37458e-07    -0.000176385
                     0.000125801    -0.000131692         0.192216       0.0507027     -0.000138513     7.04053e-05         0.393456        -0.89341
                        0.852231       -0.464271     -0.000156832     5.62158e-05         -0.15914        0.121106     -8.99844e-05      5.2563e-05
                     3.26756e-05     6.73069e-05         0.393046       -0.893818     -2.78905e-05     0.000132812         0.165581        0.104207
281752                   0.19858      -0.0654232      7.93203e-05     -0.00012021         0.852332       -0.464521     -7.71573e-07    -0.000176272
                     0.000125626    -0.000131728          0.19223       0.0507161     -0.000138253     7.02815e-05         0.393193       -0.893522
                        0.852072       -0.464594      -0.00015734     5.63731e-05        -0.158979        0.121234      -8.9904e-05     5.24517e-05
                     3.25062e-05     6.78016e-05         0.392782       -0.893929     -2.81326e-05     0.000132686         0.165662        0.104112
281754                  0.198542      -0.0653613      7.90509e-05    -0.000120192         0.852173       -0.464844     -8.19858e-07    -0.000176151
                     0.000125451    -0.000131763         0.192244       0.0507295     -0.000137994     7.01581e-05         0.392929       -0.893634
                        0.851913       -0.464918     -0.000157849     5.65299e-05        -0.158817        0.121362     -8.98326e-05     5.23827e-05
                     3.23382e-05     6.82923e-05         0.392517        -0.89404     -2.83751e-05     0.000132561         0.165743        0.104016
281756                  0.198504      -0.0652994      7.87844e-05    -0.000120176         0.852014       -0.465168     -8.66855e-07    -0.000176031
                     0.000125273      -0.0001318         0.192259       0.0507429     -0.000137735      7.0035e-05         0.392666       -0.893747
                        0.851754       -0.465241     -0.000158358     5.66836e-05        -0.158656        0.121489      -8.9759e-05      5.2306e-05
                     3.22161e-05     6.87376e-05         0.392253       -0.894151     -2.86178e-05     0.000132436         0.165824         0.10392
281758                  0.198466      -0.0652376       7.8519e-05     -0.00012016         0.851855       -0.465491     -9.13649e-07     -0.00017591
                     0.000125103    -0.000131841         0.192273       0.0507564     -0.000137476     6.99121e-05         0.392402       -0.893859
                        0.851595       -0.465564     -0.000158864     5.68332e-05        -0.158494        0.121617     -8.96853e-05     5.22276e-05
                     3.19812e-05     6.93117e-05         0.391988       -0.894262     -2.88608e-05     0.000132311         0.165905        0.103825
281760                  0.198429      -0.0651758      7.82539e-05    -0.000120145         0.851696       -0.465814     -9.60406e-07     -0.00017579
                      0.00012493    -0.000131877         0.192287       0.0507698     -0.000137217     6.97896e-05         0.392138       -0.893971
                        0.851436       -0.465886     -0.000159367     5.69786e-05        -0.158333        0.121744     -8.96117e-05     5.21483e-05
                     3.18121e-05     6.97961e-05         0.391724       -0.894373     -2.91042e-05     0.000132186         0.165986        0.103729
281762                  0.198391      -0.0651141      7.79885e-05     -0.00012013         0.851537       -0.466137     -1.00717e-06    -0.000175669
                     0.000124757    -0.000131914         0.192301       0.0507832     -0.000136958     6.96674e-05         0.391875       -0.894083
                        0.851277       -0.466209     -0.000159867     5.71196e-05        -0.158171        0.121871     -8.95384e-05     5.20682e-05
