! TOUCHSTONE file generated by CST MICROWAVE STUDIO
! Date and time: Tue Oct 14 17:37:57 2025
! Project name: Teste_Macro_Metasurface_Nanopilar.cst
! Parameters = {H=600; L_x=70; L_y=140; Lambda=1064; Max_L=200; Min_L=70; PathPara=1; Phi=0; Step_L=10; Theta=0; p=520; phaseX=180; phaseY=0}
! Header version: 2018
! Port assignment regex: !\s*Touchstone port\s*([0-9]+)\s*=\s*(CST MWS port|CST DS port)\s*([0-9]+|Zmin|Zmax)\s*\(\"(.*)\"\)(\s*mode\s*([0-9]+))?.*
! Touchstone port assignment:
! Touchstone port 1 = CST MWS port Zmax ("") mode 1
! Touchstone port 2 = CST MWS port Zmax ("") mode 2
! Touchstone port 3 = CST MWS port Zmin ("") mode 1
! Touchstone port 4 = CST MWS port Zmin ("") mode 2
! S-Parameters are not renormalized. Each port impedance will be approximated by the real part at minimum frequency. The values are described via the [Reference] keyword.
! Default impedance is overridden by [Reference]
[Version] 2.0
# GHz S RI R 376.73
[Number of Ports] 4
[Reference]
376.73 376.73 259.814 259.814 
[Number of Frequencies] 51
[Network Data]
281700                  0.192308      -0.0668432      0.000167888     1.95951e-05        -0.915825        0.326767     -7.17808e-05     0.000186763
                     0.000131942    -2.66471e-05        0.0279851       -0.114977     -0.000128903     0.000106808        0.0132812        -0.99232
                        -0.91547        0.326828      -0.00014084     7.79466e-05        -0.190677       0.0703148     -0.000119686    -0.000110435
                     4.14262e-05      0.00021058        0.0132774       -0.992526     -6.68466e-05    -0.000143621         0.024823        0.115776
281702                  0.192301      -0.0668713      0.000168019     1.96103e-05        -0.915705        0.327099     -7.17308e-05     0.000186815
                     0.000132023    -2.66508e-05        0.0279726       -0.114976     -0.000128873     0.000106845        0.0130422       -0.992323
                       -0.915351        0.327159     -0.000140799     7.79986e-05        -0.190639       0.0704262     -0.000119749     -0.00011045
                      4.1455e-05     0.000210566        0.0130384        -0.99253     -6.69666e-05     -0.00014366        0.0248663        0.115763
281704                  0.192293      -0.0668993      0.000168149     1.96254e-05        -0.915585        0.327431     -7.16808e-05     0.000186868
                     0.000132104    -2.66545e-05        0.0279601       -0.114975     -0.000128843     0.000106882        0.0128032       -0.992327
                       -0.915231         0.32749     -0.000140758     7.80506e-05          -0.1906       0.0705376     -0.000119812    -0.000110465
                     4.14839e-05     0.000210553        0.0127994       -0.992533     -6.70867e-05    -0.000143699        0.0249096        0.115751
281706                  0.192285      -0.0669274       0.00016828     1.96405e-05        -0.915465        0.327762     -7.16307e-05      0.00018692
                     0.000132185    -2.66581e-05        0.0279476       -0.114975     -0.000128813     0.000106919        0.0125642        -0.99233
                       -0.915112        0.327821     -0.000140717     7.81027e-05        -0.190561       0.0706489     -0.000119875     -0.00011048
                     4.15129e-05      0.00021054        0.0125604       -0.992537     -6.72069e-05    -0.000143738        0.0249528        0.115738
281708                  0.192278      -0.0669554       0.00016841     1.96555e-05        -0.915345        0.328094     -7.15805e-05     0.000186971
                     0.000132266    -2.66617e-05        0.0279351       -0.114974     -0.000128783     0.000106956        0.0123252       -0.992334
                       -0.914992        0.328152     -0.000140676     7.81548e-05        -0.190522       0.0707603     -0.000119939    -0.000110495
                     4.15421e-05     0.000210526        0.0123213        -0.99254     -6.73271e-05    -0.000143776        0.0249961        0.115725
281710                   0.19227      -0.0669835      0.000168541     1.96705e-05        -0.915225        0.328425     -7.15301e-05     0.000187022
                     0.000132347    -2.66652e-05        0.0279227       -0.114974     -0.000128752     0.000106993        0.0120862       -0.992337
                       -0.914872        0.328483     -0.000140635     7.82071e-05        -0.190483       0.0708716     -0.000120003    -0.000110511
                     4.15715e-05     0.000210513        0.0120823       -0.992544     -6.74475e-05    -0.000143815        0.0250393        0.115712
281712                  0.192263      -0.0670115      0.000168672     1.96856e-05        -0.915105        0.328757     -7.14793e-05     0.000187073
                     0.000132428    -2.66687e-05        0.0279102       -0.114973     -0.000128722      0.00010703        0.0118473        -0.99234
                       -0.914752        0.328814     -0.000140594     7.82595e-05        -0.190444       0.0709829     -0.000120068    -0.000110527
                      4.1601e-05       0.0002105        0.0118433       -0.992547     -6.75679e-05    -0.000143854        0.0250826        0.115699
281714                  0.192255      -0.0670396      0.000168802     1.97005e-05        -0.914984        0.329088     -7.14279e-05     0.000187123
                      0.00013251    -2.66722e-05        0.0278977       -0.114972     -0.000128692     0.000107067        0.0116083       -0.992343
                       -0.914632        0.329145     -0.000140552     7.83119e-05        -0.190404       0.0710942     -0.000120134    -0.000110543
                     4.16307e-05     0.000210487        0.0116043        -0.99255     -6.76885e-05    -0.000143892        0.0251258        0.115686
281716                  0.192248      -0.0670676      0.000168933     1.97155e-05        -0.914864         0.32942     -7.13754e-05     0.000187172
                     0.000132591    -2.66757e-05        0.0278852       -0.114972     -0.000128662     0.000107104        0.0113693       -0.992347
                       -0.914512        0.329476     -0.000140511     7.83644e-05        -0.190365       0.0712054     -0.000120202     -0.00011056
                     4.16605e-05     0.000210474        0.0113653       -0.992553     -6.78091e-05     -0.00014393        0.0251691        0.115673
281718                   0.19224      -0.0670957      0.000169064     1.97304e-05        -0.914743        0.329751     -7.13214e-05     0.000187221
                     0.000132673    -2.66791e-05        0.0278728       -0.114971     -0.000128632     0.000107141        0.0111303        -0.99235
                       -0.914392        0.329807      -0.00014047      7.8417e-05        -0.190326       0.0713166     -0.000120271    -0.000110577
                     4.16905e-05     0.000210461        0.0111262       -0.992556     -6.79298e-05    -0.000143969        0.0252123         0.11566
281720                  0.192232      -0.0671237      0.000169195     1.97453e-05        -0.914622        0.330082     -7.12656e-05      0.00018727
                     0.000132754    -2.66825e-05        0.0278603       -0.114971     -0.000128601     0.000107178        0.0108913       -0.992353
                       -0.914271        0.330138     -0.000140429     7.84697e-05        -0.190286       0.0714278     -0.000120344    -0.000110593
                     4.17206e-05     0.000210448        0.0108872       -0.992559     -6.80506e-05    -0.000144007        0.0252555        0.115647
281722                  0.192225      -0.0671518      0.000169327     1.97601e-05        -0.914501        0.330414     -7.12079e-05      0.00018732
                     0.000132836    -2.66859e-05        0.0278478        -0.11497     -0.000128571     0.000107214        0.0106523       -0.992356
                       -0.914151        0.330469     -0.000140387     7.85225e-05        -0.190247        0.071539     -0.000120421    -0.000110607
                     4.17508e-05     0.000210436        0.0106482       -0.992562     -6.81715e-05    -0.000144045        0.0252987        0.115634
281724                  0.192217      -0.0671799      0.000169458     1.97749e-05         -0.91438        0.330745     -7.11491e-05     0.000187373
                     0.000132917    -2.66894e-05        0.0278353       -0.114969     -0.000128541     0.000107251        0.0104133       -0.992359
                        -0.91403          0.3308     -0.000140346     7.85753e-05        -0.190207       0.0716502     -0.000120502    -0.000110614
                      4.1781e-05     0.000210423        0.0104092       -0.992565     -6.82924e-05    -0.000144083        0.0253419        0.115621
281726                  0.192209      -0.0672079      0.000169589     1.97897e-05        -0.914259        0.331076     -7.10903e-05     0.000187428
                     0.000132999    -2.66928e-05        0.0278229       -0.114969      -0.00012851     0.000107288        0.0101744       -0.992362
                       -0.913909        0.331131     -0.000140305     7.86282e-05        -0.190168       0.0717613     -0.000120583    -0.000110611
                     4.18113e-05     0.000210411        0.0101701       -0.992568     -6.84134e-05    -0.000144121        0.0253851        0.115608
281728                  0.192202       -0.067236       0.00016972     1.98044e-05        -0.914138        0.331407     -7.10326e-05     0.000187485
                     0.000133081    -2.66962e-05        0.0278104       -0.114968     -0.000128479     0.000107324       0.00993537       -0.992364
                       -0.913788        0.331461     -0.000140263     7.86813e-05        -0.190128       0.0718724     -0.000120654    -0.000110597
                     4.18417e-05       0.0002104       0.00993109       -0.992571     -6.85346e-05    -0.000144159        0.0254283        0.115594
281730                  0.192194      -0.0672641      0.000169852     1.98192e-05        -0.914017        0.331738     -7.09767e-05     0.000187543
                     0.000133163    -2.66997e-05        0.0277979       -0.114967     -0.000128449     0.000107361       0.00969639       -0.992367
                       -0.913667        0.331792     -0.000140222     7.87343e-05        -0.190088       0.0719835      -0.00012071    -0.000110583
                      4.1872e-05     0.000210388       0.00969206       -0.992574     -6.86558e-05    -0.000144197        0.0254715        0.115581
281732                  0.192187      -0.0672921      0.000169983     1.98338e-05        -0.913895         0.33207     -7.09225e-05     0.000187602
                     0.000133244    -2.67033e-05        0.0277854       -0.114967     -0.000128418     0.000107398        0.0094574        -0.99237
                       -0.913546        0.332123      -0.00014018     7.87875e-05        -0.190049       0.0720946     -0.000120756    -0.000110578
                     4.19022e-05     0.000210377       0.00945302       -0.992576      -6.8777e-05    -0.000144234        0.0255147        0.115568
281734                  0.192179      -0.0673202      0.000170114     1.98485e-05        -0.913773        0.332401     -7.08697e-05      0.00018766
                     0.000133326    -2.67069e-05         0.027773       -0.114966     -0.000128387     0.000107434       0.00921842       -0.992372
                       -0.913425        0.332453     -0.000140139     7.88408e-05        -0.190009       0.0722056     -0.000120801    -0.000110585
                     4.19324e-05     0.000210366       0.00921399       -0.992579     -6.88984e-05    -0.000144272        0.0255578        0.115555
281736                  0.192171      -0.0673483      0.000170246     1.98631e-05        -0.913652        0.332732     -7.08179e-05     0.000187718
                     0.000133408    -2.67105e-05        0.0277605       -0.114966     -0.000128356      0.00010747       0.00897944       -0.992375
                       -0.913303        0.332784     -0.000140097     7.88941e-05        -0.189969       0.0723167     -0.000120849    -0.000110597
                     4.19625e-05     0.000210355       0.00897495       -0.992581     -6.90199e-05    -0.000144309         0.025601        0.115542
281738                  0.192163      -0.0673764      0.000170377     1.98776e-05         -0.91353        0.333063     -7.07666e-05     0.000187775
                      0.00013349    -2.67143e-05         0.027748       -0.114965     -0.000128325     0.000107507       0.00874046       -0.992378
                       -0.913182        0.333114     -0.000140056     7.89475e-05        -0.189929       0.0724277     -0.000120902    -0.000110612
                     4.19924e-05     0.000210344       0.00873592       -0.992584     -6.91414e-05    -0.000144347        0.0256441        0.115529
281740                  0.192156      -0.0674044      0.000170509     1.98921e-05        -0.913408        0.333394     -7.07156e-05     0.000187831
                     0.000133572    -2.67181e-05        0.0277355       -0.114964     -0.000128293     0.000107543       0.00850148        -0.99238
                        -0.91306        0.333445     -0.000140014      7.9001e-05        -0.189889       0.0725386     -0.000120957    -0.000110628
                     4.20221e-05     0.000210334       0.00849688       -0.992586      -6.9263e-05    -0.000144384        0.0256873        0.115515
281742                  0.192148      -0.0674325      0.000170641     1.99066e-05        -0.913286        0.333725     -7.06647e-05     0.000187887
                     0.000133655    -2.67221e-05        0.0277231       -0.114964     -0.000128262     0.000107579        0.0082625       -0.992382
                       -0.912938        0.333775     -0.000139973     7.90545e-05        -0.189848       0.0726496     -0.000121014    -0.000110645
                     4.20516e-05     0.000210324       0.00825784       -0.992589     -6.93848e-05    -0.000144421        0.0257304        0.115502
281744                   0.19214      -0.0674606      0.000170772      1.9921e-05        -0.913163        0.334055     -7.06139e-05     0.000187943
                     0.000133737    -2.67261e-05        0.0277106       -0.114963      -0.00012823     0.000107615       0.00802352       -0.992385
                       -0.912816        0.334106     -0.000139931     7.91082e-05        -0.189808       0.0727605     -0.000121073    -0.000110661
                     4.20808e-05     0.000210314        0.0080188       -0.992591     -6.95067e-05    -0.000144457        0.0257736        0.115489
281746                  0.192133      -0.0674887      0.000170904     1.99354e-05        -0.913041        0.334386     -7.05631e-05     0.000187998
                     0.000133819    -2.67303e-05        0.0276981       -0.114962     -0.000128197     0.000107651       0.00778454       -0.992387
                       -0.912694        0.334436      -0.00013989     7.91619e-05        -0.189768       0.0728714     -0.000121133    -0.000110676
                     4.21098e-05     0.000210304       0.00777976       -0.992593     -6.96287e-05    -0.000144494        0.0258167        0.115476
281748                  0.192125      -0.0675168      0.000171036     1.99498e-05        -0.912918        0.334717     -7.05123e-05     0.000188053
                     0.000133902    -2.67347e-05        0.0276857       -0.114962     -0.000128164     0.000107687       0.00754557       -0.992389
                       -0.912572        0.334767     -0.000139848     7.92157e-05        -0.189728       0.0729823     -0.000121194    -0.000110692
                     4.21385e-05     0.000210295       0.00754072       -0.992596      -6.9751e-05     -0.00014453        0.0258598        0.115462
281750                  0.192117      -0.0675448      0.000171168     1.99641e-05        -0.912796        0.335048     -7.04615e-05     0.000188108
                     0.000133984    -2.67391e-05        0.0276732       -0.114961     -0.000128128     0.000107723        0.0073066       -0.992391
                        -0.91245        0.335097     -0.000139807     7.92695e-05        -0.189687       0.0730931     -0.000121255    -0.000110707
                     4.21668e-05     0.000210285       0.00730167       -0.992598     -6.98737e-05    -0.000144564        0.0259029        0.115449
281752                  0.192109      -0.0675729      0.000171299     1.99783e-05        -0.912673        0.335379     -7.04107e-05     0.000188162
                     0.000134067    -2.67438e-05        0.0276607        -0.11496     -0.000128089     0.000107762       0.00706764       -0.992393
                       -0.912327        0.335427     -0.000139765     7.93234e-05        -0.189647        0.073204     -0.000121316    -0.000110722
                     4.21949e-05     0.000210276       0.00706263         -0.9926     -6.99973e-05    -0.000144594         0.025946        0.115436
281754                  0.192102       -0.067601      0.000171431     1.99925e-05         -0.91255        0.335709     -7.03601e-05     0.000188217
                      0.00013415    -2.67485e-05        0.0276482        -0.11496      -0.00012805     0.000107814       0.00682871       -0.992395
                       -0.912205        0.335758     -0.000139723     7.93774e-05        -0.189606       0.0733147     -0.000121377    -0.000110737
                     4.22226e-05     0.000210267       0.00682359       -0.992602     -7.01164e-05    -0.000144596        0.0259891        0.115423
281756                  0.192094      -0.0676291      0.000171563     2.00067e-05        -0.912427        0.336041     -7.03098e-05     0.000188272
                     0.000134232    -2.67535e-05        0.0276358       -0.114959     -0.000128035     0.000107865       0.00658985       -0.992397
                       -0.912082        0.336088     -0.000139682     7.94315e-05        -0.189565       0.0734257     -0.000121439    -0.000110752
                     4.22499e-05     0.000210257       0.00658454       -0.992604     -7.02052e-05    -0.000144715        0.0260322        0.115409
281758                  0.192086      -0.0676572      0.000171695     2.00208e-05        -0.912304        0.336371     -7.02602e-05     0.000188327
                     0.000134315    -2.67586e-05        0.0276233       -0.114958     -0.000128016     0.000107895       0.00635149       -0.992399
                       -0.911959        0.336418      -0.00013964     7.94856e-05        -0.189525       0.0735364       -0.0001215    -0.000110768
                      4.2277e-05     0.000210248        0.0063455       -0.992606     -7.03488e-05    -0.000144735        0.0260751        0.115396
281760                  0.192078      -0.0676853      0.000171827     2.00349e-05        -0.912181        0.336701     -7.02123e-05     0.000188381
                     0.000134399    -2.67638e-05        0.0276108       -0.114958     -0.000127987     0.000107926       0.00611044       -0.992403
                       -0.911837        0.336748     -0.000139598     7.95398e-05        -0.189484       0.0736471     -0.000121561    -0.000110784
                     4.23036e-05      0.00021024       0.00610645       -0.992608     -7.04746e-05    -0.000144767        0.0261188        0.115383
281762                  0.192071      -0.0677134      0.000171959     2.00489e-05        -0.912058        0.337032     -7.01691e-05     0.000188434
                     0.000134482    -2.67692e-05        0.0275983       -0.114957     -0.000127955      0.00010796       0.00587217       -0.992404
                       -0.911714        0.337078     -0.000139557     7.95941e-05        -0.189443       0.0737578     -0.000121622    -0.000110804
