! TOUCHSTONE file generated by CST MICROWAVE STUDIO
! Date and time: Tue Oct 14 17:39:23 2025
! Project name: Teste_Macro_Metasurface_Nanopilar.cst
! Parameters = {H=600; L_x=190; L_y=180; Lambda=1064; Max_L=200; Min_L=70; PathPara=1; Phi=0; Step_L=10; Theta=0; p=520; phaseX=180; phaseY=0}
! Header version: 2018
! Port assignment regex: !\s*Touchstone port\s*([0-9]+)\s*=\s*(CST MWS port|CST DS port)\s*([0-9]+|Zmin|Zmax)\s*\(\"(.*)\"\)(\s*mode\s*([0-9]+))?.*
! Touchstone port assignment:
! Touchstone port 1 = CST MWS port Zmax ("") mode 1
! Touchstone port 2 = CST MWS port Zmax ("") mode 2
! Touchstone port 3 = CST MWS port Zmin ("") mode 1
! Touchstone port 4 = CST MWS port Zmin ("") mode 2
! S-Parameters are not renormalized. Each port impedance will be approximated by the real part at minimum frequency. The values are described via the [Reference] keyword.
! Default impedance is overridden by [Reference]
[Version] 2.0
# GHz S RI R 376.73
[Number of Ports] 4
[Reference]
376.73 376.73 259.814 259.814 
[Number of Frequencies] 51
[Network Data]
281700                  0.316311        0.160499     -0.000145778    -0.000263046         0.241301       -0.899533      0.000763516     0.000141772
                     1.61941e-05    -0.000162208         0.388474        0.728729      0.000256559    -7.21329e-05         0.281894       -0.332434
                        0.241463       -0.899868       0.00031116    -7.07217e-05         0.352647       0.0192348     -0.000570578     0.000805546
                     0.000677525     0.000182832         0.282128       -0.332052     -0.000653567     0.000753747         0.637397        0.514012
281702                  0.316322         0.16048     -0.000146434    -0.000263063         0.241041       -0.899601      0.000764194     0.000141015
                     1.70719e-05    -0.000159856         0.389377        0.727714      0.000257895    -7.17756e-05         0.282456        -0.33367
                        0.241199       -0.899938      0.000311943     -7.0307e-05         0.352659       0.0190504     -0.000569447     0.000806929
                      0.00067757     0.000182458         0.282701       -0.333297     -0.000636699     0.000767633         0.638104        0.512397
281704                  0.316333        0.160461     -0.000147094    -0.000263098          0.24078       -0.899669      0.000764874     0.000140262
                     1.67426e-05    -0.000158584         0.390274          0.7267       0.00025924    -7.17955e-05         0.283012       -0.334905
                        0.240935       -0.900007      0.000312744    -6.98712e-05         0.352672       0.0188661      -0.00056831     0.000808311
                     0.000677612     0.000182198         0.283265       -0.334539     -0.000628744     0.000770902         0.638805        0.510785
281706                  0.316344        0.160441     -0.000147755    -0.000263152          0.24052       -0.899737      0.000765556     0.000139513
                     1.62371e-05    -0.000158008         0.391165        0.725686      0.000260317    -7.22858e-05         0.283562       -0.336139
                        0.240672       -0.900076      0.000313564    -6.94121e-05         0.352684       0.0186817     -0.000567165     0.000809692
                     0.000677699     0.000182035         0.283821       -0.335779     -0.000624024     0.000772564           0.6395        0.509174
281708                  0.316355        0.160422     -0.000148416    -0.000263228         0.240259       -0.899806      0.000766238     0.000138768
                     1.57661e-05    -0.000157785          0.39205        0.724673      0.000260739     -7.3048e-05         0.284105       -0.337371
                        0.240409       -0.900145      0.000314404    -6.89269e-05         0.352695       0.0184975     -0.000566013     0.000811072
                     0.000677854     0.000181932         0.284368       -0.337015     -0.000620674      0.00077381         0.640188        0.507565
281710                  0.316366        0.160402     -0.000149077    -0.000263328         0.239998       -0.899874      0.000766922     0.000138028
                     1.53559e-05     -0.00015775          0.39293         0.72366       0.00026041    -7.35404e-05         0.284643       -0.338602
                        0.240146       -0.900215      0.000315265    -6.84122e-05         0.352707       0.0183132     -0.000564854      0.00081245
                     0.000678081     0.000181856         0.284907        -0.33825     -0.000618016     0.000774913         0.640869        0.505958
281712                  0.316376        0.160383     -0.000149734    -0.000263454         0.239737       -0.899943      0.000767608     0.000137293
                     1.49987e-05    -0.000157822         0.393805        0.722648      0.000259738    -7.33704e-05         0.285174       -0.339832
                        0.239883       -0.900284       0.00031615    -6.78644e-05         0.352719        0.018129     -0.000563687     0.000813826
                     0.000678369     0.000181781         0.285439       -0.339481     -0.000615753     0.000775956         0.641544        0.504353
281714                  0.316387        0.160364     -0.000150385    -0.000263607         0.239476       -0.900012      0.000768295     0.000136566
                     1.46826e-05    -0.000157959         0.394674        0.721636      0.000259183    -7.26198e-05         0.285699        -0.34106
                        0.239621       -0.900353      0.000317061    -6.72787e-05          0.35273       0.0179449     -0.000562513     0.000815201
                     0.000678705     0.000181693         0.285963       -0.340711     -0.000613735     0.000776971         0.642213        0.502751
281716                  0.316398        0.160344     -0.000151027     -0.00026379         0.239215        -0.90008      0.000768983     0.000135846
                      1.4398e-05    -0.000158138         0.395537        0.720625      0.000258919    -7.15647e-05         0.286219       -0.342287
                        0.239358       -0.900423      0.000317998    -6.66497e-05         0.352741       0.0177608     -0.000561332     0.000816574
                     0.000679076     0.000181586         0.286479       -0.341938      -0.00061188      0.00077797         0.642876         0.50115
281718                  0.316409        0.160325     -0.000151656    -0.000264005         0.238954       -0.900149      0.000769673     0.000135134
                     1.41371e-05    -0.000158346         0.396395        0.719615      0.000258921    -7.04084e-05         0.286732       -0.343513
                        0.239095       -0.900492      0.000318963     -6.5971e-05         0.352752       0.0175768     -0.000560144     0.000817946
                      0.00067947     0.000181459         0.286988       -0.343162     -0.000610138     0.000778961         0.643532        0.499551
281720                   0.31642        0.160305     -0.000152265    -0.000264254         0.238692       -0.900218      0.000770364     0.000134432
                     1.38947e-05    -0.000158574         0.397248        0.718605      0.000259114    -6.92485e-05         0.287239       -0.344737
                        0.238832       -0.900561      0.000319957    -6.52346e-05         0.352763       0.0173928     -0.000558948     0.000819315
                      0.00067988     0.000181313          0.28749       -0.344384     -0.000608476     0.000779945         0.644181        0.497954
281722                  0.316431        0.160286     -0.000152848    -0.000264538         0.238431       -0.900288      0.000771055     0.000133741
                     1.36664e-05    -0.000158817         0.398095        0.717595      0.000259431    -6.81201e-05         0.287741        -0.34596
                         0.23857       -0.900631      0.000320981     -6.4431e-05         0.352774       0.0172089     -0.000557746     0.000820682
                       0.0006803     0.000181149         0.287984       -0.345604     -0.000606874     0.000780924         0.644825        0.496359
281724                  0.316442        0.160266     -0.000153396    -0.000264857         0.238169       -0.900357      0.000771747     0.000133063
                     1.34493e-05    -0.000159071         0.398937        0.716587      0.000259827    -6.70312e-05         0.288236       -0.347182
                        0.238307         -0.9007      0.000322031    -6.35488e-05         0.352784       0.0170251     -0.000556536     0.000822047
                     0.000680727      0.00018097         0.288472       -0.346821     -0.000605318       0.0007819         0.645462        0.494767
281726                  0.316453        0.160247     -0.000153897    -0.000265212         0.237908       -0.900426      0.000772438     0.000132398
                      1.3241e-05    -0.000159334         0.399773        0.715578      0.000260272    -6.59792e-05         0.288726       -0.348402
                        0.238044       -0.900769      0.000323106    -6.25739e-05         0.352795       0.0168413      -0.00055532     0.000823408
                     0.000681158     0.000180778         0.288953       -0.348037     -0.000603797     0.000782872         0.646093        0.493176
281728                  0.316463        0.160227     -0.000154339    -0.000265598         0.237646       -0.900495      0.000773129      0.00013175
                     1.30398e-05    -0.000159604         0.400604        0.714571      0.000260747    -6.49587e-05          0.28921       -0.349621
                        0.237781       -0.900838      0.000324196    -6.14899e-05         0.352805       0.0166576     -0.000554098     0.000824766
                     0.000681592     0.000180575         0.289426        -0.34925     -0.000602303     0.000783841         0.646718        0.491588
281730                  0.316474        0.160208     -0.000154704    -0.000266009         0.237385       -0.900565      0.000773818     0.000131119
                     1.28444e-05     -0.00015988          0.40143        0.713564      0.000261241     -6.3964e-05         0.289688       -0.350838
                        0.237518       -0.900907      0.000325286    -6.02775e-05         0.352815       0.0164739     -0.000552871     0.000826119
                     0.000682026     0.000180363         0.289893        -0.35046     -0.000600831     0.000784807         0.647337        0.490002
281732                  0.316485        0.160188     -0.000154972    -0.000266436         0.237123       -0.900634      0.000774503     0.000130509
                     1.26535e-05    -0.000160159          0.40225        0.712557      0.000261746    -6.29901e-05         0.290161       -0.352054
                        0.237255       -0.900976      0.000326351     -5.8915e-05         0.352824       0.0162902     -0.000551639     0.000827467
                     0.000682462     0.000180143         0.290353       -0.351669     -0.000599378     0.000785771         0.647949        0.488418
281734                  0.316496        0.160169     -0.000155121     -0.00026686         0.236861       -0.900703      0.000775184     0.000129923
                     1.24663e-05    -0.000160443         0.403066        0.711551      0.000262255    -6.20329e-05         0.290628       -0.353269
                        0.236992       -0.901045       0.00032735    -5.73816e-05         0.352834       0.0161066     -0.000550403     0.000828809
                     0.000682897     0.000179916         0.290806       -0.352876     -0.000597939     0.000786731         0.648556        0.486836
281736                  0.316507         0.16015     -0.000155123    -0.000267255         0.236599       -0.900773      0.000775858     0.000129363
                     1.22823e-05     -0.00016073         0.403876        0.710546      0.000262766    -6.10892e-05         0.291089       -0.354483
                         0.23673       -0.901114      0.000328213    -5.56623e-05         0.352843       0.0159229     -0.000549165     0.000830142
                     0.000683332     0.000179684         0.291252        -0.35408     -0.000596512     0.000787689         0.649156        0.485257
281738                  0.316517         0.16013     -0.000154953    -0.000267585         0.236337       -0.900842      0.000776522     0.000128833
                     1.21008e-05    -0.000161019          0.40468        0.709541      0.000263275    -6.01567e-05         0.291545       -0.355695
                        0.236467       -0.901183      0.000328837    -5.37624e-05         0.352852       0.0157392     -0.000547928     0.000831465
                     0.000683767     0.000179446         0.291689       -0.355282     -0.000595096     0.000788644          0.64975        0.483679
281740                  0.316528        0.160111     -0.000154583    -0.000267797         0.236074       -0.900911      0.000777172     0.000128338
                     1.19215e-05    -0.000161311          0.40548        0.708537      0.000263779    -5.92334e-05         0.291995       -0.356905
                        0.236204       -0.901251      0.000329071    -5.17347e-05         0.352861       0.0155554     -0.000546694     0.000832775
                     0.000684202     0.000179204         0.292117       -0.356481     -0.000593688     0.000789597         0.650338        0.482104
281742                  0.316539        0.160091     -0.000153992    -0.000267823         0.235812        -0.90098      0.000777803     0.000127882
                      1.1744e-05    -0.000161604         0.406274        0.707533      0.000264278    -5.83182e-05         0.292439       -0.358115
                        0.235941        -0.90132      0.000328725    -4.97273e-05         0.352869       0.0153714     -0.000545467     0.000834067
                     0.000684636     0.000178958         0.292532       -0.357677     -0.000592289     0.000790548          0.65092        0.480532
281744                   0.31655        0.160072      -0.00015317    -0.000267576         0.235549       -0.901048      0.000778409     0.000127472
                     1.15681e-05    -0.000161899         0.407063         0.70653      0.000264768    -5.74105e-05         0.292878       -0.359323
                        0.235678       -0.901388      0.000327613    -4.80473e-05         0.352878       0.0151874     -0.000544255     0.000835337
                     0.000685071     0.000178709         0.292923       -0.358871     -0.000590896     0.000791498         0.651496        0.478962
281746                  0.316561        0.160052     -0.000152123    -0.000266958         0.235287       -0.901117      0.000778979     0.000127112
                     1.13938e-05    -0.000162196         0.407847        0.705527      0.000265246    -5.65101e-05         0.293312       -0.360529
                        0.235415       -0.901457       0.00032568    -4.71966e-05         0.352886       0.0150033     -0.000543064     0.000836577
                     0.000685505     0.000178456         0.293237        -0.36007      -0.00058951     0.000792448         0.652066        0.477394
281748                  0.316572        0.160033      -0.00015088    -0.000265862         0.235025       -0.901185      0.000779502      0.00012681
                      1.1221e-05    -0.000162493         0.408626        0.704524       0.00026571    -5.56171e-05          0.29374       -0.361735
                        0.235152       -0.901525      0.000323187    -4.77709e-05         0.352895       0.0148192     -0.000541909     0.000837776
                      0.00068594     0.000178201         0.293524       -0.362088      -0.00058813     0.000793398         0.652629        0.475828
281750                  0.316583        0.160014     -0.000149493    -0.000264192         0.234762       -0.901254      0.000779961     0.000126573
                     1.10497e-05    -0.000162792           0.4094        0.703522      0.000266154    -5.47321e-05         0.294162       -0.362939
                        0.234889       -0.901593      0.000320772    -5.01468e-05         0.352903        0.014635     -0.000540806      0.00083892
                     0.000686375     0.000177944         0.294468       -0.362616     -0.000586756      0.00079435         0.653187        0.474265
281752                  0.316593        0.159994      -0.00014803    -0.000261878           0.2345       -0.901322      0.000780333     0.000126408
                     1.08801e-05    -0.000163091         0.410168         0.70252      0.000266569    -5.38553e-05          0.29458       -0.364142
                        0.234626       -0.901661      0.000319174     -5.4156e-05         0.352912       0.0144509     -0.000539783     0.000839986
                     0.000686811     0.000177683         0.294793       -0.363731     -0.000585387     0.000795306         0.653739        0.472704
281754                  0.316604        0.159975     -0.000146558    -0.000258895         0.234238        -0.90139      0.000780586     0.000126324
                     1.07125e-05    -0.000163392          0.41093        0.701519      0.000266941    -5.29857e-05         0.294991       -0.365344
                        0.234363       -0.901729      0.000318747    -5.91376e-05          0.35292       0.0142668     -0.000538881     0.000840938
                     0.000687247     0.000177421         0.295162       -0.364901     -0.000584023     0.000796269         0.654284        0.471146
281756                  0.316615        0.159956     -0.000145117    -0.000255284         0.233976       -0.901458      0.000780677     0.000126325
                     1.05473e-05    -0.000163693         0.411687        0.700518      0.000267246    -5.21158e-05         0.295397       -0.366544
                          0.2341       -0.901797      0.000319296    -6.43439e-05         0.352929       0.0140827     -0.000538163     0.000841723
                     0.000687685     0.000177155         0.295542       -0.366081     -0.000582664     0.000797244         0.654823         0.46959
281758                  0.316626        0.159936       -0.0001437    -0.000251155         0.233714       -0.901526      0.000780541     0.000126413
                     1.03849e-05    -0.000163996         0.412437        0.699517      0.000267447    -5.12185e-05         0.295798       -0.367744
                        0.233837       -0.901865      0.000320312    -6.92456e-05         0.352937       0.0138987      -0.00053773     0.000842245
                     0.000688124     0.000176886         0.295924       -0.367264     -0.000581306     0.000798239         0.655356        0.468036
281760                  0.316637        0.159917     -0.000142248    -0.000246697         0.233452       -0.901594      0.000780087     0.000126578
                     1.02257e-05    -0.000164302         0.413182        0.698518      0.000267493    -5.02069e-05         0.296193       -0.368942
                        0.233574       -0.901933      0.000321304    -7.35501e-05         0.352945       0.0137147     -0.000537748     0.000842338
                     0.000688565     0.000176613         0.296304       -0.368448     -0.000579943     0.000799262         0.655883        0.466485
281762                  0.316648        0.159897     -0.000140667    -0.000242163          0.23319       -0.901661      0.000779177     0.000126792
                       1.007e-05    -0.000164611          0.41392         0.69752      0.000267424    -4.88656e-05         0.296583       -0.370139
                        0.233311          -0.902       0.00032198    -7.71039e-05         0.352953       0.0135308     -0.000538488     0.000841669
