! TOUCHSTONE file generated by CST MICROWAVE STUDIO
! Date and time: Tue Oct 14 17:38:26 2025
! Project name: Teste_Macro_Metasurface_Nanopilar.cst
! Parameters = {H=600; L_x=110; L_y=170; Lambda=1064; Max_L=200; Min_L=70; PathPara=1; Phi=0; Step_L=10; Theta=0; p=520; phaseX=180; phaseY=0}
! Header version: 2018
! Port assignment regex: !\s*Touchstone port\s*([0-9]+)\s*=\s*(CST MWS port|CST DS port)\s*([0-9]+|Zmin|Zmax)\s*\(\"(.*)\"\)(\s*mode\s*([0-9]+))?.*
! Touchstone port assignment:
! Touchstone port 1 = CST MWS port Zmax ("") mode 1
! Touchstone port 2 = CST MWS port Zmax ("") mode 2
! Touchstone port 3 = CST MWS port Zmin ("") mode 1
! Touchstone port 4 = CST MWS port Zmin ("") mode 2
! S-Parameters are not renormalized. Each port impedance will be approximated by the real part at minimum frequency. The values are described via the [Reference] keyword.
! Default impedance is overridden by [Reference]
[Version] 2.0
# GHz S RI R 376.73
[Number of Ports] 4
[Reference]
376.73 376.73 259.814 259.814 
[Number of Frequencies] 51
[Network Data]
281700                  0.649746        0.470604      0.000501904     2.20727e-05        0.0755739       -0.553488      0.000417657     3.52342e-05
                     0.000520353    -1.72487e-05         0.101074      -0.0170972      -0.00041206     0.000985144         0.360133        0.917977
                       0.0752897       -0.553517     -0.000293744     0.000945676         0.709949       -0.350045     -0.000576919     0.000839877
                     0.000371276     8.53599e-06         0.360285        0.918022     -0.000590064     0.000850485        0.0845353      -0.0535767
281702                  0.650271        0.470437      0.000501814     2.15036e-05        0.0750535        -0.55305       0.00041777     3.48295e-05
                     0.000520234    -1.78295e-05         0.101056      -0.0170899     -0.000411242     0.000985642         0.360492        0.917838
                       0.0747694        -0.55308     -0.000292868     0.000946042         0.709801       -0.351069     -0.000576508     0.000840458
                     0.000371191     8.09543e-06         0.360644        0.917884     -0.000589509     0.000850898        0.0844755      -0.0536363
281704                  0.650795        0.470269      0.000501722     2.09344e-05        0.0745334       -0.552611      0.000417883     3.44242e-05
                     0.000520114    -1.84103e-05         0.101039      -0.0170826     -0.000410422     0.000986139         0.360851        0.917699
                       0.0742497       -0.552641     -0.000291991     0.000946407         0.709652       -0.352093     -0.000576097     0.000841039
                     0.000371104      7.6546e-06         0.361002        0.917745     -0.000588952     0.000851309        0.0844157      -0.0536958
281706                   0.65132        0.470101      0.000501629     2.03651e-05        0.0740139       -0.552171      0.000417996     3.40182e-05
                     0.000519993    -1.89914e-05         0.101022      -0.0170753     -0.000409601     0.000986633          0.36121        0.917561
                       0.0737304       -0.552201     -0.000291112     0.000946771           0.7095       -0.353117     -0.000575686     0.000841621
                     0.000371017     7.21349e-06         0.361361        0.917606     -0.000588396      0.00085172        0.0843558      -0.0537552
281708                  0.651845        0.469931      0.000501535     1.97956e-05        0.0734949        -0.55173      0.000418109     3.36116e-05
                     0.000519871    -1.95726e-05         0.101005       -0.017068     -0.000408779     0.000987126         0.361568        0.917422
                       0.0732116        -0.55176     -0.000290233     0.000947134         0.709347       -0.354142     -0.000575276     0.000842203
                     0.000370928      6.7721e-06          0.36172        0.917467     -0.000587839     0.000852129        0.0842959      -0.0538146
281710                   0.65237        0.469761       0.00050144      1.9226e-05        0.0729764       -0.551287      0.000418222     3.32045e-05
                     0.000519748     -2.0154e-05         0.100987      -0.0170607     -0.000407956     0.000987616         0.361927        0.917282
                       0.0726934       -0.551318     -0.000289352     0.000947496         0.709192       -0.355168     -0.000574865     0.000842785
                     0.000370839     6.33043e-06         0.362079        0.917328     -0.000587282     0.000852538         0.084236      -0.0538739
281712                  0.652896         0.46959      0.000501344     1.86563e-05        0.0724583       -0.550844      0.000418335     3.27967e-05
                     0.000519624    -2.07355e-05          0.10097      -0.0170534      -0.00040713     0.000988104         0.362285        0.917143
                       0.0721756       -0.550875      -0.00028847     0.000947856         0.709036       -0.356194     -0.000574455     0.000843368
                     0.000370748     5.88848e-06         0.362438        0.917189     -0.000586724     0.000852945         0.084176      -0.0539332
281714                  0.653422        0.469418      0.000501247     1.80864e-05        0.0719408       -0.550399      0.000418448     3.23883e-05
                     0.000519498    -2.13172e-05         0.100953      -0.0170461     -0.000406303     0.000988591         0.362644        0.917004
                       0.0716583       -0.550431     -0.000287587     0.000948215         0.708878       -0.357221     -0.000574045     0.000843952
                     0.000370656     5.44624e-06         0.362796        0.917049     -0.000586166     0.000853351         0.084116      -0.0539924
281716                  0.653948        0.469246      0.000501149     1.75164e-05        0.0714237       -0.549954      0.000418561     3.19794e-05
                     0.000519372     -2.1899e-05         0.100936      -0.0170387     -0.000405474     0.000989076         0.363002        0.916864
                       0.0711415       -0.549986     -0.000286702     0.000948574         0.708718       -0.358248     -0.000573634     0.000844535
                     0.000370564     5.00372e-06         0.363155         0.91691     -0.000585608     0.000853755        0.0840559      -0.0540516
281718                  0.654474        0.469072      0.000501049     1.69462e-05        0.0709072       -0.549507      0.000418674     3.15698e-05
                     0.000519244     -2.2481e-05         0.100918      -0.0170314     -0.000404642     0.000989559         0.363361        0.916725
                       0.0706252       -0.549539     -0.000285817      0.00094893         0.708557       -0.359276     -0.000573224     0.000845119
                      0.00037047      4.5609e-06         0.363513         0.91677     -0.000585048     0.000854158        0.0839958      -0.0541107
281720                  0.655001        0.468898      0.000500949     1.63759e-05        0.0703912       -0.549059      0.000418788     3.11597e-05
                     0.000519116    -2.30631e-05         0.100901      -0.0170241     -0.000403808     0.000990042         0.363719        0.916585
                       0.0701095       -0.549092      -0.00028493     0.000949286         0.708394       -0.360305     -0.000572814     0.000845704
                     0.000370375     4.11779e-06         0.363872        0.916631     -0.000584487      0.00085456        0.0839356      -0.0541698
281722                  0.655528        0.468723      0.000500847     1.58055e-05        0.0698757        -0.54861      0.000418901      3.0749e-05
                     0.000518986    -2.36453e-05         0.100884      -0.0170167     -0.000402973     0.000990524         0.364077        0.916445
                       0.0695942       -0.548643     -0.000284042     0.000949641         0.708229       -0.361334     -0.000572403     0.000846289
                     0.000370278     3.67439e-06          0.36423        0.916491     -0.000583925     0.000854959        0.0838754      -0.0542288
281724                  0.656055        0.468547      0.000500744     1.52349e-05        0.0693607       -0.548159      0.000419014     3.03377e-05
                     0.000518855    -2.42277e-05         0.100867      -0.0170094     -0.000402135     0.000991006         0.364435        0.916305
                       0.0690795       -0.548193     -0.000283153     0.000949994         0.708063       -0.362363     -0.000571993     0.000846874
                     0.000370181     3.23068e-06         0.364589        0.916351     -0.000583362     0.000855358        0.0838152      -0.0542877
281726                  0.656582        0.468371      0.000500641     1.46642e-05        0.0688462       -0.547708      0.000419127     2.99259e-05
                     0.000518723    -2.48103e-05         0.100849       -0.017002     -0.000401296     0.000991487         0.364793        0.916165
                       0.0685652       -0.547742     -0.000282263     0.000950346         0.707895       -0.363394     -0.000571582      0.00084746
                     0.000370082     2.78668e-06         0.364947         0.91621     -0.000582796     0.000855756        0.0837549      -0.0543466
281728                   0.65711        0.468193      0.000500536     1.40933e-05        0.0683323       -0.547255       0.00041924     2.95135e-05
                      0.00051859     -2.5393e-05         0.100832      -0.0169946     -0.000400456     0.000991968         0.365151        0.916024
                       0.0680515        -0.54729     -0.000281372     0.000950697         0.707725       -0.364424     -0.000571172     0.000848046
                     0.000369983     2.34238e-06         0.365305         0.91607     -0.000582229     0.000856154        0.0836946      -0.0544054
281730                  0.657638        0.468015       0.00050043     1.35223e-05        0.0678188       -0.546802      0.000419353     2.91005e-05
                     0.000518455    -2.59758e-05         0.100815      -0.0169873     -0.000399616     0.000992448         0.365509        0.915884
                       0.0675384       -0.546837      -0.00028048     0.000951047         0.707553       -0.365456     -0.000570761     0.000848632
                     0.000369882     1.89777e-06         0.365663        0.915929      -0.00058166     0.000856552        0.0836343      -0.0544642
281732                  0.658166        0.467836      0.000500322     1.29511e-05        0.0673059       -0.546347      0.000419465      2.8687e-05
                      0.00051832    -2.65587e-05         0.100798      -0.0169799     -0.000398774     0.000992928         0.365867        0.915743
                       0.0670257       -0.546382     -0.000279586     0.000951396          0.70738       -0.366487      -0.00057035     0.000849219
                      0.00036978     1.45285e-06         0.366022        0.915789      -0.00058109      0.00085695        0.0835739      -0.0545229
281734                  0.658695        0.467656      0.000500214     1.23799e-05        0.0667936       -0.545891      0.000419578     2.82729e-05
                     0.000518183    -2.71418e-05          0.10078      -0.0169725     -0.000397932     0.000993407         0.366225        0.915603
                       0.0665136       -0.545927     -0.000278692     0.000951743         0.707205        -0.36752     -0.000569939     0.000849806
                     0.000369677     1.00763e-06          0.36638        0.915648     -0.000580519     0.000857348        0.0835134      -0.0545816
281736                  0.659223        0.467475      0.000500105     1.18084e-05        0.0662817       -0.545434      0.000419691     2.78583e-05
                     0.000518046     -2.7725e-05         0.100763      -0.0169651      -0.00039709     0.000993885         0.366583        0.915462
                        0.066002        -0.54547     -0.000277796     0.000952089         0.707029       -0.368553     -0.000569528     0.000850393
                     0.000369573     5.62102e-07         0.366738        0.915507     -0.000579948     0.000857747         0.083453      -0.0546402
281738                  0.659752        0.467294      0.000499994     1.12368e-05        0.0657704       -0.544976      0.000419803     2.74431e-05
                     0.000517907    -2.83084e-05         0.100746      -0.0169577     -0.000396247     0.000994362         0.366941        0.915321
                       0.0654909       -0.545013     -0.000276899     0.000952434          0.70685       -0.369586     -0.000569117     0.000850981
                     0.000369467      1.1626e-07         0.367095        0.915366     -0.000579376     0.000858146        0.0833924      -0.0546988
281740                  0.660281        0.467112      0.000499882     1.06651e-05        0.0652596       -0.544517      0.000419916     2.70274e-05
                     0.000517767    -2.88918e-05         0.100729      -0.0169503     -0.000395403     0.000994838         0.367298        0.915179
                       0.0649804       -0.544554     -0.000276001     0.000952778          0.70667        -0.37062     -0.000568705     0.000851569
                      0.00036936    -3.29894e-07         0.367453        0.915225     -0.000578805     0.000858545        0.0833319      -0.0547573
281742                  0.660811        0.466929      0.000499769     1.00932e-05        0.0647494       -0.544056      0.000420028     2.66112e-05
                     0.000517626    -2.94754e-05         0.100712      -0.0169429     -0.000394559     0.000995312         0.367656        0.915038
                       0.0644704       -0.544094     -0.000275102      0.00095312         0.706488       -0.371654     -0.000568294     0.000852158
                     0.000369253    -7.76362e-07         0.367811        0.915084     -0.000578233     0.000858943        0.0832713      -0.0548158
281744                  0.661341        0.466745      0.000499656     9.52121e-06        0.0642397       -0.543595       0.00042014     2.61944e-05
                     0.000517484    -3.00592e-05         0.100694      -0.0169355     -0.000393714     0.000995785         0.368014        0.914897
                       0.0639609       -0.543633     -0.000274202     0.000953462         0.706305       -0.372689     -0.000567882     0.000852747
                     0.000369144    -1.22314e-06         0.368169        0.914942     -0.000577661     0.000859341        0.0832106      -0.0548742
281746                  0.661871         0.46656       0.00049954     8.94903e-06        0.0637306       -0.543132      0.000420252     2.57771e-05
                      0.00051734     -3.0643e-05         0.100677      -0.0169281     -0.000392868     0.000996256         0.368371        0.914755
                        0.063452        -0.54317       -0.0002733     0.000953802          0.70612       -0.373725      -0.00056747     0.000853336
                     0.000369033    -1.67024e-06         0.368527        0.914801      -0.00057709     0.000859738        0.0831499      -0.0549325
281748                  0.662401        0.466374      0.000499424     8.37671e-06         0.063222       -0.542669      0.000420364     2.53593e-05
                     0.000517196     -3.1227e-05          0.10066      -0.0169207     -0.000392022     0.000996727         0.368729        0.914613
                       0.0629437       -0.542707     -0.000272398     0.000954141         0.705933       -0.374761     -0.000567057     0.000853925
                     0.000368922    -2.11765e-06         0.368884        0.914659     -0.000576518     0.000860135        0.0830892      -0.0549908
281750                  0.662931        0.466188      0.000499307     7.80423e-06        0.0627139       -0.542204      0.000420476      2.4941e-05
                      0.00051705    -3.18111e-05         0.100643      -0.0169132     -0.000391175     0.000997195         0.369086        0.914472
                       0.0624359       -0.542242     -0.000271494     0.000954478         0.705744       -0.375798     -0.000566645     0.000854515
                     0.000368809    -2.56538e-06         0.369242        0.914517     -0.000575946     0.000860532        0.0830285       -0.055049
281752                  0.663462           0.466      0.000499188      7.2316e-06        0.0622065       -0.541738      0.000420588     2.45221e-05
                     0.000516903    -3.23953e-05         0.100626      -0.0169058     -0.000390327     0.000997663         0.369443         0.91433
                       0.0619286       -0.541777      -0.00027059     0.000954815         0.705554       -0.376835     -0.000566232     0.000855105
                     0.000368695    -3.01343e-06         0.369599        0.914375     -0.000575373     0.000860927        0.0829677      -0.0551072
281754                  0.663993        0.465812      0.000499069     6.65881e-06        0.0616995        -0.54127      0.000420699     2.41027e-05
                     0.000516756    -3.29797e-05         0.100608      -0.0168984     -0.000389478     0.000998129         0.369801        0.914187
                       0.0614219        -0.54131     -0.000269684      0.00095515         0.705362       -0.377872     -0.000565818     0.000855695
                      0.00036858    -3.46179e-06         0.369957        0.914233     -0.000574801     0.000861322        0.0829068      -0.0551653
281756                  0.664524        0.465623      0.000498948     6.08586e-06        0.0611932       -0.540802       0.00042081     2.36829e-05
                     0.000516607    -3.35641e-05         0.100591      -0.0168909     -0.000388628     0.000998593         0.370158        0.914045
                       0.0609158       -0.540842     -0.000268778     0.000955484         0.705168        -0.37891     -0.000565405     0.000856286
                     0.000368464    -3.91047e-06         0.370314        0.914091     -0.000574228     0.000861716        0.0828459      -0.0552234
281758                  0.665055        0.465434      0.000498826     5.51274e-06        0.0606874       -0.540333      0.000420921     2.32625e-05
                     0.000516456    -3.41487e-05         0.100574      -0.0168835     -0.000387778     0.000999056         0.370515        0.913903
                       0.0604102       -0.540373      -0.00026787     0.000955817         0.704972       -0.379949     -0.000564991     0.000856876
                     0.000368346    -4.35946e-06         0.370672        0.913948     -0.000573655     0.000862109         0.082785      -0.0552814
281760                  0.665587        0.465243      0.000498703     4.93944e-06        0.0601821       -0.539862      0.000421032     2.28416e-05
                     0.000516305    -3.47334e-05         0.100557       -0.016876     -0.000386927     0.000999518         0.370872         0.91376
                       0.0599052       -0.539903     -0.000266961     0.000956149         0.704775       -0.380988     -0.000564576     0.000857467
                     0.000368227    -4.80877e-06         0.371029        0.913806     -0.000573082     0.000862502         0.082724      -0.0553394
281762                  0.666119        0.465051      0.000498579     4.36597e-06        0.0596775       -0.539391      0.000421143     2.24203e-05
                     0.000516153    -3.53182e-05          0.10054      -0.0168686     -0.000386074     0.000999979         0.371229        0.913618
                       0.0594007       -0.539431     -0.000266051     0.000956479         0.704576       -0.382028     -0.000564161     0.000858059
