! TOUCHSTONE file generated by CST MICROWAVE STUDIO
! Date and time: Tue Oct 14 17:38:30 2025
! Project name: Teste_Macro_Metasurface_Nanopilar.cst
! Parameters = {H=600; L_x=120; L_y=120; Lambda=1064; Max_L=200; Min_L=70; PathPara=1; Phi=0; Step_L=10; Theta=0; p=520; phaseX=180; phaseY=0}
! Header version: 2018
! Port assignment regex: !\s*Touchstone port\s*([0-9]+)\s*=\s*(CST MWS port|CST DS port)\s*([0-9]+|Zmin|Zmax)\s*\(\"(.*)\"\)(\s*mode\s*([0-9]+))?.*
! Touchstone port assignment:
! Touchstone port 1 = CST MWS port Zmax ("") mode 1
! Touchstone port 2 = CST MWS port Zmax ("") mode 2
! Touchstone port 3 = CST MWS port Zmin ("") mode 1
! Touchstone port 4 = CST MWS port Zmin ("") mode 2
! S-Parameters are not renormalized. Each port impedance will be approximated by the real part at minimum frequency. The values are described via the [Reference] keyword.
! Default impedance is overridden by [Reference]
[Version] 2.0
# GHz S RI R 376.73
[Number of Ports] 4
[Reference]
376.73 376.73 259.814 259.814 
[Number of Frequencies] 51
[Network Data]
281700                 0.0751009      -0.0583216      0.000911984     6.87786e-05        0.0068746         0.98583      0.000838103     -0.00011085
                      0.00086813     8.43468e-05        0.0767838      -0.0580114      0.000819919    -8.36517e-05       0.00760497        0.985635
                      0.00658436        0.986095      0.000747301    -0.000113098        0.0733252       0.0584617       0.00102626    -0.000287799
                     0.000749623    -9.63432e-05       0.00791589        0.985864       0.00103614    -0.000232342        0.0751561       0.0579541
281702                 0.0750756      -0.0583116      0.000911829     6.82288e-05        0.0072784         0.98583      0.000838119    -0.000111266
                     0.000867979     8.38563e-05        0.0767584       -0.058002      0.000819881     -8.4062e-05       0.00800776        0.985634
                      0.00698756        0.986095      0.000747181    -0.000113461        0.0733471        0.058392       0.00102596    -0.000288033
                     0.000749525    -9.67075e-05       0.00831898        0.985864       0.00103578    -0.000232584        0.0751775       0.0578835
281704                 0.0750503      -0.0583017      0.000911673     6.76792e-05       0.00768219        0.985829      0.000838135    -0.000111683
                     0.000867828     8.33663e-05         0.076733      -0.0579926      0.000819843    -8.44722e-05       0.00841055        0.985633
                      0.00739076        0.986095      0.000747061    -0.000113824         0.073369       0.0583222       0.00102567    -0.000288266
                     0.000749426    -9.70718e-05       0.00872206        0.985863       0.00103542    -0.000232826        0.0751988       0.0578128
281706                  0.075025      -0.0582917      0.000911516     6.71297e-05       0.00808598        0.985828      0.000838151    -0.000112099
                     0.000867676     8.28765e-05        0.0767076      -0.0579831      0.000819804    -8.48823e-05       0.00881334        0.985632
                      0.00779395        0.986094      0.000746941    -0.000114186        0.0733909       0.0582524       0.00102537    -0.000288499
                     0.000749327    -9.74358e-05       0.00912515        0.985861       0.00103506    -0.000233067        0.0752201       0.0577422
281708                 0.0749996      -0.0582817      0.000911359     6.65804e-05       0.00848977        0.985828      0.000838166    -0.000112515
                     0.000867523      8.2387e-05        0.0766822      -0.0579737      0.000819765    -8.52924e-05       0.00921612        0.985631
                      0.00819715        0.986093      0.000746821    -0.000114549        0.0734126       0.0581826       0.00102508    -0.000288732
                     0.000749227    -9.77998e-05       0.00952823         0.98586        0.0010347    -0.000233308        0.0752413       0.0576715
281710                 0.0749743      -0.0582718      0.000911202     6.60313e-05       0.00889356        0.985826      0.000838182    -0.000112932
                     0.000867371     8.18979e-05        0.0766568      -0.0579642      0.000819725    -8.57024e-05       0.00961891         0.98563
                      0.00860034        0.986092      0.000746701    -0.000114912        0.0734344       0.0581128       0.00102478    -0.000288964
                     0.000749127    -9.81636e-05       0.00993131        0.985859       0.00103434    -0.000233548        0.0752625       0.0576008
281712                  0.074949      -0.0582618      0.000911044     6.54822e-05       0.00929735        0.985825      0.000838197    -0.000113348
                     0.000867217     8.14091e-05        0.0766315      -0.0579548      0.000819685    -8.61123e-05        0.0100217        0.985629
                      0.00900354        0.986091       0.00074658    -0.000115274         0.073456        0.058043       0.00102448    -0.000289196
                     0.000749027    -9.85272e-05        0.0103344        0.985857       0.00103398    -0.000233788        0.0752836       0.0575302
281714                 0.0749237      -0.0582518      0.000910886     6.49334e-05       0.00970113        0.985824      0.000838213    -0.000113764
                     0.000867063     8.09206e-05        0.0766061      -0.0579453      0.000819645    -8.65222e-05        0.0104245        0.985627
                      0.00940673         0.98609      0.000746459    -0.000115637        0.0734776       0.0579732       0.00102419    -0.000289427
                     0.000748927    -9.88907e-05        0.0107375        0.985855       0.00103362    -0.000234027        0.0753046       0.0574595
281716                 0.0748985      -0.0582418      0.000910727     6.43847e-05        0.0101049        0.985822      0.000838228     -0.00011418
                     0.000866909     8.04325e-05        0.0765807      -0.0579358      0.000819604     -8.6932e-05        0.0108272        0.985625
                      0.00980992        0.986089      0.000746338    -0.000115999        0.0734991       0.0579034       0.00102389    -0.000289659
                     0.000748826    -9.92541e-05        0.0111405        0.985853       0.00103326    -0.000234267        0.0753256       0.0573888
281718                 0.0748732      -0.0582317      0.000910568     6.38361e-05        0.0105087        0.985821      0.000838243    -0.000114597
                     0.000866754     7.99446e-05        0.0765554      -0.0579263      0.000819563    -8.73417e-05          0.01123        0.985623
                       0.0102131        0.986087      0.000746217    -0.000116362        0.0735206       0.0578336        0.0010236    -0.000289889
                     0.000748725    -9.96173e-05        0.0115436        0.985851        0.0010329    -0.000234505        0.0753465       0.0573181
281720                 0.0748479      -0.0582217      0.000910408     6.32877e-05        0.0109125        0.985819      0.000838258    -0.000115013
                     0.000866599     7.94571e-05          0.07653      -0.0579168      0.000819521    -8.77513e-05        0.0116328        0.985621
                       0.0106163        0.986085      0.000746095    -0.000116724         0.073542       0.0577638        0.0010233     -0.00029012
                     0.000748623    -9.99804e-05        0.0119467        0.985849       0.00103254    -0.000234743        0.0753673       0.0572474
281722                 0.0748226      -0.0582117      0.000910248     6.27395e-05        0.0113163        0.985817      0.000838273    -0.000115429
                     0.000866443     7.89699e-05        0.0765046      -0.0579073      0.000819479    -8.81609e-05        0.0120356        0.985619
                       0.0110195        0.986083      0.000745973    -0.000117086        0.0735634        0.057694       0.00102301     -0.00029035
                     0.000748522    -0.000100343        0.0123498        0.985846       0.00103217    -0.000234981        0.0753881       0.0571767
281724                 0.0747973      -0.0582016      0.000910088     6.21914e-05          0.01172        0.985815      0.000838287    -0.000115845
                     0.000866286      7.8483e-05        0.0764793      -0.0578978      0.000819437    -8.85704e-05        0.0124383        0.985616
                       0.0114227        0.986081      0.000745852    -0.000117448        0.0735847       0.0576242       0.00102271     -0.00029058
                      0.00074842    -0.000100706        0.0127528        0.985843       0.00103181    -0.000235219        0.0754088        0.057106
281726                 0.0747721      -0.0581916      0.000909927     6.16435e-05        0.0121238        0.985812      0.000838302    -0.000116261
                      0.00086613     7.79965e-05        0.0764539      -0.0578882      0.000819394    -8.89798e-05        0.0128411        0.985614
                       0.0118258        0.986079      0.000745729     -0.00011781        0.0736059       0.0575543       0.00102241    -0.000290809
                     0.000748317    -0.000101069        0.0131559        0.985841       0.00103145    -0.000235456        0.0754295       0.0570353
281728                 0.0747468      -0.0581815      0.000909766     6.10958e-05        0.0125276         0.98581      0.000838316    -0.000116677
                     0.000865972     7.75103e-05        0.0764286      -0.0578787      0.000819351    -8.93891e-05        0.0132439        0.985611
                        0.012229        0.986076      0.000745607    -0.000118172         0.073627       0.0574845       0.00102212    -0.000291038
                     0.000748214    -0.000101431        0.0135589        0.985838       0.00103108    -0.000235693        0.0754501       0.0569646
281730                 0.0747215      -0.0581715      0.000909604     6.05482e-05        0.0129314        0.985807       0.00083833    -0.000117093
                     0.000865814     7.70244e-05        0.0764033      -0.0578692      0.000819307    -8.97984e-05        0.0136466        0.985608
                       0.0126322        0.986074      0.000745485    -0.000118533        0.0736481       0.0574147       0.00102182    -0.000291267
                     0.000748111    -0.000101794         0.013962        0.985834       0.00103072    -0.000235929        0.0754706       0.0568939
281732                 0.0746963      -0.0581614      0.000909442     6.00008e-05        0.0133351        0.985804      0.000838344    -0.000117509
                     0.000865656     7.65388e-05        0.0763779      -0.0578596      0.000819263    -9.02076e-05        0.0140494        0.985605
                       0.0130354        0.986071      0.000745362    -0.000118895        0.0736692       0.0573448       0.00102153    -0.000291495
                     0.000748008    -0.000102156        0.0143651        0.985831       0.00103035    -0.000236165        0.0754911       0.0568232
281734                  0.074671      -0.0581513      0.000909279     5.94535e-05        0.0137389        0.985801      0.000838358    -0.000117925
                     0.000865497     7.60536e-05        0.0763526        -0.05785      0.000819219    -9.06166e-05        0.0144521        0.985602
                       0.0134385        0.986068      0.000745239    -0.000119256        0.0736902        0.057275       0.00102123    -0.000291723
                     0.000747904    -0.000102518        0.0147681        0.985828       0.00102999      -0.0002364        0.0755115       0.0567524
281736                 0.0746458      -0.0581412      0.000909116     5.89065e-05        0.0141426        0.985798      0.000838372     -0.00011834
                     0.000865337     7.55687e-05        0.0763273      -0.0578405      0.000819174    -9.10256e-05        0.0148549        0.985598
                       0.0138417        0.986065      0.000745116    -0.000119617        0.0737111       0.0572051       0.00102093    -0.000291951
                       0.0007478     -0.00010288        0.0151712        0.985824       0.00102962    -0.000236635        0.0755319       0.0566817
281738                 0.0746205      -0.0581311      0.000908952     5.83595e-05        0.0145464        0.985795      0.000838386    -0.000118756
                     0.000865177     7.50841e-05        0.0763019      -0.0578309      0.000819129    -9.14345e-05        0.0152576        0.985595
                       0.0142449        0.986062      0.000744992    -0.000119979         0.073732       0.0571352       0.00102064    -0.000292178
                     0.000747696    -0.000103242        0.0155742         0.98582       0.00102925     -0.00023687        0.0755522        0.056611
281740                 0.0745953       -0.058121      0.000908788     5.78128e-05        0.0149502        0.985791      0.000838399    -0.000119172
                     0.000865017     7.45998e-05        0.0762766      -0.0578213      0.000819084    -9.18434e-05        0.0156604        0.985591
                        0.014648        0.986058      0.000744869     -0.00012034        0.0737528       0.0570654       0.00102034    -0.000292405
                     0.000747591    -0.000103604        0.0159773        0.985816       0.00102889    -0.000237104        0.0755724       0.0565402
281742                 0.0745701      -0.0581109      0.000908624     5.72663e-05        0.0153539        0.985787      0.000838413    -0.000119588
                     0.000864856     7.41159e-05        0.0762513      -0.0578117      0.000819038    -9.22521e-05        0.0160631        0.985587
                       0.0150512        0.986055      0.000744745    -0.000120701        0.0737735       0.0569955       0.00102005    -0.000292631
                     0.000747486    -0.000103965        0.0163803        0.985812       0.00102852    -0.000237338        0.0755926       0.0564695
281744                 0.0745448      -0.0581007      0.000908459     5.67199e-05        0.0157577        0.985784      0.000838426    -0.000120003
                     0.000864694     7.36323e-05         0.076226      -0.0578021      0.000818992    -9.26607e-05        0.0164658        0.985583
                       0.0154543        0.986051      0.000744621    -0.000121062        0.0737942       0.0569256       0.00101975    -0.000292858
                     0.000747381    -0.000104327        0.0167833        0.985808       0.00102815    -0.000237571        0.0756127       0.0563988
281746                 0.0745196      -0.0580906      0.000908293     5.61737e-05        0.0161614         0.98578      0.000838439    -0.000120419
                     0.000864532      7.3149e-05        0.0762007      -0.0577925      0.000818945    -9.30693e-05        0.0168686        0.985579
                       0.0158575        0.986047      0.000744497    -0.000121422        0.0738148       0.0568558       0.00101946    -0.000293083
                     0.000747275    -0.000104688        0.0171864        0.985803       0.00102778    -0.000237804        0.0756327        0.056328
281748                 0.0744944      -0.0580804      0.000908127     5.56277e-05        0.0165652        0.985775      0.000838452    -0.000120834
                     0.000864369     7.26661e-05        0.0761754      -0.0577828      0.000818898    -9.34777e-05        0.0172713        0.985575
                       0.0162606        0.986043      0.000744372    -0.000121783        0.0738353       0.0567859       0.00101916    -0.000293309
                     0.000747169    -0.000105049        0.0175894        0.985799       0.00102742    -0.000238036        0.0756527       0.0562572
281750                 0.0744692      -0.0580703      0.000907961     5.50818e-05        0.0169689        0.985771      0.000838465     -0.00012125
                     0.000864206     7.21835e-05        0.0761501      -0.0577732       0.00081885    -9.38861e-05         0.017674         0.98557
                       0.0166638        0.986039      0.000744248    -0.000122144        0.0738558        0.056716       0.00101886    -0.000293534
                     0.000747063     -0.00010541        0.0179924        0.985794       0.00102705    -0.000238268        0.0756726       0.0561865
281752                  0.074444      -0.0580601      0.000907794     5.45361e-05        0.0173727        0.985766      0.000838477    -0.000121665
                     0.000864042     7.17013e-05        0.0761248      -0.0577636      0.000818803    -9.42943e-05        0.0180767        0.985565
                       0.0170669        0.986034      0.000744123    -0.000122504        0.0738763       0.0566461       0.00101857    -0.000293758
                     0.000746956    -0.000105771        0.0183955        0.985789       0.00102668      -0.0002385        0.0756925       0.0561157
281754                 0.0744188      -0.0580499      0.000907627     5.39907e-05        0.0177764        0.985762       0.00083849    -0.000122081
                     0.000863878     7.12193e-05        0.0760995      -0.0577539      0.000818754    -9.47025e-05        0.0184795         0.98556
                       0.0174701         0.98603      0.000743998    -0.000122864        0.0738966       0.0565762       0.00101827    -0.000293983
                     0.000746849    -0.000106132        0.0187985        0.985784       0.00102631    -0.000238732        0.0757123        0.056045
281756                 0.0743936      -0.0580398       0.00090746     5.34454e-05        0.0181801        0.985757      0.000838502    -0.000122496
                     0.000863713     7.07378e-05        0.0760742      -0.0577442      0.000818706    -9.51105e-05        0.0188822        0.985555
                       0.0178732        0.986025      0.000743873    -0.000123224        0.0739169       0.0565063       0.00101798    -0.000294207
                     0.000746742    -0.000106493        0.0192015        0.985778       0.00102594    -0.000238962         0.075732       0.0559742
281758                 0.0743684      -0.0580296      0.000907292     5.29003e-05        0.0185839        0.985752      0.000838515    -0.000122911
                     0.000863548     7.02565e-05         0.076049      -0.0577346      0.000818657    -9.55185e-05        0.0192849         0.98555
                       0.0182763         0.98602      0.000743747    -0.000123585        0.0739372       0.0564364       0.00101768     -0.00029443
                     0.000746635    -0.000106853        0.0196045        0.985773       0.00102557    -0.000239193        0.0757517       0.0559034
281760                 0.0743432      -0.0580194      0.000907123     5.23553e-05        0.0189876        0.985747      0.000838527    -0.000123327
                     0.000863382     6.97756e-05        0.0760237      -0.0577249      0.000818608    -9.59263e-05        0.0196876        0.985545
                       0.0186795        0.986015      0.000743621    -0.000123944        0.0739574       0.0563665       0.00101739    -0.000294653
                     0.000746527    -0.000107214        0.0200075        0.985767        0.0010252    -0.000239423        0.0757713       0.0558326
281762                  0.074318      -0.0580092      0.000906954     5.18106e-05        0.0193913        0.985741      0.000838539    -0.000123742
                     0.000863216     6.92951e-05        0.0759984      -0.0577152      0.000818558     -9.6334e-05        0.0200903        0.985539
                       0.0190826         0.98601      0.000743495    -0.000124304        0.0739775       0.0562966       0.00101709    -0.000294876
