! TOUCHSTONE file generated by CST MICROWAVE STUDIO
! Date and time: Tue Oct 14 17:39:14 2025
! Project name: Teste_Macro_Metasurface_Nanopilar.cst
! Parameters = {H=600; L_x=180; L_y=140; Lambda=1064; Max_L=200; Min_L=70; PathPara=1; Phi=0; Step_L=10; Theta=0; p=520; phaseX=180; phaseY=0}
! Header version: 2018
! Port assignment regex: !\s*Touchstone port\s*([0-9]+)\s*=\s*(CST MWS port|CST DS port)\s*([0-9]+|Zmin|Zmax)\s*\(\"(.*)\"\)(\s*mode\s*([0-9]+))?.*
! Touchstone port assignment:
! Touchstone port 1 = CST MWS port Zmax ("") mode 1
! Touchstone port 2 = CST MWS port Zmax ("") mode 2
! Touchstone port 3 = CST MWS port Zmin ("") mode 1
! Touchstone port 4 = CST MWS port Zmin ("") mode 2
! S-Parameters are not renormalized. Each port impedance will be approximated by the real part at minimum frequency. The values are described via the [Reference] keyword.
! Default impedance is overridden by [Reference]
[Version] 2.0
# GHz S RI R 376.73
[Number of Ports] 4
[Reference]
376.73 376.73 259.814 259.814 
[Number of Frequencies] 51
[Network Data]
281700                  0.295721        -0.18489       0.00069024     0.000207894          0.89442       -0.217868      0.000176126     8.33769e-05
                     0.000661759     0.000199923         0.171613       0.0133554     -0.000191853     0.000133804         0.558486       -0.806685
                        0.894317       -0.218122     -0.000246647     0.000118335        -0.327896      -0.0551806     -0.000169664     0.000689317
                     0.000222426     0.000120729         0.558763       -0.806983     -0.000137215     0.000625404        0.0720248        0.151943
281702                  0.295505        -0.18474      0.000690208     0.000207267         0.894407       -0.218421      0.000176381     8.36456e-05
                     0.000661872     0.000199336         0.171619        0.013374     -0.000191391     0.000134279         0.558246       -0.806849
                        0.894305       -0.218675     -0.000246138     0.000118904        -0.327718      -0.0547136     -0.000169757      0.00068927
                     0.000222503     0.000121059         0.558522       -0.807148     -0.000137449     0.000625279        0.0721352          0.1519
281704                  0.295289       -0.184591      0.000690177     0.000206639         0.894394       -0.218973      0.000176636     8.39146e-05
                     0.000661984     0.000198751         0.171626       0.0133926     -0.000190929     0.000134753         0.558006       -0.807014
                        0.894292       -0.219227      -0.00024563     0.000119473        -0.327541      -0.0542474     -0.000169849     0.000689221
                     0.000222582     0.000121387         0.558281       -0.807312     -0.000137683     0.000625155        0.0722455        0.151858
281706                  0.295073       -0.184442      0.000690146     0.000206012          0.89438       -0.219525      0.000176891     8.41839e-05
                     0.000662094     0.000198166         0.171632       0.0134111     -0.000190467     0.000135225         0.557766       -0.807178
                        0.894279       -0.219779     -0.000245123     0.000120041        -0.327363       -0.053782     -0.000169941     0.000689172
                     0.000222661     0.000121715         0.558041       -0.807476     -0.000137919     0.000625031        0.0723559        0.151815
281708                  0.294859       -0.184293      0.000690116     0.000205384         0.894366       -0.220076      0.000177145     8.44536e-05
                     0.000662204     0.000197582         0.171639       0.0134297     -0.000190005     0.000135695         0.557526       -0.807343
                        0.894265        -0.22033     -0.000244616     0.000120609        -0.327185      -0.0533174     -0.000170031     0.000689123
                     0.000222741     0.000122042           0.5578       -0.807641     -0.000138156     0.000624909        0.0724661        0.151771
281710                  0.294644       -0.184144      0.000690087     0.000204756         0.894351       -0.220628        0.0001774     8.47235e-05
                     0.000662313     0.000196998         0.171645       0.0134483     -0.000189543     0.000136164         0.557286       -0.807507
                        0.894251       -0.220881      -0.00024411     0.000121177        -0.327006      -0.0528536     -0.000170121     0.000689073
                     0.000222822     0.000122368         0.557559       -0.807805     -0.000138394     0.000624787        0.0725764        0.151728
281712                   0.29443       -0.183995      0.000690058     0.000204128         0.894335       -0.221178      0.000177654     8.49936e-05
                      0.00066242     0.000196415         0.171651       0.0134669     -0.000189081     0.000136631         0.557045       -0.807671
                        0.894236       -0.221431     -0.000243605     0.000121745        -0.326828      -0.0523906     -0.000170211     0.000689022
                     0.000222904     0.000122693         0.557318       -0.807969     -0.000138633     0.000624666        0.0726866        0.151685
281714                  0.294216       -0.183846      0.000690029       0.0002035         0.894319       -0.221728      0.000177908     8.52641e-05
                     0.000662527     0.000195833         0.171658       0.0134854      -0.00018862     0.000137097         0.556805       -0.807835
                        0.894221       -0.221981       -0.0002431     0.000122312        -0.326649      -0.0519283     -0.000170299     0.000688971
                     0.000222987     0.000123017         0.557077       -0.808133     -0.000138872     0.000624547        0.0727968        0.151642
281716                  0.294003       -0.183697      0.000690001     0.000202873         0.894303       -0.222278      0.000178162     8.55348e-05
                     0.000662633     0.000195252         0.171664        0.013504     -0.000188158     0.000137562         0.556564       -0.807999
                        0.894205       -0.222531     -0.000242596     0.000122879        -0.326469      -0.0514668     -0.000170387     0.000688919
                     0.000223071     0.000123341         0.556836       -0.808296     -0.000139113     0.000624428         0.072907        0.151598
281718                  0.293791       -0.183548      0.000689973     0.000202246         0.894286       -0.222828      0.000178416     8.58058e-05
                     0.000662738     0.000194671         0.171671       0.0135226     -0.000187697     0.000138025         0.556324       -0.808164
                        0.894189        -0.22308     -0.000242092     0.000123445         -0.32629      -0.0510061     -0.000170474     0.000688866
                     0.000223155     0.000123663         0.556595        -0.80846     -0.000139354     0.000624311        0.0730171        0.151555
281720                  0.293578       -0.183399      0.000689945      0.00020162         0.894268       -0.223377       0.00017867      8.6077e-05
                     0.000662843     0.000194091         0.171677       0.0135411     -0.000187235     0.000138487         0.556083       -0.808327
                        0.894172       -0.223629     -0.000241588     0.000124011         -0.32611      -0.0505462     -0.000170561     0.000688813
                      0.00022324     0.000123985         0.556354       -0.808624     -0.000139596     0.000624195        0.0731272        0.151511
281722                  0.293366       -0.183251      0.000689917     0.000200994          0.89425       -0.223925      0.000178923     8.63484e-05
                     0.000662946     0.000193512         0.171684       0.0135597     -0.000186774     0.000138947         0.555843       -0.808491
                        0.894155       -0.224177     -0.000241085     0.000124576         -0.32593      -0.0500871     -0.000170646     0.000688759
                     0.000223326     0.000124306         0.556112       -0.808788     -0.000139838     0.000624081        0.0732373        0.151468
281724                  0.293155       -0.183102      0.000689889     0.000200368         0.894232       -0.224473      0.000179177     8.66201e-05
                     0.000663049     0.000192934          0.17169       0.0135782     -0.000186313     0.000139406         0.555602       -0.808655
                        0.894137       -0.224725     -0.000240581      0.00012514         -0.32575      -0.0496287     -0.000170732     0.000688705
                     0.000223412     0.000124626         0.555871       -0.808951     -0.000140082     0.000623968        0.0733473        0.151424
281726                  0.292944       -0.182954      0.000689861     0.000199743         0.894212       -0.225021       0.00017943     8.68919e-05
                      0.00066315     0.000192356         0.171697       0.0135967     -0.000185852     0.000139864         0.555362       -0.808819
                        0.894119       -0.225273     -0.000240078     0.000125704        -0.325569      -0.0491711     -0.000170816      0.00068865
                     0.000223499     0.000124946          0.55563       -0.809115     -0.000140326     0.000623856        0.0734573         0.15138
281728                  0.292734       -0.182806      0.000689833     0.000199118         0.894193       -0.225568      0.000179683      8.7164e-05
                     0.000663251      0.00019178         0.171703       0.0136153     -0.000185391      0.00014032         0.555121       -0.808982
                          0.8941        -0.22582     -0.000239574     0.000126267        -0.325388      -0.0487143     -0.000170901     0.000688595
                     0.000223587     0.000125264         0.555389       -0.809278      -0.00014057     0.000623745        0.0735673        0.151337
281730                  0.292524       -0.182657      0.000689804     0.000198494         0.894173       -0.226115      0.000179936     8.74363e-05
                     0.000663352     0.000191204         0.171709       0.0136338     -0.000184931     0.000140775          0.55488       -0.809146
                        0.894081       -0.226366      -0.00023907     0.000126829        -0.325207      -0.0482582     -0.000170984     0.000688539
                     0.000223675     0.000125582         0.555147       -0.809441     -0.000140815     0.000623636        0.0736772        0.151293
281732                  0.292314       -0.182509      0.000689775     0.000197871         0.894152       -0.226662      0.000180189     8.77088e-05
                     0.000663451     0.000190629         0.171716       0.0136523      -0.00018447     0.000141229          0.55464       -0.809309
                        0.894061       -0.226913     -0.000238566      0.00012739        -0.325026       -0.047803     -0.000171067     0.000688482
                     0.000223764       0.0001259         0.554906       -0.809605     -0.000141061     0.000623529        0.0737871        0.151249
281734                  0.292105       -0.182361      0.000689746     0.000197248         0.894131       -0.227208      0.000180442     8.79814e-05
                      0.00066355     0.000190055         0.171722       0.0136708      -0.00018401     0.000141681         0.554399       -0.809473
                        0.894041       -0.227458     -0.000238062      0.00012795        -0.324844      -0.0473485     -0.000171149     0.000688425
                     0.000223854     0.000126216         0.554664       -0.809768     -0.000141307     0.000623423         0.073897        0.151205
281736                  0.291896       -0.182213      0.000689717     0.000196625          0.89411       -0.227753      0.000180694     8.82541e-05
                     0.000663649     0.000189481         0.171729       0.0136893     -0.000183549     0.000142132         0.554158       -0.809636
                         0.89402       -0.228004     -0.000237558      0.00012851        -0.324662      -0.0468947     -0.000171231     0.000688368
                     0.000223944     0.000126532         0.554423       -0.809931     -0.000141553     0.000623318        0.0740068        0.151161
281738                  0.291687       -0.182065      0.000689687     0.000196004         0.894088       -0.228298      0.000180947      8.8527e-05
                     0.000663747     0.000188909         0.171735       0.0137078     -0.000183089     0.000142582         0.553917       -0.809799
                        0.893999       -0.228549     -0.000237053     0.000129068         -0.32448      -0.0464417     -0.000171313      0.00068831
                     0.000224035     0.000126848         0.554181       -0.810094     -0.000141801     0.000623216        0.0741167        0.151117
281740                   0.29148       -0.181918      0.000689656     0.000195382         0.894065       -0.228843        0.0001812     8.88001e-05
                     0.000663844     0.000188338         0.171742       0.0137263     -0.000182629      0.00014303         0.553676       -0.809962
                        0.893977       -0.229093     -0.000236548     0.000129625        -0.324298      -0.0459895     -0.000171393     0.000688251
                     0.000224126     0.000127162          0.55394       -0.810257     -0.000142049     0.000623115        0.0742264        0.151072
281742                  0.291272        -0.18177      0.000689626     0.000194761         0.894042       -0.229388      0.000181452     8.90732e-05
                      0.00066394     0.000187769         0.171748       0.0137448     -0.000182169     0.000143476         0.553435       -0.810126
                        0.893955       -0.229638     -0.000236042     0.000130181        -0.324115      -0.0455381     -0.000171473     0.000688192
                     0.000224218     0.000127477         0.553698        -0.81042     -0.000142299     0.000623016        0.0743362        0.151028
281744                  0.291065       -0.181622      0.000689594     0.000194141         0.894019       -0.229931      0.000181704     8.93463e-05
                     0.000664036     0.000187201         0.171755       0.0137633      -0.00018171      0.00014392         0.553194       -0.810289
                        0.893932       -0.230182     -0.000235536     0.000130736        -0.323932      -0.0450874     -0.000171553     0.000688133
                     0.000224309      0.00012779         0.553457       -0.810583     -0.000142551      0.00062292        0.0744459        0.150984
281746                  0.290858       -0.181475      0.000689562     0.000193522         0.893995       -0.230475      0.000181957     8.96195e-05
                     0.000664131     0.000186635         0.171761       0.0137818      -0.00018125     0.000144361         0.552953       -0.810451
                        0.893909       -0.230725     -0.000235029     0.000131289        -0.323749      -0.0446375     -0.000171632     0.000688074
                     0.000224401     0.000128104         0.553215       -0.810745     -0.000142807     0.000622829        0.0745556        0.150939
281748                  0.290652       -0.181327       0.00068953     0.000192903          0.89397       -0.231018      0.000182209     8.98926e-05
                     0.000664224     0.000186071         0.171768       0.0138002     -0.000180791     0.000144797         0.552712       -0.810614
                        0.893885       -0.231268     -0.000234521     0.000131842        -0.323566      -0.0441883      -0.00017171     0.000688014
                     0.000224493     0.000128417         0.552973       -0.810908     -0.000143071     0.000622745        0.0746652        0.150895
281750                  0.290446        -0.18118      0.000689497     0.000192284         0.893945       -0.231561      0.000182461     9.01657e-05
                     0.000664315     0.000185509         0.171774       0.0138187     -0.000180336     0.000145219         0.552471       -0.810777
                        0.893861       -0.231811     -0.000234013     0.000132392        -0.323382      -0.0437399     -0.000171788     0.000687954
                     0.000224585      0.00012873         0.552732       -0.811071     -0.000143351     0.000622685        0.0747748         0.15085
281752                  0.290241       -0.181032      0.000689463     0.000191666          0.89392       -0.232103      0.000182713     9.04385e-05
                     0.000664401      0.00018495         0.171781       0.0138372     -0.000179955     0.000145592         0.552229        -0.81094
                        0.893836       -0.232353     -0.000233504     0.000132942        -0.323198      -0.0432923     -0.000171864     0.000687894
                     0.000224674     0.000129044          0.55249       -0.811233     -0.000143637      0.00062273        0.0748844        0.150806
281754                  0.290035       -0.180885      0.000689429     0.000191049         0.893894       -0.232644      0.000182964      9.0711e-05
                     0.000664482      0.00018439         0.171787       0.0138556     -0.000179491     0.000146229         0.551988       -0.811102
                        0.893811       -0.232894     -0.000232994     0.000133489        -0.323014      -0.0428454      -0.00017194     0.000687834
                     0.000224758     0.000129358         0.552248       -0.811396     -0.000143524     0.000622739         0.074994        0.150761
281756                  0.289831       -0.180738      0.000689394     0.000190432         0.893867       -0.233186      0.000183216      9.0983e-05
                     0.000664558     0.000183825         0.171794       0.0138741     -0.000178982     0.000146639         0.551747       -0.811265
                        0.893786       -0.233436     -0.000232483     0.000134035         -0.32283      -0.0423993     -0.000172015     0.000687774
                     0.000224825     0.000129669         0.552006       -0.811558     -0.000143777       0.0006224        0.0751035        0.150716
281758                  0.289627       -0.180591      0.000689358     0.000189816          0.89384       -0.233727      0.000183468     9.12541e-05
                     0.000664634     0.000183254           0.1718       0.0138925     -0.000178514     0.000147067         0.551505       -0.811427
                         0.89376       -0.233976     -0.000231971      0.00013458        -0.322645      -0.0419539     -0.000172089     0.000687716
                      0.00022487       0.0001299         0.551764        -0.81172     -0.000144078     0.000622264         0.075213        0.150671
281760                  0.289423       -0.180444      0.000689322       0.0001892         0.893813       -0.234268       0.00018372     9.15238e-05
                     0.000664713     0.000182679         0.171807        0.013911     -0.000178053     0.000147499         0.551264        -0.81159
                        0.893733       -0.234517     -0.000231459     0.000135122         -0.32246      -0.0415092     -0.000172161     0.000687659
                     0.000225078      0.00013018         0.551522       -0.811882     -0.000144348     0.000622163        0.0753225        0.150626
281762                  0.289219       -0.180297      0.000689285     0.000188584         0.893785       -0.234808      0.000183973     9.17911e-05
                     0.000664797     0.000182102         0.171813       0.0139294     -0.000177593     0.000147934         0.551023       -0.811752
                        0.893706       -0.235057     -0.000230946     0.000135662        -0.322275      -0.0410654     -0.000172232     0.000687605
