! TOUCHSTONE file generated by CST MICROWAVE STUDIO
! Date and time: Tue Oct 14 17:37:54 2025
! Project name: Teste_Macro_Metasurface_Nanopilar.cst
! Parameters = {H=600; L_x=70; L_y=90; Lambda=1064; Max_L=200; Min_L=70; PathPara=1; Phi=0; Step_L=10; Theta=0; p=520; phaseX=180; phaseY=0}
! Header version: 2018
! Port assignment regex: !\s*Touchstone port\s*([0-9]+)\s*=\s*(CST MWS port|CST DS port)\s*([0-9]+|Zmin|Zmax)\s*\(\"(.*)\"\)(\s*mode\s*([0-9]+))?.*
! Touchstone port assignment:
! Touchstone port 1 = CST MWS port Zmax ("") mode 1
! Touchstone port 2 = CST MWS port Zmax ("") mode 2
! Touchstone port 3 = CST MWS port Zmin ("") mode 1
! Touchstone port 4 = CST MWS port Zmin ("") mode 2
! S-Parameters are not renormalized. Each port impedance will be approximated by the real part at minimum frequency. The values are described via the [Reference] keyword.
! Default impedance is overridden by [Reference]
[Version] 2.0
# GHz S RI R 376.73
[Number of Ports] 4
[Reference]
376.73 376.73 259.814 259.814 
[Number of Frequencies] 51
[Network Data]
281700                 0.0330668       -0.111036     -0.000163952    -0.000128721        0.0230285       -0.992989     -0.000130888     4.84302e-05
                    -0.000124838    -0.000116598        0.0581713       -0.131075      -6.6174e-05    -6.92398e-05         0.187557        -0.97159
                       0.0226972       -0.992282      5.84836e-05    -0.000214441        0.0277709        0.112493     -7.74028e-05     9.17723e-05
                    -0.000166026    -8.42573e-05         0.187983       -0.971462       2.1012e-05     0.000187275       0.00509742        0.143331
281702                 0.0330549       -0.111036     -0.000164073    -0.000128629        0.0227888       -0.992995     -0.000130883     4.84353e-05
                    -0.000124822    -0.000116477        0.0581593       -0.131078     -6.62104e-05     -6.9229e-05         0.187327       -0.971634
                       0.0224576       -0.992288      5.86273e-05    -0.000214418        0.0278133        0.112478     -7.73496e-05     9.17191e-05
                    -0.000166186    -8.42291e-05         0.187754       -0.971507      2.10379e-05     0.000187237       0.00515293        0.143327
281704                  0.033043       -0.111035     -0.000164195    -0.000128536        0.0225491       -0.993001     -0.000130878     4.84407e-05
                    -0.000124807    -0.000116357        0.0581473        -0.13108     -6.62467e-05    -6.92182e-05         0.187098       -0.971679
                        0.022218       -0.992293      5.87709e-05    -0.000214394        0.0278558        0.112464     -7.72966e-05     9.16653e-05
                    -0.000166347    -8.42026e-05         0.187524       -0.971551      2.10638e-05     0.000187199       0.00520845        0.143322
281706                  0.033031       -0.111034     -0.000164317    -0.000128443        0.0223094       -0.993007     -0.000130874     4.84463e-05
                    -0.000124791    -0.000116236        0.0581353       -0.131083     -6.62829e-05    -6.92076e-05         0.186869       -0.971724
                       0.0219784       -0.992299      5.89144e-05     -0.00021437        0.0278982        0.112449     -7.72437e-05     9.16108e-05
                    -0.000166509    -8.41779e-05         0.187294       -0.971596      2.10897e-05     0.000187161       0.00526396        0.143318
281708                 0.0330191       -0.111034     -0.000164439    -0.000128351        0.0220697       -0.993013     -0.000130869     4.84523e-05
                    -0.000124776    -0.000116116        0.0581232       -0.131086      -6.6319e-05     -6.9197e-05         0.186639       -0.971768
                       0.0217388       -0.992304      5.90579e-05    -0.000214345        0.0279406        0.112435      -7.7191e-05     9.15556e-05
                    -0.000166673     -8.4155e-05         0.187065       -0.971641      2.11155e-05     0.000187123       0.00531947        0.143313
281710                 0.0330071       -0.111034      -0.00016456    -0.000128258        0.0218299       -0.993018     -0.000130864     4.84585e-05
                     -0.00012476    -0.000115996        0.0581112       -0.131088     -6.63551e-05    -6.91866e-05          0.18641       -0.971813
                       0.0214992        -0.99231      5.92011e-05    -0.000214319         0.027983         0.11242     -7.71385e-05     9.14997e-05
                    -0.000166839    -8.41333e-05         0.186835       -0.971685      2.11414e-05     0.000187085       0.00537497        0.143309
281712                 0.0329952       -0.111033     -0.000164682    -0.000128166        0.0215902       -0.993024      -0.00013086      4.8465e-05
                    -0.000124744    -0.000115876        0.0580992       -0.131091     -6.63911e-05    -6.91764e-05          0.18618       -0.971857
                       0.0212596       -0.992315      5.93443e-05    -0.000214293        0.0280254        0.112406     -7.70861e-05     9.14432e-05
                    -0.000167007    -8.41119e-05         0.186605       -0.971729      2.11673e-05     0.000187047       0.00543047        0.143304
281714                 0.0329832       -0.111032     -0.000164803    -0.000128074        0.0213505        -0.99303     -0.000130855     4.84718e-05
                    -0.000124728    -0.000115757        0.0580872       -0.131094     -6.64272e-05    -6.91664e-05         0.185951       -0.971902
                         0.02102        -0.99232      5.94873e-05    -0.000214266        0.0280678        0.112391      -7.7034e-05      9.1386e-05
                    -0.000167178    -8.40899e-05         0.186376       -0.971774      2.11932e-05     0.000187009       0.00548598          0.1433
281716                 0.0329713       -0.111032     -0.000164924    -0.000127981        0.0211108       -0.993035      -0.00013085     4.84789e-05
                    -0.000124712    -0.000115637        0.0580752       -0.131097     -6.64632e-05    -6.91565e-05         0.185721       -0.971946
                       0.0207803       -0.992326      5.96302e-05    -0.000214239        0.0281102        0.112377      -7.6982e-05     9.13281e-05
                    -0.000167351    -8.40668e-05         0.186146       -0.971818      2.12192e-05     0.000186971       0.00554147        0.143295
281718                 0.0329593       -0.111031     -0.000165046    -0.000127889         0.020871       -0.993041     -0.000130846     4.84862e-05
                    -0.000124696    -0.000115518        0.0580631       -0.131099     -6.64992e-05    -6.91469e-05         0.185492        -0.97199
                       0.0205407       -0.992331      5.97729e-05     -0.00021421        0.0281526        0.112362     -7.69301e-05     9.12696e-05
                    -0.000167524    -8.40421e-05         0.185916       -0.971862      2.12451e-05     0.000186933       0.00559697        0.143291
281720                 0.0329474       -0.111031     -0.000165167    -0.000127797        0.0206313       -0.993046     -0.000130841     4.84938e-05
                     -0.00012468    -0.000115399        0.0580511       -0.131102     -6.65354e-05    -6.91375e-05         0.185263       -0.972035
                       0.0203011       -0.992336      5.99154e-05    -0.000214182        0.0281949        0.112347     -7.68785e-05     9.12105e-05
                    -0.000167698     -8.4016e-05         0.185687       -0.971906       2.1271e-05     0.000186895       0.00565246        0.143286
281722                 0.0329354        -0.11103     -0.000165288    -0.000127704        0.0203916       -0.993051     -0.000130836     4.85017e-05
                    -0.000124664     -0.00011528        0.0580391       -0.131105     -6.65717e-05    -6.91284e-05         0.185033       -0.972079
                       0.0200615       -0.992341      6.00578e-05    -0.000214152        0.0282373        0.112333      -7.6827e-05     9.11507e-05
                    -0.000167872    -8.39886e-05         0.185457       -0.971951       2.1297e-05     0.000186857       0.00570795        0.143282
281724                 0.0329235        -0.11103     -0.000165408    -0.000127612        0.0201518       -0.993057     -0.000130832     4.85098e-05
                    -0.000124648    -0.000115162        0.0580271       -0.131107     -6.66081e-05    -6.91195e-05         0.184804       -0.972123
                       0.0198218       -0.992346         6.02e-05    -0.000214122        0.0282797        0.112318     -7.67757e-05     9.10902e-05
                    -0.000168045    -8.39603e-05         0.185227       -0.971995       2.1323e-05     0.000186819       0.00576344        0.143277
281726                 0.0329116       -0.111029     -0.000165529     -0.00012752        0.0199121       -0.993062     -0.000130827     4.85182e-05
                    -0.000124632    -0.000115043        0.0580151        -0.13111     -6.66448e-05    -6.91108e-05         0.184574       -0.972167
                       0.0195822       -0.992351       6.0342e-05    -0.000214091         0.028322        0.112303     -7.67245e-05     9.10291e-05
                    -0.000168217    -8.39315e-05         0.184997       -0.972039       2.1349e-05     0.000186781       0.00581892        0.143272
281728                 0.0328996       -0.111029      -0.00016565    -0.000127428        0.0196724       -0.993067     -0.000130822     4.85269e-05
                    -0.000124616    -0.000114926        0.0580031       -0.131113     -6.66818e-05    -6.91024e-05         0.184345       -0.972211
                       0.0193426       -0.992356      6.04839e-05     -0.00021406        0.0283644        0.112289     -7.66736e-05     9.09674e-05
                    -0.000168389    -8.39022e-05         0.184768       -0.972083       2.1375e-05     0.000186743        0.0058744        0.143268
281730                 0.0328877       -0.111028      -0.00016577    -0.000127336        0.0194326       -0.993072     -0.000130818     4.85359e-05
                    -0.000124599    -0.000114809         0.057991       -0.131115     -6.67191e-05     -6.9094e-05         0.184115       -0.972255
                       0.0191029       -0.992361      6.06255e-05    -0.000214028        0.0284067        0.112274     -7.66228e-05      9.0905e-05
                     -0.00016856    -8.38728e-05         0.184538       -0.972127      2.14011e-05     0.000186705       0.00592988        0.143263
281732                 0.0328757       -0.111028      -0.00016589    -0.000127244        0.0191929       -0.993078     -0.000130813     4.85451e-05
                    -0.000124582    -0.000114692         0.057979       -0.131118     -6.67568e-05    -6.90857e-05         0.183885       -0.972299
                       0.0188633       -0.992366      6.07669e-05    -0.000213995         0.028449        0.112259     -7.65722e-05     9.08419e-05
                     -0.00016873    -8.38433e-05         0.184308       -0.972171      2.14272e-05     0.000186667       0.00598536        0.143258
281734                 0.0328638       -0.111027      -0.00016601    -0.000127152        0.0189532       -0.993083     -0.000130808     4.85546e-05
                    -0.000124564    -0.000114576         0.057967       -0.131121     -6.67949e-05    -6.90774e-05         0.183656       -0.972343
                       0.0186237        -0.99237      6.09081e-05    -0.000213962        0.0284913        0.112244     -7.65217e-05     9.07782e-05
                      -0.0001689    -8.38138e-05         0.184078       -0.972214      2.14534e-05     0.000186629       0.00604083        0.143253
281736                 0.0328518       -0.111027     -0.000166131     -0.00012706        0.0187134       -0.993088     -0.000130804     4.85645e-05
                    -0.000124546    -0.000114459         0.057955       -0.131123     -6.68335e-05    -6.90691e-05         0.183426       -0.972387
                       0.0183841       -0.992375      6.10492e-05    -0.000213928        0.0285337         0.11223     -7.64715e-05     9.07137e-05
                    -0.000169069    -8.37844e-05         0.183849       -0.972258      2.14797e-05     0.000186592        0.0060963        0.143249
281738                 0.0328399       -0.111026      -0.00016625    -0.000126968        0.0184737       -0.993092     -0.000130799     4.85746e-05
                    -0.000124526    -0.000114343         0.057943       -0.131126     -6.68724e-05    -6.90605e-05         0.183197       -0.972431
                       0.0181444        -0.99238        6.119e-05    -0.000213893         0.028576        0.112215     -7.64216e-05     9.06484e-05
                    -0.000169238     -8.3755e-05         0.183619       -0.972302       2.1506e-05     0.000186554       0.00615177        0.143244
281740                 0.0328279       -0.111026      -0.00016637    -0.000126876        0.0182339       -0.993097     -0.000130795     4.85852e-05
                    -0.000124507    -0.000114225        0.0579309       -0.131129     -6.69118e-05    -6.90517e-05         0.182967       -0.972474
                       0.0179048       -0.992384      6.13306e-05    -0.000213858        0.0286183          0.1122     -7.63719e-05     9.05823e-05
                    -0.000169406    -8.37256e-05         0.183389       -0.972345      2.15325e-05     0.000186516       0.00620724        0.143239
281742                  0.032816       -0.111025      -0.00016649    -0.000126784        0.0179942       -0.993102      -0.00013079     4.85963e-05
                    -0.000124487    -0.000114107        0.0579189       -0.131132     -6.69514e-05    -6.90425e-05         0.182738       -0.972518
                       0.0176652       -0.992389      6.14712e-05    -0.000213822        0.0286605        0.112185     -7.63227e-05      9.0515e-05
                    -0.000169574    -8.36963e-05         0.183159       -0.972389      2.15593e-05     0.000186478        0.0062627        0.143234
281744                  0.032804       -0.111024      -0.00016661    -0.000126692        0.0177544       -0.993107     -0.000130785     4.86081e-05
                    -0.000124468    -0.000113989        0.0579069       -0.131134     -6.69913e-05    -6.90329e-05         0.182508       -0.972562
                       0.0174255       -0.992393      6.16117e-05    -0.000213785        0.0287028        0.112171     -7.62741e-05     9.04462e-05
                    -0.000169741     -8.3667e-05         0.182929       -0.972433      2.15865e-05     0.000186441       0.00631816        0.143229
281746                 0.0327921       -0.111024     -0.000166729      -0.0001266        0.0175147       -0.993112      -0.00013078     4.86213e-05
                     -0.00012445    -0.000113871        0.0578949       -0.131137     -6.70313e-05    -6.90228e-05         0.182278       -0.972605
                       0.0171859       -0.992397      6.17525e-05    -0.000213748        0.0287451        0.112156     -7.62268e-05     9.03746e-05
                    -0.000169909    -8.36377e-05         0.182699       -0.972476      2.16148e-05     0.000186404       0.00637362        0.143225
281748                 0.0327802       -0.111023     -0.000166849    -0.000126509        0.0172749       -0.993116     -0.000130774     4.86382e-05
                    -0.000124432    -0.000113754        0.0578829        -0.13114     -6.70713e-05    -6.90121e-05         0.182049       -0.972649
                       0.0169462       -0.992402      6.18949e-05     -0.00021371        0.0287874        0.112141     -7.61831e-05     9.02957e-05
                    -0.000170075    -8.36083e-05          0.18247        -0.97252      2.16458e-05     0.000186366       0.00642908         0.14322
281750                 0.0327682       -0.111023     -0.000166971    -0.000126418        0.0170352       -0.993121     -0.000130762     4.86806e-05
                    -0.000124414    -0.000113636        0.0578709       -0.131142      -6.7111e-05    -6.90007e-05         0.181819       -0.972692
                       0.0167066       -0.992406      6.20508e-05    -0.000213669        0.0288296        0.112126      -7.6165e-05      9.0167e-05
                    -0.000170242    -8.35789e-05          0.18224       -0.972563      2.16801e-05     0.000186323       0.00648454        0.143215
281752                 0.0327563       -0.111022      -0.00016708    -0.000126323        0.0167954       -0.993125     -0.000130782     4.86019e-05
                    -0.000124396    -0.000113519        0.0578588       -0.131145     -6.71501e-05    -6.89888e-05          0.18159       -0.972736
                        0.016467        -0.99241      6.21438e-05    -0.000213628        0.0288719        0.112111     -7.60266e-05       9.027e-05
                    -0.000170409    -8.35494e-05          0.18201       -0.972606      2.17036e-05     0.000186272       0.00653995         0.14321
281754                 0.0327443       -0.111022     -0.000167202    -0.000126232        0.0165556        -0.99313     -0.000130769     4.86419e-05
                    -0.000124378    -0.000113402        0.0578468       -0.131148     -6.71883e-05    -6.89764e-05          0.18136       -0.972779
                       0.0162273       -0.992414      6.22952e-05    -0.000213592        0.0289141        0.112096      -7.6005e-05     9.01478e-05
                    -0.000170575    -8.35198e-05          0.18178        -0.97265      2.17229e-05     0.000186232       0.00659541        0.143205
281756                 0.0327324       -0.111021     -0.000167322    -0.000126141        0.0163159       -0.993134     -0.000130763     4.86594e-05
                    -0.000124361    -0.000113285        0.0578348        -0.13115     -6.72248e-05    -6.89643e-05          0.18113       -0.972822
                       0.0159877       -0.992419       6.2436e-05    -0.000213552        0.0289564        0.112081     -7.59615e-05     9.00674e-05
                    -0.000170741      -8.349e-05          0.18155       -0.972693      2.17463e-05     0.000186195       0.00665085          0.1432
281758                 0.0327204       -0.111021      -0.00016744    -0.000126049        0.0160761       -0.993139     -0.000130758     4.86738e-05
                    -0.000124343    -0.000113169        0.0578228       -0.131153     -6.72598e-05    -6.89538e-05         0.180901       -0.972866
                        0.015748       -0.992423      6.25748e-05    -0.000213511        0.0289986        0.112066     -7.59149e-05     8.99928e-05
                    -0.000170907      -8.346e-05          0.18132       -0.972736      2.17717e-05     0.000186157       0.00670629        0.143195
281760                 0.0327085        -0.11102     -0.000167559    -0.000125958        0.0158364       -0.993143     -0.000130754     4.86872e-05
                    -0.000124326    -0.000113052        0.0578108       -0.131156     -6.72946e-05    -6.89466e-05         0.180671       -0.972909
                       0.0155084       -0.992427      6.27127e-05     -0.00021347        0.0290408        0.112052     -7.58672e-05     8.99198e-05
                    -0.000171072    -8.34299e-05          0.18109       -0.972779      2.17979e-05     0.000186118       0.00676173         0.14319
281762                 0.0326966        -0.11102     -0.000167677    -0.000125866        0.0155966       -0.993147     -0.000130749     4.87004e-05
                    -0.000124308    -0.000112935        0.0577987       -0.131158     -6.73326e-05    -6.89422e-05         0.180441       -0.972952
                       0.0152688       -0.992431      6.28499e-05    -0.000213427         0.029083        0.112037     -7.58192e-05     8.98472e-05
