! TOUCHSTONE file generated by CST MICROWAVE STUDIO
! Date and time: Tue Oct 14 17:38:29 2025
! Project name: Teste_Macro_Metasurface_Nanopilar.cst
! Parameters = {H=600; L_x=120; L_y=100; Lambda=1064; Max_L=200; Min_L=70; PathPara=1; Phi=0; Step_L=10; Theta=0; p=520; phaseX=180; phaseY=0}
! Header version: 2018
! Port assignment regex: !\s*Touchstone port\s*([0-9]+)\s*=\s*(CST MWS port|CST DS port)\s*([0-9]+|Zmin|Zmax)\s*\(\"(.*)\"\)(\s*mode\s*([0-9]+))?.*
! Touchstone port assignment:
! Touchstone port 1 = CST MWS port Zmax ("") mode 1
! Touchstone port 2 = CST MWS port Zmax ("") mode 2
! Touchstone port 3 = CST MWS port Zmin ("") mode 1
! Touchstone port 4 = CST MWS port Zmin ("") mode 2
! S-Parameters are not renormalized. Each port impedance will be approximated by the real part at minimum frequency. The values are described via the [Reference] keyword.
! Default impedance is overridden by [Reference]
[Version] 2.0
# GHz S RI R 376.73
[Number of Ports] 4
[Reference]
376.73 376.73 259.814 259.814 
[Number of Frequencies] 51
[Network Data]
281700                0.00698985        0.058146     -0.000268702    -0.000883377        -0.813318        -0.57319     -0.000283976    -0.000267641
                    -0.000271801    -0.000874221          0.17121      -0.0156604     -4.08678e-05     -0.00011063        -0.835652        0.506484
                        -0.81344       -0.573273     -3.56596e-05    -0.000142251       -0.0568412       0.0140193      0.000419777    -0.000987093
                    -0.000210689    -0.000194345        -0.835565        0.506418       0.00034981    -0.000945952       -0.0928047        0.143979
281702                0.00699629       0.0581618     -0.000268767    -0.000883339        -0.813489       -0.572945     -0.000284223    -0.000267495
                    -0.000271961    -0.000874181         0.171207      -0.0156857      -4.0882e-05      -0.0001106        -0.835457        0.506805
                       -0.813611       -0.573028     -3.57519e-05    -0.000142168       -0.0568499       0.0140528      0.000419342    -0.000987373
                    -0.000210801    -0.000194227        -0.835369         0.50674      0.000349278     -0.00094609       -0.0927149        0.144036
281704                0.00700272       0.0581776     -0.000268833      -0.0008833         -0.81366         -0.5727     -0.000284469    -0.000267348
                    -0.000272121    -0.000874142         0.171203       -0.015711     -4.08962e-05    -0.000110569        -0.835261        0.507127
                       -0.813782       -0.572783     -3.58441e-05    -0.000142085       -0.0568586       0.0140863      0.000418906    -0.000987652
                    -0.000210913     -0.00019411        -0.835173        0.507062      0.000348747    -0.000946227       -0.0926252        0.144092
281706                0.00700916       0.0581934     -0.000268899    -0.000883262        -0.813832       -0.572454     -0.000284715    -0.000267202
                    -0.000272281    -0.000874102           0.1712      -0.0157364     -4.09104e-05    -0.000110539        -0.835065        0.507448
                       -0.813953       -0.572538     -3.59363e-05    -0.000142002       -0.0568673       0.0141198      0.000418469    -0.000987931
                    -0.000211025    -0.000193993        -0.834977        0.507383      0.000348216    -0.000946364       -0.0925353        0.144149
281708                 0.0070156       0.0582092     -0.000268964    -0.000883224        -0.814002       -0.572209     -0.000284961    -0.000267055
                     -0.00027244    -0.000874062         0.171196      -0.0157617     -4.09245e-05    -0.000110509        -0.834869         0.50777
                       -0.814125       -0.572293     -3.60285e-05    -0.000141918       -0.0568759       0.0141533      0.000418033     -0.00098821
                    -0.000211137    -0.000193876        -0.834781        0.507705      0.000347685    -0.000946501       -0.0924455        0.144205
281710                0.00702205        0.058225     -0.000269029    -0.000883186        -0.814173       -0.571964     -0.000285206    -0.000266908
                      -0.0002726    -0.000874023         0.171193       -0.015787     -4.09386e-05    -0.000110478        -0.834673        0.508091
                       -0.814296       -0.572048     -3.61206e-05    -0.000141835       -0.0568845       0.0141868      0.000417596    -0.000988488
                    -0.000211249    -0.000193759        -0.834585        0.508027      0.000347154    -0.000946637       -0.0923556        0.144262
281712                 0.0070285       0.0582408     -0.000269095    -0.000883148        -0.814344       -0.571719     -0.000285452    -0.000266762
                    -0.000272759    -0.000873983          0.17119      -0.0158124     -4.09527e-05    -0.000110448        -0.834476        0.508412
                       -0.814467       -0.571803     -3.62127e-05    -0.000141752       -0.0568932       0.0142204      0.000417159    -0.000988767
                    -0.000211361    -0.000193642        -0.834389        0.508348      0.000346623    -0.000946774       -0.0922657        0.144318
281714                0.00703495       0.0582566      -0.00026916     -0.00088311        -0.814515       -0.571474     -0.000285697    -0.000266615
                    -0.000272919    -0.000873943         0.171186      -0.0158377     -4.09667e-05    -0.000110418         -0.83428        0.508734
                       -0.814637       -0.571558     -3.63048e-05    -0.000141668       -0.0569018       0.0142539      0.000416722    -0.000989045
                    -0.000211473    -0.000193524        -0.834192         0.50867      0.000346092     -0.00094691       -0.0921757        0.144374
281716                0.00704141       0.0582724     -0.000269225    -0.000883072        -0.814686       -0.571228     -0.000285942    -0.000266467
                    -0.000273078    -0.000873903         0.171183      -0.0158631     -4.09807e-05    -0.000110388        -0.834083        0.509055
                       -0.814808       -0.571312     -3.63968e-05    -0.000141585       -0.0569103       0.0142875      0.000416284    -0.000989323
                    -0.000211585    -0.000193407        -0.833996        0.508991      0.000345562    -0.000947046       -0.0920857         0.14443
281718                0.00704788       0.0582882      -0.00026929    -0.000883034        -0.814856       -0.570983     -0.000286187     -0.00026632
                    -0.000273238    -0.000873863         0.171179      -0.0158884     -4.09947e-05    -0.000110357        -0.833887        0.509376
                       -0.814979       -0.571067     -3.64887e-05    -0.000141501       -0.0569189        0.014321      0.000415846    -0.000989601
                    -0.000211697    -0.000193289        -0.833799        0.509313      0.000345031    -0.000947182       -0.0919956        0.144486
281720                0.00705434        0.058304     -0.000269355    -0.000882996        -0.815027       -0.570737     -0.000286431    -0.000266173
                    -0.000273397    -0.000873823         0.171176      -0.0159137     -4.10087e-05    -0.000110327         -0.83369        0.509697
                        -0.81515       -0.570822     -3.65806e-05    -0.000141417       -0.0569274       0.0143546      0.000415408    -0.000989878
                    -0.000211809    -0.000193172        -0.833602        0.509634      0.000344501    -0.000947318       -0.0919055        0.144542
281722                0.00706081       0.0583198      -0.00026942    -0.000882959        -0.815197       -0.570492     -0.000286675    -0.000266026
                    -0.000273556    -0.000873783         0.171172      -0.0159391     -4.10226e-05    -0.000110297        -0.833493        0.510018
                        -0.81532       -0.570576     -3.66724e-05    -0.000141333       -0.0569359       0.0143882       0.00041497    -0.000990155
                    -0.000211921    -0.000193054        -0.833405        0.509955      0.000343971    -0.000947454       -0.0918154        0.144598
281724                0.00706728       0.0583356     -0.000269485    -0.000882921        -0.815368       -0.570246     -0.000286919    -0.000265878
                    -0.000273715    -0.000873743         0.171169      -0.0159644     -4.10366e-05    -0.000110267        -0.833296        0.510339
                       -0.815491        -0.57033     -3.67642e-05    -0.000141249       -0.0569444       0.0144218      0.000414531    -0.000990432
                    -0.000212032    -0.000192937        -0.833208        0.510277       0.00034344    -0.000947589       -0.0917253        0.144654
281726                0.00707376       0.0583513      -0.00026955    -0.000882883        -0.815538       -0.570001     -0.000287163     -0.00026573
                    -0.000273875    -0.000873703         0.171165      -0.0159898     -4.10504e-05    -0.000110237        -0.833099         0.51066
                       -0.815661       -0.570085     -3.68558e-05    -0.000141165       -0.0569529       0.0144555      0.000414092    -0.000990709
                    -0.000212144    -0.000192819        -0.833011        0.510598       0.00034291    -0.000947725       -0.0916351         0.14471
281728                0.00708024       0.0583671     -0.000269615    -0.000882846        -0.815708       -0.569755     -0.000287407    -0.000265583
                    -0.000274034    -0.000873662         0.171162      -0.0160151     -4.10643e-05    -0.000110207        -0.832901        0.510981
                       -0.815832       -0.569839     -3.69475e-05    -0.000141081       -0.0569614       0.0144891      0.000413653    -0.000990986
                    -0.000212256    -0.000192702        -0.832813        0.510919       0.00034238     -0.00094786       -0.0915448        0.144766
281730                0.00708673       0.0583829     -0.000269679    -0.000882808        -0.815878       -0.569509      -0.00028765    -0.000265435
                    -0.000274193    -0.000873622         0.171159      -0.0160405     -4.10782e-05    -0.000110177        -0.832704        0.511301
                       -0.816002       -0.569594     -3.70391e-05    -0.000140997       -0.0569698       0.0145227      0.000413213    -0.000991262
                    -0.000212368    -0.000192584        -0.832616         0.51124      0.000341849    -0.000947995       -0.0914545        0.144822
281732                0.00709322       0.0583987     -0.000269744    -0.000882771        -0.816048       -0.569263     -0.000287894    -0.000265287
                    -0.000274352    -0.000873582         0.171155      -0.0160658      -4.1092e-05    -0.000110147        -0.832506        0.511622
                       -0.816172       -0.569348     -3.71306e-05    -0.000140912       -0.0569782       0.0145564      0.000412774    -0.000991538
                     -0.00021248    -0.000192466        -0.832418        0.511561      0.000341319     -0.00094813       -0.0913642        0.144877
281734                0.00709971       0.0584145     -0.000269808    -0.000882733        -0.816218       -0.569018     -0.000288137    -0.000265139
                    -0.000274511    -0.000873541         0.171151      -0.0160912     -4.11057e-05    -0.000110117        -0.832309        0.511942
                       -0.816342       -0.569102     -3.72221e-05    -0.000140828       -0.0569866       0.0145901      0.000412334    -0.000991814
                    -0.000212592    -0.000192348        -0.832221        0.511882      0.000340789    -0.000948264       -0.0912739        0.144933
281736                0.00710621       0.0584303     -0.000269872    -0.000882696        -0.816388       -0.568772     -0.000288379    -0.000264991
                     -0.00027467    -0.000873501         0.171148      -0.0161165     -4.11195e-05    -0.000110087        -0.832111        0.512263
                       -0.816512       -0.568856     -3.73137e-05    -0.000140743        -0.056995       0.0146238      0.000411893     -0.00099209
                    -0.000212704     -0.00019223        -0.832023        0.512202      0.000340259    -0.000948398       -0.0911835        0.144989
281738                0.00711271       0.0584461     -0.000269936    -0.000882658        -0.816558       -0.568526     -0.000288622    -0.000264842
                    -0.000274828     -0.00087346         0.171144      -0.0161419     -4.11332e-05    -0.000110057        -0.831913        0.512583
                       -0.816682        -0.56861     -3.74055e-05    -0.000140658       -0.0570034       0.0146575      0.000411453    -0.000992365
                    -0.000212816    -0.000192112        -0.831825        0.512523      0.000339728    -0.000948533       -0.0910931        0.145044
281740                0.00711921       0.0584619         -0.00027     -0.00088262        -0.816728        -0.56828     -0.000288864    -0.000264694
                    -0.000274986     -0.00087342         0.171141      -0.0161672     -4.11469e-05    -0.000110027        -0.831715        0.512904
                       -0.816852       -0.568364     -3.74976e-05    -0.000140573       -0.0570117       0.0146912      0.000411012    -0.000992641
                    -0.000212928    -0.000191993        -0.831627        0.512844      0.000339198    -0.000948667       -0.0910026          0.1451
281742                0.00712572       0.0584777     -0.000270062    -0.000882581        -0.816898       -0.568034     -0.000289106    -0.000264545
                    -0.000275143    -0.000873378         0.171137      -0.0161926     -4.11606e-05    -0.000109997        -0.831517        0.513224
                       -0.817022       -0.568118     -3.75908e-05    -0.000140489         -0.05702       0.0147249      0.000410571    -0.000992916
                     -0.00021304    -0.000191873        -0.831428        0.513164      0.000338668      -0.0009488       -0.0909121        0.145155
281744                0.00713222       0.0584934     -0.000270123     -0.00088254        -0.817068       -0.567787     -0.000289348    -0.000264397
                    -0.000275296    -0.000873334         0.171134      -0.0162179     -4.11743e-05    -0.000109967        -0.831318        0.513544
                       -0.817192       -0.567872     -3.76872e-05    -0.000140406       -0.0570283       0.0147586       0.00041013    -0.000993191
                    -0.000213154    -0.000191748         -0.83123        0.513485      0.000338138    -0.000948934       -0.0908216         0.14521
281746                0.00713878       0.0585092     -0.000270178    -0.000882488        -0.817237       -0.567541      -0.00028959    -0.000264248
                    -0.000275533    -0.000873273          0.17113      -0.0162433     -4.11879e-05    -0.000109937         -0.83112        0.513864
                       -0.817362       -0.567626     -3.77995e-05    -0.000140339       -0.0570366       0.0147924      0.000409688    -0.000993465
                    -0.000213217    -0.000191725        -0.831031        0.513805      0.000337607    -0.000949067        -0.090731        0.145265
281748                0.00714527        0.058525     -0.000270383    -0.000882435        -0.817407       -0.567295     -0.000289831    -0.000264099
                    -0.000275636    -0.000873262         0.171127      -0.0162686     -4.12015e-05    -0.000109908        -0.830921        0.514185
                       -0.817531        -0.56738     -3.78115e-05    -0.000140247       -0.0570449       0.0148261      0.000409246     -0.00099374
                    -0.000213369    -0.000191537        -0.830833        0.514126      0.000337077    -0.000949201       -0.0906404        0.145321
281750                0.00715179       0.0585408     -0.000270353    -0.000882456        -0.817576       -0.567049     -0.000290072     -0.00026395
                     -0.00027579     -0.00087322         0.171123       -0.016294      -4.1215e-05    -0.000109878        -0.830722        0.514505
                       -0.817701       -0.567133     -3.79258e-05    -0.000140147       -0.0570531       0.0148599      0.000408804    -0.000994014
                    -0.000213483    -0.000191414        -0.830634        0.514446      0.000336547    -0.000949334       -0.0905497        0.145376
281752                0.00715832       0.0585566     -0.000270405    -0.000882415        -0.817745       -0.566802     -0.000290313    -0.000263801
                    -0.000275948    -0.000873179         0.171119      -0.0163193     -4.12286e-05    -0.000109848        -0.830524        0.514825
                       -0.817871       -0.566887     -3.80217e-05     -0.00014006       -0.0570613       0.0148937      0.000408362    -0.000994288
                    -0.000213595    -0.000191294        -0.830435        0.514766      0.000336018    -0.000949467       -0.0904591        0.145431
281754                0.00716485       0.0585724     -0.000270466    -0.000882377        -0.817915       -0.566556     -0.000290554    -0.000263652
                    -0.000276106    -0.000873138         0.171116      -0.0163447      -4.1242e-05    -0.000109818        -0.830325        0.515144
                        -0.81804       -0.566641      -3.8114e-05    -0.000139973       -0.0570695       0.0149274       0.00040792    -0.000994562
                    -0.000213707    -0.000191175        -0.830236        0.515086      0.000335489    -0.000949601       -0.0903683        0.145486
281756                0.00717138       0.0585881     -0.000270528     -0.00088234        -0.818084        -0.56631     -0.000290795    -0.000263502
                    -0.000276264    -0.000873098         0.171112      -0.0163701     -4.12554e-05    -0.000109789        -0.830125        0.515464
                       -0.818209       -0.566394     -3.82049e-05    -0.000139887       -0.0570777       0.0149613      0.000407481    -0.000994837
                    -0.000213818    -0.000191057        -0.830037        0.515406      0.000334962    -0.000949736       -0.0902776        0.145541
281758                0.00717792       0.0586039     -0.000270592    -0.000882303        -0.818253       -0.566063     -0.000291033    -0.000263351
                    -0.000276422    -0.000873057         0.171109      -0.0163954     -4.12685e-05     -0.00010976        -0.829926        0.515784
                       -0.818379       -0.566148     -3.82951e-05    -0.000139801       -0.0570859       0.0149951      0.000407021    -0.000995104
                     -0.00021393    -0.000190939        -0.829838        0.515726      0.000334442    -0.000949875       -0.0901868        0.145596
281760                0.00718446       0.0586197     -0.000270655    -0.000882267        -0.818422       -0.565816     -0.000291274    -0.000263202
                    -0.000276581    -0.000873016         0.171105      -0.0164208     -4.12794e-05     -0.00010973        -0.829727        0.516104
                       -0.818548       -0.565901     -3.83848e-05    -0.000139715       -0.0570941       0.0150289      0.000406584     -0.00099538
                    -0.000214042    -0.000190821        -0.829638        0.516046      0.000334026    -0.000950004       -0.0900959        0.145651
281762                0.00719101       0.0586355     -0.000270719    -0.000882232        -0.818591        -0.56557     -0.000291513    -0.000263053
                     -0.00027674    -0.000872975         0.171101      -0.0164461     -4.12956e-05    -0.000109697        -0.829527        0.516423
                       -0.818717       -0.565655     -3.84742e-05    -0.000139628       -0.0571021       0.0150627      0.000406141    -0.000995653
