! TOUCHSTONE file generated by CST MICROWAVE STUDIO
! Date and time: Tue Oct 14 17:38:05 2025
! Project name: Teste_Macro_Metasurface_Nanopilar.cst
! Parameters = {H=600; L_x=80; L_y=170; Lambda=1064; Max_L=200; Min_L=70; PathPara=1; Phi=0; Step_L=10; Theta=0; p=520; phaseX=180; phaseY=0}
! Header version: 2018
! Port assignment regex: !\s*Touchstone port\s*([0-9]+)\s*=\s*(CST MWS port|CST DS port)\s*([0-9]+|Zmin|Zmax)\s*\(\"(.*)\"\)(\s*mode\s*([0-9]+))?.*
! Touchstone port assignment:
! Touchstone port 1 = CST MWS port Zmax ("") mode 1
! Touchstone port 2 = CST MWS port Zmax ("") mode 2
! Touchstone port 3 = CST MWS port Zmin ("") mode 1
! Touchstone port 4 = CST MWS port Zmin ("") mode 2
! S-Parameters are not renormalized. Each port impedance will be approximated by the real part at minimum frequency. The values are described via the [Reference] keyword.
! Default impedance is overridden by [Reference]
[Version] 2.0
# GHz S RI R 376.73
[Number of Ports] 4
[Reference]
376.73 376.73 259.814 259.814 
[Number of Frequencies] 51
[Network Data]
281700                   0.01765        0.161976       0.00043558      0.00016456         0.970766        0.136576     -4.16808e-06    -0.000115624
                     0.000452439     0.000214486       -0.0254069      -0.0464405     -0.000190583     0.000158383        -0.405908       -0.910844
                        0.970268        0.137124      -0.00015145     0.000159673       -0.0602865        0.151643      0.000273656     0.000395866
                    -2.58721e-05    -0.000178576        -0.407346       -0.910877       0.00030896     0.000212755        0.0176233       0.0503293
281702                 0.0176735           0.162      0.000435663     0.000164426          0.97081        0.136237     -4.21804e-06    -0.000115661
                     0.000452535     0.000214415       -0.0254175       -0.046431     -0.000190578     0.000158436        -0.406145       -0.910738
                        0.970312        0.136786     -0.000151414     0.000159717       -0.0602097        0.151701      0.000273835     0.000395774
                    -2.59339e-05    -0.000178688        -0.407582       -0.910772      0.000309159     0.000212747        0.0176353       0.0503218
281704                 0.0176969        0.162023      0.000435746     0.000164292         0.970853        0.135898     -4.26809e-06    -0.000115697
                     0.000452632     0.000214344        -0.025428      -0.0464215     -0.000190573     0.000158489        -0.406382       -0.910633
                        0.970356        0.136447     -0.000151379     0.000159761        -0.060133        0.151759      0.000274014     0.000395682
                    -2.59958e-05    -0.000178799        -0.407818       -0.910666      0.000309358     0.000212742        0.0176473       0.0503142
281706                 0.0177204        0.162047      0.000435828     0.000164158         0.970897        0.135558     -4.31825e-06    -0.000115733
                     0.000452728     0.000214272       -0.0254385      -0.0464121     -0.000190568     0.000158542        -0.406618       -0.910527
                          0.9704        0.136108     -0.000151344     0.000159805       -0.0600561        0.151818      0.000274193     0.000395589
                    -2.60579e-05     -0.00017891        -0.408054       -0.910561      0.000309557     0.000212737        0.0176593       0.0503066
281708                 0.0177439        0.162071      0.000435911     0.000164024          0.97094        0.135219      -4.3685e-06    -0.000115768
                     0.000452825     0.000214201       -0.0254491      -0.0464026     -0.000190565     0.000158594        -0.406855       -0.910422
                        0.970444         0.13577     -0.000151309     0.000159849       -0.0599793        0.151876      0.000274372     0.000395496
                    -2.61201e-05    -0.000179021         -0.40829       -0.910456      0.000309757     0.000212733        0.0176712       0.0502991
281710                 0.0177673        0.162095      0.000435993     0.000163889         0.970983        0.134879     -4.41885e-06    -0.000115804
                     0.000452921     0.000214129       -0.0254596      -0.0463931     -0.000190562     0.000158646        -0.407092       -0.910316
                        0.970488        0.135431     -0.000151274     0.000159893       -0.0599023        0.151934      0.000274551     0.000395403
                    -2.61825e-05    -0.000179132        -0.408526        -0.91035      0.000309957      0.00021273        0.0176832       0.0502915
281712                 0.0177908        0.162119      0.000436075     0.000163755         0.971026         0.13454      -4.4693e-06     -0.00011584
                     0.000453018     0.000214057       -0.0254701      -0.0463837     -0.000190559     0.000158697        -0.407329        -0.91021
                        0.970532        0.135093     -0.000151239     0.000159936       -0.0598254        0.151992      0.000274729      0.00039531
                     -2.6245e-05    -0.000179243        -0.408761       -0.910244      0.000310156     0.000212729        0.0176952       0.0502839
281714                 0.0178143        0.162143      0.000436157      0.00016362         0.971069          0.1342     -4.51983e-06    -0.000115876
                     0.000453114     0.000213985       -0.0254807      -0.0463742     -0.000190557     0.000158748        -0.407565       -0.910105
                        0.970576        0.134754     -0.000151205      0.00015998       -0.0597483        0.152051      0.000274908     0.000395216
                    -2.63076e-05    -0.000179354        -0.408997       -0.910139      0.000310356     0.000212729        0.0177071       0.0502764
281716                 0.0178377        0.162167      0.000436238     0.000163486         0.971111        0.133861     -4.57045e-06    -0.000115911
                     0.000453211     0.000213912       -0.0254912      -0.0463647     -0.000190556     0.000158797        -0.407802       -0.909999
                        0.970619        0.134415     -0.000151171     0.000160023       -0.0596713        0.152109      0.000275087     0.000395123
                    -2.63703e-05    -0.000179464        -0.409233       -0.910033      0.000310555     0.000212729        0.0177191       0.0502688
281718                 0.0178612        0.162191       0.00043632     0.000163351         0.971154        0.133521     -4.62115e-06    -0.000115946
                     0.000453307      0.00021384       -0.0255017      -0.0463552     -0.000190554     0.000158846        -0.408038       -0.909893
                        0.970662        0.134077     -0.000151137     0.000160066       -0.0595941        0.152167      0.000275266     0.000395029
                    -2.64332e-05    -0.000179574        -0.409469       -0.909927      0.000310753      0.00021273         0.017731       0.0502612
281720                 0.0178847        0.162215      0.000436401     0.000163216         0.971196        0.133181     -4.67193e-06    -0.000115982
                     0.000453404     0.000213767       -0.0255122      -0.0463458     -0.000190553     0.000158894        -0.408275       -0.909787
                        0.970706        0.133738     -0.000151104     0.000160109        -0.059517        0.152225      0.000275444     0.000394935
                    -2.64962e-05    -0.000179684        -0.409704       -0.909821      0.000310952     0.000212732         0.017743       0.0502536
281722                 0.0179082        0.162239      0.000436482     0.000163081         0.971239        0.132842     -4.72278e-06    -0.000116017
                       0.0004535     0.000213693       -0.0255228      -0.0463363     -0.000190551      0.00015894        -0.408512       -0.909681
                        0.970749          0.1334      -0.00015107     0.000160151       -0.0594397        0.152283      0.000275623     0.000394841
                    -2.65594e-05    -0.000179794         -0.40994       -0.909716       0.00031115     0.000212735         0.017755       0.0502461
281724                 0.0179316        0.162263      0.000436563     0.000162946         0.971281        0.132502      -4.7737e-06    -0.000116052
                     0.000453597      0.00021362       -0.0255333      -0.0463268     -0.000190549     0.000158986        -0.408748       -0.909575
                        0.970792        0.133061     -0.000151037     0.000160194       -0.0593625        0.152341      0.000275802     0.000394747
                    -2.66226e-05    -0.000179904        -0.410176        -0.90961      0.000311347     0.000212739        0.0177669       0.0502385
281726                 0.0179551        0.162286      0.000436643     0.000162811         0.971323        0.132163     -4.82467e-06    -0.000116087
                     0.000453693     0.000213546       -0.0255438      -0.0463173     -0.000190547     0.000159031        -0.408985       -0.909469
                        0.970835        0.132722     -0.000151004     0.000160236       -0.0592851        0.152399       0.00027598     0.000394653
                     -2.6686e-05    -0.000180013        -0.410411       -0.909503      0.000311544     0.000212742        0.0177788       0.0502309
281728                 0.0179786         0.16231      0.000436724     0.000162676         0.971365        0.131823      -4.8757e-06    -0.000116122
                      0.00045379     0.000213473       -0.0255543      -0.0463078     -0.000190544     0.000159075        -0.409221       -0.909363
                        0.970877        0.132383     -0.000150972     0.000160278       -0.0592078        0.152457      0.000276159     0.000394558
                    -2.67495e-05    -0.000180123        -0.410647       -0.909397       0.00031174     0.000212747        0.0177908       0.0502233
281730                 0.0180021        0.162334      0.000436804     0.000162541         0.971407        0.131484     -4.92678e-06    -0.000116157
                     0.000453886     0.000213399       -0.0255649      -0.0462984      -0.00019054     0.000159119        -0.409458       -0.909256
                         0.97092        0.132045     -0.000150939      0.00016032       -0.0591303        0.152515      0.000276338     0.000394463
                    -2.68132e-05    -0.000180232        -0.410882       -0.909291      0.000311935     0.000212751        0.0178027       0.0502158
281732                 0.0180256        0.162358      0.000436884     0.000162406         0.971449        0.131144     -4.97789e-06    -0.000116192
                     0.000453982     0.000213324       -0.0255754      -0.0462889     -0.000190535     0.000159162        -0.409694        -0.90915
                        0.970962        0.131706     -0.000150907     0.000160362       -0.0590529        0.152572      0.000276516     0.000394368
                    -2.68769e-05    -0.000180341        -0.411118       -0.909185       0.00031213     0.000212756        0.0178146       0.0502082
281734                 0.0180491        0.162382      0.000436964      0.00016227          0.97149        0.130804     -5.02905e-06    -0.000116226
                     0.000454079      0.00021325       -0.0255859      -0.0462794     -0.000190529     0.000159205         -0.40993       -0.909044
                        0.971005        0.131367     -0.000150875     0.000160404       -0.0589753         0.15263      0.000276695     0.000394273
                    -2.69408e-05     -0.00018045        -0.411353       -0.909079      0.000312324     0.000212761        0.0178266       0.0502006
281736                 0.0180726        0.162406      0.000437043     0.000162135         0.971532        0.130465     -5.08023e-06     -0.00011626
                     0.000454175     0.000213175       -0.0255964      -0.0462699     -0.000190523     0.000159248        -0.410167       -0.908937
                        0.971047        0.131029     -0.000150844     0.000160445       -0.0588978        0.152688      0.000276873     0.000394178
                    -2.70047e-05    -0.000180558        -0.411589       -0.908972      0.000312518     0.000212766        0.0178385        0.050193
281738                 0.0180961         0.16243      0.000437123     0.000161999         0.971573        0.130125     -5.13145e-06    -0.000116295
                     0.000454272       0.0002131       -0.0256069      -0.0462604     -0.000190515     0.000159292        -0.410403       -0.908831
                        0.971089         0.13069     -0.000150812     0.000160487       -0.0588202        0.152746      0.000277052     0.000394083
                    -2.70688e-05    -0.000180667        -0.411824       -0.908866      0.000312711     0.000212771        0.0178504       0.0501854
281740                 0.0181196        0.162454      0.000437202     0.000161864         0.971614        0.129786     -5.18271e-06    -0.000116329
                     0.000454368     0.000213025       -0.0256175      -0.0462509     -0.000190508     0.000159335        -0.410639       -0.908724
                        0.971131        0.130351     -0.000150781     0.000160528       -0.0587425        0.152803       0.00027723     0.000393987
                     -2.7133e-05    -0.000180775         -0.41206       -0.908759      0.000312904     0.000212776        0.0178623       0.0501779
281742                 0.0181431        0.162478      0.000437281     0.000161728         0.971655        0.129446     -5.23403e-06    -0.000116363
                     0.000454464     0.000212949        -0.025628      -0.0462414     -0.000190499     0.000159379        -0.410876       -0.908618
                        0.971173        0.130012      -0.00015075     0.000160569       -0.0586648        0.152861      0.000277409     0.000393891
                    -2.71973e-05    -0.000180883        -0.412295       -0.908653      0.000313096      0.00021278        0.0178743       0.0501703
281744                 0.0181666        0.162501       0.00043736     0.000161592         0.971696        0.129106     -5.28542e-06    -0.000116397
                     0.000454561     0.000212874       -0.0256385      -0.0462319     -0.000190491     0.000159423        -0.411112       -0.908511
                        0.971215        0.129674      -0.00015072      0.00016061        -0.058587        0.152919      0.000277588     0.000393795
                    -2.72617e-05    -0.000180991         -0.41253       -0.908546      0.000313288     0.000212785        0.0178862       0.0501627
281746                 0.0181901        0.162525      0.000437438     0.000161456         0.971737        0.128767     -5.33689e-06     -0.00011643
                     0.000454657     0.000212798        -0.025649      -0.0462224     -0.000190482     0.000159468        -0.411348       -0.908404
                        0.971257        0.129335     -0.000150689     0.000160651       -0.0585092        0.152976      0.000277766     0.000393699
                    -2.73262e-05    -0.000181099        -0.412766        -0.90844      0.000313479     0.000212789        0.0178981       0.0501551
281748                 0.0182136        0.162549      0.000437516     0.000161321         0.971778        0.128427     -5.38847e-06    -0.000116464
                     0.000454753     0.000212722       -0.0256595      -0.0462129     -0.000190472     0.000159514        -0.411585       -0.908297
                        0.971298        0.128996     -0.000150658     0.000160693       -0.0584313        0.153034      0.000277944     0.000393602
                    -2.73907e-05    -0.000181206        -0.413001       -0.908333       0.00031367     0.000212793          0.01791       0.0501475
281750                 0.0182371        0.162573      0.000437608     0.000161179         0.971819        0.128087     -5.44012e-06    -0.000116497
                     0.000454848     0.000212646         -0.02567      -0.0462034     -0.000190463      0.00015956        -0.411821        -0.90819
                         0.97134        0.128657     -0.000150646     0.000160691       -0.0583534        0.153091      0.000278123     0.000393506
                    -2.74525e-05    -0.000181314        -0.413236       -0.908226       0.00031386     0.000212796        0.0179219         0.05014
281752                 0.0182606        0.162597      0.000437675     0.000161048         0.971859        0.127748     -5.49182e-06    -0.000116531
                     0.000454946     0.000212569       -0.0256805      -0.0461939     -0.000190454     0.000159607        -0.412057       -0.908084
                        0.971381        0.128318     -0.000150601     0.000160767       -0.0582755        0.153149      0.000278301     0.000393409
                    -2.75208e-05    -0.000181421        -0.413472       -0.908119      0.000314051     0.000212799        0.0179338       0.0501324
281754                 0.0182841        0.162621      0.000437753     0.000160912           0.9719        0.127408     -5.54355e-06    -0.000116564
                     0.000455042     0.000212492       -0.0256911      -0.0461844     -0.000190445     0.000159654        -0.412293       -0.907977
                        0.971422        0.127979     -0.000150572     0.000160808       -0.0581974        0.153206      0.000278479     0.000393312
                    -2.75855e-05    -0.000181528        -0.413707       -0.908012       0.00031424     0.000212802        0.0179457       0.0501248
281756                 0.0183076        0.162645       0.00043783     0.000160776          0.97194        0.127068     -5.59527e-06    -0.000116597
                     0.000455138     0.000212415       -0.0257016      -0.0461749     -0.000190436     0.000159702        -0.412529       -0.907869
                        0.971463        0.127641     -0.000150542     0.000160848       -0.0581194        0.153264      0.000278658     0.000393215
                    -2.76505e-05    -0.000181635        -0.413942       -0.907905       0.00031443     0.000212804        0.0179576       0.0501172
281758                 0.0183312        0.162669      0.000437908     0.000160639          0.97198        0.126728     -5.64698e-06    -0.000116631
                     0.000455234     0.000212338       -0.0257121      -0.0461654     -0.000190427     0.000159751        -0.412765       -0.907762
                        0.971504        0.127302     -0.000150513     0.000160887       -0.0580413        0.153321      0.000278836     0.000393118
                    -2.77156e-05    -0.000181741        -0.414177       -0.907798      0.000314619     0.000212805        0.0179694       0.0501096
281760                 0.0183547        0.162692      0.000437985     0.000160503          0.97202        0.126389     -5.69865e-06    -0.000116664
                      0.00045533     0.000212261       -0.0257226      -0.0461559     -0.000190418     0.000159802        -0.413001       -0.907655
                        0.971545        0.126963     -0.000150485     0.000160927       -0.0579631        0.153378      0.000279014     0.000393021
                    -2.77808e-05    -0.000181848        -0.414412       -0.907691      0.000314808     0.000212805        0.0179813        0.050102
281762                 0.0183782        0.162716      0.000438063     0.000160366          0.97206        0.126049     -5.75029e-06    -0.000116697
                     0.000455427     0.000212183       -0.0257331      -0.0461464     -0.000190409     0.000159853        -0.413237       -0.907548
                        0.971586        0.126624     -0.000150456     0.000160966       -0.0578849        0.153435      0.000279192     0.000392924
