! TOUCHSTONE file generated by CST MICROWAVE STUDIO
! Date and time: Tue Oct 14 17:38:39 2025
! Project name: Teste_Macro_Metasurface_Nanopilar.cst
! Parameters = {H=600; L_x=130; L_y=150; Lambda=1064; Max_L=200; Min_L=70; PathPara=1; Phi=0; Step_L=10; Theta=0; p=520; phaseX=180; phaseY=0}
! Header version: 2018
! Port assignment regex: !\s*Touchstone port\s*([0-9]+)\s*=\s*(CST MWS port|CST DS port)\s*([0-9]+|Zmin|Zmax)\s*\(\"(.*)\"\)(\s*mode\s*([0-9]+))?.*
! Touchstone port assignment:
! Touchstone port 1 = CST MWS port Zmax ("") mode 1
! Touchstone port 2 = CST MWS port Zmax ("") mode 2
! Touchstone port 3 = CST MWS port Zmin ("") mode 1
! Touchstone port 4 = CST MWS port Zmin ("") mode 2
! S-Parameters are not renormalized. Each port impedance will be approximated by the real part at minimum frequency. The values are described via the [Reference] keyword.
! Default impedance is overridden by [Reference]
[Version] 2.0
# GHz S RI R 376.73
[Number of Ports] 4
[Reference]
376.73 376.73 259.814 259.814 
[Number of Frequencies] 51
[Network Data]
281700                  0.169033        0.284789      3.65781e-05     -0.00112636         0.724574       -0.594122      0.000720784     0.000557556
                     -2.4081e-07     -0.00109324        0.0911889         0.12083      0.000284992     0.000771387         0.980907      -0.0719126
                        0.724762       -0.594302      0.000290748     0.000735044         0.247545        0.213958      -0.00101751    -0.000632831
                     0.000759536     0.000555488         0.980978      -0.0717044     -0.000933149    -0.000660338       -0.0713218        0.132776
281702                  0.169092        0.284864      3.66035e-05     -0.00112638         0.724313       -0.594383      0.000721342     0.000557362
                    -2.48879e-07     -0.00109332         0.091202         0.12084      0.000285065     0.000771704         0.980881      -0.0722284
                        0.724502       -0.594564      0.000290895     0.000735215         0.247778         0.21383      -0.00101811    -0.000631982
                     0.000760138     0.000555113         0.980953        -0.07202     -0.000933965    -0.000659406       -0.0712477        0.132834
281704                  0.169151         0.28494      3.66292e-05     -0.00112639         0.724052       -0.594645      0.000721901     0.000557167
                     -2.5756e-07     -0.00109341         0.091215        0.120851      0.000285139     0.000772022         0.980856      -0.0725443
                        0.724241       -0.594826      0.000291041     0.000735387         0.248011        0.213702      -0.00101872    -0.000631133
                      0.00076074     0.000554737         0.980927      -0.0723356     -0.000934784    -0.000658473       -0.0711736        0.132892
281706                  0.169211        0.285015       3.6655e-05     -0.00112641          0.72379       -0.594906       0.00072246     0.000556971
                    -2.66853e-07     -0.00109349        0.0912281        0.120861      0.000285211     0.000772341          0.98083      -0.0728601
                         0.72398       -0.595087      0.000291188     0.000735559         0.248244        0.213574      -0.00101932    -0.000630282
                      0.00076134     0.000554361         0.980902      -0.0726512     -0.000935604    -0.000657539       -0.0710994         0.13295
281708                   0.16927         0.28509      3.66811e-05     -0.00112643         0.723528       -0.595167      0.000723019     0.000556774
                    -2.76757e-07     -0.00109358        0.0912411        0.120871      0.000285283     0.000772661         0.980804      -0.0731759
                        0.723719       -0.595349      0.000291335     0.000735731         0.248477        0.213445      -0.00101992     -0.00062943
                     0.000761941     0.000553985         0.980876      -0.0729667     -0.000936426    -0.000656604       -0.0710252        0.133007
281710                  0.169329        0.285166      3.67074e-05     -0.00112645         0.723266       -0.595429      0.000723579     0.000556577
                    -2.87274e-07     -0.00109366        0.0912542        0.120881      0.000285354     0.000772981         0.980779      -0.0734917
                        0.723458       -0.595611      0.000291482     0.000735904          0.24871        0.213316      -0.00102052    -0.000628578
                      0.00076254     0.000553607          0.98085      -0.0732823     -0.000937249    -0.000655667        -0.070951        0.133065
281712                  0.169389        0.285241      3.67339e-05     -0.00112646         0.723004        -0.59569      0.000724139     0.000556378
                    -2.98403e-07     -0.00109375        0.0912672        0.120891      0.000285424     0.000773302         0.980753      -0.0738075
                        0.723197       -0.595873      0.000291629     0.000736077         0.248943        0.213187      -0.00102113    -0.000627724
                     0.000763139      0.00055323         0.980824      -0.0735978     -0.000938074    -0.000654729       -0.0708767        0.133123
281714                  0.169448        0.285317      3.67606e-05     -0.00112648         0.722742       -0.595951      0.000724699      0.00055618
                    -3.10145e-07     -0.00109384        0.0912803        0.120901      0.000285494     0.000773624         0.980727      -0.0741233
                        0.722936       -0.596134      0.000291776     0.000736251         0.249176        0.213058      -0.00102173     -0.00062687
                     0.000763738     0.000552851         0.980798      -0.0739134     -0.000938901     -0.00065379       -0.0708023         0.13318
281716                  0.169508        0.285392      3.67875e-05      -0.0011265          0.72248       -0.596212       0.00072526      0.00055598
                      -3.225e-07     -0.00109393        0.0912933        0.120912      0.000285563     0.000773946         0.980701       -0.074439
                        0.722674       -0.596395      0.000291923     0.000736425         0.249409        0.212928      -0.00102233    -0.000626015
                     0.000764336     0.000552472         0.980772      -0.0742289     -0.000939729     -0.00065285       -0.0707279        0.133238
281718                  0.169567        0.285468      3.68147e-05     -0.00112652         0.722217       -0.596473      0.000725821      0.00055578
                    -3.35469e-07     -0.00109401        0.0913064        0.120922      0.000285632     0.000774269         0.980674      -0.0747548
                        0.722413       -0.596657       0.00029207     0.000736599         0.249642        0.212799      -0.00102293    -0.000625159
                     0.000764933     0.000552093         0.980746      -0.0745444     -0.000940559    -0.000651909       -0.0706535        0.133295
281720                  0.169627        0.285543       3.6842e-05     -0.00112654         0.721955       -0.596734      0.000726382     0.000555579
                    -3.49051e-07      -0.0010941        0.0913194        0.120932      0.000285699     0.000774592         0.980648      -0.0750705
                        0.722151       -0.596918      0.000292218     0.000736774         0.249875        0.212669      -0.00102353    -0.000624302
                      0.00076553     0.000551712          0.98072      -0.0748599     -0.000941391    -0.000650966        -0.070579        0.133353
281722                  0.169687        0.285619      3.68696e-05     -0.00112656         0.721692       -0.596994      0.000726944     0.000555378
                    -3.63247e-07     -0.00109419        0.0913325        0.120942      0.000285766     0.000774917         0.980622      -0.0753862
                        0.721889       -0.597179      0.000292365     0.000736949         0.250108        0.212539      -0.00102413    -0.000623444
                     0.000766126     0.000551332         0.980693      -0.0751754     -0.000942224    -0.000650022       -0.0705045         0.13341
281724                  0.169746        0.285695      3.68973e-05     -0.00112658         0.721429       -0.597255      0.000727506     0.000555175
                    -3.78057e-07     -0.00109429        0.0913455        0.120952      0.000285833     0.000775241         0.980595      -0.0757019
                        0.721627        -0.59744      0.000292512     0.000737125         0.250341        0.212408      -0.00102473    -0.000622585
                     0.000766722      0.00055095         0.980667      -0.0754909     -0.000943059    -0.000649077         -0.07043        0.133468
281726                  0.169806         0.28577      3.69253e-05     -0.00112659         0.721165       -0.597515      0.000728069     0.000554972
                    -3.93481e-07     -0.00109438        0.0913586        0.120963      0.000285898     0.000775567         0.980569      -0.0760176
                        0.721364       -0.597701       0.00029266     0.000737301         0.250574        0.212278      -0.00102533    -0.000621725
                     0.000767317     0.000550569          0.98064      -0.0758064     -0.000943896    -0.000648131       -0.0703554        0.133525
281728                  0.169866        0.285846      3.69535e-05     -0.00112661         0.720902       -0.597776      0.000728632     0.000554768
                    -4.09519e-07     -0.00109447        0.0913716        0.120973      0.000285963     0.000775893         0.980542      -0.0763333
                        0.721102       -0.597962      0.000292807     0.000737477         0.250807        0.212147      -0.00102593    -0.000620864
                     0.000767912     0.000550186         0.980613      -0.0761218     -0.000944735    -0.000647184       -0.0702807        0.133582
281730                  0.169926        0.285922      3.69819e-05     -0.00112663         0.720639       -0.598036      0.000729195     0.000554564
                    -4.26173e-07     -0.00109456        0.0913846        0.120983      0.000286027      0.00077622         0.980515       -0.076649
                        0.720839       -0.598223      0.000292955     0.000737654          0.25104        0.212016      -0.00102653    -0.000620003
                     0.000768506     0.000549803         0.980587      -0.0764373     -0.000945575    -0.000646236       -0.0702061        0.133639
281732                  0.169986        0.285998      3.70105e-05     -0.00112665         0.720375       -0.598297      0.000729759     0.000554358
                    -4.43441e-07     -0.00109466        0.0913977        0.120993      0.000286091     0.000776548         0.980488      -0.0769646
                        0.720576       -0.598484      0.000293102     0.000737831         0.251273        0.211885      -0.00102713     -0.00061914
                     0.000769099      0.00054942          0.98056      -0.0767527     -0.000946417    -0.000645287       -0.0701313        0.133697
281734                  0.170046        0.286074      3.70393e-05     -0.00112667         0.720111       -0.598557      0.000730324     0.000554152
                    -4.61324e-07     -0.00109475        0.0914107        0.121003      0.000286153     0.000776876         0.980461      -0.0772803
                        0.720313       -0.598745       0.00029325     0.000738009         0.251507        0.211754      -0.00102773    -0.000618276
                     0.000769692     0.000549036         0.980533      -0.0770681     -0.000947261    -0.000644336       -0.0700566        0.133754
281736                  0.170106         0.28615      3.70684e-05     -0.00112669         0.719847       -0.598817      0.000730889     0.000553945
                    -4.79823e-07     -0.00109485        0.0914238        0.121013      0.000286215     0.000777205         0.980434      -0.0775959
                         0.72005       -0.599005      0.000293398     0.000738187          0.25174        0.211622      -0.00102833    -0.000617412
                     0.000770284     0.000548651         0.980506      -0.0773835     -0.000948107    -0.000643385       -0.0699817        0.133811
281738                  0.170166        0.286226      3.70976e-05     -0.00112671         0.719583       -0.599077      0.000731455     0.000553736
                    -4.98937e-07     -0.00109494        0.0914368        0.121024      0.000286276     0.000777534         0.980407      -0.0779115
                        0.719786       -0.599266      0.000293546     0.000738366         0.251973         0.21149      -0.00102892    -0.000616547
                     0.000770876     0.000548266         0.980478      -0.0776989     -0.000948955    -0.000642432       -0.0699069        0.133868
281740                  0.170227        0.286302       3.7127e-05     -0.00112673         0.719318       -0.599337      0.000732021     0.000553527
                    -5.18667e-07     -0.00109504        0.0914499        0.121034      0.000286337     0.000777864          0.98038      -0.0782271
                        0.719523       -0.599526      0.000293694     0.000738545         0.252206        0.211358      -0.00102952    -0.000615681
                     0.000771467      0.00054788         0.980451      -0.0780143     -0.000949804    -0.000641479        -0.069832        0.133925
281742                  0.170287        0.286378      3.71567e-05     -0.00112675         0.719054       -0.599597      0.000732589     0.000553316
                    -5.39012e-07     -0.00109513        0.0914629        0.121044      0.000286396     0.000778195         0.980352      -0.0785427
                        0.719259       -0.599787      0.000293842     0.000738724          0.25244        0.211226      -0.00103012    -0.000614814
                     0.000772058     0.000547494         0.980424      -0.0783297     -0.000950655    -0.000640524        -0.069757        0.133982
281744                  0.170347        0.286455      3.71865e-05     -0.00112677         0.718789       -0.599857      0.000733158     0.000553103
                    -5.59973e-07     -0.00109523         0.091476        0.121054      0.000286455     0.000778526         0.980325      -0.0788583
                        0.718995       -0.600047       0.00029399     0.000738904         0.252673        0.211093      -0.00103072    -0.000613946
                     0.000772648     0.000547107         0.980396       -0.078645     -0.000951508    -0.000639568        -0.069682        0.134039
281746                  0.170408        0.286531      3.72166e-05     -0.00112679         0.718524       -0.600116       0.00073373     0.000552887
                    -5.81551e-07     -0.00109533         0.091489        0.121064      0.000286513     0.000778858         0.980297      -0.0791739
                        0.718731       -0.600307      0.000294138     0.000739084         0.252906        0.210961      -0.00103131    -0.000613077
                     0.000773237      0.00054672         0.980369      -0.0789604     -0.000952364    -0.000638612        -0.069607        0.134096
281748                  0.170468        0.286607      3.72469e-05     -0.00112682         0.718259       -0.600376      0.000734306     0.000552668
                    -6.03744e-07     -0.00109543        0.0915021        0.121075       0.00028657     0.000779191         0.980269      -0.0794894
                        0.718467       -0.600567      0.000294286     0.000739264          0.25314        0.210828      -0.00103191    -0.000612208
                     0.000773826     0.000546332         0.980341      -0.0792757      -0.00095322    -0.000637654       -0.0695319        0.134153
281750                  0.170529        0.286683      3.72773e-05     -0.00112684         0.717994       -0.600635      0.000734893     0.000552443
                    -6.26554e-07     -0.00109553        0.0915151        0.121085      0.000286626     0.000779524         0.980241      -0.0798049
                        0.718203       -0.600827      0.000294435     0.000739445         0.253373        0.210695      -0.00103251    -0.000611339
                     0.000774415     0.000545944         0.980313       -0.079591     -0.000954079    -0.000636695       -0.0694568         0.13421
281752                  0.170589         0.28676       3.7308e-05     -0.00112686         0.717728       -0.600895       0.00073551     0.000552213
                     -6.4998e-07     -0.00109563        0.0915282        0.121095      0.000286682     0.000779858         0.980214      -0.0801204
                        0.717938       -0.601087      0.000294583     0.000739627         0.253606        0.210561       -0.0010331     -0.00061047
                     0.000775003     0.000545555         0.980285      -0.0799064      -0.00095494    -0.000635736       -0.0693817        0.134267
281754                   0.17065        0.286836      3.73389e-05     -0.00112688         0.717463       -0.601154      0.000736211     0.000552051
                    -6.74022e-07     -0.00109573        0.0915412        0.121105      0.000286737     0.000780193         0.980186      -0.0804358
                        0.717673       -0.601347      0.000294732     0.000739809          0.25384        0.210428      -0.00103368    -0.000609609
                      0.00077559     0.000545166         0.980257      -0.0802217     -0.000955803    -0.000634775       -0.0693066        0.134323
281756                   0.17071        0.286913        3.737e-05      -0.0011269         0.717197       -0.601414      0.000736701     0.000552066
                     -6.9868e-07     -0.00109583        0.0915543        0.121115       0.00028679     0.000780528         0.980158      -0.0807507
                        0.717408       -0.601607       0.00029488     0.000739991         0.254073        0.210294      -0.00103432    -0.000608417
                     0.000776177     0.000544776         0.980229      -0.0805369     -0.000956668    -0.000633814       -0.0692317         0.13438
281758                  0.170771        0.286989      3.74013e-05     -0.00112692         0.716931       -0.601673      0.000737138     0.000551816
                    -7.23955e-07     -0.00109593        0.0915673        0.121126      0.000286843     0.000780864         0.980128      -0.0810681
                        0.717143       -0.601867      0.000295029     0.000740173         0.254307         0.21016      -0.00103491    -0.000607814
                     0.000776763     0.000544386         0.980201      -0.0808522     -0.000957534    -0.000632852        -0.069155        0.134437
281760                  0.170832        0.287066      3.74328e-05     -0.00112694         0.716665       -0.601932      0.000737678     0.000551561
                    -7.49847e-07     -0.00109604        0.0915804        0.121136      0.000286896     0.000781201           0.9801       -0.081383
                        0.716878       -0.602126      0.000295178     0.000740357          0.25454        0.210026       -0.0010355    -0.000606949
                     0.000777349     0.000543995         0.980172      -0.0811675     -0.000958403    -0.000631888       -0.0690802        0.134494
281762                  0.170893        0.287142      3.74645e-05     -0.00112697         0.716398       -0.602191      0.000738239     0.000551325
                    -7.76354e-07     -0.00109614        0.0915934        0.121146      0.000286947     0.000781538         0.980072      -0.0816983
                        0.716613       -0.602386      0.000295326      0.00074054         0.254774        0.209891      -0.00103609    -0.000606076
