! TOUCHSTONE file generated by CST MICROWAVE STUDIO
! Date and time: Tue Oct 14 17:38:23 2025
! Project name: Teste_Macro_Metasurface_Nanopilar.cst
! Parameters = {H=600; L_x=110; L_y=120; Lambda=1064; Max_L=200; Min_L=70; PathPara=1; Phi=0; Step_L=10; Theta=0; p=520; phaseX=180; phaseY=0}
! Header version: 2018
! Port assignment regex: !\s*Touchstone port\s*([0-9]+)\s*=\s*(CST MWS port|CST DS port)\s*([0-9]+|Zmin|Zmax)\s*\(\"(.*)\"\)(\s*mode\s*([0-9]+))?.*
! Touchstone port assignment:
! Touchstone port 1 = CST MWS port Zmax ("") mode 1
! Touchstone port 2 = CST MWS port Zmax ("") mode 2
! Touchstone port 3 = CST MWS port Zmin ("") mode 1
! Touchstone port 4 = CST MWS port Zmin ("") mode 2
! S-Parameters are not renormalized. Each port impedance will be approximated by the real part at minimum frequency. The values are described via the [Reference] keyword.
! Default impedance is overridden by [Reference]
[Version] 2.0
# GHz S RI R 376.73
[Number of Ports] 4
[Reference]
376.73 376.73 259.814 259.814 
[Number of Frequencies] 51
[Network Data]
281700                  0.132648      -0.0645746     -0.000460106    -0.000663839        -0.461535        0.864034      0.000445062    -0.000372348
                    -0.000482975    -0.000761684         0.149611       0.0614893     -0.000393844     0.000609977         -0.92992        0.307897
                       -0.461389        0.864051     -0.000484949     0.000462469        0.0184774        0.145534     -0.000552662    -0.000584442
                     0.000515587    -0.000282044        -0.929359        0.308666     -0.000824188    -0.000701831        -0.082276         0.13845
281702                  0.132623      -0.0645883     -0.000460008    -0.000663651        -0.461184        0.864224      0.000444996    -0.000372511
                    -0.000483036    -0.000761415         0.149627        0.061474     -0.000394147     0.000609727        -0.929804        0.308241
                       -0.461038        0.864241       -0.0004847     0.000462736        0.0185701        0.145505     -0.000552928    -0.000583881
                     0.000515583    -0.000282372        -0.929243        0.309011     -0.000823429    -0.000700999       -0.0821946        0.138508
281704                  0.132597       -0.064602     -0.000459909    -0.000663464        -0.460833        0.864415       0.00044493    -0.000372674
                    -0.000483096    -0.000761146         0.149642       0.0614587     -0.000394448     0.000609475        -0.929688        0.308586
                       -0.460687         0.86443     -0.000484451     0.000463003        0.0186627        0.145477     -0.000553194     -0.00058332
                     0.000515579      -0.0002827        -0.929126        0.309356      -0.00082267    -0.000700162       -0.0821132        0.138566
281706                  0.132572      -0.0646156     -0.000459811    -0.000663276        -0.460482        0.864605      0.000444865    -0.000372837
                    -0.000483156    -0.000760877         0.149657       0.0614434     -0.000394749     0.000609221        -0.929571         0.30893
                       -0.460336         0.86462     -0.000484202     0.000463269        0.0187553        0.145448     -0.000553459    -0.000582759
                     0.000515575    -0.000283028        -0.929009        0.309701      -0.00082191    -0.000699322       -0.0820318        0.138623
281708                  0.132547      -0.0646293     -0.000459712    -0.000663089         -0.46013        0.864794      0.000444799       -0.000373
                    -0.000483215    -0.000760608         0.149672       0.0614281     -0.000395048     0.000608964        -0.929454        0.309275
                       -0.459985        0.864809     -0.000483952     0.000463535        0.0188479        0.145419     -0.000553724    -0.000582197
                     0.000515571    -0.000283356        -0.928892        0.310046      -0.00082115    -0.000698478       -0.0819503        0.138681
281710                  0.132521       -0.064643     -0.000459613    -0.000662902        -0.459779        0.864984      0.000444733    -0.000373163
                    -0.000483275    -0.000760338         0.149687       0.0614127     -0.000395347     0.000608706        -0.929337        0.309619
                       -0.459634        0.864998     -0.000483703     0.000463801        0.0189405         0.14539     -0.000553989    -0.000581636
                     0.000515567    -0.000283684        -0.928775        0.310391     -0.000820388     -0.00069763       -0.0818688        0.138739
281712                  0.132496      -0.0646566     -0.000459514    -0.000662715        -0.459428        0.865174      0.000444667    -0.000373326
                    -0.000483333    -0.000760069         0.149702       0.0613974     -0.000395644     0.000608445         -0.92922        0.309963
                       -0.459282        0.865187     -0.000483454     0.000464067         0.019033        0.145362     -0.000554253    -0.000581073
                     0.000515562    -0.000284012        -0.928657        0.310736     -0.000819626    -0.000696778       -0.0817872        0.138796
281714                  0.132471      -0.0646703     -0.000459415    -0.000662528        -0.459076        0.865363      0.000444601    -0.000373489
                    -0.000483392      -0.0007598         0.149718        0.061382      -0.00039594     0.000608182        -0.929103        0.310308
                       -0.458931        0.865376     -0.000483204     0.000464332        0.0191254        0.145333     -0.000554517    -0.000580511
                     0.000515558     -0.00028434         -0.92854        0.311081     -0.000818864    -0.000695922       -0.0817056        0.138854
281716                  0.132445      -0.0646839     -0.000459316    -0.000662342        -0.458725        0.865552      0.000444535    -0.000373652
                     -0.00048345     -0.00075953         0.149733       0.0613667     -0.000396235     0.000607917        -0.928986        0.310652
                        -0.45858        0.865565     -0.000482954     0.000464597        0.0192179        0.145304      -0.00055478    -0.000579949
                     0.000515553    -0.000284668        -0.928422        0.311426       -0.0008181    -0.000695062        -0.081624        0.138911
281718                   0.13242      -0.0646975     -0.000459216    -0.000662155        -0.458373        0.865741      0.000444469    -0.000373815
                    -0.000483508    -0.000759261         0.149748       0.0613513     -0.000396529     0.000607649        -0.928869        0.310996
                       -0.458228        0.865754     -0.000482704     0.000464862        0.0193103        0.145274     -0.000555043    -0.000579386
                     0.000515548    -0.000284996        -0.928305        0.311771     -0.000817336    -0.000694198       -0.0815423        0.138969
281720                  0.132395      -0.0647112     -0.000459116    -0.000661968        -0.458022         0.86593      0.000444403    -0.000373978
                    -0.000483566    -0.000758991         0.149763       0.0613359     -0.000396822      0.00060738        -0.928751         0.31134
                       -0.457876        0.865942     -0.000482454     0.000465127        0.0194027        0.145245     -0.000555306    -0.000578823
                     0.000515543    -0.000285323        -0.928187        0.312115     -0.000816572     -0.00069333       -0.0814605        0.139026
281722                  0.132369      -0.0647248     -0.000459016    -0.000661782         -0.45767        0.866119      0.000444336    -0.000374141
                    -0.000483624    -0.000758722         0.149778       0.0613206     -0.000397114     0.000607108        -0.928633        0.311685
                       -0.457525         0.86613     -0.000482204     0.000465392        0.0194951        0.145216     -0.000555568    -0.000578259
                     0.000515538    -0.000285651        -0.928069         0.31246     -0.000815806    -0.000692459       -0.0813788        0.139083
281724                  0.132344      -0.0647384     -0.000458916    -0.000661596        -0.457318        0.866308       0.00044427    -0.000374304
                    -0.000483681    -0.000758452         0.149793       0.0613052     -0.000397405     0.000606835        -0.928516        0.312029
                       -0.457173        0.866319     -0.000481953     0.000465656        0.0195874        0.145187     -0.000555829    -0.000577696
                     0.000515533    -0.000285979        -0.927951        0.312805      -0.00081504    -0.000691584       -0.0812969         0.13914
281726                  0.132319       -0.064752     -0.000458816     -0.00066141        -0.456966        0.866496      0.000444204    -0.000374468
                    -0.000483738    -0.000758183         0.149808       0.0612898     -0.000397694     0.000606559        -0.928398        0.312373
                       -0.456821        0.866507     -0.000481703      0.00046592        0.0196797        0.145157      -0.00055609    -0.000577132
                     0.000515527    -0.000286307        -0.927832        0.313149     -0.000814274    -0.000690704       -0.0812151        0.139198
281728                  0.132293      -0.0647656     -0.000458715    -0.000661224        -0.456614        0.866685      0.000444137    -0.000374631
                    -0.000483794    -0.000757913         0.149824       0.0612744     -0.000397983     0.000606281         -0.92828        0.312717
                       -0.456469        0.866695     -0.000481452     0.000466184         0.019772        0.145128     -0.000556351    -0.000576568
                     0.000515522    -0.000286635        -0.927714        0.313494     -0.000813507    -0.000689822       -0.0811332        0.139255
281730                  0.132268      -0.0647791     -0.000458614    -0.000661038        -0.456262        0.866873      0.000444071    -0.000374794
                     -0.00048385    -0.000757644         0.149839        0.061259      -0.00039827     0.000606001        -0.928162        0.313061
                       -0.456117        0.866883     -0.000481201     0.000466448        0.0198642        0.145099     -0.000556611    -0.000576003
                     0.000515516    -0.000286962        -0.927595        0.313839     -0.000812739    -0.000688935       -0.0810512        0.139312
281732                  0.132242      -0.0647927     -0.000458514    -0.000660852         -0.45591        0.867061      0.000444004    -0.000374957
                    -0.000483906    -0.000757374         0.149854       0.0612436     -0.000398556     0.000605719        -0.928043        0.313405
                       -0.455765         0.86707      -0.00048095     0.000466712        0.0199564        0.145069     -0.000556871    -0.000575438
                      0.00051551     -0.00028729        -0.927477        0.314183     -0.000811971    -0.000688044       -0.0809692        0.139369
281734                  0.132217      -0.0648063     -0.000458412    -0.000660666        -0.455558        0.867249      0.000443938     -0.00037512
                    -0.000483962    -0.000757104         0.149869       0.0612282     -0.000398842     0.000605435        -0.927925        0.313749
                       -0.455413        0.867258     -0.000480699     0.000466975        0.0200486        0.145039     -0.000557131    -0.000574874
                     0.000515504    -0.000287618        -0.927358        0.314528     -0.000811202     -0.00068715       -0.0808872        0.139426
281736                  0.132192      -0.0648198     -0.000458311    -0.000660481        -0.455206        0.867437      0.000443871    -0.000375284
                    -0.000484017    -0.000756835         0.149884       0.0612128     -0.000399126     0.000605149        -0.927806        0.314093
                        -0.45506        0.867445     -0.000480448     0.000467238        0.0201407         0.14501      -0.00055739    -0.000574308
                     0.000515498    -0.000287945        -0.927239        0.314872     -0.000810433    -0.000686252       -0.0808051        0.139483
281738                  0.132166      -0.0648333     -0.000458209    -0.000660295        -0.454853        0.867625      0.000443804    -0.000375447
                    -0.000484072    -0.000756565         0.149899       0.0611973     -0.000399408      0.00060486        -0.927688        0.314437
                       -0.454708        0.867632     -0.000480196     0.000467501        0.0202329         0.14498     -0.000557648    -0.000573743
                     0.000515491    -0.000288273         -0.92712        0.315217     -0.000809663     -0.00068535        -0.080723         0.13954
281740                  0.132141      -0.0648469     -0.000458108     -0.00066011        -0.454501        0.867812      0.000443738     -0.00037561
                    -0.000484127    -0.000756295         0.149914       0.0611819      -0.00039969      0.00060457        -0.927569         0.31478
                       -0.454356        0.867819     -0.000479945     0.000467764         0.020325         0.14495     -0.000557906    -0.000573177
                     0.000515485    -0.000288601        -0.927001        0.315561     -0.000808892    -0.000684444       -0.0806409        0.139597
281742                  0.132115      -0.0648604     -0.000458006    -0.000659925        -0.454148           0.868      0.000443671    -0.000375773
                    -0.000484182    -0.000756025         0.149929       0.0611665      -0.00039997     0.000604278         -0.92745        0.315124
                       -0.454003        0.868006     -0.000479693     0.000468026         0.020417         0.14492     -0.000558164    -0.000572611
                     0.000515478    -0.000288928        -0.926882        0.315905     -0.000808121    -0.000683535       -0.0805587        0.139654
281744                   0.13209      -0.0648739     -0.000457904     -0.00065974        -0.453796        0.868187      0.000443604    -0.000375937
                    -0.000484236    -0.000755756         0.149944        0.061151     -0.000400249     0.000603983        -0.927331        0.315468
                        -0.45365        0.868193     -0.000479441     0.000468289         0.020509         0.14489     -0.000558421    -0.000572045
                     0.000515472    -0.000289256        -0.926762         0.31625     -0.000807349    -0.000682622       -0.0804764         0.13971
281746                  0.132064      -0.0648874     -0.000457801    -0.000659555        -0.453443        0.868374      0.000443537      -0.0003761
                     -0.00048429    -0.000755486          0.14996       0.0611356     -0.000400527     0.000603687        -0.927212        0.315812
                       -0.453298         0.86838      -0.00047919     0.000468551         0.020601         0.14486     -0.000558678    -0.000571479
                     0.000515465    -0.000289583        -0.926643        0.316594     -0.000806577    -0.000681705       -0.0803941        0.139767
281748                  0.132039      -0.0649009     -0.000457699     -0.00065937         -0.45309        0.868561       0.00044347    -0.000376264
                    -0.000484343    -0.000755216         0.149975       0.0611201     -0.000400803     0.000603388        -0.927092        0.316155
                       -0.452945        0.868566     -0.000478937     0.000468813         0.020693         0.14483     -0.000558935    -0.000570912
                     0.000515458    -0.000289911        -0.926523        0.316938     -0.000805804    -0.000680785       -0.0803118        0.139824
281750                  0.132014      -0.0649144     -0.000457596    -0.000659186        -0.452737        0.868748      0.000443403    -0.000376427
                    -0.000484396    -0.000754946          0.14999       0.0611047     -0.000401078     0.000603087        -0.926973        0.316499
                       -0.452592        0.868753     -0.000478685     0.000469074        0.0207849          0.1448     -0.000559191    -0.000570345
                     0.000515451    -0.000290238        -0.926403        0.317283      -0.00080503     -0.00067986       -0.0802295         0.13988
281752                  0.131988      -0.0649279     -0.000457493    -0.000659001        -0.452384        0.868935      0.000443336     -0.00037659
                    -0.000484449    -0.000754676         0.150005       0.0610892     -0.000401349     0.000602782        -0.926853        0.316843
                       -0.452239        0.868939     -0.000478433     0.000469336        0.0208768         0.14477     -0.000559446    -0.000569778
                     0.000515443    -0.000290566        -0.926283        0.317627     -0.000804254    -0.000678933       -0.0801471        0.139937
281754                  0.131963      -0.0649413      -0.00045739    -0.000658817        -0.452031        0.869121      0.000443268    -0.000376754
                    -0.000484502    -0.000754406          0.15002       0.0610737     -0.000401606     0.000602469        -0.926733        0.317186
                       -0.451886        0.869125      -0.00047818     0.000469597        0.0209687         0.14474     -0.000559701    -0.000569211
                     0.000515436    -0.000290893        -0.926163        0.317971     -0.000803472    -0.000678001       -0.0800646        0.139993
281756                  0.131937      -0.0649548     -0.000457287    -0.000658633        -0.451679        0.869307      0.000443201    -0.000376917
                    -0.000484554    -0.000754136         0.150035       0.0610582     -0.000401923     0.000602209        -0.926614         0.31753
                       -0.451533        0.869311     -0.000477928     0.000469858        0.0210604        0.144709     -0.000559956    -0.000568643
                     0.000515428    -0.000291221        -0.926043        0.318315     -0.000802782    -0.000677036       -0.0799821         0.14005
281758                  0.131912      -0.0649682     -0.000457184    -0.000658448        -0.451325        0.869494      0.000443133    -0.000377081
                    -0.000484606    -0.000753865          0.15005       0.0610427     -0.000402183      0.00060188        -0.926494        0.317873
                        -0.45118        0.869497     -0.000477675     0.000470119        0.0211523        0.144679      -0.00056021    -0.000568075
                     0.000515419    -0.000291548        -0.925923        0.318659     -0.000801951    -0.000676125       -0.0798996        0.140106
281760                  0.131886      -0.0649817      -0.00045708    -0.000658264        -0.450972         0.86968      0.000443065    -0.000377244
                    -0.000484657    -0.000753592         0.150065       0.0610273      -0.00040245     0.000601567        -0.926373        0.318217
                       -0.450827        0.869683     -0.000477422     0.000470379        0.0212441        0.144648     -0.000560464    -0.000567506
                     0.000515409    -0.000291877        -0.925802        0.319003      -0.00080117    -0.000675183        -0.079817        0.140163
281762                  0.131861      -0.0649951     -0.000456976    -0.000658081        -0.450619        0.869866      0.000443007    -0.000377408
                    -0.000484712     -0.00075333          0.15008       0.0610118     -0.000402717     0.000601253        -0.926253         0.31856
                       -0.450473        0.869868     -0.000477169      0.00047064        0.0213358        0.144618     -0.000560717     -0.00056694
