! TOUCHSTONE file generated by CST MICROWAVE STUDIO
! Date and time: Tue Oct 14 17:38:29 2025
! Project name: Teste_Macro_Metasurface_Nanopilar.cst
! Parameters = {H=600; L_x=120; L_y=90; Lambda=1064; Max_L=200; Min_L=70; PathPara=1; Phi=0; Step_L=10; Theta=0; p=520; phaseX=180; phaseY=0}
! Header version: 2018
! Port assignment regex: !\s*Touchstone port\s*([0-9]+)\s*=\s*(CST MWS port|CST DS port)\s*([0-9]+|Zmin|Zmax)\s*\(\"(.*)\"\)(\s*mode\s*([0-9]+))?.*
! Touchstone port assignment:
! Touchstone port 1 = CST MWS port Zmax ("") mode 1
! Touchstone port 2 = CST MWS port Zmax ("") mode 2
! Touchstone port 3 = CST MWS port Zmin ("") mode 1
! Touchstone port 4 = CST MWS port Zmin ("") mode 2
! S-Parameters are not renormalized. Each port impedance will be approximated by the real part at minimum frequency. The values are described via the [Reference] keyword.
! Default impedance is overridden by [Reference]
[Version] 2.0
# GHz S RI R 376.73
[Number of Ports] 4
[Reference]
376.73 376.73 259.814 259.814 
[Number of Frequencies] 51
[Network Data]
281700                -0.0171844      -0.0425833     -0.000171709     0.000143039        -0.412382       -0.908284       0.00032841    -0.000218441
                    -0.000156569      0.00018183         0.142617       0.0428205      0.000181584    -0.000378643        -0.982679       0.0197408
                       -0.412497       -0.908429      6.28734e-05    -0.000390432        0.0205529       0.0414848     -0.000128483     0.000262821
                     0.000267779    -0.000206602        -0.982626       0.0191155     -0.000118369     0.000268635        -0.139967       0.0492606
281702                -0.0171941      -0.0425732     -0.000171767     0.000143173        -0.412621       -0.908176        0.0003284    -0.000218518
                    -0.000156552     0.000182132         0.142631         0.04281      0.000181497    -0.000378798         -0.98267       0.0200843
                       -0.412736       -0.908321      6.28658e-05    -0.000390367        0.0205608       0.0414747     -0.000128437     0.000262955
                     0.000267654    -0.000206724        -0.982617       0.0194587      -0.00011833     0.000268754        -0.139948       0.0493485
281704                -0.0172038      -0.0425632     -0.000171824     0.000143308         -0.41286       -0.908067      0.000328388    -0.000218597
                    -0.000156535     0.000182433         0.142646       0.0427994      0.000181409    -0.000378953         -0.98266       0.0204278
                       -0.412975       -0.908213      6.28583e-05    -0.000390301        0.0205686       0.0414646     -0.000128392     0.000263091
                     0.000267529    -0.000206846        -0.982608       0.0198019      -0.00011829     0.000268872        -0.139928       0.0494364
281706                -0.0172135      -0.0425532     -0.000171882     0.000143442        -0.413098       -0.907959      0.000328375    -0.000218677
                    -0.000156518     0.000182735          0.14266       0.0427889      0.000181321    -0.000379109        -0.982651       0.0207713
                       -0.413214       -0.908104      6.28509e-05    -0.000390236        0.0205765       0.0414546     -0.000128347     0.000263226
                     0.000267404    -0.000206969        -0.982599       0.0201451     -0.000118251     0.000268989        -0.139909       0.0495243
281708                -0.0172232      -0.0425432      -0.00017194     0.000143577        -0.413337        -0.90785      0.000328361    -0.000218758
                    -0.000156501     0.000183036         0.142675       0.0427783      0.000181233    -0.000379265        -0.982642       0.0211147
                       -0.413453       -0.907996      6.28436e-05    -0.000390171        0.0205843       0.0414445     -0.000128302     0.000263361
                     0.000267279    -0.000207091        -0.982589       0.0204883     -0.000118211     0.000269106        -0.139889       0.0496121
281710                -0.0172328      -0.0425332     -0.000171998     0.000143711        -0.413575       -0.907742      0.000328345    -0.000218839
                    -0.000156484     0.000183338         0.142689       0.0427677      0.000181144    -0.000379422        -0.982632       0.0214583
                       -0.413692       -0.907887      6.28365e-05    -0.000390106        0.0205921       0.0414345     -0.000128257     0.000263497
                     0.000267154    -0.000207213        -0.982579       0.0208315     -0.000118172     0.000269222        -0.139869          0.0497
281712                -0.0172425      -0.0425232     -0.000172056     0.000143846        -0.413814       -0.907633      0.000328328     -0.00021892
                    -0.000156468     0.000183639         0.142703       0.0427571      0.000181056     -0.00037958        -0.982622       0.0218018
                       -0.413931       -0.907779      6.28295e-05    -0.000390042           0.0206       0.0414244     -0.000128212     0.000263634
                      0.00026703    -0.000207336        -0.982569       0.0211748     -0.000118132     0.000269337         -0.13985       0.0497878
281714                -0.0172522      -0.0425132     -0.000172115     0.000143981        -0.414052       -0.907525      0.000328309    -0.000219001
                    -0.000156452     0.000183941         0.142718       0.0427466      0.000180967    -0.000379738        -0.982613       0.0221453
                       -0.414169        -0.90767      6.28226e-05    -0.000389977        0.0206078       0.0414144     -0.000128168      0.00026377
                     0.000266905    -0.000207458         -0.98256        0.021518     -0.000118093     0.000269452         -0.13983       0.0498757
281716                -0.0172619      -0.0425032     -0.000172173     0.000144117        -0.414291       -0.907416       0.00032829    -0.000219082
                    -0.000156436     0.000184242         0.142732        0.042736      0.000180879    -0.000379896        -0.982603       0.0224888
                       -0.414408       -0.907562      6.28158e-05    -0.000389913        0.0206156       0.0414043     -0.000128123     0.000263906
                     0.000266781    -0.000207581         -0.98255       0.0218612     -0.000118053     0.000269567         -0.13981       0.0499635
281718                -0.0172715      -0.0424931     -0.000172232     0.000144252        -0.414529       -0.907307       0.00032827    -0.000219162
                    -0.000156421     0.000184544         0.142747       0.0427254       0.00018079    -0.000380055        -0.982593       0.0228323
                       -0.414647       -0.907453      6.28092e-05    -0.000389849        0.0206234       0.0413942     -0.000128079     0.000264043
                     0.000266656    -0.000207704        -0.982539       0.0222044     -0.000118014      0.00026968         -0.13979       0.0500513
281720                -0.0172812      -0.0424831     -0.000172291     0.000144388        -0.414768       -0.907198       0.00032825    -0.000219242
                    -0.000156405     0.000184846         0.142761       0.0427148      0.000180701    -0.000380214        -0.982582       0.0231758
                       -0.414886       -0.907344      6.28027e-05    -0.000389785        0.0206312       0.0413842     -0.000128034      0.00026418
                     0.000266532    -0.000207826        -0.982529       0.0225477     -0.000117974     0.000269794         -0.13977       0.0501392
281722                -0.0172909      -0.0424731      -0.00017235     0.000144524        -0.415006       -0.907089      0.000328229    -0.000219322
                     -0.00015639     0.000185147         0.142776       0.0427042      0.000180612    -0.000380373        -0.982572       0.0235194
                       -0.415124       -0.907235      6.27963e-05    -0.000389722         0.020639       0.0413741      -0.00012799     0.000264317
                     0.000266408    -0.000207949        -0.982519       0.0228909     -0.000117934     0.000269906         -0.13975        0.050227
281724                -0.0173006      -0.0424631      -0.00017241     0.000144659        -0.415244        -0.90698      0.000328208    -0.000219402
                    -0.000156375     0.000185449          0.14279       0.0426935      0.000180522    -0.000380534        -0.982562       0.0238629
                       -0.415363       -0.907126      6.27901e-05    -0.000389658        0.0206468       0.0413641     -0.000127946     0.000264455
                     0.000266284    -0.000208072        -0.982508       0.0232341     -0.000117895     0.000270019         -0.13973       0.0503148
281726                -0.0173102      -0.0424531     -0.000172469     0.000144795        -0.415483       -0.906871      0.000328187    -0.000219481
                     -0.00015636     0.000185751         0.142804       0.0426829      0.000180433    -0.000380694        -0.982551       0.0242064
                       -0.415602       -0.907017      6.27841e-05    -0.000389595        0.0206546       0.0413541     -0.000127902     0.000264592
                      0.00026616    -0.000208195        -0.982498       0.0235774     -0.000117855      0.00027013         -0.13971       0.0504026
281728                -0.0173199       -0.042443     -0.000172529     0.000144932        -0.415721       -0.906762      0.000328165    -0.000219561
                    -0.000156346     0.000186053         0.142819       0.0426723      0.000180343    -0.000380855         -0.98254         0.02455
                        -0.41584       -0.906908      6.27781e-05    -0.000389532        0.0206624        0.041344     -0.000127858     0.000264729
                     0.000266036    -0.000208318        -0.982487       0.0239206     -0.000117815     0.000270242        -0.139689       0.0504904
281730                -0.0173296       -0.042433     -0.000172588     0.000145068        -0.415959       -0.906653      0.000328143    -0.000219639
                    -0.000156332     0.000186354         0.142833       0.0426617      0.000180254    -0.000381016         -0.98253       0.0248935
                       -0.416079       -0.906799      6.27724e-05    -0.000389469        0.0206702        0.041334     -0.000127814     0.000264867
                     0.000265912    -0.000208441        -0.982476       0.0242639     -0.000117775     0.000270353        -0.139669       0.0505782
281732                -0.0173393       -0.042423     -0.000172648     0.000145204        -0.416197       -0.906543      0.000328121    -0.000219718
                    -0.000156318     0.000186656         0.142848        0.042651      0.000180164    -0.000381178        -0.982519       0.0252371
                       -0.416317        -0.90669      6.27667e-05    -0.000389406         0.020678       0.0413239      -0.00012777     0.000265005
                     0.000265788    -0.000208564        -0.982465       0.0246071     -0.000117735     0.000270463        -0.139649       0.0506659
281734                -0.0173489      -0.0424129     -0.000172708     0.000145341        -0.416436       -0.906434      0.000328099    -0.000219797
                    -0.000156304     0.000186958         0.142862       0.0426404      0.000180074     -0.00038134        -0.982508       0.0255806
                       -0.416556       -0.906581      6.27612e-05    -0.000389344        0.0206857       0.0413139     -0.000127726     0.000265143
                     0.000265665    -0.000208687        -0.982454       0.0249504     -0.000117695     0.000270573        -0.139628       0.0507537
281736                -0.0173586      -0.0424029     -0.000172768     0.000145477        -0.416674       -0.906325      0.000328076    -0.000219875
                     -0.00015629      0.00018726         0.142876       0.0426297      0.000179984    -0.000381502        -0.982497       0.0259242
                       -0.416794       -0.906472      6.27559e-05    -0.000389282        0.0206935       0.0413038     -0.000127682      0.00026528
                     0.000265541     -0.00020881        -0.982442       0.0252936     -0.000117654     0.000270683        -0.139608       0.0508415
281738                -0.0173683      -0.0423929     -0.000172828     0.000145614        -0.416912       -0.906215      0.000328054    -0.000219954
                    -0.000156277     0.000187562         0.142891       0.0426191      0.000179894    -0.000381665        -0.982485       0.0262677
                       -0.417033       -0.906362      6.27508e-05     -0.00038922        0.0207013       0.0412938     -0.000127638     0.000265418
                     0.000265418    -0.000208933        -0.982431       0.0256369     -0.000117614     0.000270793        -0.139587       0.0509292
281740                -0.0173779      -0.0423828     -0.000172888     0.000145751         -0.41715       -0.906106      0.000328031    -0.000220032
                    -0.000156264     0.000187864         0.142905       0.0426084      0.000179803    -0.000381828        -0.982474       0.0266113
                       -0.417271       -0.906253      6.27458e-05    -0.000389158         0.020709       0.0412838     -0.000127594     0.000265557
                     0.000265294    -0.000209056         -0.98242       0.0259802     -0.000117574     0.000270901        -0.139567        0.051017
281742                -0.0173876      -0.0423728     -0.000172949     0.000145888        -0.417388       -0.905996      0.000328008     -0.00022011
                    -0.000156251     0.000188166         0.142919       0.0425978      0.000179713    -0.000381992        -0.982462       0.0269549
                        -0.41751       -0.906143       6.2741e-05    -0.000389097        0.0207168       0.0412737      -0.00012755     0.000265695
                     0.000265171    -0.000209179        -0.982408       0.0263235     -0.000117533      0.00027101        -0.139546       0.0511047
281744                -0.0173972      -0.0423628     -0.000173009     0.000146025        -0.417626       -0.905887      0.000327985    -0.000220189
                    -0.000156238     0.000188468         0.142934       0.0425871      0.000179623    -0.000382156        -0.982451       0.0272985
                       -0.417748       -0.906034      6.27363e-05    -0.000389035        0.0207245       0.0412637     -0.000127504     0.000265833
                     0.000265048    -0.000209303        -0.982396       0.0266667     -0.000117493     0.000271118        -0.139526       0.0511925
281746                -0.0174069      -0.0423527     -0.000173069     0.000146162        -0.417864       -0.905777       0.00032796    -0.000220268
                    -0.000156226      0.00018877         0.142948       0.0425764      0.000179532     -0.00038232        -0.982439       0.0276421
                       -0.417986       -0.905924      6.27318e-05    -0.000388974        0.0207323       0.0412536     -0.000127457     0.000265973
                     0.000264925    -0.000209426        -0.982384         0.02701     -0.000117452     0.000271226        -0.139505       0.0512802
281748                -0.0174166      -0.0423427      -0.00017313     0.000146299        -0.418102       -0.905667      0.000327932    -0.000220349
                    -0.000156213     0.000189072         0.142963       0.0425657      0.000179441    -0.000382485        -0.982427       0.0279872
                       -0.418225       -0.905814      6.27275e-05    -0.000388913          0.02074       0.0412436       -0.0001274     0.000266125
                     0.000264802     -0.00020955        -0.982373       0.0273533     -0.000117411     0.000271333        -0.139484       0.0513651
281750                -0.0174262      -0.0423326      -0.00017319     0.000146436         -0.41834       -0.905557      0.000327874    -0.000220399
                    -0.000156201     0.000189374         0.142977        0.042555       0.00017935    -0.000382651        -0.982415       0.0283291
                       -0.418463       -0.905705      6.27234e-05    -0.000388853        0.0207477       0.0412336     -0.000127402     0.000266261
                     0.000264679    -0.000209673         -0.98236       0.0276966      -0.00011737      0.00027144        -0.139463       0.0514556
281752                -0.0174359      -0.0423226     -0.000173251     0.000146574        -0.418578       -0.905447      0.000327901    -0.000220479
                     -0.00015619     0.000189676         0.142991       0.0425443       0.00017926    -0.000382817        -0.982403       0.0286727
                       -0.418701       -0.905595      6.27194e-05    -0.000388792        0.0207555       0.0412235     -0.000127347     0.000266388
                     0.000264556    -0.000209797        -0.982348       0.0280399     -0.000117329     0.000271546        -0.139442       0.0515434
281754                -0.0174455      -0.0423125     -0.000173311     0.000146711        -0.418816       -0.905337      0.000327878    -0.000220564
                    -0.000156178     0.000189978         0.143006       0.0425336      0.000179169    -0.000382984        -0.982391       0.0290163
                       -0.418939       -0.905485      6.27157e-05    -0.000388732        0.0207632       0.0412135       -0.0001273     0.000266525
                     0.000264433     -0.00020992        -0.982336       0.0283832     -0.000117287      0.00027165        -0.139421       0.0516311
281756                -0.0174552      -0.0423025     -0.000173372     0.000146849        -0.419054       -0.905227      0.000327854    -0.000220644
                    -0.000156167      0.00019028          0.14302       0.0425229      0.000179081    -0.000383157        -0.982378       0.0293599
                       -0.419178       -0.905375      6.27121e-05    -0.000388672        0.0207709       0.0412035     -0.000127255     0.000266663
                     0.000264311    -0.000210044        -0.982323       0.0287265     -0.000117243     0.000271749          -0.1394       0.0517187
281758                -0.0174648      -0.0422924     -0.000173433     0.000146987        -0.419292       -0.905117      0.000327831    -0.000220722
                    -0.000156156     0.000190582         0.143035       0.0425122      0.000179021      -0.0003833        -0.982366       0.0297035
                       -0.419416       -0.905265      6.27087e-05    -0.000388612        0.0207786       0.0411935     -0.000127211     0.000266802
                     0.000264188    -0.000210168        -0.982311       0.0290698     -0.000117157     0.000271847        -0.139379       0.0518064
281760                -0.0174745      -0.0422824     -0.000173494     0.000147125         -0.41953       -0.905007      0.000327808      -0.0002208
                    -0.000156145     0.000190884         0.143049       0.0425015        0.0001789    -0.000383465        -0.982353       0.0300471
                       -0.419654       -0.905155      6.27055e-05    -0.000388553        0.0207863       0.0411834     -0.000127167      0.00026694
                     0.000264067    -0.000210291        -0.982298       0.0294131     -0.000117153     0.000271997        -0.139358       0.0518941
281762                -0.0174841      -0.0422723     -0.000173554     0.000147263        -0.419768       -0.904897      0.000327784    -0.000220878
                    -0.000156135     0.000191184         0.143063       0.0424908      0.000178805    -0.000383636        -0.982341       0.0303908
                       -0.419892       -0.905045      6.27025e-05    -0.000388494         0.020794       0.0411734     -0.000127123     0.000267079
