! TOUCHSTONE file generated by CST MICROWAVE STUDIO
! Date and time: Tue Oct 14 17:38:55 2025
! Project name: Teste_Macro_Metasurface_Nanopilar.cst
! Parameters = {H=600; L_x=150; L_y=200; Lambda=1064; Max_L=200; Min_L=70; PathPara=1; Phi=0; Step_L=10; Theta=0; p=520; phaseX=180; phaseY=0}
! Header version: 2018
! Port assignment regex: !\s*Touchstone port\s*([0-9]+)\s*=\s*(CST MWS port|CST DS port)\s*([0-9]+|Zmin|Zmax)\s*\(\"(.*)\"\)(\s*mode\s*([0-9]+))?.*
! Touchstone port assignment:
! Touchstone port 1 = CST MWS port Zmax ("") mode 1
! Touchstone port 2 = CST MWS port Zmax ("") mode 2
! Touchstone port 3 = CST MWS port Zmin ("") mode 1
! Touchstone port 4 = CST MWS port Zmin ("") mode 2
! S-Parameters are not renormalized. Each port impedance will be approximated by the real part at minimum frequency. The values are described via the [Reference] keyword.
! Default impedance is overridden by [Reference]
[Version] 2.0
# GHz S RI R 376.73
[Number of Ports] 4
[Reference]
376.73 376.73 259.814 259.814 
[Number of Frequencies] 51
[Network Data]
281700                  0.258861       0.0991602      0.000199931     0.000771623         0.133172       -0.947849     -0.000718462    -0.000386239
                     0.000103642     0.000782013         0.219752         0.15293     -0.000876799    -7.26181e-05         0.666408       -0.681701
                        0.132936       -0.947942     -0.000861923     1.17806e-05         0.273837        -0.02615      0.000852029    -0.000738393
                    -0.000692825    -0.000313225          0.66645       -0.681816        0.0008656    -0.000710762         0.151381         0.22409
281702                  0.258883       0.0991602      0.000199907      0.00077167         0.132896       -0.947883     -0.000718841    -0.000385669
                     0.000103848     0.000782216         0.219742        0.152797     -0.000876763    -7.23419e-05         0.666164       -0.682002
                         0.13266       -0.947975     -0.000861985     1.18395e-05         0.273843      -0.0263031      0.000851864    -0.000739383
                    -0.000693189    -0.000313055         0.666207       -0.682117      0.000865679    -0.000711297         0.151446        0.223929
281704                  0.258905       0.0991602      0.000199884     0.000771718         0.132621       -0.947916     -0.000719199    -0.000385158
                     0.000104054     0.000782418         0.219733        0.152665      -0.00087688     -7.1975e-05         0.665919       -0.682303
                        0.132384       -0.948007     -0.000862047     1.18987e-05         0.273849      -0.0264562      0.000851593    -0.000740233
                    -0.000693553    -0.000312885         0.665963       -0.682417      0.000865754    -0.000711832         0.151512        0.223768
281706                  0.258927       0.0991602      0.000199861     0.000771765         0.132345       -0.947949     -0.000719543    -0.000384685
                     0.000104259      0.00078262         0.219723        0.152533     -0.000877272    -7.16176e-05         0.665675       -0.682603
                        0.132108        -0.94804     -0.000862109     1.19582e-05         0.273855      -0.0266093      0.000851289    -0.000740987
                    -0.000693915    -0.000312714         0.665719       -0.682717      0.000865826    -0.000712366         0.151578        0.223607
281708                  0.258949       0.0991602      0.000199838     0.000771812         0.132069       -0.947982     -0.000719877    -0.000384236
                     0.000104464      0.00078282         0.219714        0.152402     -0.000877943    -7.15245e-05         0.665431       -0.682902
                        0.131831       -0.948072     -0.000862171      1.2018e-05         0.273861      -0.0267624      0.000850978    -0.000741677
                    -0.000694278    -0.000312544         0.665475       -0.683016      0.000865893    -0.000712901         0.151644        0.223446
281710                  0.258971       0.0991601      0.000199815     0.000771858         0.131793       -0.948015     -0.000720205    -0.000383805
                     0.000104667     0.000783021         0.219704        0.152271     -0.000878598    -7.18782e-05         0.665187       -0.683202
                        0.131555       -0.948105     -0.000862233     1.20781e-05         0.273867      -0.0269156      0.000850669    -0.000742326
                    -0.000694639    -0.000312372         0.665231       -0.683315      0.000865952    -0.000713438          0.15171        0.223285
281712                  0.258993       0.0991601      0.000199792     0.000771904         0.131518       -0.948048     -0.000720527    -0.000383386
                      0.00010487     0.000783221         0.219695        0.152141     -0.000878932    -7.24899e-05         0.664942         -0.6835
                        0.131279       -0.948137     -0.000862296     1.21385e-05         0.273873      -0.0270687      0.000850364    -0.000742946
                       -0.000695    -0.000312201         0.664987       -0.683614      0.000866002    -0.000713978         0.151776        0.223125
281714                  0.259015       0.0991601       0.00019977      0.00077195         0.131242       -0.948081     -0.000720845    -0.000382976
                     0.000105073      0.00078342         0.219685        0.152011     -0.000878956    -7.30719e-05         0.664698       -0.683799
                        0.131003       -0.948169     -0.000862359     1.21993e-05         0.273878      -0.0272219      0.000850064    -0.000743547
                    -0.000695361     -0.00031203         0.664743       -0.683912      0.000866039    -0.000714526         0.151841        0.222965
281716                  0.259037       0.0991601      0.000199747     0.000771996         0.130966       -0.948114      -0.00072116    -0.000382574
                     0.000105275     0.000783619         0.219676        0.151881     -0.000878824     -7.3519e-05         0.664454       -0.684096
                        0.130727       -0.948201     -0.000862423     1.22603e-05         0.273884       -0.027375      0.000849769    -0.000744134
                    -0.000695721    -0.000311858         0.664499       -0.684209       0.00086606    -0.000715094         0.151907        0.222805
281718                  0.259059         0.09916      0.000199725     0.000772041          0.13069       -0.948146     -0.000721472    -0.000382177
                     0.000105476     0.000783817         0.219666        0.151752     -0.000878642    -7.38443e-05         0.664209       -0.684394
                         0.13045       -0.948233     -0.000862486     1.23216e-05          0.27389      -0.0275282      0.000849478    -0.000744711
                     -0.00069608    -0.000311686         0.664255       -0.684506      0.000866071    -0.000715699         0.151973        0.222646
281720                  0.259081         0.09916      0.000199703     0.000772086         0.130414       -0.948179     -0.000721782    -0.000381784
                     0.000105677     0.000784015         0.219657        0.151623     -0.000878455    -7.40849e-05         0.663965       -0.684691
                        0.130174       -0.948265      -0.00086255     1.23831e-05         0.273895      -0.0276814       0.00084919     -0.00074528
                    -0.000696439    -0.000311514         0.664011       -0.684803      0.000866102    -0.000716364         0.152039        0.222487
281722                  0.259104       0.0991599      0.000199681     0.000772131         0.130138       -0.948211      -0.00072209    -0.000381394
                     0.000105877     0.000784212         0.219647        0.151495      -0.00087828    -7.42703e-05         0.663721       -0.684987
                        0.129898       -0.948297     -0.000862614      1.2445e-05           0.2739      -0.0278346      0.000848905    -0.000745842
                    -0.000696797    -0.000311341         0.663767         -0.6851      0.000866213    -0.000717065         0.152105        0.222328
281724                  0.259126       0.0991599      0.000199659     0.000772175         0.129862       -0.948244     -0.000722397    -0.000381008
                     0.000106077     0.000784408         0.219637        0.151367     -0.000878121    -7.44204e-05         0.663476       -0.685283
                        0.129622       -0.948329     -0.000862678     1.25072e-05         0.273906      -0.0279879      0.000848623      -0.0007464
                    -0.000697155    -0.000311168         0.663522       -0.685395      0.000866411    -0.000717722         0.152171        0.222169
281726                  0.259148       0.0991598      0.000199637      0.00077222         0.129586       -0.948276     -0.000722702    -0.000380623
                     0.000106276     0.000784605         0.219628        0.151239     -0.000877975    -7.45473e-05         0.663232       -0.685579
                        0.129345        -0.94836     -0.000862743     1.25697e-05         0.273911      -0.0281411      0.000848342    -0.000746954
                    -0.000697512    -0.000310996         0.663278       -0.685691      0.000866626    -0.000718295         0.152237        0.222011
281728                   0.25917       0.0991598      0.000199616     0.000772264          0.12931       -0.948308     -0.000723006    -0.000380241
                     0.000106475       0.0007848         0.219618        0.151112     -0.000877843    -7.46589e-05         0.662988       -0.685874
                        0.129069       -0.948392     -0.000862807     1.26324e-05         0.273916      -0.0282943      0.000848063    -0.000747505
                    -0.000697869    -0.000310823         0.663034       -0.685986      0.000866807    -0.000718817         0.152304        0.221853
281730                  0.259192       0.0991597      0.000199595     0.000772308         0.129034       -0.948341     -0.000723309     -0.00037986
                     0.000106673     0.000784995         0.219609        0.150985      -0.00087772    -7.47599e-05         0.662743       -0.686169
                        0.128793       -0.948424     -0.000862872     1.26955e-05         0.273921      -0.0284476      0.000847786    -0.000748053
                    -0.000698225    -0.000310649          0.66279        -0.68628      0.000866951    -0.000719325          0.15237        0.221695
281732                  0.259214       0.0991596      0.000199574     0.000772352         0.128758       -0.948373      -0.00072361     -0.00037948
                     0.000106871      0.00078519         0.219599        0.150859     -0.000877607    -7.48537e-05         0.662499       -0.686463
                        0.128517       -0.948455     -0.000862937     1.27588e-05         0.273926      -0.0286008      0.000847509      -0.0007486
                    -0.000698581    -0.000310476         0.662546       -0.686575      0.000867071    -0.000719834         0.152436        0.221537
281734                  0.259236       0.0991596      0.000199554     0.000772395         0.128482       -0.948405     -0.000723911    -0.000379101
                     0.000107068     0.000785384         0.219589        0.150733       -0.0008775    -7.49423e-05         0.662254       -0.686757
                        0.128241       -0.948486     -0.000863003     1.28224e-05         0.273931      -0.0287541      0.000847233    -0.000749144
                    -0.000698937    -0.000310302         0.662302       -0.686868      0.000867177    -0.000720351         0.152502         0.22138
281736                  0.259258       0.0991595      0.000199533     0.000772438         0.128206       -0.948436     -0.000724212    -0.000378723
                     0.000107265     0.000785578          0.21958        0.150607     -0.000877399    -7.50273e-05          0.66201        -0.68705
                        0.127964       -0.948518     -0.000863069     1.28863e-05         0.273935      -0.0289074      0.000846958    -0.000749687
                    -0.000699291    -0.000310129         0.662058       -0.687162      0.000867275    -0.000720873         0.152568        0.221223
281738                   0.25928       0.0991594      0.000199513     0.000772482          0.12793       -0.948468     -0.000724511    -0.000378345
                     0.000107462     0.000785771          0.21957        0.150482     -0.000877303    -7.51095e-05         0.661766       -0.687343
                        0.127688       -0.948549     -0.000863135     1.29505e-05          0.27394      -0.0290607      0.000846683    -0.000750228
                    -0.000699646    -0.000309955         0.661813       -0.687455      0.000867368    -0.000721402         0.152634        0.221066
281740                  0.259302       0.0991593      0.000199493     0.000772525         0.127654         -0.9485      -0.00072481    -0.000377968
                     0.000107658     0.000785964          0.21956        0.150357     -0.000877211    -7.51899e-05         0.661521       -0.687636
                        0.127412        -0.94858     -0.000863201     1.30149e-05         0.273945       -0.029214      0.000846409    -0.000750769
                         -0.0007    -0.000309781         0.661569       -0.687747      0.000867458    -0.000721934         0.152701         0.22091
281742                  0.259324       0.0991592      0.000199474     0.000772567         0.127378       -0.948532     -0.000725108    -0.000377591
                     0.000107853     0.000786156         0.219551        0.150233     -0.000877122    -7.52689e-05         0.661277       -0.687928
                        0.127135       -0.948611     -0.000863267     1.30797e-05         0.273949      -0.0293673      0.000846134    -0.000751308
                    -0.000700353    -0.000309607         0.661325       -0.688039      0.000867546    -0.000722471         0.152767        0.220753
281744                  0.259346       0.0991591      0.000199454      0.00077261         0.127102       -0.948563     -0.000725405    -0.000377215
                     0.000108048     0.000786348         0.219541        0.150109     -0.000877036    -7.53469e-05         0.661032        -0.68822
                        0.126859       -0.948642     -0.000863334     1.31447e-05         0.273954      -0.0295206       0.00084586    -0.000751847
                    -0.000700706    -0.000309432         0.661081       -0.688331      0.000867634     -0.00072301         0.152833        0.220597
281746                  0.259369        0.099159      0.000199435     0.000772653         0.126826       -0.948595     -0.000725702    -0.000376838
                     0.000108243     0.000786539         0.219531        0.149985     -0.000876952    -7.54244e-05         0.660788       -0.688511
                        0.126583       -0.948673     -0.000863401       1.321e-05         0.273958      -0.0296739      0.000845586    -0.000752384
                    -0.000701058    -0.000309258         0.660836       -0.688622      0.000867721    -0.000723552           0.1529        0.220441
281748                  0.259391       0.0991589      0.000199416     0.000772695          0.12655       -0.948626     -0.000725998    -0.000376462
                     0.000108437      0.00078673         0.219522        0.149862     -0.000876869    -7.55015e-05         0.660543       -0.688802
                        0.126307       -0.948704     -0.000863468     1.32756e-05         0.273962      -0.0298272      0.000845312    -0.000752921
                     -0.00070141    -0.000309083         0.660592       -0.688913      0.000867808    -0.000724096         0.152966        0.220286
281750                  0.259413       0.0991588      0.000199398     0.000772738         0.126273       -0.948657     -0.000726294    -0.000376086
                     0.000108631      0.00078692         0.219512        0.149739     -0.000876788    -7.55786e-05         0.660299       -0.689093
                         0.12603       -0.948735     -0.000863535     1.33414e-05         0.273966      -0.0299806      0.000845038    -0.000753458
                    -0.000701762    -0.000308908         0.660348       -0.689203      0.000867895    -0.000724642         0.153033         0.22013
281752                  0.259435       0.0991587      0.000199379      0.00077278         0.125997       -0.948688     -0.000726589     -0.00037571
                     0.000108825      0.00078711         0.219502        0.149616     -0.000876707     -7.5656e-05         0.660054       -0.689383
                        0.125754       -0.948765     -0.000863603     1.34075e-05          0.27397      -0.0301339      0.000844763    -0.000753994
                    -0.000702113    -0.000308733         0.660103       -0.689493      0.000867983    -0.000725189         0.153099        0.219975
281754                  0.259457       0.0991585      0.000199361     0.000772822         0.125721        -0.94872     -0.000726884    -0.000375333
                     0.000109018       0.0007873         0.219493        0.149494     -0.000876626    -7.57339e-05         0.659809       -0.689673
                        0.125478       -0.948796     -0.000863671     1.34739e-05         0.273974      -0.0302873      0.000844488     -0.00075453
                    -0.000702463    -0.000308558         0.659859       -0.689783      0.000868071    -0.000725738         0.153165        0.219821
281756                  0.259479       0.0991584      0.000199344     0.000772865         0.125445       -0.948751     -0.000727178    -0.000374957
                      0.00010921     0.000787489         0.219483        0.149372     -0.000876545    -7.58127e-05         0.659565       -0.689962
                        0.125201       -0.948826     -0.000863739     1.35406e-05         0.273978      -0.0304406      0.000844213    -0.000755065
                    -0.000702813    -0.000308382         0.659615       -0.690072       0.00086816    -0.000726288         0.153232        0.219666
281758                  0.259501       0.0991583      0.000199326     0.000772907         0.125169       -0.948782     -0.000727472     -0.00037458
                     0.000109403     0.000787678         0.219473        0.149251     -0.000876463    -7.58929e-05          0.65932       -0.690251
                        0.124925       -0.948857     -0.000863807     1.36076e-05         0.273982       -0.030594      0.000843937      -0.0007556
                    -0.000703163    -0.000308207          0.65937       -0.690361      0.000868251     -0.00072684         0.153298        0.219512
281760                  0.259523       0.0991581      0.000199309     0.000772949         0.124893       -0.948813     -0.000727766    -0.000374202
                     0.000109595     0.000787866         0.219464         0.14913     -0.000876378    -7.59751e-05         0.659076        -0.69054
                        0.124649       -0.948887     -0.000863876     1.36748e-05         0.273986      -0.0307474       0.00084366    -0.000756135
                    -0.000703512    -0.000308031         0.659126       -0.690649      0.000868344    -0.000727392         0.153365        0.219357
281762                  0.259545        0.099158      0.000199292     0.000772991         0.124617       -0.948843     -0.000728059    -0.000373824
                     0.000109786     0.000788053         0.219454        0.149009      -0.00087629    -7.60601e-05         0.658831       -0.690828
                        0.124373       -0.948917     -0.000863945     1.37422e-05         0.273989      -0.0309008      0.000843382     -0.00075667
