! TOUCHSTONE file generated by CST MICROWAVE STUDIO
! Date and time: Tue Oct 14 17:39:20 2025
! Project name: Teste_Macro_Metasurface_Nanopilar.cst
! Parameters = {H=600; L_x=190; L_y=120; Lambda=1064; Max_L=200; Min_L=70; PathPara=1; Phi=0; Step_L=10; Theta=0; p=520; phaseX=180; phaseY=0}
! Header version: 2018
! Port assignment regex: !\s*Touchstone port\s*([0-9]+)\s*=\s*(CST MWS port|CST DS port)\s*([0-9]+|Zmin|Zmax)\s*\(\"(.*)\"\)(\s*mode\s*([0-9]+))?.*
! Touchstone port assignment:
! Touchstone port 1 = CST MWS port Zmax ("") mode 1
! Touchstone port 2 = CST MWS port Zmax ("") mode 2
! Touchstone port 3 = CST MWS port Zmin ("") mode 1
! Touchstone port 4 = CST MWS port Zmin ("") mode 2
! S-Parameters are not renormalized. Each port impedance will be approximated by the real part at minimum frequency. The values are described via the [Reference] keyword.
! Default impedance is overridden by [Reference]
[Version] 2.0
# GHz S RI R 376.73
[Number of Ports] 4
[Reference]
376.73 376.73 259.814 259.814 
[Number of Frequencies] 51
[Network Data]
281700                 0.0882146         0.10815     -3.14633e-05    -0.000327406         0.985003      -0.0151766      7.18068e-05    -0.000604886
                    -8.71404e-05    -0.000255242         0.156971      -0.0714257     -0.000440397    -0.000357031         0.661807       -0.722763
                        0.985089      -0.0151793     -0.000458671    -0.000481117       -0.0833347        0.110835     -8.98495e-05    -0.000172068
                     8.50268e-05    -0.000540393         0.661973       -0.722605      6.54623e-05    -6.73753e-05       -0.0573302        0.156165
281702                 0.0882257        0.108163     -3.08096e-05    -0.000327295         0.984995       -0.015492      7.18416e-05    -0.000604712
                    -8.71715e-05    -0.000255408         0.156965      -0.0713866     -0.000441149    -0.000357123         0.661578       -0.722978
                        0.985081      -0.0154929      -0.00045782    -0.000481253       -0.0832758        0.110904     -8.95208e-05    -0.000172028
                     8.53482e-05    -0.000540821         0.661743       -0.722821      6.58743e-05    -6.63529e-05       -0.0571912        0.156194
281704                 0.0882367        0.108175     -3.01523e-05    -0.000327176         0.984987      -0.0158072      7.18651e-05    -0.000604537
                    -8.72349e-05    -0.000255583          0.15696      -0.0713475     -0.000441964    -0.000357182         0.661349       -0.723193
                        0.985073      -0.0158071     -0.000456967    -0.000481386       -0.0832172        0.110974     -8.91927e-05    -0.000171987
                     8.55081e-05    -0.000541265         0.661514       -0.723036      6.62861e-05    -6.52202e-05       -0.0570521        0.156223
281706                 0.0882478        0.108188     -2.94912e-05    -0.000327049         0.984978      -0.0161222      7.18777e-05     -0.00060436
                     -8.7328e-05     -0.00025577         0.156955      -0.0713084     -0.000442849    -0.000357194          0.66112       -0.723408
                        0.985064      -0.0161219     -0.000456111    -0.000481514        -0.083159        0.111044     -8.88651e-05    -0.000171946
                     8.54903e-05     -0.00054168         0.661285        -0.72325      6.67006e-05    -6.39452e-05        -0.056913        0.156252
281708                 0.0882589        0.108201     -2.88263e-05    -0.000326913         0.984969      -0.0164369        7.188e-05    -0.000604181
                    -8.74486e-05    -0.000255971          0.15695      -0.0712694     -0.000443815    -0.000357139          0.66089       -0.723623
                        0.985055      -0.0164374     -0.000455253    -0.000481638       -0.0831019        0.111115      -8.8538e-05    -0.000171903
                     8.52956e-05    -0.000542013         0.661055       -0.723465      6.71225e-05    -6.24818e-05       -0.0567739        0.156282
281710                   0.08827        0.108214     -2.81574e-05    -0.000326768          0.98496      -0.0167512      7.18724e-05    -0.000604002
                    -8.75938e-05    -0.000256189         0.156945      -0.0712304     -0.000444865     -0.00035699         0.660661       -0.723838
                        0.985047      -0.0167534     -0.000454393    -0.000481759        -0.083047        0.111187     -8.82113e-05     -0.00017186
                     8.49464e-05    -0.000542209         0.660826        -0.72368        6.756e-05    -6.07607e-05       -0.0566348         0.15631
281712                 0.0882811        0.108227     -2.74844e-05    -0.000326615         0.984951      -0.0170649      7.18553e-05    -0.000603822
                     -8.7761e-05    -0.000256424         0.156939      -0.0711914     -0.000446002    -0.000356708         0.660432       -0.724053
                        0.985038      -0.0170698      -0.00045353    -0.000481874        -0.082998        0.111263     -8.78849e-05    -0.000171816
                      8.4486e-05    -0.000542226         0.660597       -0.723894       6.8028e-05    -5.86729e-05       -0.0564956        0.156339
281714                 0.0882922         0.10824     -2.68071e-05    -0.000326452         0.984942      -0.0173776      7.18293e-05    -0.000603642
                    -8.79476e-05    -0.000256678         0.156934      -0.0711524     -0.000447216    -0.000356247         0.660202       -0.724268
                        0.985029      -0.0173867     -0.000452663    -0.000481986       -0.0829707        0.111342     -8.75589e-05    -0.000171772
                     8.39728e-05    -0.000542038         0.660368       -0.724108      6.85562e-05    -5.60364e-05       -0.0563565        0.156368
281716                 0.0883032        0.108253     -2.61254e-05    -0.000326279         0.984933      -0.0176891      7.17947e-05    -0.000603461
                    -8.81512e-05     -0.00025695         0.156929      -0.0711134     -0.000448478    -0.000355545         0.659973       -0.724483
                         0.98502      -0.0177039     -0.000451794    -0.000482092       -0.0830012        0.111317     -8.72331e-05    -0.000171727
                     8.34684e-05    -0.000541645         0.660139       -0.724322      6.92093e-05    -5.25244e-05       -0.0562173        0.156397
281718                 0.0883143        0.108266     -2.54391e-05    -0.000326095         0.984926      -0.0179984       7.1752e-05    -0.000603281
                    -8.83695e-05    -0.000257243         0.156924      -0.0710744     -0.000449727    -0.000354538         0.659743       -0.724697
                        0.985012      -0.0180214     -0.000450921    -0.000482193       -0.0827922        0.111343     -8.69075e-05     -0.00017168
                     8.30264e-05    -0.000541071          0.65991       -0.724536       7.0148e-05    -4.74855e-05       -0.0560782        0.156425
281720                 0.0883254        0.108279     -2.47482e-05    -0.000325901         0.984921      -0.0183049      7.17014e-05      -0.0006031
                    -8.86002e-05    -0.000257554         0.156919      -0.0710355     -0.000450856    -0.000353171         0.659514       -0.724912
                        0.985003      -0.0183391     -0.000450045    -0.000482289       -0.0827145        0.111454      -8.6582e-05    -0.000171634
                      8.2685e-05    -0.000540351         0.659681        -0.72475      7.18598e-05    -3.94185e-05        -0.055939        0.156453
281722                 0.0883365        0.108292     -2.40524e-05    -0.000325695         0.984925       -0.018609      7.16434e-05     -0.00060292
                    -8.88415e-05    -0.000257884         0.156914      -0.0709966     -0.000451711    -0.000351434         0.659284       -0.725126
                        0.984995       -0.018657     -0.000449164    -0.000482379       -0.0826537        0.111538     -8.62565e-05    -0.000171586
                     8.24645e-05    -0.000539528         0.659452       -0.724964      7.63827e-05    -2.39985e-05       -0.0557998        0.156482
281724                 0.0883476        0.108305     -2.33516e-05    -0.000325478         0.984943      -0.0189207      7.15783e-05    -0.000602739
                    -8.90915e-05    -0.000258234         0.156908      -0.0709577     -0.000452104    -0.000349398         0.659054        -0.72534
                        0.984986       -0.018975      -0.00044828    -0.000482464        -0.082594        0.111613     -8.59307e-05    -0.000171538
                     8.23695e-05    -0.000538642         0.659223       -0.725177      9.97743e-05     1.62387e-05       -0.0556606         0.15651
281726                 0.0883587        0.108318     -2.26456e-05    -0.000325249         0.984963      -0.0192608      7.15064e-05     -0.00060256
                    -8.93488e-05    -0.000258601         0.156903      -0.0709188     -0.000451881    -0.000347253         0.658824       -0.725555
                        0.984978      -0.0192931     -0.000447391    -0.000482541        -0.082534        0.111685     -8.56046e-05    -0.000171488
                     8.23937e-05    -0.000537725         0.658995       -0.725391      0.000306687    -0.000106624       -0.0555214        0.156538
281728                 0.0883699         0.10833     -2.19343e-05    -0.000325006         0.984953      -0.0196117       7.1428e-05    -0.000602381
                    -8.96119e-05    -0.000258986         0.156898      -0.0708799        -0.000451    -0.000345275         0.658595       -0.725769
                         0.98497      -0.0196113     -0.000446496    -0.000482612       -0.0824737        0.111756      -8.5278e-05    -0.000171438
                     8.25243e-05    -0.000536804         0.658766       -0.725604       9.9102e-05    -0.000141414       -0.0553822        0.156566
281730                  0.088381        0.108343     -2.12175e-05     -0.00032475         0.984928      -0.0199456      7.13435e-05    -0.000602202
                    -8.98797e-05    -0.000259387         0.156893      -0.0708411     -0.000449586    -0.000343739         0.658365       -0.725983
                        0.984961      -0.0199295     -0.000445597    -0.000482676       -0.0824132        0.111825     -8.49506e-05    -0.000171387
                     8.27459e-05    -0.000535895         0.658537       -0.725818      8.00246e-05    -0.000108865        -0.055243        0.156594
281732                 0.0883921        0.108356     -2.04951e-05     -0.00032448         0.984904       -0.020268       7.1253e-05    -0.000602024
                    -9.01512e-05    -0.000259804         0.156888      -0.0708022     -0.000447889    -0.000342799         0.658135       -0.726197
                        0.984953      -0.0202478     -0.000444692    -0.000482731       -0.0823524        0.111894      -8.4622e-05    -0.000171334
                     8.30428e-05     -0.00053501         0.658309       -0.726031      7.58326e-05    -9.53898e-05       -0.0551037        0.156622
281734                 0.0884032        0.108369     -1.97668e-05    -0.000324195         0.984885      -0.0205861       7.1157e-05    -0.000601847
                    -9.04255e-05    -0.000260237         0.156883      -0.0707634     -0.000446176    -0.000342455         0.657905       -0.726411
                        0.984945       -0.020566      -0.00044378    -0.000482778       -0.0822913        0.111962      -8.4292e-05     -0.00017128
                     8.34007e-05    -0.000534155          0.65808       -0.726245      7.43961e-05    -8.80355e-05       -0.0549645        0.156649
281736                 0.0884143        0.108382     -1.90327e-05    -0.000323895         0.984869      -0.0209028      7.10555e-05     -0.00060167
                     -9.0702e-05    -0.000260683         0.156878      -0.0707246     -0.000444642    -0.000342591         0.657675       -0.726625
                        0.984936      -0.0208842     -0.000442861    -0.000482815       -0.0822301         0.11203     -8.39602e-05    -0.000171223
                     8.38071e-05    -0.000533332         0.657852       -0.726458      7.38307e-05    -8.33183e-05       -0.0548253        0.156677
281738                 0.0884255        0.108395     -1.82924e-05    -0.000323578         0.984854      -0.0212191      7.09489e-05    -0.000601495
                    -9.09801e-05    -0.000261143         0.156873      -0.0706858     -0.000443382    -0.000343053         0.657445       -0.726838
                        0.984928      -0.0212024     -0.000441936    -0.000482842       -0.0821688        0.112098      -8.3626e-05    -0.000171164
                     8.42517e-05    -0.000532541         0.657623       -0.726671      7.36264e-05    -7.99657e-05        -0.054686        0.156704
281740                 0.0884366        0.108408     -1.75461e-05    -0.000323245          0.98484      -0.0215354      7.08373e-05     -0.00060132
                    -9.12594e-05    -0.000261616         0.156867      -0.0706471     -0.000442414    -0.000343701         0.657215       -0.727052
                         0.98492      -0.0215206     -0.000441002    -0.000482858       -0.0821073        0.112166      -8.3289e-05    -0.000171101
                     8.47259e-05    -0.000531783         0.657394       -0.726885       7.3598e-05    -7.74076e-05       -0.0545468        0.156732
281742                 0.0884478        0.108421     -1.67935e-05    -0.000322894         0.984826      -0.0218518      7.07211e-05    -0.000601146
                    -9.15397e-05      -0.0002621         0.156862      -0.0706083      -0.00044171    -0.000344432         0.656984       -0.727266
                        0.984911      -0.0218387     -0.000440059    -0.000482861       -0.0820456        0.112233      -8.2949e-05    -0.000171033
                      8.5223e-05    -0.000531054         0.657166       -0.727098      7.36645e-05    -7.53518e-05       -0.0544076        0.156759
281744                 0.0884589        0.108434     -1.60347e-05    -0.000322525         0.984814      -0.0221683      7.06003e-05    -0.000600972
                    -9.18207e-05    -0.000262594         0.156857      -0.0705696     -0.000441229    -0.000345181         0.656754       -0.727479
                        0.984902      -0.0221568     -0.000439107     -0.00048285       -0.0819839          0.1123     -8.26058e-05    -0.000170957
                     8.57378e-05    -0.000530353         0.656937       -0.727311      7.37861e-05    -7.36332e-05       -0.0542683        0.156786
281746                   0.08847        0.108447     -1.52696e-05    -0.000322136         0.984801       -0.022485      7.04752e-05      -0.0006008
                    -9.21025e-05    -0.000263099         0.156852      -0.0705309     -0.000440925    -0.000345909         0.656524       -0.727693
                        0.984894      -0.0224748     -0.000438144    -0.000482824        -0.081922        0.112368     -8.22603e-05    -0.000170871
                     8.62661e-05    -0.000529677         0.656708       -0.727524      7.39408e-05    -7.21516e-05       -0.0541291        0.156813
281748                 0.0884812         0.10846     -1.44985e-05    -0.000321729         0.984789      -0.0228018       7.0346e-05    -0.000600628
                    -9.23851e-05    -0.000263612         0.156847      -0.0704922     -0.000440758    -0.000346595         0.656293       -0.727906
                        0.984885      -0.0227928      -0.00043717     -0.00048278         -0.08186        0.112435     -8.19148e-05    -0.000170772
                     8.68048e-05    -0.000529024          0.65648       -0.727737      7.41161e-05    -7.08428e-05       -0.0539899         0.15684
281750                 0.0884924        0.108473     -1.37215e-05    -0.000321301         0.984777      -0.0231187      7.02128e-05    -0.000600457
                    -9.26688e-05    -0.000264132         0.156842      -0.0704535     -0.000440697    -0.000347232         0.656063       -0.728119
                        0.984876      -0.0231108     -0.000436184    -0.000482717       -0.0817979        0.112502      -8.1574e-05    -0.000170656
                     8.73516e-05    -0.000528392         0.656251        -0.72795      7.43041e-05    -6.96636e-05       -0.0538506        0.156867
281752                 0.0885035        0.108486      -1.2939e-05    -0.000320853         0.984764      -0.0234358      7.00758e-05    -0.000600286
                     -9.2954e-05     -0.00026466         0.156837      -0.0704149     -0.000440717    -0.000347816         0.655832       -0.728332
                        0.984866      -0.0234287     -0.000435184    -0.000482632       -0.0817357        0.112569     -8.12456e-05    -0.000170522
                     8.79048e-05    -0.000527778         0.656022       -0.728163      7.44998e-05     -6.8584e-05       -0.0537114        0.156893
281754                 0.0885147        0.108499     -1.21516e-05    -0.000320384         0.984752      -0.0237529      6.99351e-05    -0.000600117
                    -9.32413e-05    -0.000265192         0.156832      -0.0703762     -0.000440797     -0.00034835         0.655602       -0.728545
                        0.984857      -0.0237465     -0.000434168    -0.000482521       -0.0816734        0.112635     -8.09391e-05    -0.000170373
                     8.84632e-05    -0.000527181         0.655793       -0.728376      7.46999e-05    -6.75826e-05       -0.0535722         0.15692
281756                 0.0885259        0.108512     -1.13599e-05    -0.000319895          0.98474      -0.0240701      6.97909e-05    -0.000599948
                    -9.35314e-05    -0.000265729         0.156827      -0.0703376     -0.000440923    -0.000348836         0.655371       -0.728758
                        0.984847      -0.0240643     -0.000433137    -0.000482381        -0.081611        0.112702      -8.0662e-05    -0.000170221
                     8.90262e-05    -0.000526599         0.655564       -0.728589      7.49021e-05    -6.66436e-05       -0.0534329        0.156946
281758                 0.0885371        0.108525     -1.05653e-05    -0.000319387         0.984728      -0.0243874      6.96432e-05    -0.000599779
                    -9.38254e-05    -0.000266267         0.156822       -0.070299     -0.000441084    -0.000349278          0.65514       -0.728971
                        0.984838       -0.024382     -0.000432087    -0.000482206       -0.0815486        0.112769      -8.0414e-05     -0.00017008
                     8.95936e-05     -0.00052603         0.655335       -0.728801       7.5105e-05    -6.57549e-05       -0.0532937        0.156973
281760                 0.0885483        0.108538     -9.76926e-06    -0.000318862         0.984716      -0.0247048      6.94923e-05    -0.000599611
                    -9.41246e-05    -0.000266804         0.156817      -0.0702604     -0.000441271     -0.00034968          0.65491       -0.729184
                        0.984828      -0.0246996     -0.000431018    -0.000481992        -0.081486        0.112835     -8.01856e-05    -0.000169961
                     9.01653e-05    -0.000525474         0.655106       -0.729014      7.53073e-05    -6.49075e-05       -0.0531545        0.156999
281762                 0.0885595         0.10855      -8.9741e-06    -0.000318322         0.984705      -0.0250221      6.93382e-05    -0.000599443
                     -9.4431e-05    -0.000267338         0.156812      -0.0702218     -0.000441477    -0.000350045         0.654679       -0.729397
                        0.984818      -0.0250171     -0.000429927    -0.000481731       -0.0814234        0.112902     -7.99632e-05    -0.000169867
