! TOUCHSTONE file generated by CST MICROWAVE STUDIO
! Date and time: Tue Oct 14 17:38:59 2025
! Project name: Teste_Macro_Metasurface_Nanopilar.cst
! Parameters = {H=600; L_x=160; L_y=130; Lambda=1064; Max_L=200; Min_L=70; PathPara=1; Phi=0; Step_L=10; Theta=0; p=520; phaseX=180; phaseY=0}
! Header version: 2018
! Port assignment regex: !\s*Touchstone port\s*([0-9]+)\s*=\s*(CST MWS port|CST DS port)\s*([0-9]+|Zmin|Zmax)\s*\(\"(.*)\"\)(\s*mode\s*([0-9]+))?.*
! Touchstone port assignment:
! Touchstone port 1 = CST MWS port Zmax ("") mode 1
! Touchstone port 2 = CST MWS port Zmax ("") mode 2
! Touchstone port 3 = CST MWS port Zmin ("") mode 1
! Touchstone port 4 = CST MWS port Zmin ("") mode 2
! S-Parameters are not renormalized. Each port impedance will be approximated by the real part at minimum frequency. The values are described via the [Reference] keyword.
! Default impedance is overridden by [Reference]
[Version] 2.0
# GHz S RI R 376.73
[Number of Ports] 4
[Reference]
376.73 376.73 259.814 259.814 
[Number of Frequencies] 51
[Network Data]
281700                  0.108496        0.139719      0.000912833    -0.000703694         0.959789       -0.196254      0.000880461      0.00124659
                     0.000735226    -0.000666109         0.631009       -0.315045      -0.00136096     0.000849559         0.654879        0.118756
                        0.959903       -0.196296      -0.00117689     0.000788624       -0.0437455         0.17051      0.000281584    -0.000741242
                     0.000754927      0.00137935         0.654855        0.118794      0.000511346    -0.000815757        -0.393499       -0.563662
281702                  0.108511         0.13973      0.000911425    -0.000703748         0.959724       -0.196558      0.000881185      0.00124428
                     0.000733978    -0.000665485         0.630393       -0.315203      -0.00135908     0.000850446         0.655538         0.11823
                        0.959838       -0.196601      -0.00117672     0.000788618       -0.0436469        0.170554      0.000279659    -0.000740271
                     0.000755873      0.00137729         0.655515        0.118268      0.000508831    -0.000815055        -0.394075       -0.562683
281704                  0.108527        0.139741       0.00091001    -0.000703791         0.959658       -0.196863      0.000881905      0.00124197
                     0.000732727    -0.000664872         0.629777       -0.315359       -0.0013572     0.000851327         0.656196        0.117703
                        0.959772       -0.196905      -0.00117655     0.000788622       -0.0435482        0.170597      0.000277738    -0.000739297
                     0.000756811      0.00137522         0.656173         0.11774      0.000506323    -0.000814349        -0.394647       -0.561704
281706                  0.108542        0.139751      0.000908589    -0.000703822         0.959592       -0.197167      0.000882621      0.00123966
                     0.000731482    -0.000664267         0.629161       -0.315514      -0.00135532     0.000852204         0.656853        0.117175
                        0.959707        -0.19721      -0.00117638     0.000788638       -0.0434494         0.17064      0.000275822    -0.000738321
                     0.000757743      0.00137315          0.65683        0.117212      0.000503822    -0.000813638        -0.395218       -0.560726
281708                  0.108557        0.139762      0.000907162    -0.000703841         0.959527       -0.197471      0.000883331      0.00123736
                     0.000730246    -0.000663665         0.628546       -0.315668      -0.00135345     0.000853075         0.657508        0.116646
                        0.959641       -0.197514       -0.0011762     0.000788664       -0.0433507        0.170683       0.00027391    -0.000737343
                      0.00075867      0.00137107         0.657486        0.116683      0.000501328    -0.000812923        -0.395786       -0.559747
281710                  0.108572        0.139773      0.000905729    -0.000703848         0.959461       -0.197775      0.000884038      0.00123505
                     0.000729017    -0.000663064         0.627932       -0.315821      -0.00135158     0.000853942         0.658161        0.116116
                        0.959575       -0.197818      -0.00117602     0.000788701       -0.0432519        0.170726      0.000272002    -0.000736361
                     0.000759599      0.00136898         0.658139        0.116153      0.000498842    -0.000812204        -0.396351       -0.558768
281712                  0.108587        0.139783       0.00090429    -0.000703842         0.959395       -0.198079      0.000884739      0.00123275
                     0.000727795    -0.000662462         0.627318       -0.315973       -0.0013497     0.000854804         0.658813        0.115586
                        0.959509       -0.198123      -0.00117584     0.000788749        -0.043153        0.170769      0.000270099    -0.000735377
                     0.000760549      0.00136688         0.658792        0.115622      0.000496362     -0.00081148        -0.396914        -0.55779
281714                  0.108602        0.139794      0.000902845    -0.000703825         0.959329       -0.198383      0.000885436      0.00123045
                     0.000726578    -0.000661857         0.626705       -0.316124      -0.00134783     0.000855661         0.659463        0.115054
                        0.959443       -0.198427      -0.00117565     0.000788807       -0.0430541        0.170812      0.000268201    -0.000734391
                     0.000761539      0.00136482         0.659442         0.11509      0.000493889    -0.000810753        -0.397475       -0.556811
281716                  0.108618        0.139804      0.000901396    -0.000703796         0.959262       -0.198687      0.000886128      0.00122815
                     0.000725366     -0.00066125         0.626093       -0.316273      -0.00134597     0.000856513         0.660112        0.114522
                        0.959377       -0.198731      -0.00117547     0.000788875       -0.0429552        0.170855      0.000266307    -0.000733402
                     0.000762494      0.00136283         0.660092        0.114557      0.000491423    -0.000810021        -0.398033       -0.555833
281718                  0.108633        0.139815      0.000899942    -0.000703754         0.959196       -0.198991      0.000886815      0.00122585
                     0.000724158    -0.000660641          0.62548       -0.316421       -0.0013441     0.000857361         0.660759        0.113989
                         0.95931       -0.199035      -0.00117527     0.000788955       -0.0428562        0.170898      0.000264418    -0.000732411
                     0.000763381      0.00136083         0.660739        0.114024      0.000488964    -0.000809285        -0.398589       -0.554855
281720                  0.108648        0.139826      0.000898482    -0.000703701          0.95913       -0.199295      0.000887498      0.00122356
                     0.000722954     -0.00066003         0.624869       -0.316569      -0.00134224     0.000858204         0.661405        0.113455
                        0.959244        -0.19934      -0.00117508     0.000789044       -0.0427572        0.170941      0.000262533    -0.000731417
                     0.000764248      0.00135881         0.661385        0.113489      0.000486511    -0.000808545        -0.399142       -0.553877
281722                  0.108663        0.139836      0.000897018    -0.000703635         0.959063       -0.199599      0.000888177      0.00122126
                     0.000721754    -0.000659417         0.624258       -0.316715      -0.00134037     0.000859043         0.662049         0.11292
                        0.959178       -0.199644      -0.00117488     0.000789144       -0.0426582        0.170983      0.000260653    -0.000730421
                     0.000765113      0.00135677          0.66203        0.112954      0.000484064    -0.000807801        -0.399693       -0.552899
281724                  0.108678        0.139847       0.00089555    -0.000703558         0.958996       -0.199903      0.000888851      0.00121897
                     0.000720557    -0.000658801         0.623647        -0.31686      -0.00133851     0.000859878         0.662692        0.112385
                        0.959111       -0.199948      -0.00117468     0.000789254       -0.0425591        0.171026      0.000258777    -0.000729423
                     0.000765976      0.00135472         0.662673        0.112418      0.000481624    -0.000807054        -0.400242       -0.551921
281726                  0.108694        0.139858      0.000894078    -0.000703468          0.95893       -0.200207       0.00088952      0.00121668
                     0.000719364    -0.000658184         0.623038       -0.317004      -0.00133666     0.000860708         0.663333        0.111848
                        0.959045       -0.200252      -0.00117447     0.000789375       -0.0424599        0.171069      0.000256905    -0.000728422
                     0.000766836      0.00135267         0.663314        0.111881       0.00047919    -0.000806302        -0.400788       -0.550943
281728                  0.108709        0.139868      0.000892601    -0.000703366         0.958863       -0.200511      0.000890185      0.00121439
                     0.000718174    -0.000657565         0.622428       -0.317147       -0.0013348     0.000861533         0.663972        0.111311
                        0.958978       -0.200556      -0.00117426     0.000789506       -0.0423608        0.171111      0.000255038    -0.000727419
                     0.000767691      0.00135063         0.663954        0.111344      0.000476762    -0.000805546        -0.401332       -0.549966
281730                  0.108724        0.139879      0.000891121    -0.000703252         0.958796       -0.200815      0.000890845       0.0012121
                     0.000716988    -0.000656944         0.621819       -0.317289      -0.00133294     0.000862354          0.66461        0.110773
                        0.958911       -0.200861      -0.00117404     0.000789646       -0.0422616        0.171154      0.000253176    -0.000726413
                     0.000768542      0.00134858         0.664592        0.110805       0.00047434    -0.000804787        -0.401873       -0.548989
281732                  0.108739         0.13989      0.000889637    -0.000703126         0.958729       -0.201119      0.000891501      0.00120982
                     0.000715805    -0.000656322         0.621211       -0.317429      -0.00133109     0.000863172         0.665246        0.110234
                        0.958844       -0.201165      -0.00117382     0.000789797       -0.0421623        0.171196      0.000251318    -0.000725405
                     0.000769388      0.00134653         0.665229        0.110266      0.000471925    -0.000804024        -0.402412       -0.548012
281734                  0.108754          0.1399       0.00088815    -0.000702988         0.958662       -0.201423      0.000892152      0.00120753
                     0.000714626    -0.000655697         0.620604       -0.317569      -0.00132924     0.000863984         0.665881        0.109694
                        0.958777       -0.201469       -0.0011736     0.000789958       -0.0420631        0.171239      0.000249465    -0.000724395
                     0.000770227      0.00134449         0.665864        0.109726      0.000469515    -0.000803257        -0.402949       -0.547035
281736                  0.108769        0.139911      0.000886659    -0.000702837         0.958595       -0.201726      0.000892799      0.00120525
                      0.00071345    -0.000655072         0.619996       -0.317707      -0.00132739     0.000864793         0.666515        0.109154
                         0.95871       -0.201773      -0.00117337     0.000790128       -0.0419638        0.171281      0.000247616    -0.000723382
                     0.000771061      0.00134244         0.666498        0.109185      0.000467111    -0.000802486        -0.403483       -0.546058
281738                  0.108785        0.139922      0.000885165    -0.000702675         0.958528        -0.20203      0.000893442      0.00120297
                     0.000712278    -0.000654444          0.61939       -0.317845      -0.00132554     0.000865597         0.667146        0.108613
                        0.958643       -0.202077      -0.00117313     0.000790309       -0.0418644        0.171323      0.000245771    -0.000722367
                     0.000771888       0.0013404          0.66713        0.108643      0.000464712    -0.000801712        -0.404015       -0.545081
281740                    0.1088        0.139932      0.000883669    -0.000702501          0.95846       -0.202334       0.00089408      0.00120069
                     0.000711109    -0.000653815         0.618784       -0.317981      -0.00132369     0.000866398         0.667777         0.10807
                        0.958575       -0.202381      -0.00117289     0.000790498        -0.041765        0.171366      0.000243931     -0.00072135
                      0.00077271      0.00133836         0.667761        0.108101       0.00046232    -0.000800934        -0.404544       -0.544105
281742                  0.108815        0.139943      0.000882169    -0.000702315         0.958393       -0.202638      0.000894713      0.00119841
                     0.000709943    -0.000653184         0.618179       -0.318116      -0.00132184     0.000867194         0.668405        0.107528
                        0.958508       -0.202685      -0.00117265     0.000790698       -0.0416656        0.171408      0.000242095     -0.00072033
                     0.000773524      0.00133632          0.66839        0.107557      0.000459932    -0.000800152        -0.405071       -0.543129
281744                   0.10883        0.139954      0.000880667    -0.000702118         0.958325       -0.202941      0.000895342      0.00119614
                     0.000708781    -0.000652552         0.617574        -0.31825         -0.00132     0.000867986         0.669032        0.106984
                         0.95844       -0.202989       -0.0011724     0.000790907       -0.0415661         0.17145      0.000240264    -0.000719308
                     0.000774333      0.00133428         0.669018        0.107013      0.000457551    -0.000799367        -0.405596       -0.542153
281746                  0.108845        0.139964      0.000879162    -0.000701908         0.958257       -0.203245      0.000895967      0.00119386
                     0.000707623    -0.000651919          0.61697       -0.318383      -0.00131815     0.000868774         0.669658        0.106439
                        0.958373       -0.203293      -0.00117215     0.000791125       -0.0414666        0.171492      0.000238438    -0.000718284
                     0.000775134      0.00133224         0.669644        0.106469      0.000455175    -0.000798578        -0.406119       -0.541177
281748                   0.10886        0.139975      0.000877655    -0.000701686          0.95819       -0.203549      0.000896587      0.00119159
                     0.000706468    -0.000651283         0.616366       -0.318515      -0.00131631     0.000869558         0.670282        0.105894
                        0.958305       -0.203597      -0.00117189     0.000791352        -0.041367        0.171534      0.000236615    -0.000717258
                     0.000775929       0.0013302         0.670268        0.105923      0.000452804    -0.000797785        -0.406639       -0.540201
281750                  0.108876        0.139986      0.000876146    -0.000701453         0.958122       -0.203852      0.000897203      0.00118932
                     0.000705317    -0.000650647         0.615763       -0.318646      -0.00131447     0.000870338         0.670905        0.105348
                        0.958237       -0.203901      -0.00117162     0.000791589       -0.0412675        0.171576      0.000234798    -0.000716229
                     0.000776718      0.00132816         0.670891        0.105377      0.000450439    -0.000796989        -0.407157       -0.539226
281752                  0.108891        0.139996      0.000874634    -0.000701209         0.958054       -0.204156      0.000897814      0.00118705
                      0.00070417    -0.000650009          0.61516       -0.318776      -0.00131263     0.000871114         0.671526        0.104801
                        0.958169       -0.204205      -0.00117136     0.000791834       -0.0411678        0.171618      0.000232984    -0.000715198
                       0.0007775      0.00132613         0.671513         0.10483      0.000448079     -0.00079619        -0.407672       -0.538251
281754                  0.108906        0.140007      0.000873121    -0.000700952         0.957986        -0.20446      0.000898421      0.00118478
                     0.000703026    -0.000649369         0.614558       -0.318905      -0.00131079     0.000871885         0.672145        0.104254
                        0.958101       -0.204509      -0.00117108     0.000792089       -0.0410682         0.17166      0.000231176    -0.000714165
                     0.000778275      0.00132409         0.672133        0.104282      0.000445724    -0.000795387        -0.408185       -0.537276
281756                  0.108921        0.140018      0.000871606    -0.000700684         0.957918       -0.204763      0.000899023      0.00118252
                     0.000701886    -0.000648728         0.613957       -0.319033      -0.00130896     0.000872653         0.672763        0.103706
                        0.958033       -0.204812       -0.0011708     0.000792352       -0.0409685        0.171701      0.000229371    -0.000713129
                     0.000779044      0.00132206         0.672751        0.103733      0.000443375     -0.00079458        -0.408696       -0.536301
281758                  0.108936        0.140028       0.00087009    -0.000700405         0.957849       -0.205067      0.000899619      0.00118025
                     0.000700749    -0.000648086         0.613356       -0.319159      -0.00130712     0.000873417          0.67338        0.103157
                        0.957965       -0.205116      -0.00117052     0.000792624       -0.0408687        0.171743      0.000227571     -0.00071209
                     0.000779805      0.00132003         0.673368        0.103184      0.000441031    -0.000793771        -0.409205       -0.535327
281760                  0.108951        0.140039      0.000868571    -0.000700114         0.957781        -0.20537      0.000900208      0.00117799
                     0.000699617    -0.000647442         0.612756       -0.319285      -0.00130529     0.000874177         0.673995        0.102607
                        0.957897        -0.20542      -0.00117023     0.000792904        -0.040769        0.171785      0.000225775    -0.000711046
                      0.00078056        0.001318         0.673983        0.102634      0.000438693    -0.000792957        -0.409711       -0.534352
281762                  0.108967         0.14005      0.000867052    -0.000699812         0.957713       -0.205674      0.000900758      0.00117574
                     0.000698488    -0.000646797         0.612157        -0.31941      -0.00130346     0.000874932         0.674608        0.102056
                        0.957828       -0.205724      -0.00116993     0.000793193       -0.0406691        0.171826      0.000223974    -0.000709977
