! TOUCHSTONE file generated by CST MICROWAVE STUDIO
! Date and time: Tue Oct 14 17:38:32 2025
! Project name: Teste_Macro_Metasurface_Nanopilar.cst
! Parameters = {H=600; L_x=120; L_y=150; Lambda=1064; Max_L=200; Min_L=70; PathPara=1; Phi=0; Step_L=10; Theta=0; p=520; phaseX=180; phaseY=0}
! Header version: 2018
! Port assignment regex: !\s*Touchstone port\s*([0-9]+)\s*=\s*(CST MWS port|CST DS port)\s*([0-9]+|Zmin|Zmax)\s*\(\"(.*)\"\)(\s*mode\s*([0-9]+))?.*
! Touchstone port assignment:
! Touchstone port 1 = CST MWS port Zmax ("") mode 1
! Touchstone port 2 = CST MWS port Zmax ("") mode 2
! Touchstone port 3 = CST MWS port Zmin ("") mode 1
! Touchstone port 4 = CST MWS port Zmin ("") mode 2
! S-Parameters are not renormalized. Each port impedance will be approximated by the real part at minimum frequency. The values are described via the [Reference] keyword.
! Default impedance is overridden by [Reference]
[Version] 2.0
# GHz S RI R 376.73
[Number of Ports] 4
[Reference]
376.73 376.73 259.814 259.814 
[Number of Frequencies] 51
[Network Data]
281700                  0.122974        0.206037      0.000128632    -0.000349702         0.870158       -0.419597      0.000184695     0.000674276
                     0.000126248    -0.000359219        0.0464747       0.0470389     -9.66489e-05     0.000815221         0.828336        0.543608
                        0.870023       -0.419557     -0.000215858     0.000719416         0.085959        0.222266     -0.000274818    -0.000407614
                     0.000208188     0.000713468         0.828245        0.543364     -0.000128849    -0.000428338       -0.0608518       -0.021675
281702                  0.122999        0.206066      0.000128505    -0.000349705         0.870009       -0.419883      0.000184924     0.000674253
                     0.000126153    -0.000359205        0.0464797        0.047059     -9.63121e-05     0.000815164         0.828532        0.543308
                        0.869874       -0.419844     -0.000215558     0.000719472        0.0861155        0.222245     -0.000274988    -0.000407433
                     0.000208499     0.000713417         0.828441        0.543065     -0.000129043    -0.000428266       -0.0608881      -0.0216277
281704                  0.123023        0.206095      0.000128379    -0.000349709          0.86986       -0.420169      0.000185152      0.00067423
                     0.000126058     -0.00035919        0.0464846       0.0470791     -9.59754e-05     0.000815106         0.828727        0.543008
                        0.869725        -0.42013     -0.000215258     0.000719529        0.0862721        0.222224     -0.000275159    -0.000407252
                      0.00020881     0.000713367         0.828637        0.542765     -0.000129237    -0.000428194       -0.0609244      -0.0215803
281706                  0.123047        0.206124      0.000128252    -0.000349712         0.869711       -0.420456       0.00018538     0.000674207
                     0.000125963    -0.000359175        0.0464895       0.0470992     -9.56388e-05     0.000815048         0.828923        0.542708
                        0.869576       -0.420416     -0.000214957     0.000719585        0.0864287        0.222203     -0.000275329    -0.000407071
                     0.000209121     0.000713316         0.828832        0.542466     -0.000129432    -0.000428123       -0.0609606      -0.0215329
281708                  0.123072        0.206153      0.000128126    -0.000349715         0.869562       -0.420742      0.000185609     0.000674184
                     0.000125867    -0.000359161        0.0464944       0.0471192     -9.53023e-05     0.000814989         0.829118        0.542408
                        0.869427       -0.420702     -0.000214657     0.000719641        0.0865853        0.222181     -0.000275499    -0.000406889
                     0.000209432     0.000713265         0.829027        0.542166     -0.000129627    -0.000428052       -0.0609968      -0.0214855
281710                  0.123096        0.206182      0.000127999    -0.000349719         0.869413       -0.421028      0.000185837     0.000674161
                     0.000125772    -0.000359146        0.0464994       0.0471393     -9.49658e-05     0.000814931         0.829314        0.542108
                        0.869277       -0.420989     -0.000214357     0.000719696        0.0867419        0.222159     -0.000275669    -0.000406707
                     0.000209744     0.000713214         0.829223        0.541866     -0.000129822    -0.000427982        -0.061033       -0.021438
281712                  0.123121        0.206211      0.000127872    -0.000349722         0.869263       -0.421314      0.000186065     0.000674138
                     0.000125677    -0.000359131        0.0465043       0.0471594     -9.46294e-05     0.000814871         0.829509        0.541808
                        0.869128       -0.421275     -0.000214057     0.000719752        0.0868985        0.222138     -0.000275839    -0.000406525
                     0.000210055     0.000713163         0.829418        0.541566     -0.000130018    -0.000427912       -0.0610691      -0.0213905
281714                  0.123145         0.20624      0.000127746    -0.000349725         0.869114         -0.4216      0.000186294     0.000674115
                     0.000125582    -0.000359116        0.0465093       0.0471795      -9.4293e-05     0.000814812         0.829704        0.541507
                        0.868979       -0.421561     -0.000213757     0.000719807        0.0870552        0.222116     -0.000276008    -0.000406343
                     0.000210367     0.000713111         0.829613        0.541266     -0.000130213    -0.000427844       -0.0611052      -0.0213429
281716                   0.12317        0.206269      0.000127619    -0.000349728         0.868965       -0.421886      0.000186522     0.000674091
                     0.000125487      -0.0003591        0.0465142       0.0471995     -9.39567e-05     0.000814752         0.829899        0.541207
                        0.868829       -0.421847     -0.000213457     0.000719862        0.0872119        0.222094     -0.000276177     -0.00040616
                     0.000210678      0.00071306         0.829807        0.540966     -0.000130409    -0.000427775       -0.0611413      -0.0212954
281718                  0.123194        0.206298      0.000127492    -0.000349732         0.868815       -0.422172      0.000186751     0.000674067
                     0.000125392    -0.000359085        0.0465192       0.0472196     -9.36204e-05     0.000814691         0.830094        0.540907
                        0.868679       -0.422133     -0.000213157     0.000719917        0.0873686        0.222072     -0.000276346    -0.000405977
                      0.00021099     0.000713009         0.830002        0.540666     -0.000130605    -0.000427707       -0.0611773      -0.0212477
281720                  0.123219        0.206328      0.000127365    -0.000349735         0.868665       -0.422458      0.000186979     0.000674044
                     0.000125297    -0.000359069        0.0465242       0.0472397     -9.32841e-05      0.00081463         0.830288        0.540606
                         0.86853       -0.422419     -0.000212857     0.000719972        0.0875253         0.22205     -0.000276515    -0.000405793
                     0.000211302     0.000712957         0.830197        0.540366       -0.0001308     -0.00042764       -0.0612132      -0.0212001
281722                  0.123243        0.206357      0.000127238    -0.000349738         0.868515       -0.422744      0.000187207      0.00067402
                     0.000125202    -0.000359054        0.0465291       0.0472597     -9.29479e-05     0.000814569         0.830483        0.540305
                         0.86838       -0.422705     -0.000212557     0.000720027         0.087682        0.222028     -0.000276683     -0.00040561
                     0.000211614     0.000712906         0.830391        0.540066     -0.000130996    -0.000427574       -0.0612492      -0.0211524
281724                  0.123268        0.206386      0.000127111    -0.000349741         0.868365        -0.42303      0.000187436     0.000673996
                     0.000125107    -0.000359038        0.0465341       0.0472798     -9.26116e-05     0.000814508         0.830677        0.540005
                         0.86823       -0.422991     -0.000212257     0.000720081        0.0878388        0.222005     -0.000276851    -0.000405426
                     0.000211926     0.000712854         0.830586        0.539766     -0.000131192    -0.000427508       -0.0612851      -0.0211047
281726                  0.123292        0.206415      0.000126984    -0.000349744         0.868215       -0.423315      0.000187664     0.000673972
                     0.000125012    -0.000359022        0.0465391       0.0472999     -9.22754e-05     0.000814446         0.830872        0.539704
                         0.86808       -0.423277     -0.000211957     0.000720136        0.0879956        0.221983     -0.000277019    -0.000405242
                     0.000212238     0.000712802          0.83078        0.539466     -0.000131388    -0.000427442       -0.0613209       -0.021057
281728                  0.123317        0.206444      0.000126857    -0.000349747         0.868065       -0.423601      0.000187893     0.000673948
                     0.000124918    -0.000359006        0.0465441       0.0473199     -9.19392e-05     0.000814383         0.831066        0.539403
                        0.867929       -0.423562     -0.000211657      0.00072019        0.0881524         0.22196     -0.000277187    -0.000405057
                      0.00021255     0.000712751         0.830974        0.539165     -0.000131583    -0.000427377       -0.0613568      -0.0210092
281730                  0.123341        0.206473       0.00012673     -0.00034975         0.867915       -0.423887      0.000188121     0.000673923
                     0.000124823     -0.00035899        0.0465491         0.04734     -9.16029e-05      0.00081432          0.83126        0.539102
                        0.867779       -0.423848     -0.000211358     0.000720244        0.0883092        0.221938     -0.000277355    -0.000404873
                     0.000212862     0.000712699         0.831168        0.538865     -0.000131778    -0.000427313       -0.0613926      -0.0209614
281732                  0.123366        0.206502      0.000126602    -0.000349753         0.867765       -0.424172       0.00018835     0.000673899
                     0.000124728    -0.000358974        0.0465541         0.04736     -9.12666e-05     0.000814257         0.831454        0.538802
                        0.867629       -0.424134     -0.000211058     0.000720298         0.088466        0.221915     -0.000277522    -0.000404688
                     0.000213175     0.000712647         0.831362        0.538564     -0.000131973    -0.000427248       -0.0614283      -0.0209135
281734                  0.123391        0.206531      0.000126475    -0.000349756         0.867614       -0.424458      0.000188579     0.000673874
                     0.000124634    -0.000358958        0.0465591       0.0473801     -9.09303e-05     0.000814194         0.831648        0.538501
                        0.867478        -0.42442     -0.000210758     0.000720352        0.0886229        0.221892     -0.000277689    -0.000404502
                     0.000213487     0.000712595         0.831556        0.538264     -0.000132168    -0.000427185        -0.061464      -0.0208656
281736                  0.123415         0.20656      0.000126348    -0.000349759         0.867464       -0.424744      0.000188807     0.000673849
                     0.000124539    -0.000358941        0.0465641       0.0474001      -9.0594e-05      0.00081413         0.831842          0.5382
                        0.867328       -0.424705     -0.000210459     0.000720405        0.0887797        0.221869     -0.000277856    -0.000404317
                       0.0002138     0.000712543          0.83175        0.537963     -0.000132363    -0.000427122       -0.0614997      -0.0208177
281738                   0.12344         0.20659       0.00012622    -0.000349762         0.867313       -0.425029      0.000189036     0.000673825
                     0.000124445    -0.000358925        0.0465691       0.0474201     -9.02576e-05     0.000814066         0.832036        0.537899
                        0.867177       -0.424991     -0.000210159     0.000720458        0.0889366        0.221846     -0.000278022    -0.000404131
                     0.000214112     0.000712491         0.831944        0.537662     -0.000132557    -0.000427059       -0.0615353      -0.0207698
281740                  0.123464        0.206619      0.000126093    -0.000349765         0.867162       -0.425315      0.000189264       0.0006738
                      0.00012435    -0.000358908        0.0465741       0.0474402     -8.99211e-05     0.000814001         0.832229        0.537597
                        0.867026       -0.425276      -0.00020986     0.000720512        0.0890935        0.221823     -0.000278189    -0.000403945
                     0.000214425     0.000712438         0.832137        0.537362     -0.000132752    -0.000426997       -0.0615709      -0.0207218
281742                  0.123489        0.206648      0.000125965    -0.000349768         0.867011         -0.4256      0.000189493     0.000673775
                     0.000124256    -0.000358891        0.0465791       0.0474602     -8.95845e-05     0.000813936         0.832423        0.537296
                        0.866875       -0.425562      -0.00020956     0.000720565        0.0892505          0.2218     -0.000278355    -0.000403758
                     0.000214738     0.000712386         0.832331        0.537061     -0.000132945    -0.000426934       -0.0616065      -0.0206738
281744                  0.123514        0.206677      0.000125837    -0.000349771          0.86686       -0.425885      0.000189722     0.000673749
                     0.000124162    -0.000358874        0.0465842       0.0474803     -8.92479e-05     0.000813871         0.832616        0.536995
                        0.866724       -0.425847     -0.000209261     0.000720618        0.0894074        0.221777     -0.000278521    -0.000403572
                     0.000215051     0.000712334         0.832524         0.53676     -0.000133139    -0.000426873        -0.061642      -0.0206257
281746                  0.123538        0.206706      0.000125709    -0.000349774         0.866709       -0.426171       0.00018995     0.000673724
                     0.000124067    -0.000358857        0.0465892       0.0475003     -8.89112e-05     0.000813806         0.832809        0.536694
                        0.866573       -0.426133     -0.000208961      0.00072067        0.0895644        0.221753     -0.000278686    -0.000403385
                     0.000215365     0.000712281         0.832717        0.536459     -0.000133332    -0.000426811       -0.0616775      -0.0205776
281748                  0.123563        0.206736      0.000125581    -0.000349776         0.866558       -0.426456      0.000190179     0.000673699
                     0.000123973     -0.00035884        0.0465942       0.0475203     -8.85743e-05      0.00081374         0.833002        0.536392
                        0.866422       -0.426418     -0.000208662     0.000720723        0.0897213         0.22173     -0.000278852    -0.000403198
                     0.000215678     0.000712229          0.83291        0.536158     -0.000133525     -0.00042675        -0.061713      -0.0205295
281750                  0.123587        0.206765      0.000125453    -0.000349779         0.866407       -0.426741      0.000190408     0.000673673
                     0.000123879    -0.000358823        0.0465993       0.0475404     -8.82374e-05     0.000813674         0.833195        0.536091
                        0.866271       -0.426703     -0.000208363     0.000720775        0.0898783        0.221706     -0.000279017     -0.00040301
                     0.000215991     0.000712176         0.833103        0.535857     -0.000133717    -0.000426689       -0.0617484      -0.0204814
281752                  0.123612        0.206794      0.000125325    -0.000349782         0.866255       -0.427026      0.000190636     0.000673648
                     0.000123785    -0.000358806        0.0466043       0.0475604     -8.79004e-05     0.000813607         0.833388        0.535789
                        0.866119       -0.426989     -0.000208064     0.000720828        0.0900354        0.221682     -0.000279182    -0.000402823
                     0.000216305     0.000712124         0.833296        0.535556     -0.000133909    -0.000426629       -0.0617838      -0.0204332
281754                  0.123637        0.206823      0.000125197    -0.000349784         0.866104       -0.427312      0.000190865     0.000673622
                     0.000123691    -0.000358788        0.0466094       0.0475804     -8.75632e-05      0.00081354         0.833581        0.535488
                        0.865968       -0.427274     -0.000207765      0.00072088        0.0901924        0.221658     -0.000279347    -0.000402635
                     0.000216619     0.000712071         0.833489        0.535255     -0.000134101    -0.000426568       -0.0618191       -0.020385
281756                  0.123661        0.206853      0.000125069    -0.000349787         0.865952       -0.427597      0.000191094     0.000673596
                     0.000123597     -0.00035877        0.0466145       0.0476004      -8.7226e-05     0.000813473         0.833774        0.535186
                        0.865816       -0.427559     -0.000207466     0.000720932        0.0903495        0.221635     -0.000279511    -0.000402447
                     0.000216932     0.000712018         0.833681        0.534954     -0.000134292    -0.000426508       -0.0618544      -0.0203367
281758                  0.123686        0.206882      0.000124941     -0.00034979           0.8658       -0.427882      0.000191322      0.00067357
                     0.000123503    -0.000358753        0.0466195       0.0476205     -8.68886e-05     0.000813406         0.833966        0.534884
                        0.865664       -0.427844     -0.000207167     0.000720984        0.0905065         0.22161     -0.000279676    -0.000402258
                     0.000217246     0.000711966         0.833874        0.534652     -0.000134483    -0.000426448       -0.0618897      -0.0202884
281760                  0.123711        0.206911      0.000124812    -0.000349792         0.865649       -0.428167      0.000191551     0.000673544
                     0.000123409    -0.000358735        0.0466246       0.0476405     -8.65511e-05     0.000813339         0.834159        0.534583
                        0.865512       -0.428129     -0.000206868     0.000721036        0.0906636        0.221586      -0.00027984    -0.000402069
                      0.00021756     0.000711913         0.834066        0.534351     -0.000134674    -0.000426388       -0.0619249      -0.0202401
281762                  0.123735        0.206941      0.000124684    -0.000349794         0.865497       -0.428452       0.00019178     0.000673518
                     0.000123315    -0.000358717        0.0466297       0.0476605     -8.62136e-05     0.000813271         0.834351        0.534281
                         0.86536       -0.428414     -0.000206569     0.000721087        0.0908207        0.221562     -0.000280003     -0.00040188
