! TOUCHSTONE file generated by CST MICROWAVE STUDIO
! Date and time: Tue Oct 14 17:39:03 2025
! Project name: Teste_Macro_Metasurface_Nanopilar.cst
! Parameters = {H=600; L_x=160; L_y=200; Lambda=1064; Max_L=200; Min_L=70; PathPara=1; Phi=0; Step_L=10; Theta=0; p=520; phaseX=180; phaseY=0}
! Header version: 2018
! Port assignment regex: !\s*Touchstone port\s*([0-9]+)\s*=\s*(CST MWS port|CST DS port)\s*([0-9]+|Zmin|Zmax)\s*\(\"(.*)\"\)(\s*mode\s*([0-9]+))?.*
! Touchstone port assignment:
! Touchstone port 1 = CST MWS port Zmax ("") mode 1
! Touchstone port 2 = CST MWS port Zmax ("") mode 2
! Touchstone port 3 = CST MWS port Zmin ("") mode 1
! Touchstone port 4 = CST MWS port Zmin ("") mode 2
! S-Parameters are not renormalized. Each port impedance will be approximated by the real part at minimum frequency. The values are described via the [Reference] keyword.
! Default impedance is overridden by [Reference]
[Version] 2.0
# GHz S RI R 376.73
[Number of Ports] 4
[Reference]
376.73 376.73 259.814 259.814 
[Number of Frequencies] 51
[Network Data]
281700                  0.280889        0.102409      0.000138592     0.000540515        0.0332095       -0.950001     -5.33049e-05     0.000159255
                     8.14976e-05     0.000527389         0.229224        0.116492     -0.000104013    -0.000129197         0.475167       -0.837725
                         0.03366       -0.950495     -0.000176954     -5.3334e-05         0.285054      -0.0836765      0.000102789    -0.000444792
                    -0.000304106     6.55991e-05          0.47507       -0.837918      0.000471861    -0.000467848         0.216683        0.135737
281702                  0.280908        0.102402      0.000138728     0.000540587        0.0329327       -0.950006     -5.33886e-05     0.000159437
                     8.16549e-05     0.000527557         0.229234        0.116485     -0.000103915    -0.000129438         0.474929       -0.837858
                       0.0333827       -0.950499     -0.000176946    -5.31964e-05         0.285023      -0.0838342       0.00010262    -0.000445431
                    -0.000304412      6.5946e-05         0.474831       -0.838052      0.000471752    -0.000468248         0.216759        0.135626
281704                  0.280927        0.102395      0.000138864      0.00054066        0.0326559       -0.950011      -5.3473e-05     0.000159619
                     8.18117e-05     0.000527726         0.229244        0.116478     -0.000103818    -0.000129681         0.474691       -0.837991
                       0.0331053       -0.950503     -0.000176938    -5.30579e-05         0.284993      -0.0839919      0.000102452    -0.000446071
                    -0.000304717     6.62925e-05         0.474592       -0.838186       0.00047164    -0.000468649         0.216835        0.135515
281706                  0.280945        0.102389         0.000139     0.000540732        0.0323791       -0.950016     -5.35582e-05     0.000159802
                      8.1968e-05     0.000527895         0.229254        0.116471     -0.000103721    -0.000129925         0.474453       -0.838125
                       0.0328279       -0.950507     -0.000176929    -5.29184e-05         0.284962      -0.0841496      0.000102286    -0.000446711
                    -0.000305021     6.66388e-05         0.474354        -0.83832      0.000471527    -0.000469051         0.216912        0.135404
281708                  0.280964        0.102382      0.000139136     0.000540805        0.0321023       -0.950021      -5.3644e-05     0.000159986
                     8.21238e-05     0.000528065         0.229265        0.116464     -0.000103624    -0.000130172         0.474214       -0.838258
                       0.0325505       -0.950511     -0.000176921    -5.27778e-05         0.284931      -0.0843073      0.000102121    -0.000447353
                    -0.000305324     6.69848e-05         0.474115       -0.838454      0.000471411    -0.000469454         0.216988        0.135293
281710                  0.280982        0.102375      0.000139273     0.000540877        0.0318255       -0.950025     -5.37306e-05     0.000160171
                     8.22791e-05     0.000528235         0.229275        0.116457     -0.000103528     -0.00013042         0.473976       -0.838391
                       0.0322731       -0.950515     -0.000176912    -5.26363e-05           0.2849       -0.084465      0.000101957    -0.000447996
                    -0.000305626     6.73304e-05         0.473876       -0.838587      0.000471293    -0.000469858         0.217064        0.135182
281712                  0.281001        0.102369      0.000139409     0.000540949        0.0315487        -0.95003     -5.38178e-05     0.000160356
                     8.24339e-05     0.000528405         0.229285         0.11645     -0.000103433     -0.00013067         0.473737       -0.838524
                       0.0319957       -0.950519     -0.000176903    -5.24938e-05         0.284869      -0.0846226      0.000101794     -0.00044864
                    -0.000305927     6.76757e-05         0.473637       -0.838721      0.000471174    -0.000470263          0.21714        0.135071
281714                   0.28102        0.102362      0.000139546     0.000541021        0.0312719       -0.950034     -5.39058e-05     0.000160542
                     8.25881e-05     0.000528577         0.229295        0.116443     -0.000103338    -0.000130922         0.473499       -0.838657
                       0.0317183       -0.950523     -0.000176894    -5.23503e-05         0.284838      -0.0847803      0.000101633    -0.000449284
                    -0.000306227     6.80207e-05         0.473399       -0.838855      0.000471052    -0.000470669         0.217216        0.134959
281716                  0.281038        0.102355      0.000139683     0.000541092        0.0309952       -0.950039     -5.39945e-05     0.000160729
                     8.27419e-05     0.000528748         0.229305        0.116436     -0.000103244    -0.000131176          0.47326        -0.83879
                       0.0314409       -0.950526     -0.000176884    -5.22058e-05         0.284807      -0.0849379      0.000101473     -0.00044993
                    -0.000306526     6.83653e-05          0.47316       -0.838988      0.000470928    -0.000471075         0.217292        0.134848
281718                  0.281057        0.102348       0.00013982     0.000541164        0.0307184       -0.950043     -5.40839e-05     0.000160917
                     8.28952e-05     0.000528921         0.229315        0.116429      -0.00010315    -0.000131431         0.473022       -0.838923
                       0.0311635        -0.95053     -0.000176875    -5.20603e-05         0.284776      -0.0850955      0.000101314    -0.000450577
                    -0.000306824     6.87096e-05         0.472921       -0.839122      0.000470802    -0.000471483         0.217368        0.134737
281720                  0.281076        0.102342      0.000139957     0.000541235        0.0304416       -0.950047      -5.4174e-05     0.000161105
                      8.3048e-05     0.000529094         0.229325        0.116422     -0.000103057    -0.000131689         0.472783       -0.839055
                       0.0308861       -0.950533     -0.000176865    -5.19138e-05         0.284745      -0.0852531      0.000101157    -0.000451224
                    -0.000307122     6.90535e-05         0.472682       -0.839255      0.000470674    -0.000471891         0.217443        0.134626
281722                  0.281094        0.102335      0.000140095     0.000541306        0.0301648       -0.950051     -5.42648e-05     0.000161294
                     8.32003e-05     0.000529267         0.229335        0.116415     -0.000102965    -0.000131948         0.472545       -0.839188
                       0.0306087       -0.950537     -0.000176855    -5.17662e-05         0.284713      -0.0854107      0.000101001    -0.000451873
                    -0.000307418     6.93969e-05         0.472443       -0.839389      0.000470544      -0.0004723         0.217519        0.134515
281724                  0.281113        0.102328      0.000140232     0.000541377         0.029888       -0.950055     -5.43564e-05     0.000161484
                     8.33521e-05     0.000529442         0.229345        0.116409     -0.000102873    -0.000132209         0.472306       -0.839321
                       0.0303314        -0.95054     -0.000176845    -5.16177e-05         0.284682      -0.0855683      0.000100846    -0.000452523
                    -0.000307714       6.974e-05         0.472204       -0.839522      0.000470411     -0.00047271         0.217595        0.134403
281726                  0.281131        0.102321      0.000140371     0.000541448        0.0296112       -0.950059     -5.44487e-05     0.000161674
                     8.35035e-05     0.000529616         0.229355        0.116402     -0.000102782    -0.000132472         0.472067       -0.839453
                        0.030054       -0.950543     -0.000176835    -5.14681e-05          0.28465      -0.0857259      0.000100692    -0.000453173
                    -0.000308009     7.00827e-05         0.471965       -0.839655      0.000470276    -0.000473121         0.217671        0.134292
281728                   0.28115        0.102315      0.000140509     0.000541519        0.0293344       -0.950063     -5.45417e-05     0.000161866
                     8.36544e-05     0.000529792         0.229365        0.116395     -0.000102691    -0.000132736         0.471829       -0.839586
                       0.0297766       -0.950547     -0.000176825    -5.13175e-05         0.284619      -0.0858835       0.00010054    -0.000453825
                    -0.000308303      7.0425e-05         0.471726       -0.839788      0.000470139    -0.000473533         0.217746         0.13418
281730                  0.281169        0.102308      0.000140647     0.000541589        0.0290576       -0.950067     -5.46354e-05     0.000162058
                     8.38048e-05     0.000529968         0.229375        0.116388     -0.000102601    -0.000133002          0.47159       -0.839718
                       0.0294992        -0.95055     -0.000176815    -5.11659e-05         0.284587       -0.086041      0.000100389    -0.000454477
                    -0.000308596     7.07668e-05         0.471487       -0.839922          0.00047    -0.000473946         0.217822        0.134069
281732                  0.281187        0.102301      0.000140786     0.000541659        0.0287808        -0.95007     -5.47299e-05      0.00016225
                     8.39549e-05     0.000530145         0.229385        0.116381     -0.000102512    -0.000133271         0.471351        -0.83985
                       0.0292218       -0.950553     -0.000176804    -5.10132e-05         0.284555      -0.0861986       0.00010024    -0.000455131
                    -0.000308889     7.11083e-05         0.471248       -0.840055      0.000469858    -0.000474359         0.217897        0.133958
281734                  0.281206        0.102294      0.000140924     0.000541728         0.028504       -0.950074     -5.48251e-05     0.000162444
                     8.41045e-05     0.000530323         0.229395        0.116374     -0.000102424    -0.000133541         0.471112       -0.839983
                       0.0289445       -0.950556     -0.000176794    -5.08595e-05         0.284523      -0.0863561      0.000100092    -0.000455785
                    -0.000309181     7.14492e-05         0.471008       -0.840188      0.000469714    -0.000474774         0.217973        0.133846
281736                  0.281225        0.102288      0.000141063     0.000541798        0.0282272       -0.950078     -5.49211e-05     0.000162638
                     8.42537e-05     0.000530501         0.229405        0.116367     -0.000102336    -0.000133812         0.470873       -0.840115
                       0.0286671       -0.950558     -0.000176783    -5.07047e-05         0.284491      -0.0865136      9.99449e-05     -0.00045644
                    -0.000309472     7.17898e-05         0.470769        -0.84032      0.000469568    -0.000475189         0.218048        0.133734
281738                  0.281243        0.102281      0.000141202     0.000541867        0.0279504       -0.950081     -5.50178e-05     0.000162833
                     8.44025e-05     0.000530681         0.229415         0.11636     -0.000102249    -0.000134086         0.470635       -0.840247
                       0.0283897       -0.950561     -0.000176772    -5.05489e-05         0.284459      -0.0866711      9.97995e-05    -0.000457096
                    -0.000309762     7.21299e-05          0.47053       -0.840453      0.000469419    -0.000475605         0.218123        0.133623
281740                  0.281262        0.102274      0.000141341     0.000541937        0.0276736       -0.950084     -5.51152e-05     0.000163028
                     8.45509e-05     0.000530861         0.229425        0.116353     -0.000102163    -0.000134361         0.470396       -0.840379
                       0.0281123       -0.950564     -0.000176761     -5.0392e-05         0.284427      -0.0868286      9.96555e-05    -0.000457754
                    -0.000310052     7.24695e-05         0.470291       -0.840586      0.000469268    -0.000476022         0.218198        0.133511
281742                   0.28128        0.102267       0.00014148     0.000542006        0.0273968       -0.950088     -5.52134e-05     0.000163225
                     8.46989e-05     0.000531041         0.229436        0.116346     -0.000102077    -0.000134638         0.470157       -0.840511
                        0.027835       -0.950566      -0.00017675    -5.02341e-05         0.284394       -0.086986      9.95129e-05    -0.000458412
                    -0.000310342     7.28087e-05         0.470051       -0.840719      0.000469114     -0.00047644         0.218274          0.1334
281744                  0.281299        0.102261       0.00014162     0.000542075          0.02712       -0.950091     -5.53123e-05     0.000163422
                     8.48467e-05     0.000531223         0.229446        0.116339     -0.000101993    -0.000134917         0.469918       -0.840643
                       0.0275576       -0.950569     -0.000176739    -5.00751e-05         0.284362      -0.0871435      9.93717e-05    -0.000459071
                     -0.00031063     7.31474e-05         0.469812       -0.840851      0.000468958    -0.000476858         0.218349        0.133288
281746                  0.281318        0.102254       0.00014176     0.000542144        0.0268432       -0.950094     -5.54119e-05      0.00016362
                      8.4994e-05     0.000531406         0.229456        0.116332     -0.000101909    -0.000135197         0.469679       -0.840775
                       0.0272802       -0.950571     -0.000176728     -4.9915e-05          0.28433      -0.0873009       9.9232e-05     -0.00045973
                    -0.000310918     7.34856e-05         0.469573       -0.840984      0.000468799    -0.000477278         0.218424        0.133176
281748                  0.281336        0.102247        0.0001419     0.000542213        0.0265664       -0.950097     -5.55123e-05     0.000163818
                     8.51411e-05     0.000531589         0.229466        0.116325     -0.000101825    -0.000135479          0.46944       -0.840906
                       0.0270029       -0.950574     -0.000176717    -4.97539e-05         0.284297      -0.0874584      9.90936e-05    -0.000460391
                    -0.000311206     7.38234e-05         0.469333       -0.841116      0.000468638    -0.000477698         0.218499        0.133064
281750                  0.281355         0.10224       0.00014204     0.000542282        0.0262896         -0.9501     -5.56135e-05     0.000164017
                     8.52879e-05     0.000531773         0.229476        0.116318     -0.000101743    -0.000135763         0.469201       -0.841038
                       0.0267255       -0.950576     -0.000176706    -4.95916e-05         0.284264      -0.0876158      9.89566e-05    -0.000461053
                    -0.000311493     7.41607e-05         0.469094       -0.841249      0.000468474    -0.000478119         0.218574        0.132952
281752                  0.281373        0.102233       0.00014218      0.00054235        0.0260129       -0.950103     -5.57154e-05     0.000164217
                     8.54344e-05     0.000531959         0.229486        0.116311     -0.000101661    -0.000136049         0.468961        -0.84117
                       0.0264481       -0.950578     -0.000176694    -4.94282e-05         0.284232      -0.0877732      9.88211e-05    -0.000461716
                     -0.00031178     7.44975e-05         0.468854       -0.841381      0.000468308    -0.000478541         0.218649         0.13284
281754                  0.281392        0.102227      0.000142321     0.000542418        0.0257361       -0.950106     -5.58181e-05     0.000164418
                     8.55806e-05     0.000532145         0.229496        0.116304     -0.000101581    -0.000136337         0.468722       -0.841301
                       0.0261708        -0.95058     -0.000176682    -4.92641e-05         0.284199      -0.0879306       9.8687e-05    -0.000462379
                    -0.000312066     7.48339e-05         0.468615       -0.841514      0.000468139    -0.000478963         0.218724        0.132729
281756                  0.281411         0.10222      0.000142462     0.000542487        0.0254593       -0.950109     -5.59215e-05     0.000164619
                     8.57267e-05     0.000532332         0.229506        0.116297     -0.000101501    -0.000136626         0.468483       -0.841433
                       0.0258934       -0.950582     -0.000176671    -4.91004e-05         0.284166       -0.088088      9.85543e-05    -0.000463044
                    -0.000312352     7.51698e-05         0.468375       -0.841646      0.000467968    -0.000479386         0.218798        0.132617
281758                  0.281429        0.102213      0.000142603     0.000542555        0.0251825       -0.950111     -5.60256e-05     0.000164821
                     8.58727e-05      0.00053252         0.229516         0.11629     -0.000101422    -0.000136917         0.468244       -0.841564
                        0.025616       -0.950584      -0.00017666    -4.89343e-05         0.284133      -0.0882453       9.8423e-05    -0.000463709
                    -0.000312637     7.55053e-05         0.468136       -0.841778      0.000467794     -0.00047981         0.218873        0.132505
281760                  0.281448        0.102206      0.000142745     0.000542623        0.0249057       -0.950114     -5.61305e-05     0.000165024
                     8.60185e-05      0.00053271         0.229526        0.116283     -0.000101344     -0.00013721         0.468005       -0.841695
                       0.0253387       -0.950586     -0.000176649    -4.87666e-05           0.2841      -0.0884027       9.8293e-05    -0.000464375
                    -0.000312922     7.58403e-05         0.467896        -0.84191      0.000467617    -0.000480235         0.218948        0.132393
281762                  0.281466        0.102199      0.000142886      0.00054269        0.0246289       -0.950116     -5.62362e-05     0.000165228
                     8.61643e-05       0.0005329         0.229536        0.116276     -0.000101267    -0.000137504         0.467765       -0.841827
                       0.0250613       -0.950588     -0.000176638    -4.85978e-05         0.284067        -0.08856      9.81645e-05    -0.000465043
