! TOUCHSTONE file generated by CST MICROWAVE STUDIO
! Date and time: Tue Oct 14 17:39:15 2025
! Project name: Teste_Macro_Metasurface_Nanopilar.cst
! Parameters = {H=600; L_x=180; L_y=150; Lambda=1064; Max_L=200; Min_L=70; PathPara=1; Phi=0; Step_L=10; Theta=0; p=520; phaseX=180; phaseY=0}
! Header version: 2018
! Port assignment regex: !\s*Touchstone port\s*([0-9]+)\s*=\s*(CST MWS port|CST DS port)\s*([0-9]+|Zmin|Zmax)\s*\(\"(.*)\"\)(\s*mode\s*([0-9]+))?.*
! Touchstone port assignment:
! Touchstone port 1 = CST MWS port Zmax ("") mode 1
! Touchstone port 2 = CST MWS port Zmax ("") mode 2
! Touchstone port 3 = CST MWS port Zmin ("") mode 1
! Touchstone port 4 = CST MWS port Zmin ("") mode 2
! S-Parameters are not renormalized. Each port impedance will be approximated by the real part at minimum frequency. The values are described via the [Reference] keyword.
! Default impedance is overridden by [Reference]
[Version] 2.0
# GHz S RI R 376.73
[Number of Ports] 4
[Reference]
376.73 376.73 259.814 259.814 
[Number of Frequencies] 51
[Network Data]
281700                  0.173107      0.00339767      0.000228937    -0.000403413         0.721346       -0.664106      0.000637482     0.000402358
                     0.000316989    -0.000391705         0.187111       0.0497574      0.000387737     0.000541283         0.451951       -0.866386
                        0.722062       -0.664204      0.000384416     0.000511548       -0.0108648        0.168641     -0.000618539     0.000492935
                     0.000543883     0.000269779         0.451687       -0.867162     -0.000578648     0.000372148         0.146648        0.121945
281702                  0.173105      0.00341581      0.000228787    -0.000403635         0.721148       -0.664328      0.000637652     0.000401942
                     0.000316737    -0.000391648         0.187122       0.0497684      0.000388199     0.000541391           0.4517       -0.866515
                        0.721862       -0.664425      0.000384973     0.000511634       -0.0107443        0.168651      -0.00061766     0.000493483
                     0.000544089     0.000269479         0.451439       -0.867286     -0.000578303     0.000371954         0.146735        0.121862
281704                  0.173103      0.00343394       0.00022863    -0.000403882         0.720949       -0.664549      0.000637824     0.000401526
                     0.000316487     -0.00039159         0.187133       0.0497793      0.000388667     0.000541511         0.451449       -0.866644
                        0.721662       -0.664645      0.000385525     0.000511729       -0.0106237         0.16866     -0.000616788     0.000494034
                     0.000544291     0.000269182         0.451191       -0.867409     -0.000577959      0.00037176         0.146822        0.121779
281706                  0.173101      0.00345205      0.000228464    -0.000404158         0.720751        -0.66477      0.000637999     0.000401109
                      0.00031624    -0.000391531         0.187145       0.0497902      0.000389141     0.000541645         0.451198       -0.866773
                        0.721462       -0.664865      0.000386071     0.000511837        -0.010503        0.168669     -0.000615922      0.00049459
                     0.000544488     0.000268887         0.450942       -0.867532     -0.000577618     0.000371567         0.146908        0.121696
281708                  0.173099      0.00347015       0.00022829    -0.000404467         0.720552       -0.664991      0.000638176     0.000400692
                     0.000315995    -0.000391472         0.187156       0.0498011      0.000389622     0.000541795         0.450947       -0.866902
                        0.721261       -0.665085      0.000386611     0.000511958       -0.0103824        0.168679     -0.000615063     0.000495149
                      0.00054468     0.000268596         0.450694       -0.867655     -0.000577279     0.000371374         0.146995        0.121613
281710                  0.173096      0.00348823       0.00022811    -0.000404813         0.720353       -0.665212      0.000638357     0.000400275
                     0.000315753    -0.000391412         0.187167       0.0498121      0.000390112     0.000541965         0.450696       -0.867031
                        0.721061       -0.665305      0.000387145     0.000512093       -0.0102616        0.168688     -0.000614213     0.000495713
                     0.000544866     0.000268309         0.450446       -0.867778     -0.000576943     0.000371182         0.147082         0.12153
281712                  0.173094       0.0035063      0.000227923    -0.000405202         0.720154       -0.665433      0.000638541     0.000399858
                     0.000315514    -0.000391351         0.187178        0.049823      0.000390614     0.000542158         0.450445       -0.867159
                         0.72086       -0.665525      0.000387673     0.000512246       -0.0101409        0.168696     -0.000613371     0.000496282
                     0.000545046     0.000268026         0.450197       -0.867901     -0.000576611      0.00037099         0.147168        0.121447
281714                  0.173092      0.00352435      0.000227731    -0.000405641         0.719955       -0.665653      0.000638729     0.000399441
                     0.000315279    -0.000391289          0.18719       0.0498339      0.000391129     0.000542379         0.450194       -0.867288
                        0.720659       -0.665744      0.000388192     0.000512417       -0.0100201        0.168705     -0.000612541     0.000496856
                     0.000545219     0.000267748         0.449949       -0.868024     -0.000576283     0.000370799         0.147255        0.121365
281716                   0.17309      0.00354238      0.000227538    -0.000406135         0.719756       -0.665874      0.000638922     0.000399025
                     0.000315048    -0.000391227         0.187201       0.0498449      0.000391662     0.000542636         0.449942       -0.867416
                        0.720459       -0.665964      0.000388703     0.000512611      -0.00989917        0.168713     -0.000611722     0.000497437
                     0.000545384     0.000267476           0.4497       -0.868147     -0.000575959     0.000370609         0.147341        0.121282
281718                  0.173088       0.0035604      0.000227346    -0.000406692         0.719557       -0.666094      0.000639121     0.000398608
                     0.000314822    -0.000391163         0.187212       0.0498558      0.000392217     0.000542937          0.44969       -0.867543
                        0.720257       -0.666183      0.000389205     0.000512828      -0.00977823        0.168722     -0.000610916     0.000498025
                      0.00054554      0.00026721         0.449451       -0.868269     -0.000575642      0.00037042         0.147427        0.121199
281720                  0.173086      0.00357841      0.000227161    -0.000407319         0.719358       -0.666314      0.000639325     0.000398193
                       0.0003146    -0.000391099         0.187223       0.0498668      0.000392802     0.000543296         0.449439       -0.867671
                        0.720056       -0.666403      0.000389696     0.000513072       -0.0096572         0.16873     -0.000610125     0.000498619
                     0.000545686     0.000266951         0.449202       -0.868392     -0.000575333     0.000370232         0.147513        0.121117
281722                  0.173084       0.0035964      0.000226989    -0.000408023         0.719159       -0.666535      0.000639537     0.000397779
                     0.000314384    -0.000391033         0.187234       0.0498777      0.000393428     0.000543728         0.449186       -0.867799
                        0.719855       -0.666622      0.000390175     0.000513346      -0.00953609        0.168738     -0.000609351     0.000499222
                      0.00054582     0.000266702         0.448953       -0.868515     -0.000575034     0.000370046         0.147599        0.121034
281724                  0.173082      0.00361437      0.000226838    -0.000408809          0.71896       -0.666755      0.000639757     0.000397368
                     0.000314174    -0.000390965         0.187246       0.0498887      0.000394111      0.00054426         0.448934       -0.867926
                        0.719653       -0.666841      0.000390637     0.000513652      -0.00941488        0.168745     -0.000608597     0.000499832
                     0.000545941     0.000266462         0.448704       -0.868638     -0.000574749     0.000369864         0.147685        0.120951
281726                   0.17308      0.00363234      0.000226715    -0.000409675         0.718761       -0.666974      0.000639987      0.00039696
                     0.000313972    -0.000390896         0.187257       0.0498997      0.000394878     0.000544927         0.448682       -0.868053
                        0.719452        -0.66706       0.00039108      0.00051399      -0.00929355        0.168753     -0.000607865     0.000500452
                     0.000546046     0.000266234         0.448455       -0.868762     -0.000574483     0.000369685         0.147771        0.120869
281728                  0.173077      0.00365028      0.000226627    -0.000410609         0.718562       -0.667194      0.000640228     0.000396556
                     0.000313778    -0.000390825         0.187268       0.0499107      0.000395774     0.000545786         0.448429        -0.86818
                         0.71925       -0.667278      0.000391492      0.00051436      -0.00917209         0.16876     -0.000607158      0.00050108
                     0.000546133     0.000266021         0.448205       -0.868885     -0.000574244     0.000369513         0.147857        0.120786
281730                  0.173075      0.00366821      0.000226565    -0.000411583         0.718364       -0.667413      0.000640482     0.000396159
                     0.000313595    -0.000390752         0.187279       0.0499216      0.000396881     0.000546931         0.448176       -0.868307
                        0.719048       -0.667497      0.000391857     0.000514753      -0.00905045        0.168768      -0.00060648     0.000501718
                     0.000546199     0.000265826         0.447955        -0.86901     -0.000574047     0.000369351         0.147943        0.120703
281732                  0.173073      0.00368613      0.000226497    -0.000412529         0.718167       -0.667632       0.00064075      0.00039577
                     0.000313422    -0.000390676          0.18729       0.0499327      0.000398365     0.000548519         0.447923       -0.868434
                        0.718846       -0.667715      0.000392142     0.000515151      -0.00892862        0.168774     -0.000605835     0.000502364
                      0.00054624     0.000265652         0.447705       -0.869135     -0.000573917     0.000369206         0.148029        0.120621
281734                  0.173071      0.00370404      0.000226329    -0.000413312          0.71797       -0.667851      0.000641034     0.000395393
                     0.000313264    -0.000390596         0.187301       0.0499437      0.000400603     0.000550833          0.44767       -0.868561
                        0.718643       -0.667934      0.000392279     0.000515508      -0.00880655        0.168781     -0.000605227     0.000503018
                      0.00054625     0.000265506         0.447453       -0.869262     -0.000573905     0.000369095         0.148115        0.120538
281736                  0.173069      0.00372194      0.000225857    -0.000413635         0.717775       -0.668069      0.000641337     0.000395033
                     0.000313123    -0.000390513         0.187312       0.0499548      0.000404614     0.000554388         0.447416       -0.868687
                        0.718441       -0.668152      0.000392129     0.000515716      -0.00868419        0.168787     -0.000604661      0.00050368
                     0.000546225     0.000265397         0.447201       -0.869392     -0.000574132     0.000369053           0.1482        0.120455
281738                  0.173067      0.00373982      0.000224745     -0.00041277         0.717583       -0.668285      0.000641658     0.000394695
                     0.000313003    -0.000390424         0.187323        0.049966      0.000413891     0.000559689         0.447162       -0.868814
                        0.718238        -0.66837      0.000391388     0.000515481      -0.00856151        0.168793     -0.000604142     0.000504346
                     0.000546159     0.000265337         0.446945       -0.869529     -0.000574951     0.000369199         0.148286        0.120372
281740                  0.173065       0.0037577      0.000223126    -0.000408795         0.717396       -0.668497      0.000641998     0.000394387
                      0.00031291    -0.000390329         0.187334       0.0499774      0.000441436     0.000558031         0.446908        -0.86894
                        0.718036       -0.668587      0.000389416     0.000513827      -0.00843847        0.168798     -0.000603671     0.000505015
                     0.000546045     0.000265349         0.446679        -0.86968     -0.000578019     0.000370109         0.148372        0.120289
281742                  0.173063      0.00377557      0.000225437    -0.000399416         0.717222       -0.668697      0.000642354     0.000394115
                     0.000312854    -0.000390224         0.187344       0.0499897      0.000443552      0.00050276         0.446654       -0.869067
                        0.717833       -0.668805      0.000385984     0.000506589      -0.00831511        0.168803     -0.000603247     0.000505684
                     0.000545888     0.000265475         0.446363       -0.869875     -0.000647312     0.000406003         0.148457        0.120207
281744                  0.173061      0.00379345      0.000236912    -0.000393943         0.717065       -0.668832      0.000642719     0.000393885
                     0.000312854    -0.000390103         0.187356       0.0500042      0.000407357     0.000504458         0.446399       -0.869194
                         0.71763       -0.669021      0.000397554     0.000487956      -0.00819158        0.168806     -0.000602851     0.000506352
                     0.000545731     0.000265798         0.445667       -0.869677     -0.000560142     0.000363963         0.148543        0.120123
281746                  0.173059      0.00381133       0.00024493    -0.000396891         0.716627       -0.668894      0.000643079     0.000393686
                     0.000312954    -0.000389949         0.187373       0.0500156      0.000399493     0.000513733         0.446144        -0.86932
                        0.717428       -0.669238      0.000418684     0.000498241      -0.00806828        0.168808     -0.000602425      0.00050703
                      0.00054582     0.000266488         0.445933       -0.869752     -0.000563981     0.000364573         0.148628         0.12004
281748                  0.173057      0.00382926      0.000247581    -0.000399587         0.716331       -0.669342      0.000643414     0.000393434
                     0.000313361    -0.000389591         0.187385       0.0500233      0.000398361     0.000516052         0.445889       -0.869447
                        0.717227       -0.669455      0.000419784     0.000507347      -0.00794585        0.168811     -0.000601732     0.000507789
                     0.000547519     0.000267224         0.445715       -0.869958     -0.000563097     0.000362886         0.148714        0.119957
281750                  0.173055      0.00384725      0.000248279    -0.000400665         0.716414       -0.669562      0.000643584     0.000392204
                      0.00031165    -0.000388901         0.187396        0.050033      0.000443506     0.000501743         0.445645       -0.869573
                        0.717028       -0.669676      0.000419264     0.000510038      -0.00783242        0.168825     -0.000599085     0.000509171
                     0.000548553     0.000262623         0.445469        -0.87011      -0.00064546     0.000407874         0.148801        0.119873
281752                  0.173053      0.00386516      0.000248277    -0.000400811         0.716104       -0.669799       0.00064296     0.000395729
                     0.000312615    -0.000389476         0.187407       0.0500435      0.000398592     0.000537315         0.445375       -0.869702
                        0.716821       -0.669898       0.00041913       0.0005105      -0.00773011        0.168801     -0.000614096     0.000501977
                      0.00054406     0.000261377          0.44522       -0.870245     -0.000571205     0.000369894         0.148883        0.119794
281754                  0.173052      0.00388252      0.000247958    -0.000400528         0.715899       -0.670026      0.000643365     0.000394983
                     0.000313155    -0.000389267         0.187418       0.0500543      0.000397998     0.000534577          0.44512        -0.86983
                        0.716613       -0.670116      0.000419179     0.000510091      -0.00760862        0.168803     -0.000606941     0.000506463
                     0.000540862     0.000261622          0.44497       -0.870374     -0.000569355     0.000368224         0.148969        0.119709
281756                   0.17305      0.00389986      0.000247475    -0.000400082         0.715698       -0.670249      0.000643189     0.000394875
                     0.000313815    -0.000388939         0.187429       0.0500652      0.000398243     0.000534305         0.444865       -0.869958
                        0.716407       -0.670332      0.000419237     0.000509346       -0.0074923        0.168808     -0.000606392     0.000506703
                     0.000537237     0.000261141         0.444719       -0.870499     -0.000568597      0.00036755         0.149054        0.119625
281758                  0.173047      0.00391745      0.000246909    -0.000399605         0.715498        -0.67047      0.000642833     0.000394748
                     0.000314802    -0.000388445         0.187441        0.050076      0.000398628     0.000534468          0.44461       -0.870087
                          0.7162       -0.670549      0.000419245     0.000508517      -0.00737569        0.168816     -0.000606507      0.00050629
                     0.000532171     0.000258786         0.444468       -0.870622     -0.000568092     0.000367129         0.149139        0.119541
281760                  0.173045      0.00393513      0.000246311    -0.000399154         0.715298       -0.670689      0.000642402     0.000394487
                     0.000316415    -0.000387615         0.187452       0.0500866      0.000399059     0.000534723         0.444354       -0.870216
                        0.715994       -0.670765       0.00041921     0.000507729      -0.00725788        0.168823      -0.00060674     0.000505389
                     0.000526101     0.000251439         0.444217       -0.870744     -0.000567676     0.000366808         0.149225        0.119458
281762                  0.173043      0.00395283      0.000245711    -0.000398755         0.715097       -0.670908      0.000641982     0.000394079
                     0.000319304    -0.000385941         0.187464       0.0500967      0.000399507     0.000534985         0.444099       -0.870345
                        0.715787       -0.670982      0.000419158     0.000507034        -0.007139        0.168831     -0.000606842     0.000504041
