! TOUCHSTONE file generated by CST MICROWAVE STUDIO
! Date and time: Tue Oct 14 17:38:44 2025
! Project name: Teste_Macro_Metasurface_Nanopilar.cst
! Parameters = {H=600; L_x=140; L_y=110; Lambda=1064; Max_L=200; Min_L=70; PathPara=1; Phi=0; Step_L=10; Theta=0; p=520; phaseX=180; phaseY=0}
! Header version: 2018
! Port assignment regex: !\s*Touchstone port\s*([0-9]+)\s*=\s*(CST MWS port|CST DS port)\s*([0-9]+|Zmin|Zmax)\s*\(\"(.*)\"\)(\s*mode\s*([0-9]+))?.*
! Touchstone port assignment:
! Touchstone port 1 = CST MWS port Zmax ("") mode 1
! Touchstone port 2 = CST MWS port Zmax ("") mode 2
! Touchstone port 3 = CST MWS port Zmin ("") mode 1
! Touchstone port 4 = CST MWS port Zmin ("") mode 2
! S-Parameters are not renormalized. Each port impedance will be approximated by the real part at minimum frequency. The values are described via the [Reference] keyword.
! Default impedance is overridden by [Reference]
[Version] 2.0
# GHz S RI R 376.73
[Number of Ports] 4
[Reference]
376.73 376.73 259.814 259.814 
[Number of Frequencies] 51
[Network Data]
281700                  0.165641      -0.0139985      0.000238917    -4.39734e-05        -0.466992        0.857595      0.000174785    -0.000600764
                     0.000351671    -5.49992e-05        0.0406346        0.115732      0.000399473     0.000217021         0.955843        0.242804
                       -0.467298        0.858161      0.000580775     0.000247145        0.0765473        0.146216      7.75115e-05    -0.000164098
                     0.000247164    -0.000615891         0.955961        0.242988     -0.000108177    -0.000376126       -0.0899553       0.0836095
281702                  0.165625      -0.0140204      0.000238713    -4.39457e-05        -0.466647        0.857784      0.000174583    -0.000600864
                     0.000351471    -5.49781e-05        0.0406546        0.115748      0.000399606     0.000216703         0.955924        0.242474
                       -0.466953        0.858351      0.000580923     0.000246959        0.0766378        0.146153      7.73066e-05    -0.000163964
                     0.000246964    -0.000615982         0.956043        0.242659     -0.000108432    -0.000376119       -0.0899228       0.0836754
281704                   0.16561      -0.0140422       0.00023851    -4.39176e-05        -0.466302        0.857974      0.000174381    -0.000600964
                     0.000351272    -5.49563e-05        0.0406745        0.115763       0.00039974     0.000216383         0.956005        0.242144
                       -0.466608        0.858541       0.00058107     0.000246773        0.0767282         0.14609      7.71019e-05     -0.00016383
                     0.000246766    -0.000616072         0.956124         0.24233     -0.000108686    -0.000376111       -0.0898903       0.0837412
281706                  0.165594      -0.0140641      0.000238306    -4.38892e-05        -0.465957        0.858164      0.000174178    -0.000601063
                     0.000351073     -5.4934e-05        0.0406945        0.115779      0.000399875     0.000216061         0.956086        0.241815
                       -0.466263         0.85873      0.000581218     0.000246587        0.0768186        0.146027      7.68974e-05    -0.000163696
                     0.000246568    -0.000616162         0.956205           0.242     -0.000108939    -0.000376103       -0.0898578       0.0838071
281708                  0.165578      -0.0140859      0.000238102    -4.38605e-05        -0.465611        0.858353      0.000173976    -0.000601163
                     0.000350874     -5.4911e-05        0.0407144        0.115794      0.000400012     0.000215739         0.956167        0.241485
                       -0.465918         0.85892      0.000581365       0.0002464         0.076909        0.145964      7.66931e-05    -0.000163562
                     0.000246371     -0.00061625         0.956286        0.241671     -0.000109192    -0.000376095       -0.0898252       0.0838729
281710                  0.165563      -0.0141077      0.000237899    -4.38316e-05        -0.465266        0.858542      0.000173774    -0.000601262
                     0.000350676    -5.48873e-05        0.0407344         0.11581      0.000400149     0.000215415         0.956247        0.241156
                       -0.465573        0.859109      0.000581513     0.000246214        0.0769993          0.1459      7.64889e-05    -0.000163428
                     0.000246175    -0.000616339         0.956367        0.241342     -0.000109443    -0.000376087       -0.0897925       0.0839387
281712                  0.165547      -0.0141295      0.000237696    -4.38023e-05        -0.464921        0.858731      0.000173571    -0.000601361
                     0.000350478     -5.4863e-05        0.0407544        0.115826      0.000400288      0.00021509         0.956328        0.240826
                       -0.465228        0.859299       0.00058166     0.000246027        0.0770895        0.145837      7.62849e-05    -0.000163293
                     0.000245979    -0.000616426         0.956448        0.241013     -0.000109694    -0.000376079       -0.0897598       0.0840046
281714                  0.165531      -0.0141513      0.000237493    -4.37727e-05        -0.464575         0.85892      0.000173369     -0.00060146
                     0.000350281    -5.48381e-05        0.0407743        0.115841      0.000400429     0.000214764         0.956408        0.240496
                       -0.464883        0.859488      0.000581807      0.00024584        0.0771797        0.145774       7.6081e-05    -0.000163158
                     0.000245783    -0.000616514         0.956529        0.240683     -0.000109945     -0.00037607       -0.0897271       0.0840704
281716                  0.165515      -0.0141731       0.00023729    -4.37427e-05         -0.46423        0.859109      0.000173166    -0.000601559
                     0.000350083    -5.48126e-05        0.0407943        0.115857       0.00040057     0.000214437         0.956488        0.240167
                       -0.464537        0.859677      0.000581955     0.000245653        0.0772698         0.14571      7.58773e-05    -0.000163023
                     0.000245588      -0.0006166          0.95661        0.240354     -0.000110194    -0.000376062       -0.0896943       0.0841362
281718                    0.1655      -0.0141949      0.000237088    -4.37125e-05        -0.463884        0.859298      0.000172963    -0.000601658
                     0.000349886    -5.47864e-05        0.0408142        0.115872      0.000400713     0.000214109         0.956568        0.239837
                       -0.464192        0.859866      0.000582102     0.000245466        0.0773599        0.145646      7.56738e-05    -0.000162888
                     0.000245393    -0.000616686          0.95669        0.240025     -0.000110443    -0.000376053       -0.0896615       0.0842019
281720                  0.165484      -0.0142167      0.000236885    -4.36819e-05        -0.463538        0.859487       0.00017276    -0.000601757
                     0.000349689    -5.47595e-05        0.0408342        0.115888      0.000400857      0.00021378         0.956648        0.239507
                       -0.463846        0.860054      0.000582249     0.000245279          0.07745        0.145583      7.54704e-05    -0.000162753
                     0.000245199    -0.000616771         0.956771        0.239695      -0.00011069    -0.000376043       -0.0896286       0.0842677
281722                  0.165468      -0.0142385      0.000236683    -4.36509e-05        -0.463192        0.859675      0.000172557    -0.000601855
                     0.000349492    -5.47321e-05        0.0408542        0.115903      0.000401003     0.000213449         0.956728        0.239178
                       -0.463501        0.860243      0.000582396     0.000245092          0.07754        0.145519      7.52672e-05    -0.000162618
                     0.000245005    -0.000616855         0.956851        0.239366     -0.000110937    -0.000376034       -0.0895956       0.0843335
281724                  0.165453      -0.0142603      0.000236481    -4.36195e-05        -0.462846        0.859864      0.000172354    -0.000601954
                     0.000349296     -5.4704e-05        0.0408741        0.115919       0.00040115     0.000213118         0.956808        0.238848
                       -0.463155        0.860431      0.000582543     0.000244905        0.0776299        0.145455      7.50641e-05    -0.000162482
                     0.000244811    -0.000616939         0.956931        0.239037     -0.000111184    -0.000376024       -0.0895626       0.0843992
281726                  0.165437      -0.0142821       0.00023628    -4.35877e-05          -0.4625        0.860052      0.000172151    -0.000602052
                       0.0003491    -5.46752e-05        0.0408941        0.115934      0.000401298     0.000212785         0.956888        0.238518
                        -0.46281         0.86062       0.00058269     0.000244718        0.0777198        0.145392      7.48612e-05    -0.000162346
                     0.000244617    -0.000617023         0.957011        0.238707     -0.000111429    -0.000376014       -0.0895296        0.084465
281728                  0.165421      -0.0143038      0.000236079    -4.35553e-05        -0.462154         0.86024      0.000171948    -0.000602151
                     0.000348903    -5.46458e-05        0.0409141         0.11595      0.000401448     0.000212451         0.956967        0.238188
                       -0.462464        0.860808      0.000582836      0.00024453        0.0778096        0.145328      7.46584e-05    -0.000162211
                     0.000244424    -0.000617106         0.957091        0.238378     -0.000111674    -0.000376004       -0.0894965       0.0845307
281730                  0.165405      -0.0143256       0.00023588    -4.35223e-05        -0.461808        0.860428      0.000171745    -0.000602249
                     0.000348707    -5.46158e-05         0.040934        0.115965      0.000401599     0.000212116         0.957047        0.237859
                       -0.462118        0.860996      0.000582983     0.000244342        0.0778994        0.145264      7.44557e-05    -0.000162075
                     0.000244231    -0.000617188         0.957171        0.238048     -0.000111917    -0.000375993       -0.0894634       0.0845964
281732                   0.16539      -0.0143473      0.000235683    -4.34885e-05        -0.461462        0.860616      0.000171541    -0.000602347
                     0.000348512    -5.45852e-05         0.040954        0.115981      0.000401752      0.00021178         0.957126        0.237529
                       -0.461772        0.861184      0.000583128     0.000244154        0.0779892          0.1452      7.42532e-05    -0.000161939
                     0.000244038     -0.00061727         0.957251        0.237719      -0.00011216    -0.000375982       -0.0894302       0.0846621
281734                  0.165374      -0.0143691      0.000235492    -4.34544e-05        -0.461115        0.860803      0.000171338    -0.000602445
                     0.000348316    -5.45539e-05         0.040974        0.115996      0.000401906     0.000211443         0.957205        0.237199
                       -0.461426        0.861372      0.000583273     0.000243965        0.0780789        0.145136      7.40509e-05    -0.000161802
                     0.000243845    -0.000617351         0.957331        0.237389     -0.000112403    -0.000375971        -0.089397       0.0847278
281736                  0.165358      -0.0143908      0.000235317    -4.34284e-05        -0.460769        0.860991      0.000171134    -0.000602542
                      0.00034812     -5.4522e-05         0.040994        0.116012      0.000402061     0.000211105         0.957284        0.236869
                        -0.46108         0.86156      0.000583416     0.000243772        0.0781685        0.145071      7.38486e-05    -0.000161666
                     0.000243652    -0.000617432          0.95741         0.23706     -0.000112644    -0.000375959       -0.0893637       0.0847935
281738                  0.165342      -0.0144126      0.000235123    -4.34767e-05        -0.460423        0.861178      0.000170931     -0.00060264
                     0.000347925    -5.44895e-05        0.0410139        0.116027      0.000402218     0.000210766         0.957363        0.236539
                       -0.460733        0.861747      0.000583564     0.000243569        0.0782581        0.145007      7.36465e-05     -0.00016153
                      0.00024346    -0.000617512          0.95749        0.236732     -0.000112885    -0.000375946       -0.0893304       0.0848592
281740                  0.165326      -0.0144343      0.000234844    -4.34293e-05        -0.460076        0.861365      0.000170727    -0.000602737
                      0.00034773    -5.44563e-05        0.0410338        0.116042      0.000402376     0.000210426         0.957442        0.236209
                       -0.460387        0.861934      0.000583739     0.000243377        0.0783476        0.144943      7.34445e-05    -0.000161393
                     0.000243267    -0.000617592         0.957569        0.236401     -0.000113124    -0.000375934        -0.089297       0.0849248
281742                  0.165311       -0.014456      0.000234636      -4.337e-05        -0.459729        0.861553      0.000170524    -0.000602835
                     0.000347535    -5.44225e-05        0.0410538        0.116058      0.000402536     0.000210085         0.957521        0.235879
                       -0.460041        0.862122       0.00058389     0.000243207        0.0784371        0.144879      7.32426e-05    -0.000161257
                     0.000243075    -0.000617671         0.957648        0.236071     -0.000113363     -0.00037592       -0.0892635       0.0849905
281744                  0.165295      -0.0144777      0.000234435    -4.33262e-05        -0.459382         0.86174       0.00017032    -0.000602932
                     0.000347339    -5.43881e-05        0.0410738        0.116073      0.000402698     0.000209743           0.9576         0.23555
                       -0.459694        0.862309      0.000584033     0.000243025        0.0785266        0.144814      7.30409e-05     -0.00016112
                     0.000242882     -0.00061775         0.957727        0.235742     -0.000113602    -0.000375907       -0.0892301       0.0850561
281746                  0.165279      -0.0144994      0.000234235    -4.32875e-05        -0.459036        0.861926      0.000170118    -0.000603029
                     0.000347144    -5.43531e-05        0.0410937        0.116089       0.00040286       0.0002094         0.957678         0.23522
                       -0.459348        0.862496      0.000584178      0.00024284         0.078616         0.14475      7.28391e-05    -0.000160984
                      0.00024269    -0.000617828         0.957806        0.235412     -0.000113839    -0.000375892       -0.0891965       0.0851218
281748                  0.165263      -0.0145211      0.000234034    -4.32508e-05        -0.458689        0.862113      0.000169916    -0.000603126
                     0.000346949    -5.43175e-05        0.0411137        0.116104      0.000403025     0.000209056         0.957756         0.23489
                       -0.459001        0.862683      0.000584324     0.000242652        0.0787053        0.144685      7.26374e-05    -0.000160848
                     0.000242497    -0.000617906         0.957885        0.235083     -0.000114076    -0.000375878        -0.089163       0.0851874
281750                  0.165247      -0.0145428      0.000233833     -4.3215e-05        -0.458342          0.8623      0.000169716    -0.000603222
                     0.000346754    -5.42812e-05        0.0411337         0.11612      0.000403191     0.000208711         0.957835         0.23456
                       -0.458655        0.862869       0.00058447     0.000242465        0.0787946        0.144621      7.24354e-05    -0.000160714
                     0.000242305    -0.000617984         0.957964        0.234753     -0.000114312    -0.000375862       -0.0891294        0.085253
281752                  0.165232      -0.0145645      0.000233631    -4.31795e-05        -0.457994        0.862486      0.000169531    -0.000603318
                     0.000346559    -5.42443e-05        0.0411537        0.116135      0.000403358     0.000208365         0.957913        0.234229
                       -0.458308        0.863056      0.000584617     0.000242277        0.0788838        0.144556      7.22305e-05    -0.000160592
                     0.000242112    -0.000618061         0.958042        0.234423     -0.000114547    -0.000375846       -0.0890957       0.0853187
281754                  0.165216      -0.0145862      0.000233429    -4.31443e-05        -0.457647        0.862673      0.000169204    -0.000603441
                     0.000346364    -5.42067e-05        0.0411736        0.116151      0.000403527     0.000208019         0.957991          0.2339
                       -0.457961        0.863242      0.000584764     0.000242089         0.078973        0.144491      7.20399e-05    -0.000160401
                     0.000241919    -0.000618138         0.958121        0.234093     -0.000114782     -0.00037583        -0.089062       0.0853841
281756                    0.1652      -0.0146078      0.000233227    -4.31092e-05          -0.4573        0.862859      0.000169069    -0.000603518
                     0.000346169    -5.41683e-05        0.0411936        0.116166      0.000403698     0.000207671         0.958069         0.23357
                       -0.457614        0.863429      0.000584911     0.000241901        0.0790621        0.144427      7.18358e-05    -0.000160284
                     0.000241725    -0.000618214         0.958199        0.233764     -0.000115016    -0.000375813       -0.0890282       0.0854497
281758                  0.165184      -0.0146295      0.000233025     -4.3074e-05        -0.456953        0.863045      0.000168873    -0.000603613
                     0.000345974    -5.41287e-05        0.0412136        0.116182       0.00040387     0.000207323         0.958147        0.233239
                       -0.457267        0.863615      0.000585058     0.000241712        0.0791512        0.144362      7.16343e-05    -0.000160149
                     0.000241529    -0.000618288         0.958277        0.233434     -0.000115249    -0.000375795       -0.0889944       0.0855153
281760                  0.165168      -0.0146512      0.000232823    -4.30387e-05        -0.456605        0.863231      0.000168671    -0.000603709
                      0.00034578     -5.4087e-05        0.0412336        0.116197      0.000404043     0.000206973         0.958224        0.232909
                        -0.45692        0.863801      0.000585206     0.000241524        0.0792402        0.144297      7.14333e-05    -0.000160013
                     0.000241325    -0.000618347         0.958356        0.233104     -0.000115482    -0.000375777       -0.0889605       0.0855808
281762                  0.165152      -0.0146728       0.00023262    -4.30034e-05        -0.456258        0.863417      0.000168468    -0.000603805
                     0.000345599    -5.40454e-05        0.0412535        0.116212      0.000404218     0.000206623         0.958302        0.232579
                       -0.456573        0.863987      0.000585353     0.000241335        0.0793292        0.144232      7.12326e-05    -0.000159876
