! TOUCHSTONE file generated by CST MICROWAVE STUDIO
! Date and time: Tue Oct 14 17:39:07 2025
! Project name: Teste_Macro_Metasurface_Nanopilar.cst
! Parameters = {H=600; L_x=170; L_y=140; Lambda=1064; Max_L=200; Min_L=70; PathPara=1; Phi=0; Step_L=10; Theta=0; p=520; phaseX=180; phaseY=0}
! Header version: 2018
! Port assignment regex: !\s*Touchstone port\s*([0-9]+)\s*=\s*(CST MWS port|CST DS port)\s*([0-9]+|Zmin|Zmax)\s*\(\"(.*)\"\)(\s*mode\s*([0-9]+))?.*
! Touchstone port assignment:
! Touchstone port 1 = CST MWS port Zmax ("") mode 1
! Touchstone port 2 = CST MWS port Zmax ("") mode 2
! Touchstone port 3 = CST MWS port Zmin ("") mode 1
! Touchstone port 4 = CST MWS port Zmin ("") mode 2
! S-Parameters are not renormalized. Each port impedance will be approximated by the real part at minimum frequency. The values are described via the [Reference] keyword.
! Default impedance is overridden by [Reference]
[Version] 2.0
# GHz S RI R 376.73
[Number of Ports] 4
[Reference]
376.73 376.73 259.814 259.814 
[Number of Frequencies] 51
[Network Data]
281700                  0.886793        0.251516     -0.000937182    -0.000501103        0.0471038       -0.110148      0.000864488     -0.00148975
                    -0.000907719    -0.000697434         0.167018      -0.0431549       0.00104245     0.000117755         0.710305       -0.675744
                       0.0472215       -0.109621      0.000967687    -6.05632e-05         0.416448       -0.786477      0.000667656      0.00145783
                     0.000616261    -0.000890688         0.710304       -0.675844      4.25102e-05     0.000708724       -0.0510155        0.159223
281702                  0.887327        0.250047     -0.000938464     -0.00050393        0.0476732       -0.108415      0.000860367     -0.00149105
                    -0.000907215    -0.000699932         0.167011      -0.0431253       0.00104316     0.000116053         0.710096       -0.675967
                       0.0477744       -0.107985       0.00097033    -5.94588e-05         0.414205       -0.787813      0.000672214      0.00145502
                     0.000613055    -0.000891344         0.710095       -0.676067      4.90572e-05     0.000711685       -0.0508863        0.159251
281704                  0.887861        0.248576     -0.000939709    -0.000505445        0.0482499       -0.106687      0.000856243     -0.00149233
                    -0.000906874    -0.000702417         0.167005      -0.0430957       0.00104387     0.000114351         0.709888        -0.67619
                       0.0483365       -0.106343      0.000972608    -5.91078e-05         0.411959       -0.789134      0.000676756      0.00145218
                      0.00060996    -0.000891945         0.709887        -0.67629      5.54992e-05     0.000714095       -0.0507571        0.159279
281706                  0.888395        0.247102     -0.000940941    -0.000506414        0.0488341       -0.104963      0.000852118     -0.00149359
                    -0.000906704    -0.000704883         0.166998      -0.0430661       0.00104458     0.000112649          0.70968       -0.676413
                       0.0489078       -0.104696      0.000974655     -5.9177e-05          0.40971       -0.790443      0.000681282      0.00144932
                     0.000606993    -0.000892498         0.709679       -0.676513      6.17686e-05     0.000716017       -0.0506278        0.159307
281708                  0.888927        0.245624     -0.000942169    -0.000507103        0.0494258       -0.103242      0.000847989     -0.00149483
                    -0.000906717     -0.00070732         0.166991      -0.0430366       0.00104528     0.000110948         0.709472       -0.676635
                       0.0494883       -0.103044       0.00097655     -5.9505e-05         0.407457        -0.79174       0.00068579      0.00144644
                     0.000604171    -0.000893013          0.70947       -0.676736      6.78168e-05     0.000717518       -0.0504986        0.159334
281710                  0.889459        0.244142     -0.000943394    -0.000507631        0.0500252       -0.101526      0.000843859     -0.00149605
                    -0.000906922    -0.000709721         0.166985       -0.043007       0.00104598     0.000109248         0.709264       -0.676858
                       0.0500782       -0.101387      0.000978338     -6.0004e-05           0.4052       -0.793025      0.000690282      0.00144354
                     0.000601513    -0.000893504         0.709262       -0.676959      7.36119e-05     0.000718664       -0.0503694        0.159362
281712                   0.88999        0.242655      -0.00094462    -0.000508056        0.0506323       -0.099814      0.000839727     -0.00149726
                    -0.000907332    -0.000712071         0.166978      -0.0429775       0.00104668      0.00010755         0.709055       -0.677081
                       0.0506775      -0.0997266      0.000980051    -6.06228e-05         0.402939       -0.794298      0.000694757      0.00144061
                     0.000599039    -0.000893991         0.709054       -0.677181      7.91367e-05     0.000719521       -0.0502402         0.15939
281714                   0.89052        0.241162     -0.000945846    -0.000508412        0.0512474      -0.0981058      0.000835592     -0.00149844
                    -0.000907956    -0.000714357         0.166972       -0.042948       0.00104738     0.000105855         0.708847       -0.677303
                       0.0512861      -0.0980623      0.000981707    -6.13291e-05         0.400674        -0.79556      0.000699215      0.00143767
                     0.000596768    -0.000894499         0.708845       -0.677404      8.43853e-05     0.000720147        -0.050111        0.159417
281716                  0.891048        0.239664     -0.000947074    -0.000508719        0.0518704      -0.0964016      0.000831456      -0.0014996
                    -0.000908807    -0.000716561         0.166965      -0.0429185       0.00104807     0.000104163         0.708638       -0.677526
                       0.0519041      -0.0963945      0.000983321    -6.21019e-05         0.398404        -0.79681      0.000703657       0.0014347
                     0.000594721     -0.00089506         0.708636       -0.677626      8.93608e-05     0.000720594       -0.0499818        0.159445
281718                  0.891574        0.238158     -0.000948303     -0.00050899        0.0525015      -0.0947012      0.000827318     -0.00150075
                    -0.000909893     -0.00071866         0.166959       -0.042889       0.00104877     0.000102476          0.70843       -0.677748
                       0.0525316      -0.0947237      0.000984903    -6.29267e-05          0.39613       -0.798051      0.000708082      0.00143171
                     0.000592912    -0.000895717         0.708428       -0.677849      9.40728e-05     0.000720907       -0.0498526        0.159472
281720                  0.892096        0.236645     -0.000949535    -0.000509234        0.0531409      -0.0930047      0.000823178     -0.00150187
                    -0.000911221    -0.000720629         0.166952      -0.0428595       0.00104947     0.000100794         0.708221        -0.67797
                       0.0531684      -0.0930502      0.000986459    -6.37934e-05          0.39385        -0.79928      0.000712491      0.00142871
                     0.000591353    -0.000896521         0.708219       -0.678071      9.85349e-05     0.000721126       -0.0497234        0.159499
281722                  0.892615        0.235125     -0.000950769    -0.000509456        0.0537885       -0.091312      0.000819035     -0.00150298
                    -0.000912799    -0.000722438         0.166946        -0.04283       0.00105016     9.91202e-05         0.708013       -0.678193
                       0.0538147      -0.0913744      0.000987995    -6.46946e-05         0.391566       -0.800499      0.000716884      0.00142568
                     0.000590045    -0.000897533          0.70801       -0.678293      0.000102764     0.000721281       -0.0495942        0.159527
281724                  0.893129        0.233598     -0.000952004    -0.000509662        0.0544445      -0.0896232      0.000814892     -0.00150406
                    -0.000914625    -0.000724052         0.166939      -0.0428006       0.00105087     9.74556e-05         0.707804       -0.678415
                       0.0544703      -0.0896967      0.000989514    -6.56248e-05         0.389275       -0.801707      0.000721261      0.00142263
                     0.000588972    -0.000898827         0.707802       -0.678515      0.000106777     0.000721401        -0.049465        0.159554
281726                  0.893637        0.232063     -0.000953243    -0.000509854        0.0551089      -0.0879381      0.000810746     -0.00150513
                    -0.000916695    -0.000725431         0.166933      -0.0427712       0.00105158     9.58025e-05         0.707595       -0.678637
                       0.0551353      -0.0880175      0.000991021    -6.65799e-05         0.386979       -0.802905      0.000725622      0.00141956
                     0.000588101    -0.000900478         0.707593       -0.678737      0.000110593     0.000721505       -0.0493357        0.159581
281728                  0.894139        0.230521     -0.000954484    -0.000510034         0.055782      -0.0862568      0.000806599     -0.00150618
                    -0.000918996    -0.000726532         0.166926      -0.0427417       0.00105229     9.41639e-05         0.707386       -0.678859
                       0.0558096      -0.0863371      0.000992516    -6.75567e-05         0.384677       -0.804092      0.000729967      0.00141647
                     0.000587374    -0.000902565         0.707384       -0.678959       0.00011423     0.000721612       -0.0492065        0.159607
281730                  0.894634        0.228971     -0.000955727    -0.000510205        0.0564637      -0.0845792       0.00080245     -0.00150721
                    -0.000921504     -0.00072731          0.16692      -0.0427123       0.00105302     9.25432e-05         0.707177       -0.679081
                       0.0564933      -0.0846559      0.000994003    -6.85526e-05          0.38237       -0.805269      0.000734296      0.00141335
                       0.0005867    -0.000905158         0.707175       -0.679181      0.000117706     0.000721734       -0.0490773        0.159634
281732                  0.895121        0.227416     -0.000956973    -0.000510368        0.0571541      -0.0829053      0.000798299     -0.00150822
                    -0.000924185    -0.000727718         0.166913      -0.0426829       0.00105376      9.0945e-05         0.706968       -0.679302
                       0.0571861      -0.0829743      0.000995482    -6.95657e-05         0.380056       -0.806435       0.00073861      0.00141022
                     0.000585963    -0.000908307         0.706966       -0.679403      0.000121036     0.000721882       -0.0489481        0.159661
281734                    0.8956        0.225854     -0.000958222    -0.000510524        0.0578534      -0.0812351      0.000794146     -0.00150921
                    -0.000926988    -0.000727713         0.166907      -0.0426535       0.00105452     8.93749e-05         0.706759       -0.679524
                        0.057888      -0.0812928      0.000996956    -7.05943e-05         0.377736        -0.80759      0.000742908      0.00140707
                      0.00058502    -0.000912026         0.706757       -0.679625      0.000124235     0.000722064       -0.0488189        0.159688
281736                  0.896069        0.224287     -0.000959473    -0.000510674        0.0585615      -0.0795685      0.000789991     -0.00151019
                    -0.000929849     -0.00072726           0.1669      -0.0426242       0.00105531     8.78407e-05          0.70655       -0.679746
                       0.0585991      -0.0796117      0.000998425    -7.16372e-05         0.375409       -0.808735      0.000747191       0.0014039
                     0.000583718    -0.000916284         0.706547       -0.679846      0.000127319     0.000722287       -0.0486897        0.159714
281738                   0.89653        0.222716     -0.000960727    -0.000510819        0.0592785      -0.0779055      0.000785835     -0.00151114
                    -0.000932688    -0.000726335         0.166894      -0.0425948       0.00105614     8.63521e-05         0.706341       -0.679967
                       0.0593191      -0.0779314      0.000999889    -7.26933e-05         0.373077       -0.809869      0.000751459      0.00140071
                      0.00058191    -0.000920999         0.706338       -0.680068      0.000130298     0.000722555       -0.0485605        0.159741
281740                  0.896982         0.22114     -0.000961984    -0.000510959        0.0600045      -0.0762461      0.000781676     -0.00151208
                    -0.000935415    -0.000724936         0.166887      -0.0425654       0.00105702      8.4923e-05         0.706132       -0.680189
                       0.0600479      -0.0762524       0.00100135    -7.37618e-05         0.370738       -0.810993      0.000755712       0.0013975
                     0.000579481     -0.00092604         0.706129       -0.680289      0.000133186     0.000722871       -0.0484313        0.159767
281742                  0.897424        0.219561     -0.000963243    -0.000511095        0.0607396      -0.0745902      0.000777516       -0.001513
                    -0.000937931    -0.000723084         0.166881      -0.0425361       0.00105798      8.3572e-05         0.705923        -0.68041
                       0.0607855      -0.0745752       0.00100281    -7.48419e-05         0.368392       -0.812106      0.000759951      0.00139427
                      0.00057636    -0.000931242          0.70592       -0.680511      0.000135992     0.000723238        -0.048302        0.159793
281744                  0.897856         0.21798     -0.000964506    -0.000511227        0.0614837      -0.0729379      0.000773353      -0.0015139
                    -0.000940142    -0.000720828         0.166875      -0.0425067       0.00105905     8.23255e-05         0.705713       -0.680632
                       0.0615316      -0.0729001       0.00100427    -7.59329e-05          0.36604       -0.813208      0.000764175      0.00139102
                     0.000572536    -0.000936429          0.70571       -0.680732      0.000138725     0.000723659       -0.0481728        0.159819
281746                   0.89828        0.216395     -0.000965771    -0.000511355         0.062237       -0.071289      0.000769188     -0.00151479
                    -0.000941963    -0.000718246         0.166868      -0.0424774        0.0010603     8.12217e-05         0.705504       -0.680853
                       0.0622861      -0.0712277       0.00100572    -7.70345e-05         0.363682       -0.814299      0.000768385      0.00138775
                     0.000568053    -0.000941434         0.705501       -0.680953      0.000141392     0.000724134       -0.0480436        0.159845
281748                  0.898694        0.214809     -0.000967039    -0.000511481        0.0629994      -0.0696436       0.00076502     -0.00151565
                     -0.00094333    -0.000715441         0.166862      -0.0424481       0.00106184     8.03155e-05         0.705294       -0.681074
                       0.0630489      -0.0695586       0.00100717     -7.8146e-05         0.361318       -0.815379      0.000772582      0.00138445
                        0.000563    -0.000946121         0.705291       -0.681174      0.000144002     0.000724666       -0.0479144        0.159871
281750                    0.8991        0.213222      -0.00096831    -0.000511603        0.0637709      -0.0680017       0.00076085      -0.0015165
                    -0.000944212    -0.000712532         0.166855      -0.0424188       0.00106386     7.96835e-05         0.705085       -0.681295
                       0.0638197      -0.0678933       0.00100863    -7.92673e-05         0.358947       -0.816448      0.000776764      0.00138114
                     0.000557494    -0.000950397         0.705082       -0.681396      0.000146559     0.000725256       -0.0477852        0.159897
281752                  0.899497        0.211633     -0.000969583    -0.000511723        0.0645516      -0.0663632      0.000756676     -0.00151733
                     -0.00094461    -0.000709647         0.166849      -0.0423895       0.00106683     7.94106e-05         0.704875       -0.681516
                       0.0645982      -0.0662325       0.00101008    -8.03978e-05         0.356569       -0.817507      0.000780934      0.00137781
                      0.00055166     -0.00095421         0.704872       -0.681617      0.000149069     0.000725908        -0.047656        0.159923
281754                  0.899885        0.210043      -0.00097086    -0.000511841        0.0653414      -0.0647281      0.000752499     -0.00151814
                    -0.000944564    -0.000706904         0.166843      -0.0423602       0.00107176     7.94384e-05         0.704666       -0.681737
                       0.0653844       -0.064577       0.00101153    -8.15374e-05         0.354186       -0.818554       0.00078509      0.00137445
                      0.00054562    -0.000957547         0.704662       -0.681838      0.000151535     0.000726624       -0.0475268        0.159949
281756                  0.900265        0.208453      -0.00097214    -0.000511956        0.0661403      -0.0630963      0.000748318     -0.00151893
                    -0.000944141    -0.000704407         0.166836      -0.0423309       0.00108129     7.84161e-05         0.704456       -0.681958
                        0.066178      -0.0629278       0.00101298    -8.26858e-05         0.351796       -0.819591      0.000789234      0.00137108
                     0.000539478    -0.000960425         0.704453       -0.682058       0.00015396      0.00072741       -0.0473976        0.159974
281758                  0.900636        0.206862     -0.000973423    -0.000512069        0.0669483      -0.0614678      0.000744132      -0.0015197
                     -0.00094343    -0.000702233          0.16683      -0.0423016        0.0010982     6.63428e-05         0.704246       -0.682179
                        0.066979      -0.0612863       0.00101443    -8.38428e-05           0.3494       -0.820617      0.000793366      0.00136768
                     0.000533321     -0.00096288         0.704243       -0.682279      0.000156347     0.000728272       -0.0472684            0.16
281760                     0.901         0.20527     -0.000974709    -0.000512181        0.0677653      -0.0598426      0.000739941     -0.00152046
                    -0.000942535    -0.000700429         0.166824      -0.0422723       0.00109206     3.36651e-05         0.704036       -0.682399
                       0.0677876      -0.0596541       0.00101588    -8.50081e-05         0.346998       -0.821632      0.000797485      0.00136426
                     0.000527215    -0.000964957         0.704033         -0.6825      0.000158695     0.000729222       -0.0471392        0.160025
281762                  0.901356        0.203678     -0.000975998     -0.00051229        0.0685912      -0.0582207      0.000735744     -0.00152119
                    -0.000941558    -0.000699015         0.166817       -0.042243       0.00106879     3.13423e-05         0.703826        -0.68262
                       0.0686047      -0.0580335       0.00101733    -8.61816e-05          0.34459       -0.822636      0.000801593      0.00136081
