! TOUCHSTONE file generated by CST MICROWAVE STUDIO
! Date and time: Tue Oct 14 17:38:45 2025
! Project name: Teste_Macro_Metasurface_Nanopilar.cst
! Parameters = {H=600; L_x=140; L_y=120; Lambda=1064; Max_L=200; Min_L=70; PathPara=1; Phi=0; Step_L=10; Theta=0; p=520; phaseX=180; phaseY=0}
! Header version: 2018
! Port assignment regex: !\s*Touchstone port\s*([0-9]+)\s*=\s*(CST MWS port|CST DS port)\s*([0-9]+|Zmin|Zmax)\s*\(\"(.*)\"\)(\s*mode\s*([0-9]+))?.*
! Touchstone port assignment:
! Touchstone port 1 = CST MWS port Zmax ("") mode 1
! Touchstone port 2 = CST MWS port Zmax ("") mode 2
! Touchstone port 3 = CST MWS port Zmin ("") mode 1
! Touchstone port 4 = CST MWS port Zmin ("") mode 2
! S-Parameters are not renormalized. Each port impedance will be approximated by the real part at minimum frequency. The values are described via the [Reference] keyword.
! Default impedance is overridden by [Reference]
[Version] 2.0
# GHz S RI R 376.73
[Number of Ports] 4
[Reference]
376.73 376.73 259.814 259.814 
[Number of Frequencies] 51
[Network Data]
281700                 0.0374784       0.0153088     -0.000327367    -8.26769e-05         0.669225        0.731431      4.55192e-05    -6.59003e-05
                    -0.000263484    -9.54376e-05        0.0727827        0.132934      0.000157172    -7.82301e-05         0.982913      -0.0240373
                         0.66893        0.731334      3.74708e-05    -0.000102418       -0.0120709      -0.0359946      0.000393257     0.000137377
                     6.23535e-05    -0.000123407         0.983265      -0.0239802       0.00031914     7.24066e-05       -0.0648782        0.136513
281702                 0.0374754       0.0153311     -0.000327351    -8.24679e-05         0.669502        0.731178      4.56493e-05    -6.59863e-05
                    -0.000263488    -9.53731e-05        0.0727988        0.132947      0.000157084    -7.83471e-05         0.982902      -0.0243598
                        0.669206        0.731081      3.75351e-05    -0.000102427       -0.0121208      -0.0359845      0.000393863     0.000137011
                     6.22953e-05    -0.000123424         0.983254      -0.0243033      0.000319138     7.25294e-05       -0.0648039         0.13657
281704                 0.0374724       0.0153534     -0.000327334    -8.22593e-05         0.669779        0.730924       4.5778e-05    -6.60725e-05
                    -0.000263492    -9.53087e-05         0.072815         0.13296      0.000156996    -7.84641e-05         0.982892      -0.0246822
                        0.669482        0.730829      3.75987e-05    -0.000102436       -0.0121708      -0.0359743      0.000394465     0.000136655
                     6.22373e-05     -0.00012344         0.983244      -0.0246264      0.000319138     7.26531e-05       -0.0647297        0.136626
281706                 0.0374694       0.0153757     -0.000327317    -8.20509e-05         0.670055        0.730671      4.59052e-05    -6.61591e-05
                    -0.000263497    -9.52444e-05        0.0728312        0.132972      0.000156907     -7.8581e-05         0.982881      -0.0250046
                        0.669758        0.730576      3.76616e-05    -0.000102446       -0.0122208      -0.0359641      0.000395062     0.000136307
                     6.21794e-05    -0.000123456         0.983233      -0.0249494      0.000319139     7.27779e-05       -0.0646553        0.136682
281708                 0.0374664       0.0153979       -0.0003273    -8.18429e-05         0.670332        0.730417      4.60309e-05    -6.62461e-05
                    -0.000263502    -9.51803e-05        0.0728473        0.132985      0.000156818    -7.86979e-05          0.98287       -0.025327
                        0.670034        0.730323      3.77237e-05    -0.000102455       -0.0122707      -0.0359538      0.000395654     0.000135967
                     6.21219e-05     -0.00012347         0.983222      -0.0252725       0.00031914     7.29037e-05       -0.0645809        0.136738
281710                 0.0374635       0.0154202     -0.000327283    -8.16352e-05         0.670608        0.730163      4.61552e-05    -6.63335e-05
                    -0.000263508    -9.51164e-05        0.0728635        0.132998      0.000156729    -7.88147e-05         0.982858      -0.0256495
                         0.67031        0.730069      3.77852e-05    -0.000102465       -0.0123206      -0.0359435       0.00039624     0.000135633
                     6.20646e-05    -0.000123484         0.983212      -0.0255955      0.000319142     7.30307e-05       -0.0645065        0.136794
281712                 0.0374605       0.0154425     -0.000327266    -8.14278e-05         0.670885        0.729909      4.62781e-05    -6.64215e-05
                    -0.000263514    -9.50526e-05        0.0728797        0.133011       0.00015664    -7.89315e-05         0.982847      -0.0259719
                        0.670586        0.729816      3.78459e-05    -0.000102474       -0.0123705      -0.0359332       0.00039682     0.000135304
                     6.20075e-05    -0.000123496         0.983201      -0.0259185      0.000319145     7.31589e-05        -0.064432         0.13685
281714                 0.0374576       0.0154648     -0.000327249    -8.12208e-05         0.671161        0.729655      4.63995e-05      -6.651e-05
                     -0.00026352    -9.49889e-05        0.0728958        0.133024       0.00015655    -7.90482e-05         0.982836      -0.0262943
                        0.670862        0.729563       3.7906e-05    -0.000102484       -0.0124205      -0.0359227      0.000397393      0.00013498
                     6.19508e-05    -0.000123508          0.98319      -0.0262415      0.000319149     7.32886e-05       -0.0643575        0.136905
281716                 0.0374546        0.015487     -0.000327232    -8.10141e-05         0.671437        0.729401      4.65195e-05    -6.65992e-05
                    -0.000263527    -9.49253e-05         0.072912        0.133037       0.00015646     -7.9165e-05         0.982824      -0.0266167
                        0.671138         0.72931      3.79654e-05    -0.000102494       -0.0124703      -0.0359123      0.000397959     0.000134659
                     6.18945e-05    -0.000123519         0.983178      -0.0265646      0.000319154     7.34197e-05       -0.0642829        0.136961
281718                 0.0374517       0.0155093     -0.000327215    -8.08077e-05         0.671713        0.729147      4.66381e-05    -6.66892e-05
                    -0.000263534    -9.48618e-05        0.0729282         0.13305       0.00015637    -7.92817e-05         0.982813       -0.026939
                        0.671413        0.729056      3.80241e-05    -0.000102504       -0.0125202      -0.0359018      0.000398518     0.000134341
                     6.18384e-05    -0.000123528         0.983167      -0.0268876      0.000319159     7.35524e-05       -0.0642083        0.137017
281720                 0.0374487       0.0155316     -0.000327198    -8.06016e-05         0.671989        0.728893      4.67553e-05    -6.67798e-05
                    -0.000263541    -9.47984e-05        0.0729443        0.133063       0.00015628    -7.93985e-05         0.982801      -0.0272614
                        0.671689        0.728802      3.80821e-05    -0.000102514       -0.0125701      -0.0358912       0.00039907     0.000134025
                     6.17828e-05    -0.000123537         0.983156      -0.0272106      0.000319165     7.36869e-05       -0.0641336        0.137073
281722                 0.0374458       0.0155539     -0.000327181    -8.03958e-05         0.672265        0.728638      4.68712e-05    -6.68713e-05
                    -0.000263549    -9.47351e-05        0.0729605        0.133076      0.000156189    -7.95153e-05         0.982789      -0.0275838
                        0.671964        0.728549      3.81394e-05    -0.000102525         -0.01262      -0.0358806      0.000399616      0.00013371
                     6.17276e-05    -0.000123545         0.983144      -0.0275336      0.000319172     7.38231e-05       -0.0640589        0.137128
281724                 0.0374429       0.0155761     -0.000327164    -8.01904e-05          0.67254        0.728384      4.69857e-05    -6.69637e-05
                    -0.000263557    -9.46719e-05        0.0729767        0.133089      0.000156098    -7.96321e-05         0.982777      -0.0279061
                        0.672239        0.728295      3.81961e-05    -0.000102535       -0.0126698      -0.0358699      0.000400156     0.000133396
                     6.16728e-05    -0.000123552         0.983133      -0.0278565      0.000319179     7.39614e-05       -0.0639842        0.137184
281726                   0.03744       0.0155984     -0.000327146    -7.99852e-05         0.672816        0.728129      4.70989e-05     -6.7057e-05
                    -0.000263566    -9.46087e-05        0.0729928        0.133102      0.000156007    -7.97489e-05         0.982765      -0.0282285
                        0.672514        0.728041      3.82522e-05    -0.000102546       -0.0127197      -0.0358592      0.000400689     0.000133082
                     6.16184e-05    -0.000123558         0.983121      -0.0281795      0.000319187     7.41017e-05       -0.0639094         0.13724
281728                 0.0374371       0.0156207     -0.000327129    -7.97804e-05         0.673092        0.727875      4.72107e-05    -6.71513e-05
                    -0.000263575    -9.45455e-05         0.073009        0.133115      0.000155915    -7.98658e-05         0.982753      -0.0285508
                        0.672789        0.727787      3.83075e-05    -0.000102557       -0.0127695      -0.0358484      0.000401216     0.000132767
                     6.15645e-05    -0.000123563         0.983109      -0.0285025      0.000319195     7.42443e-05       -0.0638346        0.137295
281730                 0.0374342        0.015643     -0.000327111    -7.95759e-05         0.673367         0.72762      4.73213e-05    -6.72465e-05
                    -0.000263585    -9.44824e-05        0.0730252        0.133128      0.000155823    -7.99828e-05         0.982741      -0.0288732
                        0.673064        0.727533      3.83623e-05    -0.000102568       -0.0128194      -0.0358376      0.000401737     0.000132453
                     6.15111e-05    -0.000123567         0.983097      -0.0288255      0.000319203     7.43892e-05       -0.0637597        0.137351
281732                 0.0374313       0.0156652     -0.000327094    -7.93716e-05         0.673642        0.727365      4.74306e-05    -6.73429e-05
                    -0.000263595    -9.44193e-05        0.0730414        0.133141      0.000155731    -8.00998e-05         0.982729      -0.0291955
                        0.673339        0.727279      3.84164e-05    -0.000102579       -0.0128692      -0.0358268      0.000402253     0.000132137
                     6.14581e-05    -0.000123571         0.983085      -0.0291484      0.000319212     7.45366e-05       -0.0636848        0.137406
281734                 0.0374284       0.0156875     -0.000327076    -7.91677e-05         0.673917         0.72711      4.75386e-05    -6.74403e-05
                    -0.000263605    -9.43562e-05        0.0730575        0.133154      0.000155638    -8.02169e-05         0.982716      -0.0295178
                        0.673614        0.727024      3.84698e-05     -0.00010259        -0.012919      -0.0358159      0.000402763      0.00013182
                     6.14057e-05    -0.000123574         0.983073      -0.0294714      0.000319221     7.46866e-05       -0.0636098        0.137462
281736                 0.0374255       0.0157098     -0.000327059    -7.89641e-05         0.674192        0.726855      4.76453e-05    -6.75388e-05
                    -0.000263616    -9.42931e-05        0.0730737        0.133167      0.000155545    -8.03342e-05         0.982704      -0.0298401
                        0.673888         0.72677      3.85226e-05    -0.000102602       -0.0129688      -0.0358049      0.000403268     0.000131502
                     6.13538e-05    -0.000123576         0.983061      -0.0297943       0.00031923     7.48394e-05       -0.0635348        0.137517
281738                 0.0374226       0.0157321     -0.000327041    -7.87608e-05         0.674467        0.726599      4.77508e-05    -6.76386e-05
                    -0.000263628    -9.42299e-05        0.0730899         0.13318      0.000155452    -8.04516e-05         0.982691      -0.0301624
                        0.674163        0.726515      3.85748e-05    -0.000102613       -0.0130185      -0.0357939      0.000403768     0.000131183
                     6.13023e-05    -0.000123577         0.983048      -0.0301172      0.000319238      7.4995e-05       -0.0634597        0.137573
281740                 0.0374198       0.0157543     -0.000327023    -7.85578e-05         0.674742        0.726344      4.78551e-05    -6.77395e-05
                     -0.00026364    -9.41667e-05        0.0731061        0.133193      0.000155358    -8.05691e-05         0.982678      -0.0304847
                        0.674437        0.726261      3.86264e-05    -0.000102625       -0.0130683      -0.0357829      0.000404262     0.000130862
                     6.12513e-05    -0.000123578         0.983036      -0.0304402      0.000319246     7.51535e-05       -0.0633846        0.137628
281742                 0.0374169       0.0157766     -0.000327005    -7.83551e-05         0.675017        0.726089      4.79582e-05    -6.78416e-05
                    -0.000263652    -9.41034e-05        0.0731223        0.133206      0.000155264    -8.06867e-05         0.982665       -0.030807
                        0.674712        0.726006      3.86774e-05    -0.000102636       -0.0131181      -0.0357717      0.000404752      0.00013054
                     6.12007e-05    -0.000123578         0.983023      -0.0307631      0.000319254      7.5315e-05       -0.0633095        0.137683
281744                 0.0374141       0.0157989     -0.000326987    -7.81527e-05         0.675292        0.725833        4.806e-05     -6.7945e-05
                    -0.000263665      -9.404e-05        0.0731384        0.133219       0.00015517    -8.08045e-05         0.982652      -0.0311293
                        0.674986        0.725751      3.87277e-05    -0.000102648       -0.0131678      -0.0357606      0.000405237     0.000130216
                     6.11505e-05    -0.000123577         0.983011       -0.031086       0.00031926     7.54796e-05       -0.0632343        0.137739
281746                 0.0374112       0.0158212     -0.000326969    -7.79506e-05         0.675566        0.725577      4.81605e-05    -6.80496e-05
                    -0.000263678    -9.39765e-05        0.0731546        0.133232      0.000155075    -8.09224e-05         0.982639      -0.0314515
                         0.67526        0.725497      3.87774e-05     -0.00010266       -0.0132176      -0.0357494      0.000405717      0.00012989
                     6.11007e-05    -0.000123576         0.982998      -0.0314089      0.000319266     7.56473e-05       -0.0631591        0.137794
281748                 0.0374084       0.0158434     -0.000326951    -7.77488e-05         0.675841        0.725322      4.82598e-05    -6.81555e-05
                    -0.000263692    -9.39129e-05        0.0731708        0.133245      0.000154981    -8.10405e-05         0.982626      -0.0317738
                        0.675534        0.725242      3.88266e-05    -0.000102672       -0.0132673      -0.0357381      0.000406192     0.000129564
                     6.10514e-05    -0.000123573         0.982985      -0.0317318       0.00031927      7.5818e-05       -0.0630838        0.137849
281750                 0.0374055       0.0158657     -0.000326933    -7.75473e-05         0.676115        0.725066      4.83577e-05    -6.82626e-05
                    -0.000263707    -9.38491e-05         0.073187        0.133258      0.000154886    -8.11587e-05         0.982613       -0.032096
                        0.675808        0.724986      3.88751e-05    -0.000102685        -0.013317      -0.0357268      0.000406662     0.000129237
                     6.10026e-05     -0.00012357         0.982972      -0.0320547      0.000319272     7.59916e-05       -0.0630085        0.137904
281752                 0.0374027        0.015888     -0.000326915     -7.7346e-05         0.676389         0.72481      4.84543e-05     -6.8371e-05
                    -0.000263721    -9.37851e-05        0.0732032        0.133271      0.000154791    -8.12769e-05         0.982599      -0.0324183
                        0.676082        0.724731       3.8923e-05    -0.000102697       -0.0133667      -0.0357155      0.000407126     0.000128908
                     6.09544e-05    -0.000123566         0.982959      -0.0323775      0.000319273     7.61681e-05       -0.0629331        0.137959
281754                 0.0373999       0.0159103     -0.000326897    -7.71451e-05         0.676663        0.724554      4.85493e-05    -6.84806e-05
                    -0.000263737     -9.3721e-05        0.0732193        0.133284      0.000154696    -8.13951e-05         0.982586      -0.0327405
                        0.676356        0.724476      3.89704e-05     -0.00010271       -0.0134164      -0.0357041      0.000407584      0.00012858
                     6.09069e-05    -0.000123561         0.982946      -0.0327004      0.000319272     7.63473e-05       -0.0628577        0.138014
281756                 0.0373971       0.0159326     -0.000326878    -7.69445e-05         0.676937        0.724298      4.86428e-05    -6.85915e-05
                    -0.000263753    -9.36567e-05        0.0732355        0.133297      0.000154601    -8.15131e-05         0.982572      -0.0330627
                        0.676629        0.724221      3.90171e-05    -0.000102722       -0.0134661      -0.0356927      0.000408036     0.000128252
                     6.08602e-05    -0.000123555         0.982933      -0.0330233      0.000319268     7.65289e-05       -0.0627823        0.138069
281758                 0.0373943       0.0159548      -0.00032686    -7.67441e-05         0.677211        0.724041      4.87345e-05    -6.87034e-05
                    -0.000263769    -9.35921e-05        0.0732517         0.13331      0.000154507    -8.16306e-05         0.982558      -0.0333849
                        0.676903        0.723965      3.90633e-05    -0.000102735       -0.0135158      -0.0356812       0.00040848     0.000127926
                     6.08142e-05    -0.000123549         0.982919      -0.0333461      0.000319262     7.67126e-05       -0.0627068        0.138124
281760                 0.0373915       0.0159771     -0.000326841     -7.6544e-05         0.677485        0.723785      4.88242e-05    -6.88163e-05
                    -0.000263786    -9.35273e-05        0.0732679        0.133323      0.000154414    -8.17475e-05         0.982545      -0.0337071
                        0.677176         0.72371      3.91089e-05    -0.000102748       -0.0135654      -0.0356696      0.000408914     0.000127602
                      6.0769e-05    -0.000123542         0.982906       -0.033669      0.000319253     7.68979e-05       -0.0626313        0.138179
281762                 0.0373887       0.0159994     -0.000326822    -7.63442e-05         0.677759        0.723529      4.89115e-05    -6.89301e-05
                    -0.000263803    -9.34623e-05        0.0732841        0.133336      0.000154323     -8.1863e-05         0.982531      -0.0340293
                        0.677449        0.723454      3.91539e-05    -0.000102761       -0.0136151       -0.035658      0.000409337     0.000127282
