! TOUCHSTONE file generated by CST MICROWAVE STUDIO
! Date and time: Tue Oct 14 17:38:31 2025
! Project name: Teste_Macro_Metasurface_Nanopilar.cst
! Parameters = {H=600; L_x=120; L_y=130; Lambda=1064; Max_L=200; Min_L=70; PathPara=1; Phi=0; Step_L=10; Theta=0; p=520; phaseX=180; phaseY=0}
! Header version: 2018
! Port assignment regex: !\s*Touchstone port\s*([0-9]+)\s*=\s*(CST MWS port|CST DS port)\s*([0-9]+|Zmin|Zmax)\s*\(\"(.*)\"\)(\s*mode\s*([0-9]+))?.*
! Touchstone port assignment:
! Touchstone port 1 = CST MWS port Zmax ("") mode 1
! Touchstone port 2 = CST MWS port Zmax ("") mode 2
! Touchstone port 3 = CST MWS port Zmin ("") mode 1
! Touchstone port 4 = CST MWS port Zmin ("") mode 2
! S-Parameters are not renormalized. Each port impedance will be approximated by the real part at minimum frequency. The values are described via the [Reference] keyword.
! Default impedance is overridden by [Reference]
[Version] 2.0
# GHz S RI R 376.73
[Number of Ports] 4
[Reference]
376.73 376.73 259.814 259.814 
[Number of Frequencies] 51
[Network Data]
281700                 0.0193632       0.0643499     -0.000166696     0.000850757         0.830425        0.539746      0.000292194     6.51654e-05
                    -0.000172519     0.000911925        0.0402396      -0.0240581       -4.522e-05    -0.000291747         0.399699         0.90577
                        0.830665        0.539231     -3.48341e-05    -0.000326581       -0.0662762       0.0107548     -0.000949804     2.72765e-05
                     0.000189457     0.000106473         0.398749        0.905867     -0.000781667    -1.08012e-05        0.0433603      -0.0108884
281702                 0.0193751       0.0643741     -0.000166292     0.000851019          0.83062        0.539443      0.000292253     6.49673e-05
                    -0.000172098     0.000912195        0.0402241      -0.0240349     -4.53893e-05    -0.000291757         0.400058        0.905613
                         0.83086        0.538928      -3.4967e-05      -0.0003266       -0.0662954       0.0108017     -0.000950012     2.75388e-05
                     0.000189578     0.000106377         0.399109        0.905711     -0.000781839    -1.05378e-05        0.0433238      -0.0109271
281704                 0.0193869       0.0643982     -0.000165887      0.00085128         0.830816         0.53914      0.000292311     6.47692e-05
                    -0.000171676     0.000912465        0.0402087      -0.0240118     -4.55586e-05    -0.000291766         0.400416        0.905455
                        0.831055        0.538625     -3.50998e-05    -0.000326619       -0.0663146       0.0108487     -0.000950221     2.78011e-05
                     0.000189699     0.000106281         0.399469        0.905554     -0.000782012    -1.02745e-05        0.0432873      -0.0109657
281706                 0.0193987       0.0644223     -0.000165482     0.000851541         0.831011        0.538837      0.000292369     6.45709e-05
                    -0.000171255     0.000912735        0.0401932      -0.0239887     -4.57278e-05    -0.000291775         0.400775        0.905297
                         0.83125        0.538322     -3.52325e-05    -0.000326637       -0.0663338       0.0108957     -0.000950429     2.80634e-05
                      0.00018982     0.000106185         0.399829        0.905397     -0.000782185    -1.00113e-05        0.0432507      -0.0110043
281708                 0.0194106       0.0644464     -0.000165076     0.000851803         0.831206        0.538534      0.000292427     6.43726e-05
                    -0.000170833     0.000913005        0.0401777      -0.0239656     -4.58969e-05    -0.000291785         0.401134         0.90514
                        0.831445        0.538019     -3.53651e-05    -0.000326656       -0.0663529       0.0109428     -0.000950638     2.83258e-05
                     0.000189941     0.000106089         0.400189         0.90524     -0.000782357    -9.74822e-06        0.0432142      -0.0110428
281710                 0.0194224       0.0644705      -0.00016467     0.000852064         0.831402        0.538231      0.000292485     6.41742e-05
                    -0.000170411     0.000913274        0.0401623      -0.0239424      -4.6066e-05    -0.000291794         0.401492        0.904982
                         0.83164        0.537716     -3.54976e-05    -0.000326674        -0.066372       0.0109898     -0.000950846     2.85882e-05
                     0.000190062     0.000105993         0.400548        0.905083     -0.000782529    -9.48519e-06        0.0431776      -0.0110813
281712                 0.0194343       0.0644946     -0.000164265     0.000852324         0.831597        0.537927      0.000292543     6.39758e-05
                    -0.000169989     0.000913544        0.0401468      -0.0239193     -4.62351e-05    -0.000291803         0.401851        0.904824
                        0.831834        0.537413       -3.563e-05    -0.000326692       -0.0663911       0.0110369     -0.000951054     2.88506e-05
                     0.000190183     0.000105896         0.400908        0.904926     -0.000782702    -9.22226e-06        0.0431409      -0.0111198
281714                 0.0194461       0.0645187     -0.000163858     0.000852585         0.831792        0.537624      0.000292601     6.37772e-05
                    -0.000169567     0.000913813        0.0401314      -0.0238961     -4.64041e-05    -0.000291812         0.402209        0.904665
                        0.832029         0.53711     -3.57623e-05    -0.000326709       -0.0664102       0.0110841     -0.000951262     2.91131e-05
                     0.000190303       0.0001058         0.401267        0.904768     -0.000782874    -8.95941e-06        0.0431043      -0.0111582
281716                  0.019458       0.0645428     -0.000163452     0.000852846         0.831986        0.537321      0.000292659     6.35786e-05
                    -0.000169145     0.000914082         0.040116       -0.023873      -4.6573e-05    -0.000291821         0.402568        0.904507
                        0.832223        0.536807     -3.58946e-05    -0.000326727       -0.0664292       0.0111312      -0.00095147     2.93756e-05
                     0.000190423     0.000105703         0.401627         0.90461     -0.000783046    -8.69666e-06        0.0430676      -0.0111965
281718                 0.0194699       0.0645669     -0.000163045     0.000853106         0.832181        0.537017      0.000292716     6.33799e-05
                    -0.000168722     0.000914351        0.0401005      -0.0238498     -4.67419e-05     -0.00029183         0.402926        0.904349
                        0.832417        0.536503     -3.60267e-05    -0.000326744       -0.0664481       0.0111784     -0.000951678     2.96381e-05
                     0.000190544     0.000105607         0.401986        0.904453     -0.000783218    -8.43399e-06        0.0430308      -0.0112349
281720                 0.0194817        0.064591     -0.000162638     0.000853367         0.832376        0.536714      0.000292774     6.31811e-05
                    -0.000168299      0.00091462        0.0400851      -0.0238267     -4.69108e-05    -0.000291839         0.403284         0.90419
                        0.832611          0.5362     -3.61587e-05    -0.000326761       -0.0664671       0.0112256     -0.000951885     2.99007e-05
                     0.000190664      0.00010551         0.402345        0.904295     -0.000783389    -8.17141e-06        0.0429941      -0.0112731
281722                 0.0194936        0.064615     -0.000162231     0.000853627          0.83257        0.536411      0.000292831     6.29823e-05
                    -0.000167876     0.000914889        0.0400697      -0.0238035     -4.70797e-05    -0.000291847         0.403643        0.904031
                        0.832805        0.535896     -3.62906e-05    -0.000326777       -0.0664859       0.0112728     -0.000952093     3.01634e-05
                     0.000190784     0.000105414         0.402704        0.904137     -0.000783561     -7.9089e-06        0.0429573      -0.0113114
281724                 0.0195055       0.0646391     -0.000161823     0.000853887         0.832765        0.536107      0.000292888     6.27833e-05
                    -0.000167453     0.000915157        0.0400543      -0.0237803     -4.72484e-05    -0.000291856         0.404001        0.903872
                        0.832999        0.535593     -3.64224e-05    -0.000326794       -0.0665048         0.01132       -0.0009523      3.0426e-05
                     0.000190903     0.000105317         0.403063        0.903979     -0.000783732    -7.64647e-06        0.0429204      -0.0113496
281726                 0.0195174       0.0646632     -0.000161416     0.000854147         0.832959        0.535803      0.000292945     6.25843e-05
                    -0.000167029     0.000915425         0.040039      -0.0237572     -4.74172e-05    -0.000291865         0.404359        0.903713
                        0.833193        0.535289     -3.65541e-05     -0.00032681       -0.0665236       0.0113673     -0.000952507     3.06887e-05
                     0.000191023      0.00010522         0.403423         0.90382     -0.000783904    -7.38409e-06        0.0428836      -0.0113878
281728                 0.0195293       0.0646872     -0.000161008     0.000854407         0.833153          0.5355      0.000293002     6.23852e-05
                    -0.000166606     0.000915693        0.0400236       -0.023734     -4.75859e-05    -0.000291873         0.404717        0.903554
                        0.833386        0.534986     -3.66858e-05    -0.000326826       -0.0665424       0.0114146     -0.000952714     3.09515e-05
                     0.000191143     0.000105123         0.403782        0.903662     -0.000784075    -7.12176e-06        0.0428467      -0.0114259
281730                 0.0195412       0.0647113     -0.000160599     0.000854667         0.833347        0.535196      0.000293059      6.2186e-05
                    -0.000166182     0.000915961        0.0400082      -0.0237108     -4.77545e-05    -0.000291882         0.405075        0.903395
                         0.83358        0.534682     -3.68173e-05    -0.000326842       -0.0665612       0.0114619     -0.000952921     3.12143e-05
                     0.000191262     0.000105026          0.40414        0.903503     -0.000784246    -6.85943e-06        0.0428098      -0.0114639
281732                 0.0195531       0.0647353     -0.000160191     0.000854926         0.833541        0.534892      0.000293116     6.19868e-05
                    -0.000165758     0.000916229        0.0399929      -0.0236876     -4.79232e-05     -0.00029189         0.405433        0.903235
                        0.833773        0.534378     -3.69487e-05    -0.000326858       -0.0665799       0.0115093     -0.000953128     3.14771e-05
                     0.000191381     0.000104928         0.404499        0.903345     -0.000784418    -6.59705e-06        0.0427728       -0.011502
281734                  0.019565       0.0647594     -0.000159782     0.000855186         0.833734        0.534588      0.000293173     6.17874e-05
                    -0.000165334     0.000916497        0.0399775      -0.0236644     -4.80917e-05    -0.000291898          0.40579        0.903075
                        0.833967        0.534074       -3.708e-05    -0.000326873       -0.0665986       0.0115567     -0.000953334       3.174e-05
                       0.0001915     0.000104831         0.404858        0.903186     -0.000784589     -6.3345e-06        0.0427358        -0.01154
281736                 0.0195769       0.0647834     -0.000159373     0.000855445         0.833928        0.534284      0.000293229      6.1588e-05
                    -0.000164909     0.000916764        0.0399622      -0.0236412     -4.82603e-05    -0.000291906         0.406148        0.902916
                         0.83416        0.533771     -3.72112e-05    -0.000326888       -0.0666172       0.0116041     -0.000953541      3.2003e-05
                     0.000191619     0.000104734         0.405217        0.903027     -0.000784761    -6.07152e-06        0.0426988      -0.0115779
281738                 0.0195888       0.0648075     -0.000158964     0.000855704         0.834122         0.53398      0.000293285     6.13885e-05
                    -0.000164485     0.000917031        0.0399468       -0.023618     -4.84288e-05    -0.000291914         0.406506        0.902756
                        0.834353        0.533467     -3.73422e-05    -0.000326903       -0.0666358       0.0116515     -0.000953747     3.22659e-05
                     0.000191738     0.000104636         0.405575        0.902868     -0.000784933    -5.80736e-06        0.0426618      -0.0116158
281740                 0.0196008       0.0648315     -0.000158554     0.000855964         0.834315        0.533676      0.000293342     6.11889e-05
                     -0.00016406     0.000917298        0.0399315      -0.0235948     -4.85974e-05     -0.00029192         0.406863        0.902596
                        0.834546        0.533163     -3.74732e-05    -0.000326918       -0.0666544       0.0116989     -0.000953954      3.2529e-05
                     0.000191857     0.000104538         0.405934        0.902708     -0.000785108    -5.53887e-06        0.0426247      -0.0116537
281742                 0.0196127       0.0648555     -0.000158144     0.000856223         0.834508        0.533372      0.000293398     6.09893e-05
                    -0.000163636     0.000917564        0.0399162      -0.0235716     -4.87708e-05    -0.000291912         0.407221        0.902436
                        0.834738        0.532858     -3.76041e-05    -0.000326933        -0.066673       0.0117465      -0.00095416      3.2792e-05
                     0.000191975      0.00010444         0.406292        0.902549     -0.000785297    -5.21504e-06        0.0425876      -0.0116915
281744                 0.0196246       0.0648796     -0.000157734     0.000856481         0.834702        0.533068      0.000293454     6.07895e-05
                    -0.000163211      0.00091783        0.0399009      -0.0235483     -4.89349e-05    -0.000291949         0.407578        0.902275
                        0.834931        0.532554     -3.77349e-05    -0.000326947       -0.0666915       0.0117939     -0.000954366     3.30552e-05
                     0.000192093     0.000104342         0.406651        0.902389     -0.000785411    -5.05613e-06        0.0425505      -0.0117293
281746                 0.0196366       0.0649036     -0.000157324      0.00085674         0.834895        0.532764      0.000293509     6.05897e-05
                    -0.000162786     0.000918094        0.0398856      -0.0235251     -4.91025e-05    -0.000291953         0.407935        0.902115
                        0.835124         0.53225     -3.78656e-05    -0.000326962       -0.0667099       0.0118414     -0.000954572     3.33184e-05
                     0.000192211     0.000104244         0.407009         0.90223     -0.000785596    -4.78231e-06        0.0425133      -0.0117671
281748                 0.0196485       0.0649276     -0.000156913     0.000856999         0.835088        0.532459      0.000293565     6.03898e-05
                    -0.000162365     0.000918342        0.0398703      -0.0235019     -4.92707e-05    -0.000291959         0.408293        0.901954
                        0.835316        0.531946     -3.79962e-05    -0.000326976       -0.0667284        0.011889     -0.000954777     3.35816e-05
                     0.000192329     0.000104143         0.407368         0.90207      -0.00078577    -4.51768e-06        0.0424761      -0.0118048
281750                 0.0196605       0.0649516     -0.000156502     0.000857257          0.83528        0.532155       0.00029362     6.01898e-05
                    -0.000161928     0.000918644         0.039855      -0.0234786     -4.94389e-05    -0.000291967          0.40865        0.901793
                        0.835509        0.531642     -3.81268e-05     -0.00032699       -0.0667468       0.0119365     -0.000954983     3.38449e-05
                     0.000192449     0.000104052         0.407726         0.90191     -0.000785941    -4.25516e-06        0.0424389      -0.0118424
281752                 0.0196724       0.0649756     -0.000156091     0.000857514         0.835473         0.53185      0.000293676     5.99898e-05
                    -0.000161505     0.000918904        0.0398398      -0.0234554      -4.9607e-05    -0.000291974         0.409007        0.901632
                        0.835701        0.531337     -3.82578e-05    -0.000327005       -0.0667651       0.0119841     -0.000955188     3.41082e-05
                     0.000192566     0.000103952         0.408084         0.90175     -0.000786111    -3.99353e-06        0.0424016        -0.01188
281754                 0.0196844       0.0649996      -0.00015568     0.000857777         0.835666        0.531546      0.000293731     5.97897e-05
                     -0.00016108     0.000919168        0.0398245      -0.0234322     -4.97752e-05    -0.000291982         0.409364        0.901471
                        0.835893        0.531033     -3.83853e-05     -0.00032701       -0.0667835       0.0120318     -0.000955394     3.43717e-05
                     0.000192683     0.000103854         0.408442        0.901589     -0.000786281    -3.73238e-06        0.0423644      -0.0119176
281756                 0.0196964       0.0650236     -0.000155268     0.000858033         0.835858        0.531241      0.000293785     5.95881e-05
                    -0.000160654     0.000919433        0.0398093      -0.0234089     -4.99433e-05     -0.00029199         0.409721         0.90131
                        0.836085        0.530728     -3.85165e-05    -0.000327027       -0.0668018       0.0120794       -0.0009556     3.46359e-05
                     0.000192801     0.000103755           0.4088        0.901429      -0.00078645    -3.47158e-06         0.042327      -0.0119551
281758                 0.0197084       0.0650476     -0.000154856      0.00085829         0.836051        0.530937      0.000293841     5.93888e-05
                    -0.000160228     0.000919698         0.039794      -0.0233856     -5.01114e-05    -0.000291998         0.410078        0.901149
                        0.836277        0.530424     -3.86467e-05    -0.000327041         -0.06682       0.0121271     -0.000955804     3.48985e-05
                     0.000192918     0.000103656         0.409158        0.901268     -0.000786619    -3.21102e-06        0.0422897      -0.0119926
281760                 0.0197203       0.0650716     -0.000154443     0.000858548         0.836243        0.530632      0.000293896     5.91885e-05
                    -0.000159802     0.000919963        0.0397788      -0.0233624     -5.02795e-05    -0.000292005         0.410435        0.900988
                        0.836469        0.530119     -3.87766e-05    -0.000327054       -0.0668382       0.0121748     -0.000956009     3.51621e-05
                     0.000193035     0.000103558         0.409516        0.901108     -0.000786788    -2.95069e-06        0.0422523      -0.0120301
281762                 0.0197323       0.0650956     -0.000154031     0.000858806         0.836435        0.530327       0.00029395     5.89881e-05
                    -0.000159375     0.000920228        0.0397636      -0.0233391     -5.04475e-05    -0.000292013         0.410792        0.900826
                         0.83666        0.529814     -3.89064e-05    -0.000327067       -0.0668564       0.0122225     -0.000956214     3.54257e-05
