! TOUCHSTONE file generated by CST MICROWAVE STUDIO
! Date and time: Tue Oct 14 17:39:12 2025
! Project name: Teste_Macro_Metasurface_Nanopilar.cst
! Parameters = {H=600; L_x=180; L_y=90; Lambda=1064; Max_L=200; Min_L=70; PathPara=1; Phi=0; Step_L=10; Theta=0; p=520; phaseX=180; phaseY=0}
! Header version: 2018
! Port assignment regex: !\s*Touchstone port\s*([0-9]+)\s*=\s*(CST MWS port|CST DS port)\s*([0-9]+|Zmin|Zmax)\s*\(\"(.*)\"\)(\s*mode\s*([0-9]+))?.*
! Touchstone port assignment:
! Touchstone port 1 = CST MWS port Zmax ("") mode 1
! Touchstone port 2 = CST MWS port Zmax ("") mode 2
! Touchstone port 3 = CST MWS port Zmin ("") mode 1
! Touchstone port 4 = CST MWS port Zmin ("") mode 2
! S-Parameters are not renormalized. Each port impedance will be approximated by the real part at minimum frequency. The values are described via the [Reference] keyword.
! Default impedance is overridden by [Reference]
[Version] 2.0
# GHz S RI R 376.73
[Number of Ports] 4
[Reference]
376.73 376.73 259.814 259.814 
[Number of Frequencies] 51
[Network Data]
281700                -0.0123436       0.0995586      3.84932e-05    -0.000634776        -0.894505       -0.427262     -0.000448402    -0.000235856
                     -6.3362e-05    -0.000612199         0.184849         0.34726     -0.000573089      0.00039521         0.699196       -0.586799
                       -0.894521       -0.427047     -0.000697016     0.000355336       -0.0687408       0.0731006     -0.000124375      0.00048824
                    -0.000388457    -0.000310566         0.699143       -0.586529     -0.000120215     0.000557979         0.311333        0.235908
281702                -0.0123334       0.0995784      3.83838e-05     -0.00063477        -0.894634       -0.426988     -0.000448513    -0.000235788
                      -6.351e-05    -0.000612154         0.184922        0.347317     -0.000572968     0.000395348         0.698942       -0.587045
                        -0.89465       -0.426773     -0.000696938     0.000355559       -0.0687179       0.0731472     -0.000124162     0.000488294
                    -0.000388599    -0.000310482         0.698888       -0.586775     -0.000120119     0.000557973          0.31156        0.235746
281704                -0.0123232       0.0995981      3.82741e-05    -0.000634764        -0.894762       -0.426714     -0.000448625     -0.00023572
                     -6.3658e-05    -0.000612109         0.184995        0.347374     -0.000572847     0.000395486         0.698687        -0.58729
                       -0.894778       -0.426499     -0.000696859     0.000355781        -0.068695       0.0731939     -0.000123948     0.000488348
                    -0.000388741    -0.000310398         0.698633        -0.58702     -0.000120023     0.000557967         0.311787        0.235585
281706                 -0.012313       0.0996179      3.81642e-05    -0.000634759         -0.89489        -0.42644     -0.000448737    -0.000235652
                     -6.3806e-05    -0.000612064         0.185067        0.347431     -0.000572726     0.000395625         0.698432       -0.587535
                       -0.894906       -0.426225      -0.00069678     0.000356003        -0.068672       0.0732405     -0.000123735     0.000488401
                    -0.000388883    -0.000310313         0.698378       -0.587266     -0.000119927     0.000557961         0.312013        0.235423
281708                -0.0123028       0.0996376       3.8054e-05    -0.000634753        -0.895018       -0.426166     -0.000448849    -0.000235584
                    -6.39539e-05    -0.000612018          0.18514        0.347487     -0.000572604     0.000395763         0.698178       -0.587779
                       -0.895034       -0.425951       -0.0006967     0.000356226       -0.0686491       0.0732871      -0.00012352     0.000488454
                    -0.000389025    -0.000310229         0.698123       -0.587511     -0.000119832     0.000557955          0.31224        0.235261
281710                -0.0122926       0.0996574      3.79436e-05    -0.000634748        -0.895146       -0.425892     -0.000448962    -0.000235515
                    -6.41018e-05    -0.000611973         0.185213        0.347544     -0.000572483     0.000395901         0.697923       -0.588024
                       -0.895162       -0.425677      -0.00069662     0.000356448       -0.0686261       0.0733338     -0.000123306     0.000488506
                    -0.000389167    -0.000310145         0.697868       -0.587756     -0.000119736      0.00055795         0.312466        0.235099
281712                -0.0122825       0.0996772      3.78329e-05    -0.000634742        -0.895274       -0.425618     -0.000449075    -0.000235447
                    -6.42497e-05    -0.000611928         0.185286        0.347601     -0.000572361     0.000396039         0.697667       -0.588269
                        -0.89529       -0.425403      -0.00069654      0.00035667       -0.0686031       0.0733804     -0.000123091     0.000488557
                    -0.000389309     -0.00031006         0.697613       -0.588001     -0.000119641     0.000557944         0.312693        0.234937
281714                -0.0122723       0.0996969       3.7722e-05    -0.000634737        -0.895402       -0.425344     -0.000449189    -0.000235378
                    -6.43975e-05    -0.000611883         0.185359        0.347657     -0.000572239     0.000396177         0.697412       -0.588513
                       -0.895418       -0.425128     -0.000696459     0.000356892         -0.06858        0.073427     -0.000122876     0.000488608
                    -0.000389451    -0.000309976         0.697357       -0.588246     -0.000119546     0.000557938         0.312919        0.234774
281716                 -0.012262       0.0997167      3.76108e-05    -0.000634732         -0.89553       -0.425069     -0.000449304     -0.00023531
                    -6.45453e-05    -0.000611837         0.185432        0.347714     -0.000572118     0.000396315         0.697157       -0.588758
                       -0.895545       -0.424854     -0.000696378     0.000357115       -0.0685569       0.0734736      -0.00012266     0.000488659
                    -0.000389593    -0.000309891         0.697102       -0.588491      -0.00011945     0.000557932         0.313145        0.234611
281718                -0.0122518       0.0997364      3.74993e-05    -0.000634727        -0.895658       -0.424795     -0.000449419    -0.000235241
                     -6.4693e-05    -0.000611792         0.185505        0.347771     -0.000571996     0.000396453         0.696901       -0.589002
                       -0.895673        -0.42458     -0.000696296     0.000357337       -0.0685338       0.0735202     -0.000122444     0.000488708
                    -0.000389735    -0.000309806         0.696846       -0.588735     -0.000119355     0.000557927         0.313372        0.234448
281720                -0.0122416       0.0997562      3.73876e-05    -0.000634722        -0.895786       -0.424521     -0.000449534    -0.000235172
                    -6.48407e-05    -0.000611746         0.185578        0.347828     -0.000571874     0.000396591         0.696646       -0.589246
                         -0.8958       -0.424306     -0.000696214     0.000357559       -0.0685106       0.0735668     -0.000122228     0.000488758
                    -0.000389877    -0.000309721          0.69659        -0.58898      -0.00011926     0.000557921         0.313598        0.234285
281722                -0.0122314       0.0997759      3.72756e-05    -0.000634718        -0.895913       -0.424246      -0.00044965    -0.000235102
                    -6.49884e-05      -0.0006117         0.185651        0.347885     -0.000571752     0.000396728          0.69639        -0.58949
                       -0.895928       -0.424031     -0.000696131     0.000357781       -0.0684875       0.0736135     -0.000122011     0.000488806
                    -0.000390018    -0.000309637         0.696334       -0.589224     -0.000119165     0.000557915         0.313824        0.234122
281724                -0.0122212       0.0997957      3.71634e-05    -0.000634713        -0.896041       -0.423972     -0.000449766    -0.000235033
                     -6.5136e-05    -0.000611655         0.185724        0.347941      -0.00057163     0.000396866         0.696134       -0.589734
                       -0.896055       -0.423757     -0.000696048     0.000358004       -0.0684643       0.0736601     -0.000121794     0.000488854
                     -0.00039016    -0.000309552         0.696078       -0.589469     -0.000119071      0.00055791          0.31405        0.233959
281726                 -0.012211       0.0998154       3.7051e-05    -0.000634709        -0.896168       -0.423697     -0.000449883    -0.000234963
                    -6.52836e-05    -0.000611609         0.185797        0.347998     -0.000571507     0.000397003         0.695878       -0.589978
                       -0.896182       -0.423482     -0.000695965     0.000358226        -0.068441       0.0737066     -0.000121577     0.000488902
                    -0.000390302    -0.000309467         0.695822       -0.589713     -0.000118976     0.000557904         0.314277        0.233795
281728                -0.0122007       0.0998352      3.69383e-05    -0.000634704        -0.896296       -0.423423     -0.000450001    -0.000234893
                    -6.54312e-05    -0.000611563          0.18587        0.348055     -0.000571385     0.000397141         0.695622       -0.590222
                        -0.89631       -0.423208     -0.000695881     0.000358448       -0.0684177       0.0737532     -0.000121359     0.000488949
                    -0.000390444    -0.000309381         0.695565       -0.589957     -0.000118882     0.000557899         0.314503        0.233631
281730                -0.0121905       0.0998549      3.68254e-05      -0.0006347        -0.896423       -0.423148     -0.000450119    -0.000234823
                    -6.55787e-05    -0.000611517         0.185943        0.348112     -0.000571262     0.000397278         0.695366       -0.590466
                       -0.896437       -0.422933     -0.000695797      0.00035867       -0.0683945       0.0737998     -0.000121141     0.000488995
                    -0.000390585    -0.000309296         0.695309       -0.590201     -0.000118787     0.000557893         0.314729        0.233467
281732                -0.0121802       0.0998747      3.67122e-05    -0.000634696         -0.89655       -0.422873     -0.000450237    -0.000234753
                    -6.57262e-05    -0.000611471         0.186017        0.348169      -0.00057114     0.000397416          0.69511       -0.590709
                       -0.896564       -0.422659     -0.000695713     0.000358892       -0.0683711       0.0738464     -0.000120923     0.000489041
                    -0.000390727    -0.000309211         0.695052       -0.590445     -0.000118693     0.000557888         0.314955        0.233303
281734                  -0.01217       0.0998944      3.65988e-05    -0.000634692        -0.896677       -0.422599     -0.000450356    -0.000234683
                    -6.58737e-05    -0.000611425          0.18609        0.348226     -0.000571017     0.000397553         0.694853       -0.590953
                       -0.896691       -0.422384     -0.000695628     0.000359114       -0.0683478        0.073893     -0.000120704     0.000489086
                    -0.000390869    -0.000309126         0.694796       -0.590689     -0.000118598     0.000557882         0.315181        0.233138
281736                -0.0121598       0.0999142      3.64852e-05    -0.000634688        -0.896804       -0.422324     -0.000450475    -0.000234612
                    -6.60211e-05    -0.000611379         0.186163        0.348282     -0.000570894      0.00039769         0.694597       -0.591196
                       -0.896818       -0.422109     -0.000695543     0.000359336       -0.0683244       0.0739396     -0.000120484     0.000489131
                     -0.00039101     -0.00030904         0.694539       -0.590933     -0.000118504     0.000557877         0.315407        0.232974
281738                -0.0121495       0.0999339      3.63713e-05    -0.000634684        -0.896931       -0.422049     -0.000450595    -0.000234541
                    -6.61685e-05    -0.000611333         0.186237        0.348339     -0.000570772     0.000397827          0.69434        -0.59144
                       -0.896944       -0.421835     -0.000695457     0.000359558        -0.068301       0.0739861     -0.000120265     0.000489175
                    -0.000391152    -0.000308955         0.694282       -0.591177      -0.00011841     0.000557872         0.315632        0.232809
281740                -0.0121392       0.0999536      3.62572e-05     -0.00063468        -0.897058       -0.421774     -0.000450716     -0.00023447
                    -6.63159e-05    -0.000611286          0.18631        0.348396     -0.000570649     0.000397965         0.694083       -0.591683
                       -0.897071        -0.42156     -0.000695371      0.00035978       -0.0682775       0.0740327     -0.000120045     0.000489218
                    -0.000391294    -0.000308869         0.694025        -0.59142     -0.000118316     0.000557866         0.315858        0.232644
281742                 -0.012129       0.0999734      3.61428e-05    -0.000634676        -0.897185         -0.4215     -0.000450837    -0.000234399
                    -6.64633e-05     -0.00061124         0.186384        0.348453     -0.000570525     0.000398102         0.693826       -0.591926
                       -0.897198       -0.421285     -0.000695284     0.000360002        -0.068254       0.0740792     -0.000119824     0.000489261
                    -0.000391435    -0.000308784         0.693768       -0.591664     -0.000118223     0.000557861         0.316084        0.232479
281744                -0.0121187       0.0999931      3.60282e-05    -0.000634673        -0.897312       -0.421225     -0.000450958    -0.000234327
                    -6.66106e-05    -0.000611194         0.186457         0.34851     -0.000570402     0.000398239         0.693569       -0.592169
                       -0.897324        -0.42101     -0.000695198     0.000360224       -0.0682305       0.0741258     -0.000119604     0.000489303
                    -0.000391577    -0.000308698          0.69351       -0.591907     -0.000118129     0.000557856          0.31631        0.232313
281746                -0.0121084        0.100013      3.59134e-05    -0.000634669        -0.897438        -0.42095      -0.00045108    -0.000234256
                    -6.67579e-05    -0.000611147         0.186531        0.348567     -0.000570279     0.000398376         0.693312       -0.592412
                       -0.897451       -0.420735     -0.000695111     0.000360446        -0.068207       0.0741724     -0.000119382     0.000489345
                    -0.000391719    -0.000308612         0.693253        -0.59215     -0.000118035     0.000557851         0.316535        0.232148
281748                -0.0120982        0.100033      3.57984e-05    -0.000634666        -0.897565       -0.420675     -0.000451202    -0.000234184
                    -6.69052e-05    -0.000611101         0.186604        0.348624     -0.000570156     0.000398512         0.693055       -0.592655
                       -0.897577        -0.42046     -0.000695023     0.000360668       -0.0681834       0.0742189     -0.000119161     0.000489386
                     -0.00039186    -0.000308526         0.692995       -0.592394     -0.000117942     0.000557845         0.316761        0.231982
281750                -0.0120879        0.100052      3.56832e-05    -0.000634663        -0.897691         -0.4204     -0.000451325    -0.000234111
                    -6.70525e-05    -0.000611054         0.186678        0.348681     -0.000570032     0.000398649         0.692797       -0.592897
                       -0.897703       -0.420185     -0.000694935      0.00036089       -0.0681598       0.0742654     -0.000118939     0.000489427
                    -0.000392002     -0.00030844         0.692737       -0.592637     -0.000117848      0.00055784         0.316987        0.231816
281752                -0.0120776        0.100072      3.55677e-05     -0.00063466        -0.897818       -0.420125     -0.000451448    -0.000234039
                    -6.71997e-05    -0.000611007         0.186751        0.348738     -0.000569908     0.000398786          0.69254        -0.59314
                        -0.89783        -0.41991     -0.000694847     0.000361112       -0.0681362        0.074312     -0.000118717     0.000489467
                    -0.000392144    -0.000308354          0.69248        -0.59288     -0.000117755     0.000557835         0.317212         0.23165
281754                -0.0120673        0.100092       3.5452e-05    -0.000634657        -0.897944        -0.41985     -0.000451571    -0.000233966
                     -6.7347e-05     -0.00061096         0.186825        0.348795     -0.000569785     0.000398923         0.692282       -0.593382
                       -0.897956       -0.419635     -0.000694758     0.000361334       -0.0681125       0.0743585     -0.000118494     0.000489507
                    -0.000392286    -0.000308268         0.692222       -0.593122     -0.000117663     0.000557829         0.317438        0.231483
281756                 -0.012057        0.100112      3.53361e-05    -0.000634654         -0.89807       -0.419574     -0.000451696    -0.000233893
                    -6.74942e-05    -0.000610913         0.186899        0.348852      -0.00056966      0.00039906         0.692024       -0.593625
                       -0.898082        -0.41936     -0.000694669     0.000361556       -0.0680888        0.074405     -0.000118271     0.000489545
                    -0.000392428    -0.000308182         0.691964       -0.593365      -0.00011757     0.000557823         0.317663        0.231317
281758                -0.0120467        0.100131      3.52199e-05    -0.000634651        -0.898196       -0.419299      -0.00045182     -0.00023382
                    -6.76415e-05    -0.000610866         0.186973        0.348909     -0.000569536     0.000399198         0.691766       -0.593867
                       -0.898208       -0.419085      -0.00069458     0.000361778       -0.0680651       0.0744516     -0.000118047     0.000489584
                     -0.00039257    -0.000308096         0.691705       -0.593608      -0.00011748     0.000557816         0.317889         0.23115
281760                -0.0120364        0.100151      3.51036e-05    -0.000634648        -0.898323       -0.419024     -0.000451945    -0.000233746
                    -6.77888e-05    -0.000610819         0.187046        0.348966     -0.000569407     0.000399345         0.691508       -0.594109
                       -0.898334        -0.41881      -0.00069449        0.000362       -0.0680414       0.0744981     -0.000117823     0.000489621
                    -0.000392712    -0.000308009         0.691447        -0.59385     -0.000117404     0.000557793         0.318114        0.230983
281762                -0.0120261        0.100171       3.4987e-05    -0.000634645        -0.898448       -0.418749      -0.00045207    -0.000233672
                    -6.79361e-05    -0.000610772          0.18712        0.349023     -0.000569292     0.000399462          0.69125       -0.594351
                       -0.898459       -0.418534       -0.0006944     0.000362221       -0.0680176       0.0745446     -0.000117599     0.000489659
