! TOUCHSTONE file generated by CST MICROWAVE STUDIO
! Date and time: Tue Oct 14 17:38:07 2025
! Project name: Teste_Macro_Metasurface_Nanopilar.cst
! Parameters = {H=600; L_x=90; L_y=80; Lambda=1064; Max_L=200; Min_L=70; PathPara=1; Phi=0; Step_L=10; Theta=0; p=520; phaseX=180; phaseY=0}
! Header version: 2018
! Port assignment regex: !\s*Touchstone port\s*([0-9]+)\s*=\s*(CST MWS port|CST DS port)\s*([0-9]+|Zmin|Zmax)\s*\(\"(.*)\"\)(\s*mode\s*([0-9]+))?.*
! Touchstone port assignment:
! Touchstone port 1 = CST MWS port Zmax ("") mode 1
! Touchstone port 2 = CST MWS port Zmax ("") mode 2
! Touchstone port 3 = CST MWS port Zmin ("") mode 1
! Touchstone port 4 = CST MWS port Zmin ("") mode 2
! S-Parameters are not renormalized. Each port impedance will be approximated by the real part at minimum frequency. The values are described via the [Reference] keyword.
! Default impedance is overridden by [Reference]
[Version] 2.0
# GHz S RI R 376.73
[Number of Ports] 4
[Reference]
376.73 376.73 259.814 259.814 
[Number of Frequencies] 51
[Network Data]
281700                 0.0357394       -0.118272      3.99108e-06    -7.21061e-05        0.0531333       -0.990588      0.000358544    -3.08149e-05
                    -2.95814e-05    -0.000115719         0.021217       -0.102114      0.000314582     2.77429e-05       -0.0551463       -0.992444
                         0.05304       -0.990561      0.000297602      1.4069e-05        0.0228571         0.12149     -0.000117647     0.000264804
                     0.000315164     8.49414e-05       -0.0547655       -0.992517     -1.16774e-05     0.000137184         0.032197       0.0992503
281702                 0.0357269       -0.118272      3.97769e-06    -7.21174e-05        0.0528953       -0.990601       0.00035854    -3.09036e-05
                    -2.95651e-05     -0.00011572        0.0212049       -0.102112      0.000314587     2.76789e-05       -0.0553891        -0.99243
                        0.052802       -0.990574      0.000297588     1.39636e-05         0.022903        0.121478     -0.000117538     0.000265011
                     0.000315213     8.48878e-05       -0.0550082       -0.992504      -1.1635e-05     0.000137163        0.0322333       0.0992337
281704                 0.0357143       -0.118272      3.96433e-06    -7.21285e-05        0.0526572       -0.990615      0.000358536    -3.09922e-05
                    -2.95488e-05    -0.000115721        0.0211928        -0.10211      0.000314591     2.76149e-05       -0.0556318       -0.992417
                       0.0525639       -0.990587      0.000297574      1.3858e-05        0.0229488        0.121466      -0.00011743     0.000265218
                     0.000315261      8.4834e-05       -0.0552509       -0.992491     -1.15926e-05     0.000137141        0.0322695       0.0992172
281706                 0.0357017       -0.118273      3.95103e-06    -7.21396e-05        0.0524192       -0.990628      0.000358532    -3.10809e-05
                    -2.95327e-05    -0.000115723        0.0211806       -0.102108      0.000314596     2.75508e-05       -0.0558746       -0.992404
                       0.0523259         -0.9906       0.00029756     1.37524e-05        0.0229946        0.121454     -0.000117322     0.000265425
                     0.000315309     8.47801e-05       -0.0554936       -0.992478     -1.15502e-05      0.00013712        0.0323058       0.0992006
281708                 0.0356892       -0.118273      3.93778e-06    -7.21506e-05        0.0521811       -0.990641      0.000358529    -3.11695e-05
                    -2.95165e-05    -0.000115724        0.0211685       -0.102105      0.000314601     2.74868e-05       -0.0561173       -0.992391
                       0.0520878       -0.990613      0.000297546     1.36466e-05        0.0230405        0.121442     -0.000117214     0.000265631
                     0.000315358     8.47261e-05       -0.0557363       -0.992465     -1.15078e-05     0.000137099         0.032342        0.099184
281710                 0.0356766       -0.118273      3.92457e-06    -7.21615e-05        0.0519431       -0.990653      0.000358525    -3.12582e-05
                    -2.95005e-05    -0.000115726        0.0211564       -0.102103      0.000314606     2.74228e-05         -0.05636       -0.992377
                       0.0518498       -0.990626      0.000297532     1.35407e-05        0.0230863         0.12143     -0.000117107     0.000265837
                     0.000315406      8.4672e-05        -0.055979       -0.992452     -1.14654e-05     0.000137078        0.0323782       0.0991674
281712                  0.035664       -0.118273      3.91142e-06    -7.21723e-05         0.051705       -0.990666      0.000358521    -3.13468e-05
                    -2.94844e-05    -0.000115727        0.0211443       -0.102101       0.00031461     2.73589e-05       -0.0566027       -0.992364
                       0.0516117       -0.990639      0.000297519     1.34346e-05        0.0231321        0.121418     -0.000116999     0.000266042
                     0.000315455     8.46178e-05       -0.0562217       -0.992439      -1.1423e-05     0.000137056        0.0324145       0.0991508
281714                 0.0356515       -0.118273      3.89831e-06     -7.2183e-05         0.051467       -0.990679      0.000358518    -3.14354e-05
                    -2.94685e-05    -0.000115729        0.0211321       -0.102099      0.000314615     2.72949e-05       -0.0568454        -0.99235
                       0.0513737       -0.990652      0.000297505     1.33284e-05        0.0231779        0.121405     -0.000116892     0.000266248
                     0.000315504     8.45635e-05       -0.0564644       -0.992425     -1.13807e-05     0.000137034        0.0324507       0.0991341
281716                 0.0356389       -0.118274      3.88527e-06    -7.21937e-05        0.0512289       -0.990692      0.000358515    -3.15239e-05
                    -2.94526e-05     -0.00011573          0.02112       -0.102097      0.000314619     2.72309e-05       -0.0570881       -0.992337
                       0.0511356       -0.990665      0.000297491     1.32221e-05        0.0232237        0.121393     -0.000116785     0.000266452
                     0.000315553      8.4509e-05        -0.056707       -0.992412     -1.13384e-05     0.000137013        0.0324869       0.0991175
281718                 0.0356263       -0.118274      3.87228e-06    -7.22042e-05        0.0509908       -0.990704      0.000358512    -3.16124e-05
                    -2.94369e-05    -0.000115732        0.0211079       -0.102094      0.000314624     2.71669e-05       -0.0573309       -0.992323
                       0.0508975       -0.990677      0.000297478     1.31156e-05        0.0232695        0.121381     -0.000116679     0.000266657
                     0.000315602     8.44545e-05       -0.0569497       -0.992398      -1.1296e-05     0.000136991        0.0325231       0.0991008
281720                 0.0356138       -0.118274      3.85935e-06    -7.22147e-05        0.0507527       -0.990717      0.000358509    -3.17008e-05
                    -2.94212e-05    -0.000115733        0.0210958       -0.102092      0.000314629      2.7103e-05       -0.0575735       -0.992309
                       0.0506595        -0.99069      0.000297464     1.30091e-05        0.0233153        0.121369     -0.000116573      0.00026686
                     0.000315651     8.43998e-05       -0.0571924       -0.992385     -1.12537e-05     0.000136969        0.0325592       0.0990842
281722                 0.0356012       -0.118274      3.84647e-06    -7.22251e-05        0.0505147        -0.99073      0.000358507     -3.1789e-05
                    -2.94056e-05    -0.000115735        0.0210836        -0.10209      0.000314633      2.7039e-05       -0.0578162       -0.992296
                       0.0504214       -0.990703       0.00029745     1.29023e-05        0.0233611        0.121356     -0.000116467     0.000267064
                       0.0003157      8.4345e-05       -0.0574351       -0.992371     -1.12114e-05     0.000136948        0.0325954       0.0990675
281724                 0.0355886       -0.118275      3.83366e-06    -7.22353e-05        0.0502766       -0.990742      0.000358505    -3.18771e-05
                    -2.93901e-05    -0.000115737        0.0210715       -0.102088      0.000314638      2.6975e-05       -0.0580589       -0.992282
                       0.0501833       -0.990715      0.000297437     1.27955e-05        0.0234069        0.121344     -0.000116361     0.000267266
                     0.000315749     8.42901e-05       -0.0576778       -0.992358     -1.11692e-05     0.000136926        0.0326316       0.0990508
281726                 0.0355761       -0.118275      3.82091e-06    -7.22455e-05        0.0500385       -0.990755      0.000358503    -3.19648e-05
                    -2.93747e-05    -0.000115738        0.0210594       -0.102086      0.000314642     2.69111e-05       -0.0583016       -0.992268
                       0.0499453       -0.990728      0.000297423     1.26884e-05        0.0234527        0.121332     -0.000116256     0.000267469
                     0.000315798      8.4235e-05       -0.0579204       -0.992344      -1.1127e-05     0.000136904        0.0326677       0.0990341
281728                 0.0355635       -0.118275      3.80823e-06    -7.22556e-05        0.0498004       -0.990767      0.000358502     -3.2052e-05
                    -2.93595e-05     -0.00011574        0.0210473       -0.102084      0.000314646      2.6847e-05       -0.0585443       -0.992254
                       0.0497072        -0.99074       0.00029741     1.25813e-05        0.0234985        0.121319     -0.000116151      0.00026767
                     0.000315848     8.41798e-05       -0.0581631        -0.99233     -1.10848e-05     0.000136882        0.0327039       0.0990174
281730                 0.0355509       -0.118275      3.79561e-06    -7.22656e-05        0.0495623       -0.990779      0.000358501    -3.21387e-05
                    -2.93444e-05    -0.000115741        0.0210351       -0.102081      0.000314651      2.6783e-05        -0.058787        -0.99224
                       0.0494691       -0.990753      0.000297396      1.2474e-05        0.0235442        0.121307     -0.000116047     0.000267871
                     0.000315897     8.41245e-05       -0.0584058       -0.992316     -1.10427e-05     0.000136861          0.03274       0.0990006
281732                 0.0355384       -0.118275      3.78306e-06    -7.22755e-05        0.0493242       -0.990792        0.0003585    -3.22245e-05
                    -2.93295e-05    -0.000115743         0.021023       -0.102079      0.000314655     2.67188e-05       -0.0590296       -0.992226
                        0.049231       -0.990765      0.000297383     1.23666e-05          0.02359        0.121295     -0.000115943     0.000268071
                     0.000315947      8.4069e-05       -0.0586485       -0.992302     -1.10007e-05      0.00013684        0.0327761       0.0989839
281734                 0.0355258       -0.118276      3.77057e-06    -7.22854e-05        0.0490861       -0.990804        0.0003585    -3.23094e-05
                    -2.93147e-05    -0.000115744        0.0210109       -0.102077      0.000314659     2.66545e-05       -0.0592723       -0.992212
                       0.0489929       -0.990777      0.000297369      1.2259e-05        0.0236357        0.121282     -0.000115839     0.000268271
                     0.000315997     8.40134e-05       -0.0588911       -0.992288     -1.09589e-05     0.000136819        0.0328123       0.0989671
281736                 0.0355132       -0.118276      3.75815e-06    -7.22951e-05        0.0488481       -0.990816      0.000358499    -3.23932e-05
                    -2.93002e-05    -0.000115746        0.0209988       -0.102075      0.000314662     2.65897e-05        -0.059515       -0.992198
                       0.0487548       -0.990789      0.000297356     1.21512e-05        0.0236815         0.12127     -0.000115736      0.00026847
                     0.000316047     8.39576e-05       -0.0591338       -0.992274     -1.09175e-05     0.000136801        0.0328484       0.0989503
281738                 0.0355007       -0.118276       3.7458e-06    -7.23047e-05          0.04861       -0.990828      0.000358498     -3.2476e-05
                    -2.92859e-05    -0.000115747        0.0209867       -0.102073      0.000314664     2.65234e-05       -0.0597576       -0.992183
                       0.0485167       -0.990802      0.000297342     1.20434e-05        0.0237272        0.121257     -0.000115633     0.000268667
                     0.000316097     8.39016e-05       -0.0593764        -0.99226     -1.08773e-05     0.000136787        0.0328845       0.0989336
281740                 0.0354881       -0.118276      3.73351e-06    -7.23142e-05        0.0483722        -0.99084      0.000358496    -3.25578e-05
                    -2.92718e-05    -0.000115748        0.0209745        -0.10207      0.000314664     2.64453e-05       -0.0600003       -0.992169
                       0.0482786       -0.990814      0.000297328     1.19354e-05        0.0237729        0.121245     -0.000115531     0.000268864
                     0.000316147     8.38455e-05       -0.0596191       -0.992246     -1.08453e-05     0.000136804        0.0329206       0.0989167
281742                 0.0354755       -0.118276      3.72129e-06    -7.23237e-05        0.0481333       -0.990852      0.000358494    -3.26389e-05
                    -2.92581e-05    -0.000115749        0.0209624       -0.102068      0.000314701     2.64042e-05       -0.0602429       -0.992155
                       0.0480405       -0.990826      0.000297315     1.18272e-05        0.0238187        0.121233      -0.00011543      0.00026906
                     0.000316198     8.37892e-05       -0.0598617       -0.992232     -1.07725e-05     0.000136624        0.0329566       0.0988999
281744                  0.035463       -0.118277      3.70912e-06     -7.2333e-05        0.0478954       -0.990864       0.00035849    -3.27197e-05
                    -2.92448e-05     -0.00011575        0.0209503       -0.102066      0.000314691     2.63413e-05       -0.0604856        -0.99214
                       0.0478024       -0.990838      0.000297301     1.17189e-05        0.0238644         0.12122      -0.00011533     0.000269254
                     0.000316248     8.37327e-05       -0.0601044       -0.992218     -1.07399e-05     0.000136667        0.0329927       0.0988831
281746                 0.0354504       -0.118277      3.69701e-06    -7.23423e-05        0.0476573       -0.990876      0.000358485    -3.28004e-05
                     -2.9232e-05    -0.000115751        0.0209382       -0.102064      0.000314692     2.62766e-05       -0.0607282       -0.992126
                       0.0475643        -0.99085      0.000297288     1.16104e-05        0.0239101        0.121208      -0.00011523     0.000269446
                     0.000316299      8.3676e-05        -0.060347       -0.992203     -1.06998e-05     0.000136655        0.0330288       0.0988663
281748                 0.0354378       -0.118277      3.68494e-06    -7.23514e-05        0.0474192       -0.990888      0.000358479    -3.28814e-05
                    -2.92197e-05    -0.000115752        0.0209261       -0.102062      0.000314695     2.62123e-05       -0.0609709       -0.992111
                       0.0473262       -0.990861      0.000297274     1.15017e-05        0.0239558        0.121195      -0.00011513     0.000269636
                     0.000316351      8.3619e-05       -0.0605897       -0.992189     -1.06584e-05     0.000136637        0.0330648       0.0988494
281750                 0.0354253       -0.118277      3.67289e-06    -7.23604e-05        0.0471811       -0.990899      0.000358472    -3.29627e-05
                    -2.92082e-05    -0.000115752        0.0209139       -0.102059      0.000314699     2.61482e-05       -0.0612135       -0.992097
                       0.0470881       -0.990873      0.000297261     1.13929e-05        0.0240015        0.121183      -0.00011503     0.000269823
                     0.000316403     8.35616e-05       -0.0608323       -0.992175     -1.06167e-05     0.000136616        0.0331009       0.0988325
281752                 0.0354127       -0.118277      3.66084e-06    -7.23693e-05         0.046943       -0.990911      0.000358465    -3.30445e-05
                    -2.91975e-05    -0.000115753        0.0209018       -0.102057      0.000314702     2.60843e-05       -0.0614561       -0.992082
                         0.04685       -0.990885      0.000297247     1.12839e-05        0.0240472         0.12117     -0.000114929     0.000270008
                     0.000316456     8.35038e-05        -0.061075        -0.99216     -1.05748e-05     0.000136594        0.0331369       0.0988157
281754                 0.0354001       -0.118278      3.64872e-06     -7.2378e-05        0.0467049       -0.990923      0.000358458    -3.31265e-05
                    -2.91877e-05    -0.000115754        0.0208897       -0.102055      0.000314706     2.60205e-05       -0.0616987       -0.992067
                       0.0466118       -0.990897      0.000297234     1.11746e-05        0.0240929        0.121157     -0.000114825      0.00027019
                     0.000316512     8.34451e-05       -0.0613176       -0.992145     -1.05328e-05     0.000136571         0.033173       0.0987988
281756                 0.0353876       -0.118278      3.63643e-06    -7.23865e-05        0.0464667       -0.990934      0.000358451    -3.32088e-05
                    -2.91786e-05    -0.000115756        0.0208776       -0.102053       0.00031471     2.59567e-05       -0.0619413       -0.992053
                       0.0463737       -0.990908       0.00029722      1.1065e-05        0.0241386        0.121145     -0.000114719     0.000270372
                     0.000316581     8.33859e-05       -0.0615603       -0.992131     -1.04908e-05     0.000136549         0.033209       0.0987819
281758                  0.035375       -0.118278      3.62373e-06    -7.23946e-05        0.0462286       -0.990946      0.000358443    -3.32913e-05
                    -2.91698e-05    -0.000115759        0.0208655        -0.10205      0.000314714     2.58929e-05       -0.0621838       -0.992038
                       0.0461356        -0.99092      0.000297208      1.0955e-05        0.0241843        0.121132     -0.000114612     0.000270555
                     0.000316604     8.34354e-05       -0.0618029       -0.992116     -1.04488e-05     0.000136526        0.0332448        0.098765
281760                 0.0353624       -0.118278         3.61e-06    -7.24019e-05        0.0459905       -0.990957      0.000358436    -3.33738e-05
                    -2.91607e-05    -0.000115763        0.0208533       -0.102048      0.000314718     2.58292e-05       -0.0624268       -0.992023
                       0.0458974       -0.990931      0.000297195     1.08441e-05        0.0242299         0.12112     -0.000114503     0.000270738
                     0.000316635     8.32956e-05       -0.0620455       -0.992101     -1.04067e-05     0.000136502        0.0332811        0.098748
281762                 0.0353499       -0.118278      3.59313e-06    -7.24062e-05        0.0457523       -0.990969      0.000358428    -3.34562e-05
                    -2.91507e-05    -0.000115768        0.0208412       -0.102046      0.000314722     2.57655e-05       -0.0626694       -0.992008
                       0.0456593       -0.990943      0.000297185     1.07309e-05        0.0242756        0.121107     -0.000114395     0.000270921
