! TOUCHSTONE file generated by CST MICROWAVE STUDIO
! Date and time: Tue Oct 14 17:38:52 2025
! Project name: Teste_Macro_Metasurface_Nanopilar.cst
! Parameters = {H=600; L_x=150; L_y=140; Lambda=1064; Max_L=200; Min_L=70; PathPara=1; Phi=0; Step_L=10; Theta=0; p=520; phaseX=180; phaseY=0}
! Header version: 2018
! Port assignment regex: !\s*Touchstone port\s*([0-9]+)\s*=\s*(CST MWS port|CST DS port)\s*([0-9]+|Zmin|Zmax)\s*\(\"(.*)\"\)(\s*mode\s*([0-9]+))?.*
! Touchstone port assignment:
! Touchstone port 1 = CST MWS port Zmax ("") mode 1
! Touchstone port 2 = CST MWS port Zmax ("") mode 2
! Touchstone port 3 = CST MWS port Zmin ("") mode 1
! Touchstone port 4 = CST MWS port Zmin ("") mode 2
! S-Parameters are not renormalized. Each port impedance will be approximated by the real part at minimum frequency. The values are described via the [Reference] keyword.
! Default impedance is overridden by [Reference]
[Version] 2.0
# GHz S RI R 376.73
[Number of Ports] 4
[Reference]
376.73 376.73 259.814 259.814 
[Number of Frequencies] 51
[Network Data]
281700                  0.140916        0.219109      1.52432e-05     0.000464868         0.818924       -0.501345     -0.000389166     0.000194731
                     3.87412e-05     0.000585367         0.459265        0.486147     -0.000270992     4.90726e-05         0.261548       -0.659467
                        0.819205       -0.501654     -9.72622e-05    -4.56472e-05         0.132711         0.22056      0.000646132    -0.000255113
                    -0.000621297     0.000135713         0.261117       -0.659892      0.000598979    -0.000536044          0.64495       -0.109067
281702                  0.140945         0.21916      1.53952e-05     0.000464726         0.818732       -0.501628     -0.000388571     0.000195577
                     3.93352e-05     0.000585051         0.459846        0.486232     -0.000270731     4.99624e-05         0.260775       -0.659248
                        0.819011       -0.501937      -9.6699e-05     -4.4948e-05         0.132901        0.220512      0.000645356    -0.000254981
                    -0.000621387     0.000136752         0.260343       -0.659675      0.000597736    -0.000536906         0.645232       -0.110075
281704                  0.140975        0.219211      1.55415e-05     0.000464591         0.818539        -0.50191     -0.000387973     0.000196424
                     3.99299e-05     0.000584734         0.460429        0.486316     -0.000270472     5.08552e-05         0.260003       -0.659027
                        0.818817       -0.502221     -9.61239e-05     -4.4227e-05         0.133092        0.220464       0.00064458    -0.000254846
                    -0.000621476     0.000137795         0.259568       -0.659458       0.00059649    -0.000537773         0.645512       -0.111084
281706                  0.141005        0.219262      1.56822e-05     0.000464461         0.818346       -0.502193     -0.000387373      0.00019727
                     4.05252e-05     0.000584416         0.461014        0.486399     -0.000270214     5.17511e-05          0.25923       -0.658805
                        0.818623       -0.502504     -9.55383e-05    -4.34843e-05         0.133283        0.220415      0.000643803    -0.000254708
                    -0.000621563     0.000138842         0.258793       -0.659238      0.000595241    -0.000538645         0.645791       -0.112096
281708                  0.141035        0.219313      1.58169e-05     0.000464338         0.818152       -0.502475      -0.00038677     0.000198116
                     4.11211e-05     0.000584097         0.461599        0.486482     -0.000269958       5.265e-05         0.258456       -0.658582
                        0.818428       -0.502788     -9.49437e-05    -4.27206e-05         0.133474        0.220366      0.000643026    -0.000254567
                    -0.000621649     0.000139891         0.258018       -0.659017       0.00059399    -0.000539521         0.646069       -0.113109
281710                  0.141064        0.219365      1.59455e-05     0.000464221         0.817959       -0.502758     -0.000386164     0.000198963
                     4.17177e-05     0.000583777         0.462185        0.486565     -0.000269702      5.3552e-05         0.257682       -0.658356
                        0.818234       -0.503071     -9.43414e-05    -4.19362e-05         0.133665        0.220317      0.000642248    -0.000254424
                    -0.000621734     0.000140945         0.257242       -0.658795      0.000592735    -0.000540402         0.646345       -0.114125
281712                  0.141094        0.219416       1.6068e-05      0.00046411         0.817765        -0.50304     -0.000385555     0.000199809
                     4.23151e-05     0.000583457         0.462772        0.486646     -0.000269448      5.4457e-05         0.256908       -0.658129
                        0.818039       -0.503354     -9.37329e-05    -4.11319e-05         0.133856        0.220268      0.000641469    -0.000254278
                    -0.000621817     0.000142002         0.256465       -0.658571      0.000591478    -0.000541287          0.64662       -0.115142
281714                  0.141124        0.219467       1.6184e-05     0.000464007         0.817572       -0.503322     -0.000384943     0.000200655
                     4.29131e-05     0.000583136          0.46336        0.486727     -0.000269195     5.53649e-05         0.256133         -0.6579
                        0.817844       -0.503638     -9.31194e-05    -4.03082e-05         0.134047        0.220219       0.00064069    -0.000254129
                    -0.000621899     0.000143063         0.255688       -0.658346      0.000590218    -0.000542177         0.646894       -0.116161
281716                  0.141154        0.219518      1.62934e-05      0.00046391         0.817378       -0.503605     -0.000384329     0.000201501
                     4.35118e-05     0.000582815         0.463949        0.486807     -0.000268943     5.62759e-05         0.255358       -0.657669
                        0.817649       -0.503921     -9.25021e-05     -3.9466e-05         0.134238         0.22017      0.000639911    -0.000253978
                     -0.00062198     0.000144127          0.25491       -0.658119      0.000588955    -0.000543071         0.647166       -0.117182
281718                  0.141184        0.219569      1.63961e-05     0.000463819         0.817184       -0.503887     -0.000383711     0.000202347
                     4.41112e-05     0.000582492          0.46454        0.486886     -0.000268693     5.71897e-05         0.254583       -0.657437
                        0.817454       -0.504204     -9.18823e-05    -3.86061e-05         0.134429        0.220121       0.00063913    -0.000253823
                     -0.00062206     0.000145195         0.254132       -0.657891      0.000587689     -0.00054397         0.647437       -0.118205
281720                  0.141214        0.219621      1.64917e-05     0.000463736          0.81699       -0.504169     -0.000383091     0.000203193
                     4.47113e-05     0.000582169         0.465131        0.486965     -0.000268444     5.81065e-05         0.253807       -0.657203
                        0.817259       -0.504487      -9.1261e-05    -3.77293e-05          0.13462        0.220071      0.000638349    -0.000253666
                    -0.000622138     0.000146266         0.253354       -0.657661      0.000586421    -0.000544873         0.647707        -0.11923
281722                  0.141244        0.219672      1.65802e-05      0.00046366         0.816796       -0.504451     -0.000382468     0.000204039
                     4.53122e-05     0.000581845         0.465724        0.487043     -0.000268195     5.90262e-05         0.253031       -0.656967
                        0.817064        -0.50477     -9.06393e-05    -3.68366e-05         0.134812        0.220021      0.000637568    -0.000253507
                    -0.000622215     0.000147341         0.252575       -0.657429       0.00058515     -0.00054578         0.647975       -0.120256
281724                  0.141273        0.219724      1.66613e-05     0.000463591         0.816601       -0.504733     -0.000381843     0.000204884
                     4.59138e-05      0.00058152         0.466317         0.48712     -0.000267948     5.99487e-05         0.252255       -0.656729
                        0.816868       -0.505053     -9.00181e-05     -3.5929e-05         0.135003        0.219972      0.000636786    -0.000253344
                    -0.000622291     0.000148419         0.251796       -0.657196      0.000583876    -0.000546691         0.648242       -0.121285
281726                  0.141303        0.219775      1.67347e-05      0.00046353         0.816407       -0.505015     -0.000381214      0.00020573
                     4.65162e-05     0.000581194         0.466912        0.487197     -0.000267703     6.08741e-05         0.251478        -0.65649
                        0.816673       -0.505336     -8.93984e-05    -3.50074e-05         0.135194        0.219922      0.000636003    -0.000253179
                    -0.000622366     0.000149501         0.251017       -0.656961      0.000582599    -0.000547606         0.648508       -0.122316
281728                  0.141333        0.219826      1.68003e-05     0.000463476         0.816212       -0.505297     -0.000380582     0.000206576
                     4.71193e-05     0.000580868         0.467507        0.487272     -0.000267458     6.18023e-05         0.250701       -0.656249
                        0.816477       -0.505619     -8.87809e-05    -3.40729e-05         0.135386        0.219872       0.00063522    -0.000253011
                    -0.000622439     0.000150587         0.250237       -0.656724       0.00058132    -0.000548525         0.648772       -0.123348
281730                  0.141363        0.219878      1.68577e-05      0.00046343         0.816017       -0.505579     -0.000379948     0.000207421
                     4.77232e-05      0.00058054         0.468104        0.487348     -0.000267214     6.27334e-05         0.249923       -0.656006
                        0.816281       -0.505902     -8.81663e-05    -3.31263e-05         0.135577        0.219821      0.000634436     -0.00025284
                    -0.000622511     0.000151676         0.249457       -0.656486      0.000580038    -0.000549448         0.649035       -0.124382
281732                  0.141393         0.21993      1.69068e-05     0.000463392         0.815822       -0.505861     -0.000379311     0.000208266
                     4.83278e-05     0.000580212         0.468702        0.487422     -0.000266971     6.36672e-05         0.249146       -0.655761
                        0.816085       -0.506185     -8.75552e-05    -3.21688e-05         0.135768        0.219771      0.000633652    -0.000252666
                    -0.000622582     0.000152769         0.248676       -0.656246      0.000578753    -0.000550375         0.649296       -0.125419
281734                  0.141424        0.219981      1.69472e-05     0.000463362         0.815627       -0.506143     -0.000378671     0.000209111
                     4.89332e-05     0.000579883         0.469301        0.487495      -0.00026673     6.46038e-05         0.248367       -0.655515
                        0.815889       -0.506468     -8.69481e-05    -3.12012e-05          0.13596         0.21972      0.000632867     -0.00025249
                    -0.000622651     0.000153865         0.247896       -0.656004      0.000577465    -0.000551306         0.649556       -0.126457
281736                  0.141454        0.220033      1.69787e-05      0.00046334         0.815432       -0.506425     -0.000378028     0.000209956
                     4.95393e-05     0.000579553         0.469901        0.487568     -0.000266489     6.55431e-05         0.247589       -0.655267
                        0.815693       -0.506751     -8.63455e-05    -3.02245e-05         0.136151         0.21967      0.000632081    -0.000252311
                    -0.000622719     0.000154965         0.247115        -0.65576      0.000576175    -0.000552241         0.649814       -0.127497
281738                  0.141484        0.220084      1.70009e-05     0.000463326         0.815237       -0.506707     -0.000377382     0.000210801
                     5.01462e-05     0.000579222         0.470502         0.48764      -0.00026625     6.64852e-05          0.24681       -0.655017
                        0.815496       -0.507033     -8.57476e-05    -2.92394e-05         0.136343        0.219619      0.000631295    -0.000252128
                    -0.000622786     0.000156068         0.246334       -0.655514      0.000574882    -0.000553179         0.650071       -0.128539
281740                  0.141514        0.220136      1.70136e-05     0.000463321         0.815041       -0.506988     -0.000376733     0.000211646
                     5.07538e-05      0.00057889         0.471104        0.487712     -0.000266011     6.74299e-05         0.246031       -0.654765
                          0.8153       -0.507316     -8.51547e-05    -2.82468e-05         0.136535        0.219568      0.000630508    -0.000251943
                    -0.000622851     0.000157175         0.245553       -0.655267      0.000573586    -0.000554122         0.650327       -0.129583
281742                  0.141544        0.220188      1.70164e-05     0.000463325         0.814846        -0.50727     -0.000376081      0.00021249
                     5.13622e-05     0.000578557         0.471707        0.487782     -0.000265773     6.83774e-05         0.245252       -0.654512
                        0.815103       -0.507599      -8.4567e-05    -2.72473e-05         0.136726        0.219517      0.000629721    -0.000251756
                    -0.000622916     0.000158286         0.244772       -0.655018      0.000572288    -0.000555067         0.650581       -0.130629
281744                  0.141574         0.22024       1.7009e-05     0.000463338          0.81465       -0.507552     -0.000375426     0.000213334
                     5.19712e-05     0.000578224         0.472311        0.487852     -0.000265536     6.93275e-05         0.244472       -0.654257
                        0.814906       -0.507881     -8.39844e-05    -2.62414e-05         0.136918        0.219466      0.000628933    -0.000251565
                    -0.000622978       0.0001594          0.24399       -0.654767      0.000570987    -0.000556017         0.650834       -0.131676
281746                  0.141604        0.220291      1.69911e-05     0.000463359         0.814454       -0.507833     -0.000374769     0.000214179
                      5.2581e-05     0.000577889         0.472916        0.487921     -0.000265301     7.02803e-05         0.243692          -0.654
                        0.814709       -0.508164     -8.34069e-05    -2.52295e-05          0.13711        0.219414      0.000628145    -0.000251371
                     -0.00062304     0.000160518         0.243208       -0.654515      0.000569683    -0.000556969         0.651085       -0.132726
281748                  0.141635        0.220343      1.69622e-05      0.00046339         0.814258       -0.508115     -0.000374108     0.000215023
                     5.31914e-05     0.000577553         0.473522        0.487989     -0.000265066     7.12356e-05         0.242912       -0.653741
                        0.814512       -0.508446     -8.28343e-05    -2.42119e-05         0.137301        0.219363      0.000627356    -0.000251175
                      -0.0006231      0.00016164         0.242427        -0.65426      0.000568376    -0.000557925         0.651335       -0.133778
281750                  0.141665        0.220395      1.69221e-05      0.00046343         0.814062       -0.508397     -0.000373445     0.000215866
                     5.38025e-05     0.000577217          0.47413        0.488057     -0.000264832     7.21936e-05         0.242131        -0.65348
                        0.814315       -0.508729     -8.22664e-05    -2.31884e-05         0.137493        0.219311      0.000626567    -0.000250975
                    -0.000623159     0.000162765         0.241645       -0.654004      0.000567067    -0.000558885         0.651584       -0.134831
281752                  0.141695        0.220447      1.68703e-05      0.00046348         0.813865       -0.508678     -0.000372778      0.00021671
                     5.44143e-05     0.000576879         0.474738        0.488123     -0.000264598     7.31542e-05          0.24135       -0.653218
                        0.814117       -0.509011     -8.17027e-05    -2.21586e-05         0.137685         0.21926      0.000625777    -0.000250773
                    -0.000623216     0.000163893         0.240863       -0.653746      0.000565755    -0.000559848         0.651831       -0.135887
281754                  0.141725        0.220499      1.68065e-05      0.00046354         0.813669        -0.50896     -0.000372109     0.000217553
                     5.50268e-05      0.00057654         0.475348        0.488189     -0.000264366     7.41173e-05         0.240569       -0.652953
                         0.81392       -0.509294     -8.11427e-05    -2.11219e-05         0.137877        0.219208      0.000624986    -0.000250568
                    -0.000623272     0.000165026         0.240081       -0.653486      0.000564441    -0.000560814         0.652076       -0.136944
281756                  0.141756        0.220551      1.67302e-05     0.000463609         0.813472       -0.509241     -0.000371436     0.000218397
                     5.56401e-05     0.000576199         0.475958        0.488254     -0.000264134      7.5083e-05         0.239787       -0.652687
                        0.813722       -0.509576     -8.05857e-05    -2.00768e-05         0.138069        0.219156      0.000624195     -0.00025036
                    -0.000623327     0.000166162         0.239299       -0.653224      0.000563124    -0.000561783          0.65232       -0.138003
281758                  0.141786        0.220603       1.6641e-05     0.000463688         0.813275       -0.509522      -0.00037076      0.00021924
                     5.62541e-05     0.000575858          0.47657        0.488318     -0.000263904     7.60512e-05         0.239005        -0.65242
                        0.813524       -0.509858     -8.00307e-05    -1.90212e-05         0.138261        0.219103      0.000623404    -0.000250148
                    -0.000623381     0.000167301         0.238516        -0.65296      0.000561804    -0.000562756         0.652563       -0.139065
281760                  0.141816        0.220655      1.65386e-05     0.000463777         0.813078       -0.509804     -0.000370082     0.000220082
                     5.68689e-05     0.000575515         0.477183        0.488382     -0.000263673     7.70219e-05         0.238223        -0.65215
                        0.813327        -0.51014     -7.94766e-05    -1.79521e-05         0.138453        0.219051      0.000622612    -0.000249934
                    -0.000623433     0.000168444         0.237734       -0.652695      0.000560481    -0.000563731         0.652803       -0.140128
281762                  0.141847        0.220707      1.64225e-05     0.000463877         0.812881       -0.510085       -0.0003694     0.000220925
                     5.74845e-05     0.000575171         0.477797        0.488445     -0.000263444     7.79951e-05         0.237441       -0.651878
                        0.813128       -0.510422     -7.89221e-05    -1.68649e-05         0.138645        0.218999      0.000621819    -0.000249717
