! TOUCHSTONE file generated by CST MICROWAVE STUDIO
! Date and time: Tue Oct 14 17:38:55 2025
! Project name: Teste_Macro_Metasurface_Nanopilar.cst
! Parameters = {H=600; L_x=150; L_y=190; Lambda=1064; Max_L=200; Min_L=70; PathPara=1; Phi=0; Step_L=10; Theta=0; p=520; phaseX=180; phaseY=0}
! Header version: 2018
! Port assignment regex: !\s*Touchstone port\s*([0-9]+)\s*=\s*(CST MWS port|CST DS port)\s*([0-9]+|Zmin|Zmax)\s*\(\"(.*)\"\)(\s*mode\s*([0-9]+))?.*
! Touchstone port assignment:
! Touchstone port 1 = CST MWS port Zmax ("") mode 1
! Touchstone port 2 = CST MWS port Zmax ("") mode 2
! Touchstone port 3 = CST MWS port Zmin ("") mode 1
! Touchstone port 4 = CST MWS port Zmin ("") mode 2
! S-Parameters are not renormalized. Each port impedance will be approximated by the real part at minimum frequency. The values are described via the [Reference] keyword.
! Default impedance is overridden by [Reference]
[Version] 2.0
# GHz S RI R 376.73
[Number of Ports] 4
[Reference]
376.73 376.73 259.814 259.814 
[Number of Frequencies] 51
[Network Data]
281700                  0.216987       0.0780171      0.000383911     0.000822219         0.295196       -0.923515       -0.0007232    -0.000282174
                     0.000396465     0.000830164         0.170403       0.0217572     -0.000711909    -0.000216435         0.658922       -0.726848
                         0.29527       -0.923568     -0.000731699    -0.000226719         0.220188       0.0597411       0.00095207    -0.000500251
                    -0.000705076    -0.000425488         0.659218       -0.726888      0.000985686    -0.000410237        0.0376442        0.164783
281702                  0.217004       0.0780233      0.000384066     0.000822172         0.294928       -0.923597     -0.000723539    -0.000281837
                       0.0003966     0.000830096         0.170401       0.0217633     -0.000712077    -0.000216365         0.658705       -0.727045
                        0.295001        -0.92365     -0.000731793    -0.000226475          0.22024       0.0596185      0.000952237    -0.000501254
                     -0.00070534    -0.000425241         0.659001       -0.727085      0.000985848    -0.000410626        0.0377483         0.16476
281704                   0.21702       0.0780295      0.000384221     0.000822126         0.294659       -0.923678     -0.000723878      -0.0002815
                     0.000396734     0.000830029           0.1704       0.0217694     -0.000712246    -0.000216294         0.658488       -0.727242
                        0.294732       -0.923732     -0.000731887     -0.00022623         0.220292       0.0594958      0.000952403    -0.000502256
                    -0.000705602    -0.000424992         0.658785       -0.727282       0.00098601    -0.000411016        0.0378524        0.164736
281706                  0.217037       0.0780356      0.000384377     0.000822079         0.294391        -0.92376     -0.000724215    -0.000281163
                     0.000396869     0.000829961         0.170398       0.0217754     -0.000712414    -0.000216224         0.658271       -0.727439
                        0.294463       -0.923814     -0.000731981    -0.000225986         0.220344       0.0593731      0.000952568    -0.000503256
                    -0.000705862    -0.000424742         0.658568       -0.727478      0.000986173    -0.000411407        0.0379565        0.164712
281708                  0.217054       0.0780418      0.000384532     0.000822033         0.294122       -0.923841     -0.000724552    -0.000280826
                     0.000397003     0.000829894         0.170396       0.0217815     -0.000712583    -0.000216153         0.658055       -0.727636
                        0.294194       -0.923896     -0.000732074    -0.000225741         0.220395       0.0592504      0.000952733    -0.000504254
                     -0.00070612    -0.000424492         0.658351       -0.727675      0.000986336    -0.000411798        0.0380605        0.164688
281710                   0.21707       0.0780479      0.000384687     0.000821986         0.293854       -0.923923     -0.000724889     -0.00028049
                     0.000397137     0.000829826         0.170395       0.0217875     -0.000712752    -0.000216082         0.657838       -0.727833
                        0.293925       -0.923977     -0.000732167    -0.000225497         0.220447       0.0591277      0.000952898    -0.000505251
                    -0.000706376     -0.00042424         0.658134       -0.727871      0.000986499    -0.000412191        0.0381646        0.164664
281712                  0.217087       0.0780541      0.000384842     0.000821939         0.293585       -0.924004     -0.000725225    -0.000280153
                     0.000397271     0.000829759         0.170393       0.0217935     -0.000712921     -0.00021601         0.657621        -0.72803
                        0.293656       -0.924059      -0.00073226    -0.000225252         0.220499       0.0590049      0.000953063    -0.000506247
                     -0.00070663    -0.000423987         0.657917       -0.728068      0.000986662    -0.000412584        0.0382686         0.16464
281714                  0.217104       0.0780602      0.000384997     0.000821893         0.293316       -0.924085      -0.00072556    -0.000279817
                     0.000397405     0.000829692         0.170391       0.0217996     -0.000713091    -0.000215938         0.657404       -0.728227
                        0.293387       -0.924141     -0.000732353    -0.000225008          0.22055       0.0588821      0.000953226    -0.000507241
                    -0.000706881    -0.000423733           0.6577       -0.728264      0.000986826    -0.000412977        0.0383726        0.164616
281716                  0.217121       0.0780664      0.000385151     0.000821846         0.293048       -0.924167     -0.000725895     -0.00027948
                     0.000397538     0.000829624          0.17039       0.0218056     -0.000713261    -0.000215866         0.657187       -0.728423
                        0.293118       -0.924222     -0.000732446    -0.000224764         0.220602       0.0587593       0.00095339    -0.000508234
                    -0.000707131    -0.000423478         0.657483        -0.72846       0.00098699    -0.000413372        0.0384765        0.164592
281718                  0.217137       0.0780725      0.000385306     0.000821799         0.292779       -0.924248      -0.00072623    -0.000279144
                     0.000397671     0.000829557         0.170388       0.0218116     -0.000713431    -0.000215794          0.65697        -0.72862
                        0.292849       -0.924303     -0.000732538    -0.000224519         0.220653       0.0586364      0.000953553    -0.000509226
                    -0.000707378    -0.000423222         0.657266       -0.728657      0.000987154    -0.000413767        0.0385804        0.164568
281720                  0.217154       0.0780786      0.000385461     0.000821752          0.29251       -0.924329     -0.000726563    -0.000278808
                     0.000397804      0.00082949         0.170387       0.0218176     -0.000713601    -0.000215721         0.656752       -0.728816
                         0.29258       -0.924385      -0.00073263    -0.000224275         0.220705       0.0585135      0.000953716    -0.000510216
                    -0.000707624    -0.000422964         0.657048       -0.728853      0.000987319    -0.000414163        0.0386844        0.164544
281722                  0.217171       0.0780847      0.000385615     0.000821706         0.292241        -0.92441     -0.000726897    -0.000278472
                     0.000397937     0.000829423         0.170385       0.0218236     -0.000713772    -0.000215648         0.656535       -0.729013
                        0.292311       -0.924466     -0.000732722    -0.000224031         0.220756       0.0583905      0.000953879    -0.000511205
                    -0.000707867    -0.000422706         0.656831       -0.729049      0.000987483     -0.00041456        0.0387882        0.164519
281724                  0.217187       0.0780909       0.00038577     0.000821659         0.291973        -0.92449     -0.000727229    -0.000278136
                      0.00039807     0.000829356         0.170383       0.0218295     -0.000713943    -0.000215574         0.656318       -0.729209
                        0.292042       -0.924547     -0.000732814    -0.000223786         0.220807       0.0582675      0.000954041    -0.000512192
                    -0.000708108    -0.000422447         0.656614       -0.729245      0.000987648    -0.000414957        0.0388921        0.164495
281726                  0.217204        0.078097      0.000385924     0.000821612         0.291704       -0.924571     -0.000727561      -0.0002778
                     0.000398203     0.000829289         0.170382       0.0218355     -0.000714114    -0.000215501         0.656101       -0.729406
                        0.291772       -0.924628     -0.000732905    -0.000223542         0.220858       0.0581445      0.000954203    -0.000513179
                    -0.000708347    -0.000422186         0.656396       -0.729441      0.000987813    -0.000415355        0.0389959        0.164471
281728                  0.217221       0.0781031      0.000386078     0.000821565         0.291435       -0.924652     -0.000727893    -0.000277465
                     0.000398335     0.000829222          0.17038       0.0218415     -0.000714285    -0.000215426         0.655883       -0.729602
                        0.291503       -0.924709     -0.000732996    -0.000223298         0.220909       0.0580215      0.000954365    -0.000514164
                    -0.000708583    -0.000421925         0.656179       -0.729637      0.000987978    -0.000415754        0.0390997        0.164446
281730                  0.217238       0.0781092      0.000386233     0.000821518         0.291166       -0.924732     -0.000728224    -0.000277129
                     0.000398467     0.000829155         0.170379       0.0218474     -0.000714457    -0.000215352         0.655666       -0.729798
                        0.291234        -0.92479     -0.000733087    -0.000223054          0.22096       0.0578984      0.000954526    -0.000515147
                    -0.000708817    -0.000421662         0.655961       -0.729833      0.000988143    -0.000416154        0.0392035        0.164421
281732                  0.217254       0.0781153      0.000386387     0.000821471         0.290898       -0.924813     -0.000728555    -0.000276794
                     0.000398599     0.000829088         0.170377       0.0218534     -0.000714629    -0.000215277         0.655448       -0.729994
                        0.290965       -0.924871     -0.000733178    -0.000222809         0.221011       0.0577753      0.000954687     -0.00051613
                    -0.000709049    -0.000421398         0.655744       -0.730028      0.000988308    -0.000416555        0.0393072        0.164397
281734                  0.217271       0.0781214      0.000386541     0.000821424         0.290629       -0.924893     -0.000728885    -0.000276459
                      0.00039873     0.000829021         0.170375       0.0218593     -0.000714801    -0.000215202         0.655231       -0.730191
                        0.290696       -0.924951     -0.000733268    -0.000222565         0.221062       0.0576521      0.000954848    -0.000517111
                    -0.000709279    -0.000421134         0.655526       -0.730224      0.000988473    -0.000416956         0.039411        0.164372
281736                  0.217288       0.0781275      0.000386695     0.000821376          0.29036       -0.924974     -0.000729215    -0.000276124
                     0.000398862     0.000828954         0.170374       0.0218652     -0.000714973    -0.000215126         0.655013       -0.730387
                        0.290426       -0.925032     -0.000733358    -0.000222321         0.221113       0.0575289      0.000955009    -0.000518092
                    -0.000709507    -0.000420868         0.655308        -0.73042      0.000988638    -0.000417358        0.0395147        0.164347
281738                  0.217305       0.0781336      0.000386848     0.000821329         0.290091       -0.925054     -0.000729545    -0.000275789
                     0.000398993     0.000828888         0.170372       0.0218711     -0.000715145     -0.00021505         0.654795       -0.730583
                        0.290157       -0.925113     -0.000733448    -0.000222077         0.221164       0.0574057       0.00095517    -0.000519071
                    -0.000709732    -0.000420601         0.655091       -0.730615      0.000988803    -0.000417761        0.0396183        0.164323
281740                  0.217321       0.0781397      0.000387002     0.000821282         0.289822       -0.925134     -0.000729873    -0.000275454
                     0.000399124     0.000828821          0.17037       0.0218771     -0.000715318    -0.000214974         0.654578       -0.730778
                        0.289888       -0.925193     -0.000733538    -0.000221833         0.221214       0.0572824       0.00095533    -0.000520049
                    -0.000709955    -0.000420333         0.654873       -0.730811      0.000988969    -0.000418164         0.039722        0.164298
281742                  0.217338       0.0781457      0.000387156     0.000821235         0.289553       -0.925214     -0.000730202    -0.000275119
                     0.000399255     0.000828754         0.170369        0.021883     -0.000715491    -0.000214897          0.65436       -0.730974
                        0.289619       -0.925273     -0.000733627    -0.000221589         0.221265       0.0571591       0.00095549    -0.000521026
                    -0.000710175    -0.000420064         0.654655       -0.731006      0.000989134    -0.000418568        0.0398256        0.164273
281744                  0.217355       0.0781518      0.000387309     0.000821188         0.289284       -0.925294      -0.00073053    -0.000274785
                     0.000399386     0.000828688         0.170367       0.0218889     -0.000715664     -0.00021482         0.654142        -0.73117
                        0.289349       -0.925354     -0.000733716    -0.000221345         0.221316       0.0570358      0.000955651    -0.000522001
                    -0.000710394    -0.000419794         0.654437       -0.731201      0.000989299    -0.000418973        0.0399292        0.164248
281746                  0.217371       0.0781579      0.000387463      0.00082114         0.289015       -0.925374     -0.000730858    -0.000274451
                     0.000399517     0.000828622         0.170365       0.0218947     -0.000715837    -0.000214743         0.653924       -0.731366
                         0.28908       -0.925434     -0.000733805    -0.000221101         0.221366       0.0569124       0.00095581    -0.000522976
                     -0.00071061    -0.000419523         0.654219       -0.731397      0.000989464    -0.000419379        0.0400328        0.164223
281748                  0.217388       0.0781639      0.000387616     0.000821093         0.288746       -0.925454     -0.000731185    -0.000274117
                     0.000399647     0.000828555         0.170364       0.0219006      -0.00071601    -0.000214665         0.653706       -0.731561
                        0.288811       -0.925514     -0.000733894    -0.000220857         0.221416       0.0567891       0.00095597     -0.00052395
                    -0.000710823    -0.000419251         0.654001       -0.731592       0.00098963    -0.000419785        0.0401363        0.164197
281750                  0.217405         0.07817       0.00038777     0.000821046         0.288477       -0.925534     -0.000731512    -0.000273783
                     0.000399777     0.000828489         0.170362       0.0219065     -0.000716183    -0.000214587         0.653488       -0.731757
                        0.288541       -0.925594     -0.000733982    -0.000220613         0.221467       0.0566656       0.00095613    -0.000524922
                    -0.000711035    -0.000418978         0.653783       -0.731787      0.000989795    -0.000420193        0.0402398        0.164172
281752                  0.217422       0.0781761      0.000387923     0.000820999         0.288208       -0.925614     -0.000731838    -0.000273449
                     0.000399907     0.000828423         0.170361       0.0219123     -0.000716357    -0.000214508          0.65327       -0.731952
                        0.288272       -0.925674      -0.00073407    -0.000220369         0.221517       0.0565422      0.000956289    -0.000525894
                    -0.000711244    -0.000418705         0.653565       -0.731982       0.00098996      -0.0004206        0.0403433        0.164147
281754                  0.217438       0.0781821      0.000388076     0.000820951         0.287939       -0.925693     -0.000732164    -0.000273116
                     0.000400037     0.000828357         0.170359       0.0219182     -0.000716531    -0.000214429         0.653052       -0.732148
                        0.288003       -0.925754     -0.000734158    -0.000220125         0.221567       0.0564187      0.000956448    -0.000526864
                    -0.000711451     -0.00041843         0.653347       -0.732177      0.000990125    -0.000421009        0.0404468        0.164121
281756                  0.217455       0.0781882      0.000388229     0.000820904          0.28767       -0.925773     -0.000732489    -0.000272782
                     0.000400167     0.000828291         0.170357        0.021924     -0.000716705     -0.00021435         0.652834       -0.732343
                        0.287733       -0.925834     -0.000734246    -0.000219881         0.221617       0.0562951      0.000956608    -0.000527833
                    -0.000711656    -0.000418154         0.653129       -0.732372       0.00099029    -0.000421418        0.0405502        0.164096
281758                  0.217472       0.0781942      0.000388382     0.000820856         0.287401       -0.925852     -0.000732814    -0.000272449
                     0.000400297     0.000828225         0.170356       0.0219299     -0.000716879     -0.00021427         0.652616       -0.732539
                        0.287464       -0.925913     -0.000734334    -0.000219638         0.221667       0.0561716      0.000956766    -0.000528802
                    -0.000711858    -0.000417877          0.65291       -0.732567      0.000990455    -0.000421828        0.0406536        0.164071
281760                  0.217489       0.0782002      0.000388535     0.000820809         0.287132       -0.925932     -0.000733139    -0.000272116
                     0.000400426     0.000828159         0.170354       0.0219357     -0.000717053     -0.00021419         0.652397       -0.732734
                        0.287194       -0.925993     -0.000734421    -0.000219394         0.221717        0.056048      0.000956925    -0.000529769
                    -0.000712059    -0.000417599         0.652692       -0.732762       0.00099062    -0.000422239         0.040757        0.164045
281762                  0.217505       0.0782063      0.000388688     0.000820762         0.286863       -0.926011     -0.000733463    -0.000271783
                     0.000400555     0.000828093         0.170352       0.0219415     -0.000717227     -0.00021411         0.652179       -0.732929
                        0.286925       -0.926073     -0.000734508     -0.00021915         0.221767       0.0559243      0.000957084    -0.000530735
