! TOUCHSTONE file generated by CST MICROWAVE STUDIO
! Date and time: Tue Oct 14 17:38:05 2025
! Project name: Teste_Macro_Metasurface_Nanopilar.cst
! Parameters = {H=600; L_x=80; L_y=180; Lambda=1064; Max_L=200; Min_L=70; PathPara=1; Phi=0; Step_L=10; Theta=0; p=520; phaseX=180; phaseY=0}
! Header version: 2018
! Port assignment regex: !\s*Touchstone port\s*([0-9]+)\s*=\s*(CST MWS port|CST DS port)\s*([0-9]+|Zmin|Zmax)\s*\(\"(.*)\"\)(\s*mode\s*([0-9]+))?.*
! Touchstone port assignment:
! Touchstone port 1 = CST MWS port Zmax ("") mode 1
! Touchstone port 2 = CST MWS port Zmax ("") mode 2
! Touchstone port 3 = CST MWS port Zmin ("") mode 1
! Touchstone port 4 = CST MWS port Zmin ("") mode 2
! S-Parameters are not renormalized. Each port impedance will be approximated by the real part at minimum frequency. The values are described via the [Reference] keyword.
! Default impedance is overridden by [Reference]
[Version] 2.0
# GHz S RI R 376.73
[Number of Ports] 4
[Reference]
376.73 376.73 259.814 259.814 
[Number of Frequencies] 51
[Network Data]
281700                 0.0649453        0.227281      -0.00037388     -0.00016038         0.945584       -0.197399     -0.000176537    -0.000208141
                    -0.000400946    -0.000223028       -0.0317438      -0.0348574     -0.000164964    -0.000214324        -0.463682       -0.882797
                        0.945248       -0.197239     -0.000164014    -0.000183419        0.0332892        0.233194      -0.00037792     -5.1602e-05
                    -0.000181765    -0.000138594        -0.463699       -0.882806     -0.000389662    -0.000340782        0.0106605       0.0464473
281702                 0.0649738        0.227312     -0.000373849    -0.000160324         0.945506       -0.197726     -0.000176766    -0.000208131
                    -0.000400895    -0.000223131       -0.0317536      -0.0348464     -0.000165022    -0.000214292        -0.463913       -0.882676
                         0.94517       -0.197566     -0.000164113    -0.000183267         0.033438         0.23321     -0.000377651    -5.14536e-05
                    -0.000181733    -0.000138581        -0.463931       -0.882685     -0.000389787    -0.000340489        0.0106702       0.0464436
281704                 0.0650024        0.227343     -0.000373818    -0.000160268         0.945428       -0.198053     -0.000176995    -0.000208119
                    -0.000400844    -0.000223234       -0.0317634      -0.0348354     -0.000165081     -0.00021426        -0.464144       -0.882555
                        0.945093       -0.197893     -0.000164212    -0.000183115        0.0335868        0.233226     -0.000377383     -5.1306e-05
                    -0.000181702    -0.000138567        -0.464162       -0.882563     -0.000389911    -0.000340195        0.0106799         0.04644
281706                 0.0650309        0.227373     -0.000373787    -0.000160212          0.94535        -0.19838     -0.000177224    -0.000208107
                    -0.000400792    -0.000223336       -0.0317732      -0.0348244     -0.000165139    -0.000214228        -0.464375       -0.882434
                        0.945015        -0.19822      -0.00016431    -0.000182964        0.0337357        0.233242     -0.000377116     -5.1159e-05
                     -0.00018167    -0.000138553        -0.464393       -0.882441     -0.000390035    -0.000339902        0.0106896       0.0464363
281708                 0.0650595        0.227404     -0.000373757    -0.000160156         0.945272       -0.198707     -0.000177453    -0.000208095
                     -0.00040074    -0.000223438       -0.0317829      -0.0348134     -0.000165198    -0.000214197        -0.464606       -0.882313
                        0.944937       -0.198547     -0.000164408    -0.000182813        0.0338845        0.233257     -0.000376848    -5.10128e-05
                    -0.000181639    -0.000138539        -0.464624        -0.88232     -0.000390159    -0.000339608        0.0106994       0.0464326
281710                 0.0650881        0.227434     -0.000373726      -0.0001601         0.945194       -0.199034     -0.000177682    -0.000208082
                    -0.000400687    -0.000223539       -0.0317927      -0.0348024     -0.000165257    -0.000214165        -0.464837       -0.882192
                        0.944858       -0.198874     -0.000164506    -0.000182662        0.0340335        0.233273     -0.000376581    -5.08673e-05
                    -0.000181608    -0.000138525        -0.464855       -0.882198     -0.000390282    -0.000339314        0.0107091       0.0464289
281712                 0.0651167        0.227465     -0.000373696    -0.000160044         0.945116       -0.199361      -0.00017791    -0.000208068
                    -0.000400634    -0.000223641       -0.0318025      -0.0347914     -0.000165316    -0.000214133        -0.465068        -0.88207
                         0.94478       -0.199201     -0.000164603    -0.000182512        0.0341824        0.233289     -0.000376314    -5.07225e-05
                    -0.000181577     -0.00013851        -0.465086       -0.882076     -0.000390405     -0.00033902        0.0107188       0.0464252
281714                 0.0651453        0.227495     -0.000373667    -0.000159988         0.945037       -0.199688     -0.000178139    -0.000208054
                     -0.00040058    -0.000223741       -0.0318122      -0.0347804     -0.000165375    -0.000214101        -0.465298       -0.881949
                        0.944702       -0.199527       -0.0001647    -0.000182362        0.0343314        0.233304     -0.000376047    -5.05784e-05
                    -0.000181546    -0.000138495        -0.465316       -0.881954     -0.000390528    -0.000338726        0.0107284       0.0464215
281716                 0.0651739        0.227526     -0.000373637    -0.000159932         0.944959       -0.200015     -0.000178367    -0.000208039
                    -0.000400526    -0.000223842        -0.031822      -0.0347694     -0.000165434    -0.000214069        -0.465529       -0.881828
                        0.944623       -0.199854     -0.000164797    -0.000182213        0.0344804        0.233319     -0.000375781    -5.04351e-05
                    -0.000181516     -0.00013848        -0.465547       -0.881832      -0.00039065    -0.000338432        0.0107381       0.0464178
281718                 0.0652025        0.227556     -0.000373608    -0.000159876          0.94488       -0.200342     -0.000178595    -0.000208024
                    -0.000400472    -0.000223942       -0.0318318      -0.0347584     -0.000165493    -0.000214037         -0.46576       -0.881706
                        0.944544       -0.200181     -0.000164893    -0.000182064        0.0346295        0.233334     -0.000375515    -5.02924e-05
                    -0.000181486    -0.000138464        -0.465778        -0.88171     -0.000390772    -0.000338137        0.0107478       0.0464142
281720                 0.0652311        0.227587     -0.000373579    -0.000159821         0.944801       -0.200669     -0.000178823    -0.000208008
                    -0.000400417    -0.000224041       -0.0318415      -0.0347474     -0.000165552    -0.000214006         -0.46599       -0.881585
                        0.944466       -0.200508     -0.000164989    -0.000181915        0.0347786         0.23335      -0.00037525    -5.01505e-05
                    -0.000181456    -0.000138449        -0.466009       -0.881588     -0.000390893    -0.000337843        0.0107575       0.0464105
281722                 0.0652597        0.227618      -0.00037355    -0.000159765         0.944722       -0.200996     -0.000179051    -0.000207992
                    -0.000400362    -0.000224141       -0.0318513      -0.0347364     -0.000165612    -0.000213974        -0.466221       -0.881463
                        0.944387       -0.200834     -0.000165085    -0.000181767        0.0349277        0.233365     -0.000374985    -5.00093e-05
                    -0.000181426    -0.000138433         -0.46624       -0.881466     -0.000391014    -0.000337548        0.0107672       0.0464068
281724                 0.0652883        0.227648     -0.000373521    -0.000159709         0.944643       -0.201322     -0.000179279    -0.000207975
                    -0.000400306    -0.000224239       -0.0318611      -0.0347254     -0.000165671    -0.000213942        -0.466452       -0.881342
                        0.944308       -0.201161      -0.00016518    -0.000181619        0.0350768         0.23338      -0.00037472    -4.98688e-05
                    -0.000181396    -0.000138417         -0.46647       -0.881344     -0.000391135    -0.000337253        0.0107769       0.0464031
281726                 0.0653169        0.227679     -0.000373493    -0.000159653         0.944564       -0.201649     -0.000179506    -0.000207958
                     -0.00040025    -0.000224338       -0.0318708      -0.0347144     -0.000165731     -0.00021391        -0.466682        -0.88122
                        0.944228       -0.201488     -0.000165275    -0.000181471         0.035226        0.233394     -0.000374455    -4.97289e-05
                    -0.000181367    -0.000138401        -0.466701       -0.881221     -0.000391255    -0.000336958        0.0107866       0.0463994
281728                 0.0653456        0.227709     -0.000373465    -0.000159597         0.944485       -0.201976     -0.000179734     -0.00020794
                    -0.000400194    -0.000224436       -0.0318806      -0.0347034      -0.00016579    -0.000213878        -0.466913       -0.881098
                        0.944149       -0.201815     -0.000165369    -0.000181324        0.0353753        0.233409     -0.000374191    -4.95898e-05
                    -0.000181338    -0.000138384        -0.466932       -0.881099     -0.000391375    -0.000336663        0.0107963       0.0463957
281730                 0.0653742         0.22774     -0.000373437    -0.000159541         0.944406       -0.202303     -0.000179961    -0.000207921
                    -0.000400137    -0.000224533       -0.0318904      -0.0346923      -0.00016585    -0.000213846        -0.467143       -0.880976
                         0.94407       -0.202141     -0.000165464    -0.000181177        0.0355245        0.233424     -0.000373927    -4.94514e-05
                    -0.000181309    -0.000138367        -0.467163       -0.880976     -0.000391495    -0.000336368         0.010806       0.0463921
281732                 0.0654029         0.22777     -0.000373409    -0.000159484         0.944326       -0.202629     -0.000180188    -0.000207902
                     -0.00040008     -0.00022463       -0.0319001      -0.0346813      -0.00016591    -0.000213814        -0.467374       -0.880855
                         0.94399       -0.202468     -0.000165558    -0.000181031        0.0356738        0.233439     -0.000373664    -4.93137e-05
                    -0.000181281     -0.00013835        -0.467393       -0.880854     -0.000391614    -0.000336073        0.0108157       0.0463884
281734                 0.0654315        0.227801     -0.000373381    -0.000159428         0.944247       -0.202956     -0.000180415    -0.000207883
                    -0.000400022    -0.000224727       -0.0319099      -0.0346703     -0.000165969    -0.000213782        -0.467604       -0.880733
                        0.943911       -0.202794     -0.000165651    -0.000180885        0.0358232        0.233453       -0.0003734    -4.91766e-05
                    -0.000181252    -0.000138333        -0.467624       -0.880731     -0.000391733    -0.000335777        0.0108254       0.0463847
281736                 0.0654602        0.227832     -0.000373354    -0.000159372         0.944167       -0.203283     -0.000180642    -0.000207863
                    -0.000399965    -0.000224823       -0.0319196      -0.0346593     -0.000166029     -0.00021375        -0.467835       -0.880611
                        0.943831       -0.203121     -0.000165745     -0.00018074        0.0359725        0.233467     -0.000373138    -4.90403e-05
                    -0.000181224    -0.000138316        -0.467854       -0.880609     -0.000391852    -0.000335481         0.010835        0.046381
281738                 0.0654889        0.227862     -0.000373327    -0.000159316         0.944087       -0.203609     -0.000180869    -0.000207842
                    -0.000399906    -0.000224919       -0.0319294      -0.0346483      -0.00016609    -0.000213719        -0.468065       -0.880489
                        0.943751       -0.203447     -0.000165838    -0.000180595        0.0361219        0.233482     -0.000372875    -4.89046e-05
                    -0.000181197    -0.000138298        -0.468085       -0.880486      -0.00039197    -0.000335186        0.0108447       0.0463773
281740                 0.0655175        0.227893       -0.0003733     -0.00015926         0.944007       -0.203936     -0.000181095    -0.000207821
                    -0.000399847    -0.000225014       -0.0319391      -0.0346372      -0.00016615    -0.000213687        -0.468296       -0.880366
                        0.943671       -0.203774     -0.000165931     -0.00018045        0.0362714        0.233496     -0.000372613    -4.87697e-05
                    -0.000181169    -0.000138281        -0.468315       -0.880363     -0.000392088     -0.00033489        0.0108544       0.0463737
281742                 0.0655462        0.227923     -0.000373273    -0.000159204         0.943927       -0.204263     -0.000181322    -0.000207799
                    -0.000399788    -0.000225109       -0.0319489      -0.0346262      -0.00016621    -0.000213655        -0.468526       -0.880244
                        0.943591         -0.2041     -0.000166023    -0.000180306        0.0364208         0.23351     -0.000372351    -4.86354e-05
                    -0.000181142    -0.000138263        -0.468546       -0.880241     -0.000392205    -0.000334593        0.0108641         0.04637
281744                 0.0655749        0.227954     -0.000373246    -0.000159147         0.943847       -0.204589     -0.000181548    -0.000207777
                    -0.000399729    -0.000225204       -0.0319586      -0.0346152      -0.00016627    -0.000213623        -0.468756       -0.880122
                        0.943511       -0.204427     -0.000166116    -0.000180162        0.0365703        0.233524      -0.00037209    -4.85017e-05
                    -0.000181115    -0.000138245        -0.468776       -0.880118     -0.000392322    -0.000334297        0.0108738       0.0463663
281746                 0.0656036        0.227985      -0.00037322    -0.000159091         0.943767       -0.204916     -0.000181774    -0.000207755
                    -0.000399669    -0.000225298       -0.0319684      -0.0346042     -0.000166331    -0.000213591        -0.468987           -0.88
                        0.943431       -0.204753     -0.000166207    -0.000180019        0.0367199        0.233538     -0.000371828    -4.83688e-05
                    -0.000181088    -0.000138226        -0.469007       -0.879995     -0.000392439    -0.000334001        0.0108834       0.0463626
281748                 0.0656323        0.228015     -0.000373194    -0.000159035         0.943686       -0.205242        -0.000182    -0.000207731
                    -0.000399609    -0.000225392       -0.0319781      -0.0345931     -0.000166392     -0.00021356        -0.469217       -0.879877
                         0.94335       -0.205079     -0.000166299    -0.000179876        0.0368694        0.233552     -0.000371568    -4.82365e-05
                    -0.000181061    -0.000138208        -0.469237       -0.879872     -0.000392555    -0.000333704        0.0108931        0.046359
281750                  0.065661        0.228046     -0.000373168    -0.000158978         0.943606       -0.205568     -0.000182226    -0.000207708
                    -0.000399548    -0.000225485       -0.0319879      -0.0345821     -0.000166452    -0.000213528        -0.469447       -0.879755
                         0.94327       -0.205406      -0.00016639    -0.000179733         0.037019        0.233566     -0.000371307     -4.8105e-05
                    -0.000181035    -0.000138189        -0.469467       -0.879749     -0.000392671    -0.000333407        0.0109028       0.0463553
281752                 0.0656897        0.228076     -0.000373143    -0.000158922         0.943525       -0.205895     -0.000182452    -0.000207684
                    -0.000399487    -0.000225578       -0.0319976      -0.0345711     -0.000166513    -0.000213496        -0.469677       -0.879633
                        0.943189       -0.205732      -0.00016648    -0.000179591        0.0371687         0.23358     -0.000371047     -4.7974e-05
                    -0.000181009     -0.00013817        -0.469698       -0.879626     -0.000392786     -0.00033311        0.0109125       0.0463516
281754                 0.0657185        0.228107     -0.000373117    -0.000158865         0.943444       -0.206221     -0.000182678    -0.000207659
                    -0.000399426     -0.00022567       -0.0320074        -0.03456     -0.000166574    -0.000213464        -0.469907        -0.87951
                        0.943108       -0.206058     -0.000166569    -0.000179449        0.0373184        0.233593     -0.000370787    -4.78438e-05
                    -0.000180983    -0.000138151        -0.469928       -0.879503     -0.000392901    -0.000332813        0.0109221       0.0463479
281756                 0.0657472        0.228138     -0.000373093    -0.000158809         0.943363       -0.206548     -0.000182903    -0.000207634
                    -0.000399364    -0.000225761       -0.0320171       -0.034549     -0.000166635    -0.000213433        -0.470138       -0.879388
                        0.943028       -0.206385     -0.000166654    -0.000179308        0.0374681        0.233607     -0.000370528    -4.77142e-05
                    -0.000180958    -0.000138131        -0.470158        -0.87938     -0.000393016    -0.000332515        0.0109318       0.0463443
281758                 0.0657759        0.228168     -0.000373072    -0.000158753         0.943282       -0.206874     -0.000183128    -0.000207608
                    -0.000399302    -0.000225853       -0.0320269      -0.0345379     -0.000166696    -0.000213401        -0.470368       -0.879265
                        0.942947       -0.206711     -0.000166718    -0.000179173        0.0376178         0.23362     -0.000370269    -4.75852e-05
                    -0.000180933    -0.000138111        -0.470389       -0.879256      -0.00039313    -0.000332218        0.0109415       0.0463406
281760                 0.0658047        0.228199     -0.000373065    -0.000158669         0.943201         -0.2072     -0.000183353    -0.000207582
                     -0.00039924    -0.000225943       -0.0320366      -0.0345269     -0.000166758     -0.00021337        -0.470598       -0.879142
                        0.942865       -0.207037      -0.00016691    -0.000179056        0.0377676        0.233633      -0.00037001    -4.74572e-05
                    -0.000180909     -0.00013809        -0.470619       -0.879133     -0.000393244     -0.00033192        0.0109511       0.0463369
281762                 0.0658334         0.22823     -0.000373005    -0.000158628          0.94312       -0.207526     -0.000183578    -0.000207555
                    -0.000399175    -0.000226031       -0.0320464      -0.0345159     -0.000166819    -0.000213338        -0.470828       -0.879019
                        0.942784       -0.207363     -0.000166962    -0.000178892        0.0379174        0.233647     -0.000369752    -4.73297e-05
