! TOUCHSTONE file generated by CST MICROWAVE STUDIO
! Date and time: Tue Oct 14 17:38:38 2025
! Project name: Teste_Macro_Metasurface_Nanopilar.cst
! Parameters = {H=600; L_x=130; L_y=140; Lambda=1064; Max_L=200; Min_L=70; PathPara=1; Phi=0; Step_L=10; Theta=0; p=520; phaseX=180; phaseY=0}
! Header version: 2018
! Port assignment regex: !\s*Touchstone port\s*([0-9]+)\s*=\s*(CST MWS port|CST DS port)\s*([0-9]+|Zmin|Zmax)\s*\(\"(.*)\"\)(\s*mode\s*([0-9]+))?.*
! Touchstone port assignment:
! Touchstone port 1 = CST MWS port Zmax ("") mode 1
! Touchstone port 2 = CST MWS port Zmax ("") mode 2
! Touchstone port 3 = CST MWS port Zmin ("") mode 1
! Touchstone port 4 = CST MWS port Zmin ("") mode 2
! S-Parameters are not renormalized. Each port impedance will be approximated by the real part at minimum frequency. The values are described via the [Reference] keyword.
! Default impedance is overridden by [Reference]
[Version] 2.0
# GHz S RI R 376.73
[Number of Ports] 4
[Reference]
376.73 376.73 259.814 259.814 
[Number of Frequencies] 51
[Network Data]
281700                 0.0984951        0.152483     -0.000426152    -0.000654805         0.953304       -0.221349      7.03516e-06    -0.000247899
                    -0.000411099    -0.000690387         0.072932        0.108885       0.00014898    -0.000309131         0.982708       0.0811787
                        0.953528       -0.221128      0.000175566    -0.000306211        -0.020018        0.179607      0.000448185    -0.000721692
                    -5.45085e-05    -0.000259976         0.982936       0.0809847      0.000410152    -0.000742574       -0.0885298       0.0959696
281702                  0.098511        0.152498     -0.000426434    -0.000654644         0.953229       -0.221656      6.96511e-06    -0.000248026
                    -0.000411377    -0.000690172        0.0729461        0.108896      0.000148965    -0.000309305         0.982733       0.0808536
                        0.953453       -0.221435      0.000175477    -0.000306435       -0.0199098         0.17964      0.000448115    -0.000721854
                    -5.45251e-05    -0.000260097         0.982961       0.0806597      0.000410141    -0.000742657       -0.0884821       0.0960371
281704                 0.0985268        0.152512     -0.000426715    -0.000654483         0.953154       -0.221962       6.8949e-06    -0.000248153
                    -0.000411655    -0.000689957        0.0729601        0.108908      0.000148951    -0.000309479         0.982758       0.0805285
                        0.953377       -0.221742      0.000175388    -0.000306659       -0.0198016        0.179672      0.000448045    -0.000722016
                    -5.45417e-05    -0.000260217         0.982986       0.0803348       0.00041013     -0.00074274       -0.0884344       0.0961046
281706                 0.0985426        0.152527     -0.000426996    -0.000654322         0.953079       -0.222268      6.82451e-06    -0.000248281
                    -0.000411932    -0.000689741        0.0729741        0.108919      0.000148937    -0.000309653         0.982782       0.0802034
                        0.953302       -0.222048      0.000175298    -0.000306883       -0.0196934        0.179705      0.000447974    -0.000722177
                    -5.45585e-05    -0.000260338         0.983011       0.0800098       0.00041012    -0.000742823       -0.0883867        0.096172
281708                 0.0985585        0.152542     -0.000427278     -0.00065416         0.953004       -0.222575      6.75394e-06    -0.000248408
                     -0.00041221    -0.000689525        0.0729881        0.108931      0.000148923    -0.000309827         0.982807       0.0798783
                        0.953227       -0.222355      0.000175208    -0.000307107       -0.0195851        0.179738      0.000447904    -0.000722339
                    -5.45753e-05    -0.000260459         0.983035       0.0796848       0.00041011    -0.000742906       -0.0883389       0.0962395
281710                 0.0985743        0.152556     -0.000427559    -0.000653999         0.952928       -0.222881       6.6832e-06    -0.000248536
                    -0.000412488    -0.000689309        0.0730022        0.108942      0.000148908    -0.000310002         0.982831       0.0795532
                        0.953151       -0.222662      0.000175119    -0.000307332       -0.0194768         0.17977      0.000447833    -0.000722501
                    -5.45922e-05     -0.00026058          0.98306       0.0793598      0.000410099    -0.000742989       -0.0882911       0.0963069
281712                 0.0985902        0.152571      -0.00042784    -0.000653837         0.952853       -0.223187      6.61226e-06    -0.000248664
                    -0.000412766    -0.000689094        0.0730162        0.108954      0.000148894    -0.000310176         0.982855       0.0792281
                        0.953075       -0.222968      0.000175029    -0.000307556       -0.0193684        0.179802      0.000447763    -0.000722662
                    -5.46093e-05    -0.000260701         0.983084       0.0790348      0.000410089    -0.000743072       -0.0882432       0.0963743
281714                  0.098606        0.152586     -0.000428122    -0.000653676         0.952777       -0.223494      6.54113e-06    -0.000248792
                    -0.000413043    -0.000688878        0.0730302        0.108966       0.00014888    -0.000310351         0.982879        0.078903
                           0.953       -0.223275      0.000174938     -0.00030778         -0.01926        0.179835      0.000447692    -0.000722823
                    -5.46264e-05    -0.000260823         0.983109       0.0787098       0.00041008    -0.000743154       -0.0881952       0.0964417
281716                 0.0986218          0.1526     -0.000428403    -0.000653514         0.952702         -0.2238      6.46978e-06     -0.00024892
                    -0.000413321    -0.000688661        0.0730442        0.108977      0.000148866    -0.000310525         0.982903       0.0785779
                        0.952924       -0.223581      0.000174848    -0.000308005       -0.0191516        0.179867      0.000447621    -0.000722985
                    -5.46436e-05    -0.000260944         0.983133       0.0783847       0.00041007    -0.000743237       -0.0881472        0.096509
281718                 0.0986377        0.152615     -0.000428684    -0.000653353         0.952626       -0.224106      6.39821e-06    -0.000249048
                    -0.000413598    -0.000688445        0.0730582        0.108989      0.000148851      -0.0003107         0.982927       0.0782528
                        0.952848       -0.223888      0.000174757    -0.000308229       -0.0190432        0.179899       0.00044755    -0.000723146
                    -5.46609e-05    -0.000261065         0.983157       0.0780597      0.000410061    -0.000743319       -0.0880992       0.0965763
281720                 0.0986535        0.152629     -0.000428965    -0.000653191          0.95255       -0.224412      6.32639e-06    -0.000249176
                    -0.000413876    -0.000688229        0.0730723           0.109      0.000148837    -0.000310874         0.982951       0.0779277
                        0.952772       -0.224194      0.000174667    -0.000308454       -0.0189347        0.179931      0.000447478    -0.000723307
                    -5.46783e-05    -0.000261187         0.983181       0.0777347      0.000410052    -0.000743402       -0.0880511       0.0966436
281722                 0.0986694        0.152644     -0.000429246    -0.000653029         0.952474       -0.224718       6.2543e-06    -0.000249305
                    -0.000414153    -0.000688013        0.0730863        0.109012      0.000148823    -0.000311049         0.982975       0.0776025
                        0.952696       -0.224501      0.000174576    -0.000308678       -0.0188261        0.179964      0.000447407    -0.000723467
                    -5.46958e-05    -0.000261309         0.983205       0.0774097      0.000410043    -0.000743484        -0.088003       0.0967109
281724                 0.0986852        0.152659     -0.000429527    -0.000652867         0.952398       -0.225024      6.18188e-06    -0.000249433
                    -0.000414431    -0.000687796        0.0731003        0.109023      0.000148808    -0.000311224         0.982998       0.0772774
                         0.95262       -0.224807      0.000174485    -0.000308902       -0.0187176        0.179996      0.000447335    -0.000723628
                    -5.47134e-05    -0.000261431         0.983229       0.0770847      0.000410034    -0.000743567       -0.0879548       0.0967782
281726                 0.0987011        0.152673     -0.000429808    -0.000652706         0.952322       -0.225331      6.10909e-06    -0.000249562
                    -0.000414708     -0.00068758        0.0731144        0.109035      0.000148794    -0.000311399         0.983022       0.0769523
                        0.952543       -0.225114      0.000174393    -0.000309127        -0.018609        0.180028      0.000447262    -0.000723788
                     -5.4731e-05    -0.000261553         0.983253       0.0767597      0.000410025    -0.000743649       -0.0879066       0.0968454
281728                 0.0987169        0.152688     -0.000430089    -0.000652544         0.952245       -0.225637       6.0358e-06    -0.000249692
                    -0.000414985    -0.000687363        0.0731284        0.109046       0.00014878    -0.000311574         0.983045       0.0766272
                        0.952467        -0.22542      0.000174302    -0.000309352       -0.0185004         0.18006      0.000447189    -0.000723947
                    -5.47488e-05    -0.000261675         0.983276       0.0764347      0.000410017    -0.000743731       -0.0878583       0.0969126
281730                 0.0987328        0.152703     -0.000430371    -0.000652382         0.952169       -0.225943      5.96188e-06    -0.000249822
                    -0.000415263    -0.000687146        0.0731424        0.109058      0.000148765    -0.000311749         0.983068       0.0763021
                         0.95239       -0.225726       0.00017421    -0.000309576       -0.0183917        0.180091      0.000447115    -0.000724106
                    -5.47666e-05    -0.000261797           0.9833       0.0761097      0.000410009    -0.000743814       -0.0878099       0.0969798
281732                 0.0987487        0.152717     -0.000430652     -0.00065222         0.952092       -0.226249      5.88704e-06    -0.000249954
                     -0.00041554    -0.000686929        0.0731564        0.109069      0.000148751    -0.000311924         0.983091       0.0759771
                        0.952314       -0.226033      0.000174119    -0.000309801        -0.018283        0.180123       0.00044704    -0.000724263
                    -5.47845e-05    -0.000261919         0.983323       0.0757846      0.000410001    -0.000743896       -0.0877615        0.097047
281734                 0.0987645        0.152732     -0.000430933    -0.000652058         0.952016       -0.226555      5.81081e-06    -0.000250087
                    -0.000415817    -0.000686712        0.0731705        0.109081      0.000148736    -0.000312099         0.983111       0.0756521
                        0.952237       -0.226339      0.000174027    -0.000310026       -0.0181743        0.180155      0.000446963    -0.000724419
                    -5.48025e-05    -0.000262042         0.983346       0.0754596      0.000409994    -0.000743978       -0.0877129       0.0971144
281736                 0.0987804        0.152747     -0.000431213    -0.000651895         0.951939       -0.226861      5.73247e-06    -0.000250227
                    -0.000416094    -0.000686495        0.0731845        0.109092      0.000148722    -0.000312274         0.983139       0.0753261
                         0.95216       -0.226645      0.000173934     -0.00031025       -0.0180655        0.180187      0.000446882    -0.000724573
                    -5.48206e-05    -0.000262164         0.983369       0.0751346      0.000409986    -0.000744061       -0.0876646       0.0971806
281738                 0.0987962        0.152761     -0.000431494    -0.000651733         0.951862       -0.227167      5.65347e-06    -0.000250383
                    -0.000416371    -0.000686278        0.0731985        0.109104      0.000148707    -0.000312449         0.983161       0.0750013
                        0.952083       -0.226951      0.000173842    -0.000310475       -0.0179567        0.180218      0.000446794    -0.000724724
                    -5.48388e-05    -0.000262287         0.983392       0.0748096      0.000409979    -0.000744143       -0.0876162        0.097248
281740                 0.0988121        0.152776     -0.000431775    -0.000651571         0.951785       -0.227473      5.63907e-06    -0.000250587
                    -0.000416648     -0.00068606        0.0732126        0.109115      0.000148692    -0.000312625         0.983183       0.0746762
                        0.952006       -0.227258       0.00017375      -0.0003107       -0.0178479         0.18025      0.000446689    -0.000724871
                     -5.4857e-05     -0.00026241         0.983415       0.0744845      0.000409972    -0.000744226       -0.0875676       0.0973151
281742                  0.098828        0.152791     -0.000432056    -0.000651409         0.951708       -0.227778      5.64062e-06    -0.000250596
                    -0.000416925    -0.000685843        0.0732266        0.109127      0.000148678      -0.0003128         0.983206       0.0743512
                        0.951929       -0.227564      0.000173657    -0.000310925       -0.0177391        0.180281      0.000446536    -0.000725033
                    -5.48754e-05    -0.000262532         0.983438       0.0741595      0.000409966    -0.000744309       -0.0875189       0.0973822
281744                 0.0988438        0.152805     -0.000432337    -0.000651246         0.951631       -0.228084      5.52034e-06    -0.000250697
                    -0.000417201    -0.000685625        0.0732406        0.109138      0.000148663    -0.000312976         0.983228        0.074026
                        0.951852        -0.22787      0.000173564     -0.00031115       -0.0176302        0.180313      0.000446359    -0.000725363
                    -5.48938e-05    -0.000262655         0.983461       0.0738345      0.000409959    -0.000744391       -0.0874703       0.0974492
281746                 0.0988597         0.15282     -0.000432618    -0.000651084         0.951554        -0.22839       5.4282e-06    -0.000250826
                    -0.000417478    -0.000685407        0.0732547         0.10915      0.000148648    -0.000313151         0.983251       0.0737009
                        0.951775       -0.228176      0.000173471    -0.000311375       -0.0175212        0.180344      0.000446484    -0.000725637
                    -5.49122e-05    -0.000262778         0.983484       0.0735095      0.000409954    -0.000744475       -0.0874215       0.0975162
281748                 0.0988756        0.152835     -0.000432899    -0.000650921         0.951477       -0.228696       5.3458e-06    -0.000250956
                    -0.000417755    -0.000685189        0.0732687        0.109161      0.000148632    -0.000313327         0.983273       0.0733758
                        0.951697       -0.228482      0.000173378      -0.0003116       -0.0174123        0.180375       0.00044649     -0.00072573
                    -5.49307e-05    -0.000262901         0.983506       0.0731844      0.000409948    -0.000744558       -0.0873728       0.0975832
281750                 0.0988914        0.152849     -0.000433179    -0.000650759         0.951399       -0.229002      5.26716e-06    -0.000251086
                    -0.000418031    -0.000684971        0.0732827        0.109172      0.000148617    -0.000313503         0.983295       0.0730507
                         0.95162       -0.228788      0.000173284    -0.000311825       -0.0173033        0.180407      0.000446432     -0.00072585
                    -5.49493e-05    -0.000263024         0.983528       0.0728594      0.000409943    -0.000744642       -0.0873239       0.0976501
281752                 0.0989073        0.152864      -0.00043346    -0.000650598         0.951322       -0.229307      5.19025e-06    -0.000251216
                    -0.000418308    -0.000684753        0.0732968        0.109184      0.000148601     -0.00031368         0.983317       0.0727255
                        0.951542       -0.229094      0.000173189    -0.000312049       -0.0171943        0.180438      0.000446363    -0.000725989
                    -5.49678e-05    -0.000263147         0.983551       0.0725344      0.000409938    -0.000744727       -0.0872751        0.097717
281754                 0.0989232        0.152879     -0.000433743     -0.00065043         0.951244       -0.229613      5.11423e-06    -0.000251345
                    -0.000418584    -0.000684534        0.0733108        0.109195      0.000148585    -0.000313856         0.983339       0.0724004
                        0.951464         -0.2294      0.000173102    -0.000312275       -0.0170852        0.180469       0.00044629    -0.000726136
                    -5.49862e-05     -0.00026327         0.983573       0.0722093      0.000409934    -0.000744812       -0.0872261       0.0977839
281756                  0.098939        0.152893     -0.000434023    -0.000650269         0.951166       -0.229919       5.0387e-06    -0.000251475
                     -0.00041886    -0.000684314        0.0733248        0.109207      0.000148568    -0.000314033         0.983361       0.0720753
                        0.951386       -0.229706      0.000173005      -0.0003125       -0.0169761          0.1805      0.000446216    -0.000726287
                    -5.50037e-05    -0.000263393         0.983595       0.0718843      0.000409931      -0.0007449       -0.0871772       0.0978507
281758                 0.0989549        0.152908     -0.000434303    -0.000650107         0.951089       -0.230225      4.96344e-06    -0.000251604
                     -0.00041914    -0.000684115        0.0733389        0.109218       0.00014855     -0.00031421         0.983383       0.0717501
                        0.951308       -0.230012      0.000172911    -0.000312725        -0.016867        0.180531      0.000446143    -0.000726441
                    -5.50198e-05    -0.000263534         0.983617       0.0715593      0.000409929     -0.00074499       -0.0871281       0.0979176
281760                 0.0989708        0.152923     -0.000434584    -0.000649944         0.951011        -0.23053      4.88833e-06    -0.000251734
                    -0.000419414    -0.000683882        0.0733529         0.10923       0.00014853    -0.000314389         0.983404        0.071425
                         0.95123       -0.230318      0.000172817     -0.00031295       -0.0167578        0.180562      0.000446069    -0.000726596
                    -5.50455e-05    -0.000263645         0.983639       0.0712342       0.00040993    -0.000745088       -0.0870791       0.0979844
281762                 0.0989867        0.152937     -0.000434865    -0.000649781         0.950933       -0.230836      4.81329e-06    -0.000251863
                     -0.00041969    -0.000683662         0.073367        0.109241      0.000148503    -0.000314571         0.983426       0.0710998
                        0.951152       -0.230624      0.000172722    -0.000313175       -0.0166486        0.180593      0.000445995    -0.000726752
