! TOUCHSTONE file generated by CST MICROWAVE STUDIO
! Date and time: Tue Oct 14 17:38:02 2025
! Project name: Teste_Macro_Metasurface_Nanopilar.cst
! Parameters = {H=600; L_x=80; L_y=110; Lambda=1064; Max_L=200; Min_L=70; PathPara=1; Phi=0; Step_L=10; Theta=0; p=520; phaseX=180; phaseY=0}
! Header version: 2018
! Port assignment regex: !\s*Touchstone port\s*([0-9]+)\s*=\s*(CST MWS port|CST DS port)\s*([0-9]+|Zmin|Zmax)\s*\(\"(.*)\"\)(\s*mode\s*([0-9]+))?.*
! Touchstone port assignment:
! Touchstone port 1 = CST MWS port Zmax ("") mode 1
! Touchstone port 2 = CST MWS port Zmax ("") mode 2
! Touchstone port 3 = CST MWS port Zmin ("") mode 1
! Touchstone port 4 = CST MWS port Zmin ("") mode 2
! S-Parameters are not renormalized. Each port impedance will be approximated by the real part at minimum frequency. The values are described via the [Reference] keyword.
! Default impedance is overridden by [Reference]
[Version] 2.0
# GHz S RI R 376.73
[Number of Ports] 4
[Reference]
376.73 376.73 259.814 259.814 
[Number of Frequencies] 51
[Network Data]
281700                 0.0106917     0.000662104      0.000269012     3.94761e-05        -0.580516       -0.811323      -5.7979e-05    -6.69876e-05
                     0.000333927    -9.19918e-05        0.0177091       -0.103457     -0.000229749    -5.83831e-05       -0.0563212       -0.992437
                       -0.580887       -0.811227     -0.000204186    -9.76917e-05       0.00249226     -0.00968892      0.000199662     2.98587e-05
                    -0.000334972     0.000201772       -0.0557724       -0.992231      0.000337929    -5.52558e-05        0.0290755        0.100985
281702                 0.0106892     0.000673302      0.000269156     3.93495e-05        -0.580739       -0.811164     -5.80143e-05    -6.69551e-05
                     0.000333849    -9.21322e-05        0.0176971       -0.103454     -0.000229814    -5.83909e-05       -0.0565634       -0.992424
                       -0.581111       -0.811067     -0.000204366    -9.76173e-05       0.00247552     -0.00969157      0.000199706     2.98765e-05
                    -0.000334978     0.000201968       -0.0560147       -0.992218      0.000337905    -5.52911e-05        0.0291126         0.10097
281704                 0.0106868     0.000684493      0.000269299     3.92227e-05        -0.580962       -0.811004     -5.80494e-05    -6.69224e-05
                     0.000333771    -9.22729e-05        0.0176851       -0.103452     -0.000229878    -5.83987e-05       -0.0568057        -0.99241
                       -0.581334       -0.810907     -0.000204546    -9.75427e-05       0.00245876      -0.0096942       0.00019975     2.98942e-05
                    -0.000334984     0.000202165       -0.0562571       -0.992204      0.000337881    -5.53263e-05        0.0291496        0.100955
281706                 0.0106844     0.000695676      0.000269444     3.90957e-05        -0.581184       -0.810845     -5.80845e-05    -6.68897e-05
                     0.000333693    -9.24138e-05         0.017673        -0.10345     -0.000229943    -5.84066e-05        -0.057048       -0.992397
                       -0.581557       -0.810747     -0.000204726     -9.7468e-05       0.00244201     -0.00969682      0.000199794      2.9912e-05
                    -0.000334989     0.000202362       -0.0564994        -0.99219      0.000337857    -5.53613e-05        0.0291867         0.10094
281708                  0.010682     0.000706852      0.000269588     3.89686e-05        -0.581407       -0.810685     -5.81195e-05     -6.6857e-05
                     0.000333614    -9.25549e-05         0.017661       -0.103447     -0.000230007    -5.84144e-05       -0.0572902       -0.992383
                       -0.581781       -0.810586     -0.000204906    -9.73932e-05       0.00242526     -0.00969942      0.000199838     2.99298e-05
                    -0.000334994     0.000202559       -0.0567417       -0.992176      0.000337833    -5.53961e-05        0.0292237        0.100924
281710                 0.0106796     0.000718022      0.000269732     3.88413e-05         -0.58163       -0.810525     -5.81545e-05    -6.68241e-05
                     0.000333536    -9.26964e-05         0.017649       -0.103445     -0.000230071    -5.84222e-05       -0.0575325        -0.99237
                       -0.582004       -0.810426     -0.000205086    -9.73182e-05        0.0024085     -0.00970201      0.000199881     2.99475e-05
                       -0.000335     0.000202757        -0.056984       -0.992162      0.000337809    -5.54307e-05        0.0292607        0.100909
281712                 0.0106771     0.000729185      0.000269876     3.87138e-05        -0.581853       -0.810365     -5.81894e-05    -6.67912e-05
                     0.000333457    -9.28381e-05         0.017637       -0.103443     -0.000230135    -5.84301e-05       -0.0577747       -0.992356
                       -0.582227       -0.810266     -0.000205265    -9.72431e-05       0.00239174     -0.00970459      0.000199925     2.99653e-05
                    -0.000335005     0.000202954       -0.0572264       -0.992148      0.000337784    -5.54652e-05        0.0292977        0.100894
281714                 0.0106747     0.000740344      0.000270021     3.85861e-05        -0.582075       -0.810205     -5.82242e-05    -6.67583e-05
                     0.000333378    -9.29802e-05         0.017625        -0.10344       -0.0002302    -5.84379e-05        -0.058017       -0.992342
                        -0.58245       -0.810105     -0.000205445    -9.71678e-05       0.00237497     -0.00970716      0.000199969      2.9983e-05
                    -0.000335009     0.000203152       -0.0574687       -0.992134       0.00033776    -5.54995e-05        0.0293347        0.100879
281716                 0.0106723     0.000751498      0.000270165     3.84582e-05        -0.582298       -0.810045      -5.8259e-05    -6.67252e-05
                     0.000333299    -9.31226e-05         0.017613       -0.103438     -0.000230264    -5.84458e-05       -0.0582592       -0.992329
                       -0.582673       -0.809944     -0.000205624    -9.70925e-05       0.00235821     -0.00970971      0.000200012     3.00008e-05
                    -0.000335014     0.000203351        -0.057711        -0.99212      0.000337735    -5.55337e-05        0.0293717        0.100863
281718                 0.0106699     0.000762648       0.00027031     3.83302e-05        -0.582521       -0.809885     -5.82937e-05    -6.66921e-05
                      0.00033322    -9.32654e-05         0.017601       -0.103435     -0.000230328    -5.84537e-05       -0.0585014       -0.992315
                       -0.582896       -0.809784     -0.000205803    -9.70169e-05       0.00234144     -0.00971225      0.000200055     3.00185e-05
                    -0.000335019      0.00020355       -0.0579533       -0.992106       0.00033771    -5.55677e-05        0.0294087        0.100848
281720                 0.0106674     0.000773795      0.000270454      3.8202e-05        -0.582743       -0.809725     -5.83284e-05    -6.66589e-05
                     0.000333141    -9.34086e-05         0.017589       -0.103433     -0.000230392    -5.84616e-05       -0.0587436       -0.992301
                       -0.583119       -0.809623     -0.000205982    -9.69412e-05       0.00232467     -0.00971477      0.000200099     3.00363e-05
                    -0.000335023     0.000203749       -0.0581956       -0.992092      0.000337685    -5.56015e-05        0.0294457        0.100833
281722                  0.010665      0.00078494      0.000270599     3.80736e-05        -0.582966       -0.809565      -5.8363e-05    -6.66256e-05
                     0.000333061    -9.35522e-05         0.017577       -0.103431     -0.000230457    -5.84695e-05       -0.0589859       -0.992287
                       -0.583342       -0.809462     -0.000206161    -9.68654e-05        0.0023079     -0.00971728      0.000200142      3.0054e-05
                    -0.000335027     0.000203948       -0.0584379       -0.992078      0.000337659    -5.56352e-05        0.0294826        0.100817
281724                 0.0106626     0.000796085      0.000270744     3.79451e-05        -0.583188       -0.809405     -5.83976e-05    -6.65923e-05
                     0.000332981    -9.36963e-05         0.017565       -0.103428     -0.000230521    -5.84774e-05       -0.0592281       -0.992273
                       -0.583565       -0.809301      -0.00020634    -9.67894e-05       0.00229113     -0.00971978      0.000200185     3.00717e-05
                    -0.000335032     0.000204148       -0.0586802       -0.992063      0.000337634    -5.56687e-05        0.0295196        0.100802
281726                 0.0106602     0.000807229      0.000270889     3.78164e-05         -0.58341       -0.809245     -5.84321e-05    -6.65589e-05
                     0.000332901    -9.38408e-05         0.017553       -0.103426     -0.000230585    -5.84854e-05       -0.0594703       -0.992259
                       -0.583787        -0.80914     -0.000206518    -9.67133e-05       0.00227435     -0.00972226      0.000200228     3.00895e-05
                    -0.000335036     0.000204348       -0.0589225       -0.992049      0.000337608    -5.57021e-05        0.0295565        0.100787
281728                 0.0106577     0.000818374      0.000271034     3.76875e-05        -0.583633       -0.809084     -5.84667e-05    -6.65253e-05
                     0.000332821    -9.39859e-05         0.017541       -0.103423     -0.000230649    -5.84933e-05       -0.0597125       -0.992244
                        -0.58401       -0.808979     -0.000206697     -9.6637e-05       0.00225758     -0.00972474      0.000200271     3.01072e-05
                    -0.000335039     0.000204548       -0.0591648       -0.992035      0.000337583    -5.57353e-05        0.0295935        0.100771
281730                 0.0106553     0.000829521       0.00027118     3.75584e-05        -0.583855       -0.808924     -5.85012e-05    -6.64917e-05
                     0.000332741    -9.41315e-05         0.017529       -0.103421     -0.000230713    -5.85013e-05       -0.0599547        -0.99223
                       -0.584233       -0.808818     -0.000206875    -9.65606e-05        0.0022408     -0.00972719      0.000200314      3.0125e-05
                    -0.000335043     0.000204749       -0.0594071        -0.99202      0.000337557    -5.57683e-05        0.0296304        0.100756
281732                 0.0106529     0.000840671      0.000271325     3.74292e-05        -0.584077       -0.808763     -5.85359e-05     -6.6458e-05
                      0.00033266    -9.42777e-05         0.017517       -0.103419     -0.000230777    -5.85093e-05       -0.0601969       -0.992216
                       -0.584455       -0.808657     -0.000207053     -9.6484e-05       0.00222401     -0.00972964      0.000200357     3.01427e-05
                    -0.000335047     0.000204951       -0.0596494       -0.992005      0.000337531    -5.58012e-05        0.0296674        0.100741
281734                 0.0106505     0.000851825       0.00027147     3.72997e-05          -0.5843       -0.808603     -5.85706e-05    -6.64241e-05
                      0.00033258    -9.44246e-05         0.017505       -0.103416     -0.000230841    -5.85173e-05       -0.0604391       -0.992202
                       -0.584678       -0.808496     -0.000207231    -9.64072e-05       0.00220723     -0.00973207        0.0002004     3.01605e-05
                     -0.00033505     0.000205153       -0.0598917       -0.991991      0.000337504    -5.58339e-05        0.0297043        0.100725
281736                 0.0106481     0.000862985      0.000271616     3.71702e-05        -0.584522       -0.808442     -5.86055e-05    -6.63901e-05
                     0.000332499    -9.45721e-05         0.017493       -0.103414     -0.000230905    -5.85254e-05       -0.0606813       -0.992187
                       -0.584901       -0.808335     -0.000207408    -9.63303e-05       0.00219044     -0.00973449      0.000200443     3.01784e-05
                    -0.000335053     0.000205355       -0.0601339       -0.991976      0.000337478    -5.58664e-05        0.0297412         0.10071
281738                 0.0106457     0.000874152      0.000271761     3.70404e-05        -0.584744       -0.808282     -5.86407e-05    -6.63558e-05
                     0.000332417    -9.47203e-05         0.017481       -0.103411     -0.000230969    -5.85335e-05       -0.0609234       -0.992173
                       -0.585123       -0.808174     -0.000207586    -9.62532e-05       0.00217366     -0.00973689      0.000200487     3.01963e-05
                    -0.000335056     0.000205558       -0.0603762       -0.991961      0.000337452    -5.58988e-05        0.0297781        0.100694
281740                 0.0106433     0.000885326      0.000271907     3.69105e-05        -0.584966       -0.808121     -5.86764e-05    -6.63212e-05
                     0.000332336    -9.48693e-05         0.017469       -0.103409     -0.000231033    -5.85416e-05       -0.0611654       -0.992158
                       -0.585346       -0.808012     -0.000207763     -9.6176e-05       0.00215686     -0.00973928      0.000200531     3.02144e-05
                    -0.000335059     0.000205761       -0.0606185       -0.991947      0.000337425    -5.59311e-05        0.0298151        0.100679
281742                 0.0106409      0.00089651      0.000272053     3.67804e-05        -0.585188        -0.80796     -5.87128e-05    -6.62858e-05
                     0.000332254    -9.50191e-05         0.017457       -0.103407     -0.000231097    -5.85497e-05       -0.0614117       -0.992137
                       -0.585568       -0.807851      -0.00020794    -9.60986e-05       0.00214007     -0.00974166      0.000200577     3.02328e-05
                    -0.000335062     0.000205965       -0.0608607       -0.991932      0.000337399    -5.59632e-05        0.0298516        0.100663
281744                 0.0106385     0.000907704      0.000272199     3.66501e-05         -0.58541       -0.807799     -5.87503e-05     -6.6249e-05
                     0.000332172    -9.51698e-05         0.017445       -0.103404     -0.000231161    -5.85579e-05       -0.0616507        -0.99213
                       -0.585791       -0.807689     -0.000208117     -9.6021e-05       0.00212328     -0.00974402       0.00020063      3.0251e-05
                    -0.000335065     0.000206169        -0.061103       -0.991917      0.000337372    -5.59951e-05        0.0298888        0.100648
281746                 0.0106361     0.000918909      0.000272345     3.65196e-05        -0.585632       -0.807638     -5.87887e-05     -6.6209e-05
                      0.00033209    -9.53213e-05         0.017433       -0.103402     -0.000231225    -5.85661e-05       -0.0618926       -0.992115
                       -0.586014       -0.807528     -0.000208294    -9.59432e-05       0.00210648     -0.00974637      0.000200716     3.02021e-05
                    -0.000335067     0.000206374       -0.0613453       -0.991902      0.000337345    -5.60269e-05        0.0299257        0.100633
281748                 0.0106338     0.000930126      0.000272491      3.6389e-05        -0.585854       -0.807478     -5.88254e-05    -6.61629e-05
                     0.000332008    -9.54738e-05         0.017421       -0.103399     -0.000231288    -5.85744e-05       -0.0621347         -0.9921
                       -0.586236       -0.807366     -0.000208471    -9.58653e-05       0.00208968     -0.00974871      0.000200667     3.02592e-05
                     -0.00033507      0.00020658       -0.0615875       -0.991887      0.000337318    -5.60585e-05        0.0299625        0.100617
281750                 0.0106314     0.000941356      0.000272638     3.62582e-05        -0.586076       -0.807316     -5.88519e-05    -6.61123e-05
                     0.000331925    -9.56273e-05         0.017409       -0.103397     -0.000231352    -5.85827e-05       -0.0623769       -0.992085
                       -0.586459       -0.807204     -0.000208647    -9.57872e-05       0.00207288     -0.00975103      0.000200718     3.02894e-05
                    -0.000335072     0.000206786       -0.0618298       -0.991872      0.000337291      -5.609e-05        0.0299994        0.100602
281752                  0.010629     0.000952599      0.000272784     3.61273e-05        -0.586298       -0.807155     -5.88678e-05    -6.60716e-05
                     0.000331842    -9.57818e-05         0.017397       -0.103395     -0.000231416     -5.8591e-05        -0.062619        -0.99207
                       -0.586681       -0.807043     -0.000208824    -9.57089e-05       0.00205608     -0.00975334      0.000200763     3.03101e-05
                    -0.000335074     0.000206993        -0.062072       -0.991857      0.000337264    -5.61213e-05        0.0300363        0.100586
281754                 0.0106267     0.000963854       0.00027293     3.59961e-05         -0.58652       -0.806994     -5.88883e-05    -6.60421e-05
                     0.000331759    -9.59373e-05         0.017385       -0.103392      -0.00023148    -5.85994e-05       -0.0628612       -0.992055
                       -0.586904       -0.806881        -0.000209    -9.56304e-05       0.00203927     -0.00975564      0.000200806     3.03288e-05
                    -0.000335076       0.0002072       -0.0623143       -0.991842      0.000337236    -5.61525e-05        0.0300731        0.100571
281756                 0.0106243      0.00097512      0.000273077     3.58649e-05        -0.586742       -0.806833     -5.89162e-05    -6.60137e-05
                     0.000331675    -9.60938e-05         0.017373        -0.10339     -0.000231543    -5.86079e-05       -0.0631033        -0.99204
                       -0.587126       -0.806719     -0.000209176    -9.55518e-05       0.00202247     -0.00975792      0.000200848     3.03468e-05
                    -0.000335077     0.000207408       -0.0625565       -0.991826      0.000337209    -5.61835e-05          0.03011        0.100555
281758                  0.010622     0.000986397      0.000273224     3.57334e-05        -0.586963       -0.806672     -5.89474e-05    -6.59832e-05
                     0.000331591    -9.62513e-05         0.017361       -0.103387     -0.000231607    -5.86164e-05       -0.0633455       -0.992025
                       -0.587349       -0.806557     -0.000209352    -9.54729e-05       0.00200566     -0.00976019       0.00020089     3.03645e-05
                    -0.000335079     0.000207617       -0.0627988       -0.991811      0.000337181    -5.62144e-05        0.0301468         0.10054
281760                 0.0106196      0.00099768      0.000273371     3.56018e-05        -0.587185        -0.80651     -5.89796e-05    -6.59508e-05
                     0.000331507    -9.64096e-05         0.017349       -0.103385     -0.000231671    -5.86249e-05       -0.0635877        -0.99201
                       -0.587571       -0.806395     -0.000209527    -9.53939e-05       0.00198885     -0.00976245      0.000200931     3.03819e-05
                     -0.00033508     0.000207826        -0.063041       -0.991796      0.000337154    -5.62451e-05        0.0301836        0.100524
281762                 0.0106172      0.00100896      0.000273518     3.54699e-05        -0.587407       -0.806349     -5.90122e-05     -6.5917e-05
                     0.000331423    -9.65685e-05         0.017337       -0.103383     -0.000231734    -5.86335e-05       -0.0638298       -0.991995
                       -0.587794       -0.806232     -0.000209703    -9.53147e-05       0.00197204     -0.00976469      0.000200972     3.03992e-05
