! TOUCHSTONE file generated by CST MICROWAVE STUDIO
! Date and time: Tue Oct 14 17:38:58 2025
! Project name: Teste_Macro_Metasurface_Nanopilar.cst
! Parameters = {H=600; L_x=160; L_y=100; Lambda=1064; Max_L=200; Min_L=70; PathPara=1; Phi=0; Step_L=10; Theta=0; p=520; phaseX=180; phaseY=0}
! Header version: 2018
! Port assignment regex: !\s*Touchstone port\s*([0-9]+)\s*=\s*(CST MWS port|CST DS port)\s*([0-9]+|Zmin|Zmax)\s*\(\"(.*)\"\)(\s*mode\s*([0-9]+))?.*
! Touchstone port assignment:
! Touchstone port 1 = CST MWS port Zmax ("") mode 1
! Touchstone port 2 = CST MWS port Zmax ("") mode 2
! Touchstone port 3 = CST MWS port Zmin ("") mode 1
! Touchstone port 4 = CST MWS port Zmin ("") mode 2
! S-Parameters are not renormalized. Each port impedance will be approximated by the real part at minimum frequency. The values are described via the [Reference] keyword.
! Default impedance is overridden by [Reference]
[Version] 2.0
# GHz S RI R 376.73
[Number of Ports] 4
[Reference]
376.73 376.73 259.814 259.814 
[Number of Frequencies] 51
[Network Data]
281700                  0.132087        0.117716     -0.000192913    -5.63763e-05        -0.937265        0.277873     -0.000248973    -0.000234113
                    -0.000173442    -9.78133e-06        0.0994452        0.201674      -0.00010042     0.000338045         0.923026       -0.296369
                       -0.937198        0.277886     -0.000110403     0.000367811       -0.0454116        0.170338     -0.000239418     8.06009e-05
                    -0.000194805    -0.000232069         0.923344        -0.29662     -0.000239449     9.72575e-05        0.0380011        0.220571
281702                   0.13211        0.117708     -0.000192905    -5.64034e-05        -0.937162        0.278212     -0.000249014    -0.000233984
                    -0.000173366    -9.84685e-06        0.0994683        0.201697     -0.000100326      0.00033802          0.92292       -0.296674
                       -0.937095        0.278224     -0.000110302     0.000367821       -0.0453132        0.170377     -0.000239323     8.06533e-05
                    -0.000194999    -0.000231811         0.923238       -0.296925     -0.000239298     9.74357e-05         0.038143        0.220578
281704                  0.132134        0.117699     -0.000192897    -5.64303e-05        -0.937058         0.27855     -0.000249055    -0.000233854
                      -0.0001733    -9.90152e-06        0.0994915        0.201721     -0.000100232     0.000337995         0.922815       -0.296979
                       -0.936991        0.278563     -0.000110201     0.000367832       -0.0452147        0.170416     -0.000239228     8.07057e-05
                    -0.000195166    -0.000231579         0.923133        -0.29723     -0.000239147     9.76137e-05        0.0382849        0.220584
281706                  0.132158        0.117691     -0.000192888    -5.64569e-05        -0.936955        0.278888     -0.000249095    -0.000233724
                    -0.000173243    -9.94788e-06        0.0995146        0.201744     -0.000100137     0.000337969         0.922709       -0.297284
                       -0.936887        0.278901       -0.0001101     0.000367842       -0.0451161        0.170455     -0.000239133      8.0758e-05
                    -0.000195312    -0.000231366         0.923027       -0.297535     -0.000238997     9.77916e-05        0.0384269        0.220591
281708                  0.132182        0.117683      -0.00019288    -5.64832e-05        -0.936851        0.279226     -0.000249136    -0.000233595
                    -0.000173194    -9.98772e-06        0.0995378        0.201767     -0.000100043     0.000337944         0.922603       -0.297589
                       -0.936783        0.279239     -0.000109999     0.000367853       -0.0450176        0.170494     -0.000239038     8.08102e-05
                     -0.00019544    -0.000231169         0.922921        -0.29784     -0.000238845     9.79693e-05        0.0385689        0.220597
281710                  0.132206        0.117675     -0.000192872    -5.65094e-05        -0.936748        0.279565     -0.000249176    -0.000233465
                    -0.000173151    -1.00224e-05         0.099561         0.20179     -9.99482e-05     0.000337918         0.922497       -0.297894
                       -0.936679        0.279578     -0.000109898     0.000367863        -0.044919        0.170532     -0.000238943     8.08624e-05
                    -0.000195552    -0.000230983         0.922815       -0.298145     -0.000238694     9.81469e-05        0.0387109        0.220603
281712                   0.13223        0.117666     -0.000192865    -5.65355e-05        -0.936644        0.279903     -0.000249216    -0.000233335
                    -0.000173113    -1.00528e-05        0.0995842        0.201813     -9.98537e-05     0.000337893         0.922391       -0.298199
                       -0.936575        0.279916     -0.000109797     0.000367873       -0.0448203        0.170571     -0.000238849     8.09145e-05
                    -0.000195653    -0.000230807         0.922709        -0.29845     -0.000238543     9.83244e-05        0.0388529        0.220609
281714                  0.132254        0.117658     -0.000192857    -5.65614e-05         -0.93654        0.280241     -0.000249256    -0.000233205
                    -0.000173079    -1.00798e-05        0.0996073        0.201836     -9.97592e-05     0.000337867         0.922285       -0.298504
                       -0.936471        0.280254     -0.000109695     0.000367882       -0.0447217         0.17061     -0.000238754     8.09666e-05
                    -0.000195742    -0.000230638         0.922602       -0.298755     -0.000238391     9.85016e-05         0.038995        0.220615
281716                  0.132278         0.11765     -0.000192849    -5.65873e-05        -0.936436        0.280579     -0.000249296    -0.000233075
                    -0.000173049    -1.01039e-05        0.0996305         0.20186     -9.96646e-05     0.000337841         0.922179       -0.298809
                       -0.936367        0.280592     -0.000109594     0.000367892        -0.044623        0.170648      -0.00023866     8.10186e-05
                    -0.000195823    -0.000230476         0.922496        -0.29906      -0.00023824     9.86788e-05        0.0391371        0.220621
281718                  0.132302        0.117641     -0.000192841     -5.6613e-05        -0.936332        0.280917     -0.000249336    -0.000232945
                    -0.000173022    -1.01257e-05        0.0996537        0.201883     -9.95701e-05     0.000337815         0.922073       -0.299114
                       -0.936263        0.280931     -0.000109492     0.000367901       -0.0445242        0.170687     -0.000238565     8.10706e-05
                    -0.000195895    -0.000230319          0.92239       -0.299365     -0.000238088     9.88558e-05        0.0392792        0.220627
281720                  0.132326        0.117633     -0.000192834    -5.66387e-05        -0.936228        0.281255     -0.000249375    -0.000232815
                    -0.000172997    -1.01454e-05        0.0996769        0.201906     -9.94755e-05      0.00033779         0.921966       -0.299419
                       -0.936158        0.281269      -0.00010939      0.00036791       -0.0444255        0.170725     -0.000238471     8.11225e-05
                    -0.000195961    -0.000230166         0.922283       -0.299669     -0.000237936     9.90326e-05        0.0394214        0.220633
281722                   0.13235        0.117625     -0.000192826    -5.66643e-05        -0.936123        0.281593     -0.000249415    -0.000232685
                    -0.000172975    -1.01633e-05        0.0997001        0.201929     -9.93809e-05     0.000337764          0.92186       -0.299724
                       -0.936053        0.281607     -0.000109288      0.00036792       -0.0443267        0.170763     -0.000238377     8.11744e-05
                    -0.000196022    -0.000230018         0.922176       -0.299974     -0.000237784     9.92093e-05        0.0395636        0.220639
281724                  0.132374        0.117616     -0.000192819    -5.66898e-05        -0.936019        0.281931     -0.000249454    -0.000232555
                    -0.000172955    -1.01798e-05        0.0997233        0.201952     -9.92863e-05     0.000337738         0.921753       -0.300029
                       -0.935949        0.281945     -0.000109185     0.000367929       -0.0442279        0.170802     -0.000238283     8.12262e-05
                    -0.000196077    -0.000229872          0.92207       -0.300279     -0.000237632     9.93858e-05        0.0397058        0.220645
281726                  0.132398        0.117608     -0.000192811    -5.67154e-05        -0.935914        0.282269     -0.000249493    -0.000232425
                    -0.000172936     -1.0195e-05        0.0997465        0.201976     -9.91917e-05     0.000337711         0.921646       -0.300333
                       -0.935844        0.282283     -0.000109082     0.000367938        -0.044129         0.17084     -0.000238189      8.1278e-05
                    -0.000196127     -0.00022973         0.921963       -0.300584     -0.000237479     9.95623e-05         0.039848         0.22065
281728                  0.132422          0.1176     -0.000192804    -5.67408e-05         -0.93581        0.282607     -0.000249531    -0.000232295
                    -0.000172919    -1.02091e-05        0.0997697        0.201999      -9.9097e-05     0.000337685          0.92154       -0.300638
                       -0.935739        0.282621     -0.000108978     0.000367948       -0.0440301        0.170878     -0.000238095     8.13297e-05
                    -0.000196174    -0.000229589         0.921856       -0.300888     -0.000237327     9.97385e-05        0.0399903        0.220656
281730                  0.132446        0.117591     -0.000192796    -5.67663e-05        -0.935705        0.282945      -0.00024957    -0.000232164
                    -0.000172904    -1.02222e-05         0.099793        0.202022     -9.90024e-05     0.000337659         0.921433       -0.300943
                       -0.935634        0.282959     -0.000108874     0.000367958       -0.0439312        0.170916     -0.000238001     8.13814e-05
                    -0.000196217    -0.000229451         0.921749       -0.301193     -0.000237174     9.99147e-05        0.0401325        0.220661
281732                   0.13247        0.117583     -0.000192789    -5.67917e-05          -0.9356        0.283283     -0.000249608    -0.000232034
                    -0.000172889    -1.02345e-05        0.0998162        0.202045     -9.89077e-05     0.000337633         0.921326       -0.301247
                       -0.935529        0.283297      -0.00010877     0.000367969       -0.0438322        0.170954     -0.000237908     8.14331e-05
                    -0.000196257    -0.000229315         0.921641       -0.301498     -0.000237021     0.000100091        0.0402748        0.220666
281734                  0.132494        0.117574     -0.000192781    -5.68171e-05        -0.935495         0.28362     -0.000249645    -0.000231903
                    -0.000172876    -1.02459e-05        0.0998394        0.202069      -9.8813e-05     0.000337606         0.921219       -0.301552
                       -0.935423        0.283635     -0.000108666      0.00036798       -0.0437333        0.170992     -0.000237815     8.14847e-05
                    -0.000196294     -0.00022918         0.921534       -0.301802     -0.000236869     0.000100267        0.0404172        0.220671
281736                  0.132518        0.117566     -0.000192774    -5.68424e-05        -0.935389        0.283958     -0.000249682    -0.000231773
                    -0.000172864    -1.02568e-05        0.0998627        0.202092     -9.87183e-05      0.00033758         0.921111       -0.301856
                       -0.935318        0.283973     -0.000108563     0.000367992       -0.0436342         0.17103     -0.000237721     8.15363e-05
                    -0.000196329    -0.000229046         0.921427       -0.302107     -0.000236715     0.000100442        0.0405595        0.220677
281738                  0.132542        0.117558     -0.000192767    -5.68678e-05        -0.935284        0.284296     -0.000249719    -0.000231643
                    -0.000172853     -1.0267e-05        0.0998859        0.202115     -9.86237e-05     0.000337553         0.921004       -0.302161
                       -0.935212         0.28431      -0.00010846     0.000368005       -0.0435352        0.171068     -0.000237628     8.15879e-05
                    -0.000196361    -0.000228914         0.921319       -0.302411     -0.000236562     0.000100618        0.0407019        0.220682
281740                  0.132565        0.117549     -0.000192759    -5.68931e-05        -0.935178        0.284634     -0.000249755    -0.000231512
                    -0.000172842    -1.02767e-05        0.0999091        0.202138      -9.8529e-05     0.000337526         0.920897       -0.302465
                       -0.935107        0.284648     -0.000108358     0.000368017       -0.0434361        0.171106     -0.000237535     8.16394e-05
                    -0.000196391    -0.000228783         0.921212       -0.302716     -0.000236409     0.000100794        0.0408443        0.220687
281742                  0.132589        0.117541     -0.000192752    -5.69184e-05        -0.935073        0.284971     -0.000249791    -0.000231382
                    -0.000172832     -1.0286e-05        0.0999324        0.202162     -9.84345e-05     0.000337498         0.920789        -0.30277
                       -0.935001        0.284986     -0.000108256      0.00036803        -0.043337        0.171144     -0.000237442      8.1691e-05
                     -0.00019642    -0.000228653         0.921104        -0.30302     -0.000236255      0.00010097        0.0409867        0.220692
281744                  0.132613        0.117532     -0.000192745    -5.69437e-05        -0.934967        0.285309     -0.000249826    -0.000231252
                    -0.000172823    -1.02948e-05        0.0999556        0.202185     -9.83402e-05     0.000337469         0.920681       -0.303074
                       -0.934895        0.285324     -0.000108155     0.000368042       -0.0432379        0.171182      -0.00023735     8.17425e-05
                    -0.000196447    -0.000228524         0.920996       -0.303324       -0.0002361     0.000101147        0.0411292        0.220696
281746                  0.132637        0.117524     -0.000192738     -5.6969e-05        -0.934861        0.285647      -0.00024986    -0.000231121
                    -0.000172814    -1.03033e-05        0.0999789        0.202208       -9.825e-05      0.00033743         0.920574       -0.303379
                       -0.934789        0.285661     -0.000108054     0.000368054       -0.0431387        0.171219     -0.000237257     8.17939e-05
                    -0.000196472    -0.000228396         0.920888       -0.303629      -0.00023594     0.000101332        0.0412717        0.220701
281748                  0.132661        0.117515      -0.00019273    -5.69943e-05        -0.934755        0.285984     -0.000249893    -0.000230991
                    -0.000172806    -1.03115e-05         0.100002        0.202231     -9.81473e-05     0.000337433         0.920466       -0.303683
                       -0.934683        0.285999     -0.000107954     0.000368066       -0.0430395        0.171257     -0.000237165     8.18454e-05
                    -0.000196496    -0.000228268          0.92078       -0.303933       -0.0002358     0.000101479        0.0414142        0.220706
281750                  0.132685        0.117507     -0.000192723    -5.70195e-05        -0.934649        0.286322     -0.000249926    -0.000230861
                    -0.000172798    -1.03195e-05         0.100025        0.202255     -9.80535e-05     0.000337399         0.920358       -0.303987
                       -0.934577        0.286337     -0.000107853     0.000368077       -0.0429402        0.171294     -0.000237073     8.18969e-05
                    -0.000196519    -0.000228141         0.920672       -0.304237     -0.000235643     0.000101662        0.0415567         0.22071
281752                  0.132709        0.117498     -0.000192716    -5.70448e-05        -0.934543        0.286659     -0.000249958    -0.000230731
                    -0.000172791    -1.03272e-05         0.100049        0.202278     -9.79589e-05      0.00033737          0.92025       -0.304292
                        -0.93447        0.286674     -0.000107753     0.000368088        -0.042841        0.171332      -0.00023698     8.19483e-05
                    -0.000196541    -0.000228014         0.920564       -0.304542     -0.000235488     0.000101838        0.0416993        0.220715
281754                  0.132733         0.11749     -0.000192709      -5.707e-05        -0.934437        0.286997      -0.00024999      -0.0002306
                    -0.000172784    -1.03348e-05         0.100072        0.202301     -9.78642e-05     0.000337342         0.920142       -0.304596
                       -0.934364        0.287012     -0.000107653     0.000368098       -0.0427417        0.171369     -0.000236889     8.19997e-05
                    -0.000196563    -0.000227887         0.920455       -0.304846     -0.000235333     0.000102013        0.0418419        0.220719
281756                  0.132757        0.117481     -0.000192701    -5.70953e-05         -0.93433        0.287334     -0.000250021     -0.00023047
                    -0.000172777    -1.03422e-05         0.100095        0.202325     -9.77693e-05     0.000337315         0.920033         -0.3049
                       -0.934257        0.287349     -0.000107552     0.000368109       -0.0426423        0.171407     -0.000236797     8.20512e-05
                    -0.000196583    -0.000227761         0.920347        -0.30515     -0.000235179     0.000102187        0.0419845        0.220723
281758                  0.132781        0.117473     -0.000192694    -5.71205e-05        -0.934223        0.287672     -0.000250053    -0.000230338
                     -0.00017277    -1.03497e-05         0.100119        0.202348     -9.76745e-05     0.000337287         0.919925       -0.305204
                       -0.934151        0.287687     -0.000107452     0.000368119        -0.042543        0.171444     -0.000236705     8.21026e-05
                    -0.000196604    -0.000227635         0.920238       -0.305454     -0.000235024     0.000102361        0.0421271        0.220727
281760                  0.132805        0.117464     -0.000192687    -5.71457e-05        -0.934117        0.288009     -0.000250085    -0.000230207
                    -0.000172763    -1.03572e-05         0.100142        0.202371     -9.75795e-05      0.00033726         0.919816       -0.305508
                       -0.934044        0.288024     -0.000107352     0.000368129       -0.0424436        0.171481     -0.000236614     8.21541e-05
                    -0.000196624    -0.000227509          0.92013       -0.305758      -0.00023487     0.000102535        0.0422698        0.220732
281762                  0.132829        0.117456      -0.00019268     -5.7171e-05         -0.93401        0.288346     -0.000250118    -0.000230075
                    -0.000172756    -1.03649e-05         0.100165        0.202394     -9.74846e-05     0.000337232         0.919708       -0.305812
                       -0.933937        0.288362     -0.000107251     0.000368139       -0.0423442        0.171518     -0.000236522     8.22055e-05
