! TOUCHSTONE file generated by CST MICROWAVE STUDIO
! Date and time: Tue Oct 14 17:38:26 2025
! Project name: Teste_Macro_Metasurface_Nanopilar.cst
! Parameters = {H=600; L_x=110; L_y=180; Lambda=1064; Max_L=200; Min_L=70; PathPara=1; Phi=0; Step_L=10; Theta=0; p=520; phaseX=180; phaseY=0}
! Header version: 2018
! Port assignment regex: !\s*Touchstone port\s*([0-9]+)\s*=\s*(CST MWS port|CST DS port)\s*([0-9]+|Zmin|Zmax)\s*\(\"(.*)\"\)(\s*mode\s*([0-9]+))?.*
! Touchstone port assignment:
! Touchstone port 1 = CST MWS port Zmax ("") mode 1
! Touchstone port 2 = CST MWS port Zmax ("") mode 2
! Touchstone port 3 = CST MWS port Zmin ("") mode 1
! Touchstone port 4 = CST MWS port Zmin ("") mode 2
! S-Parameters are not renormalized. Each port impedance will be approximated by the real part at minimum frequency. The values are described via the [Reference] keyword.
! Default impedance is overridden by [Reference]
[Version] 2.0
# GHz S RI R 376.73
[Number of Ports] 4
[Reference]
376.73 376.73 259.814 259.814 
[Number of Frequencies] 51
[Network Data]
281700                  0.405853       -0.353697      0.000574664     0.000555603         0.819035       -0.103422       0.00035576     0.000259187
                     0.000545458     0.000573813        0.0889042      -0.0060758     -0.000775708    -0.000695464         0.552278        0.818937
                         0.81954         -0.1033     -0.000790621    -0.000688892        -0.457077       -0.266027     -0.000896756    -0.000425768
                     0.000519836     0.000290844         0.553114        0.819033      -0.00113029    -0.000392969        0.0387799      -0.0772479
281702                  0.405598       -0.353626       0.00057511     0.000554957          0.81914       -0.103904      0.000355905     0.000258956
                      0.00054594     0.000573065        0.0888898     -0.00606371     -0.000776026     -0.00069457         0.552591        0.818728
                        0.819645       -0.103783     -0.000790916    -0.000687992        -0.457122       -0.265477     -0.000896927    -0.000425355
                     0.000519738     0.000290311         0.553425        0.818825      -0.00113002    -0.000392499        0.0387043      -0.0772686
281704                  0.405342       -0.353555      0.000575556     0.000554311         0.819245       -0.104387      0.000356052     0.000258726
                      0.00054642     0.000572315        0.0888754     -0.00605161     -0.000776343    -0.000693676         0.552903        0.818519
                        0.819749       -0.104266     -0.000791208    -0.000687092        -0.457167       -0.264928     -0.000897099    -0.000424941
                     0.000519639     0.000289777         0.553735        0.818616      -0.00112975    -0.000392026        0.0386286      -0.0772892
281706                  0.405087       -0.353483         0.000576     0.000553665         0.819349       -0.104869      0.000356198     0.000258496
                       0.0005469     0.000571566        0.0888611     -0.00603951      -0.00077666    -0.000692783         0.553216         0.81831
                        0.819853       -0.104748     -0.000791498    -0.000686193        -0.457211       -0.264379      -0.00089727    -0.000424528
                     0.000519538     0.000289243         0.554045        0.818407      -0.00112949    -0.000391554         0.038553      -0.0773097
281708                  0.404832       -0.353412      0.000576444     0.000553019         0.819453       -0.105352      0.000356345     0.000258265
                     0.000547378     0.000570815        0.0888467      -0.0060274     -0.000776975     -0.00069189         0.553528        0.818101
                        0.819957       -0.105231     -0.000791786    -0.000685295        -0.457254        -0.26383     -0.000897442    -0.000424115
                     0.000519436     0.000288709         0.554356        0.818198      -0.00112923    -0.000391083        0.0384773      -0.0773302
281710                  0.404577       -0.353341      0.000576887     0.000552374         0.819557       -0.105834      0.000356492     0.000258035
                     0.000547855     0.000570063        0.0888323     -0.00601529     -0.000777291    -0.000690997          0.55384        0.817892
                         0.82006       -0.105714     -0.000792071    -0.000684397        -0.457297       -0.263281     -0.000897614    -0.000423701
                     0.000519333     0.000288175         0.554666        0.817989      -0.00112897    -0.000390614        0.0384017      -0.0773506
281712                  0.404323       -0.353269       0.00057733     0.000551728          0.81966       -0.106317      0.000356639     0.000257804
                     0.000548331     0.000569311        0.0888179     -0.00600318     -0.000777605    -0.000690105         0.554152        0.817682
                        0.820163       -0.106196     -0.000792354    -0.000683499         -0.45734       -0.262733     -0.000897785    -0.000423287
                     0.000519228      0.00028764         0.554976         0.81778      -0.00112871    -0.000390146         0.038326       -0.077371
281714                  0.404069       -0.353198      0.000577772     0.000551082         0.819762       -0.106799      0.000356786     0.000257573
                     0.000548805     0.000568558        0.0888036     -0.00599106     -0.000777918    -0.000689213         0.554464        0.817472
                        0.820266       -0.106679     -0.000792635    -0.000682602        -0.457382       -0.262185     -0.000897957    -0.000422873
                     0.000519122     0.000287105         0.555285        0.817571      -0.00112845    -0.000389679        0.0382503      -0.0773913
281716                  0.403815       -0.353126      0.000578213     0.000550437         0.819864       -0.107281      0.000356933     0.000257342
                     0.000549279     0.000567804        0.0887892     -0.00597893     -0.000778231    -0.000688321         0.554777        0.817263
                        0.820368       -0.107161     -0.000792914    -0.000681705        -0.457423       -0.261637     -0.000898129    -0.000422459
                     0.000519015      0.00028657         0.555595        0.817362       -0.0011282    -0.000389214        0.0381746      -0.0774115
281718                  0.403561       -0.353054      0.000578653     0.000549791         0.819966       -0.107764      0.000357081     0.000257112
                     0.000549752     0.000567049        0.0887749      -0.0059668     -0.000778543     -0.00068743         0.555088        0.817053
                        0.820469       -0.107644      -0.00079319    -0.000680808        -0.457464        -0.26109     -0.000898301    -0.000422045
                     0.000518906     0.000286034         0.555905        0.817152      -0.00112794    -0.000388751        0.0380989      -0.0774317
281720                  0.403307       -0.352982      0.000579093     0.000549146         0.820067       -0.108246      0.000357229     0.000256881
                     0.000550223     0.000566294        0.0887605     -0.00595467     -0.000778854    -0.000686539           0.5554        0.816843
                         0.82057       -0.108126     -0.000793464    -0.000679913        -0.457504       -0.260543     -0.000898473    -0.000421631
                     0.000518797     0.000285498         0.556214        0.816943      -0.00112768    -0.000388288        0.0380232      -0.0774518
281722                  0.403054        -0.35291      0.000579532       0.0005485         0.820168       -0.108728      0.000357377      0.00025665
                     0.000550694     0.000565538        0.0887462     -0.00594253     -0.000779164    -0.000685648         0.555712        0.816633
                        0.820671       -0.108608     -0.000793736    -0.000679017        -0.457544       -0.259996     -0.000898645    -0.000421217
                     0.000518686     0.000284962         0.556524        0.816733      -0.00112743    -0.000387827        0.0379475      -0.0774718
281724                  0.402801       -0.352838       0.00057997     0.000547855         0.820269        -0.10921      0.000357526     0.000256419
                     0.000551163     0.000564781        0.0887318     -0.00593038     -0.000779473    -0.000684757         0.556024        0.816423
                        0.820771       -0.109091     -0.000794005    -0.000678122        -0.457583        -0.25945     -0.000898818    -0.000420803
                     0.000518575     0.000284426         0.556833        0.816523      -0.00112717    -0.000387367        0.0378718      -0.0774918
281726                  0.402548       -0.352766      0.000580408     0.000547209         0.820368       -0.109692      0.000357674     0.000256188
                     0.000551631     0.000564023        0.0887175     -0.00591823     -0.000779782    -0.000683867         0.556335        0.816212
                         0.82087       -0.109573     -0.000794273    -0.000677227        -0.457621       -0.258903      -0.00089899    -0.000420389
                     0.000518462     0.000283889         0.557143        0.816313      -0.00112691    -0.000386907         0.037796      -0.0775117
281728                  0.402295       -0.352693      0.000580845     0.000546564         0.820468       -0.110174      0.000357823     0.000255958
                     0.000552099     0.000563265        0.0887032     -0.00590608     -0.000780089    -0.000682977         0.556647        0.816002
                         0.82097       -0.110055     -0.000794538    -0.000676333        -0.457659       -0.258358     -0.000899162    -0.000419975
                     0.000518349     0.000283353         0.557452        0.816103      -0.00112666    -0.000386449        0.0377203      -0.0775316
281730                  0.402043       -0.352621      0.000581281     0.000545918         0.820567       -0.110656      0.000357971     0.000255727
                     0.000552565     0.000562506        0.0886889     -0.00589392     -0.000780395    -0.000682086         0.556958        0.815792
                        0.821068       -0.110537     -0.000794801     -0.00067544        -0.457697       -0.257812     -0.000899334     -0.00041956
                     0.000518234     0.000282816         0.557761        0.815893       -0.0011264    -0.000385991        0.0376445      -0.0775514
281732                  0.401791       -0.352548      0.000581716     0.000545273         0.820665       -0.111138       0.00035812     0.000255497
                      0.00055303     0.000561747        0.0886746     -0.00588176     -0.000780701    -0.000681197          0.55727        0.815581
                        0.821167       -0.111019     -0.000795061    -0.000674546        -0.457733       -0.257267     -0.000899506    -0.000419146
                     0.000518119     0.000282279          0.55807        0.815683      -0.00112614    -0.000385535        0.0375687      -0.0775711
281734                  0.401539       -0.352475      0.000582151     0.000544628         0.820763        -0.11162       0.00035827     0.000255266
                     0.000553495     0.000560987        0.0886603     -0.00586959     -0.000781005    -0.000680307         0.557581         0.81537
                        0.821265       -0.111502      -0.00079532    -0.000673654         -0.45777       -0.256722     -0.000899679    -0.000418732
                     0.000518002     0.000281741         0.558379        0.815472      -0.00112589    -0.000385078         0.037493      -0.0775907
281736                  0.401287       -0.352403      0.000582585     0.000543982         0.820861       -0.112102      0.000358419     0.000255036
                     0.000553958     0.000560226         0.088646     -0.00585742     -0.000781309    -0.000679418         0.557892        0.815159
                        0.821362       -0.111984     -0.000795576    -0.000672761        -0.457805       -0.256177     -0.000899851    -0.000418318
                     0.000517885     0.000281204         0.558687        0.815262      -0.00112563    -0.000384623        0.0374172      -0.0776103
281738                  0.401036        -0.35233      0.000583019     0.000543337         0.820958       -0.112584      0.000358568     0.000254805
                      0.00055442     0.000559465        0.0886317     -0.00584525     -0.000781611    -0.000678528         0.558203        0.814948
                        0.821459       -0.112466      -0.00079583     -0.00067187        -0.457841       -0.255633     -0.000900023    -0.000417903
                     0.000517768     0.000280666         0.558996        0.815051      -0.00112537    -0.000384169        0.0373414      -0.0776299
281740                  0.400785       -0.352257      0.000583451     0.000542692         0.821055       -0.113065      0.000358718     0.000254575
                     0.000554882     0.000558703        0.0886174     -0.00583306     -0.000781913    -0.000677639         0.558514        0.814737
                        0.821555       -0.112947     -0.000796082    -0.000670978        -0.457875       -0.255089     -0.000900195    -0.000417489
                     0.000517649     0.000280129         0.559305        0.814841      -0.00112511    -0.000383715        0.0372656      -0.0776493
281742                  0.400534       -0.352184      0.000583884     0.000542047         0.821151       -0.113547      0.000358867     0.000254345
                     0.000555342      0.00055794        0.0886031     -0.00582088     -0.000782213    -0.000676751         0.558825        0.814526
                        0.821652       -0.113429     -0.000796331    -0.000670087        -0.457909       -0.254545     -0.000900367    -0.000417075
                      0.00051753     0.000279591         0.559613         0.81463      -0.00112486    -0.000383262        0.0371898      -0.0776687
281744                  0.400283       -0.352111      0.000584315     0.000541401         0.821247       -0.114029      0.000359017     0.000254115
                     0.000555802     0.000557177        0.0885888     -0.00580869     -0.000782513    -0.000675862         0.559136        0.814315
                        0.821747       -0.113911     -0.000796578    -0.000669197        -0.457943       -0.254002     -0.000900539    -0.000416661
                      0.00051741     0.000279053         0.559922        0.814419       -0.0011246    -0.000382809        0.0371139      -0.0776881
281746                  0.400033       -0.352037      0.000584746     0.000540756         0.821342        -0.11451      0.000359167     0.000253884
                     0.000556261     0.000556414        0.0885745     -0.00579649     -0.000782812    -0.000674974         0.559447        0.814103
                        0.821842       -0.114393     -0.000796824    -0.000668307        -0.457976       -0.253459      -0.00090071    -0.000416247
                     0.000517289     0.000278515          0.56023        0.814208      -0.00112434    -0.000382357        0.0370381      -0.0777073
281748                  0.399782       -0.351964      0.000585176     0.000540111         0.821437       -0.114992      0.000359317     0.000253654
                     0.000556719      0.00055565        0.0885603     -0.00578429     -0.000783109    -0.000674086         0.559757        0.813892
                        0.821937       -0.114875     -0.000797067    -0.000667418        -0.458008       -0.252916     -0.000900882    -0.000415833
                     0.000517168     0.000277977         0.560538        0.813996      -0.00112408    -0.000381906        0.0369622      -0.0777265
281750                  0.399532        -0.35189      0.000585605     0.000539466         0.821532       -0.115473      0.000359466     0.000253424
                     0.000557175     0.000554886         0.088546     -0.00577209     -0.000783406    -0.000673198         0.560068         0.81368
                        0.822031       -0.115356     -0.000797307    -0.000666529         -0.45804       -0.252374     -0.000901053    -0.000415419
                     0.000517046     0.000277439         0.560846        0.813785      -0.00112382    -0.000381456        0.0368864      -0.0777457
281752                  0.399283       -0.351817      0.000586034     0.000538821         0.821626       -0.115955      0.000359616     0.000253194
                     0.000557632     0.000554121        0.0885317     -0.00575988     -0.000783702     -0.00067231         0.560378        0.813468
                        0.822125       -0.115838     -0.000797546     -0.00066564        -0.458071       -0.251832     -0.000901224    -0.000415006
                     0.000516923     0.000276901         0.561154        0.813573      -0.00112356    -0.000381006        0.0368105      -0.0777647
281754                  0.399033       -0.351743      0.000586463     0.000538176         0.821719       -0.116436      0.000359766     0.000252964
                     0.000558087     0.000553356        0.0885175     -0.00574767     -0.000783997    -0.000671423         0.560689        0.813256
                        0.822219        -0.11632     -0.000797782    -0.000664752        -0.458102        -0.25129     -0.000901395    -0.000414592
                       0.0005168     0.000276363         0.561462        0.813362      -0.00112331    -0.000380557        0.0367346      -0.0777838
281756                  0.398784       -0.351669       0.00058689     0.000537531         0.821812       -0.116918      0.000359915     0.000252733
                     0.000558541      0.00055259        0.0885032     -0.00573545      -0.00078429    -0.000670536         0.560999        0.813044
                        0.822311       -0.116801     -0.000798017    -0.000663864        -0.458133       -0.250749     -0.000901566    -0.000414179
                     0.000516676     0.000275825          0.56177         0.81315      -0.00112305    -0.000380109        0.0366588      -0.0778027
281758                  0.398535       -0.351595      0.000587317     0.000536887         0.821905       -0.117399      0.000360065     0.000252503
                     0.000558994     0.000551824         0.088489     -0.00572323     -0.000784583    -0.000669649         0.561309        0.812832
                        0.822404       -0.117283     -0.000798249    -0.000662977        -0.458162       -0.250207     -0.000901736    -0.000413766
                     0.000516551     0.000275288         0.562078        0.812938      -0.00112279    -0.000379661        0.0365829      -0.0778216
281760                  0.398286       -0.351522      0.000587743     0.000536242         0.821997        -0.11788      0.000360214     0.000252273
                     0.000559447     0.000551058        0.0884748       -0.005711     -0.000784875    -0.000668762          0.56162         0.81262
                        0.822496       -0.117764     -0.000798479    -0.000662091        -0.458191       -0.249667     -0.000901907    -0.000413353
                     0.000516426      0.00027475         0.562386        0.812726      -0.00112253    -0.000379214         0.036507      -0.0778404
281762                  0.398037       -0.351447      0.000588169     0.000535597         0.822089       -0.118361      0.000360363     0.000252043
                     0.000559899     0.000550291        0.0884605     -0.00569877     -0.000785166    -0.000667876          0.56193        0.812408
                        0.822588       -0.118245     -0.000798707    -0.000661204         -0.45822       -0.249126     -0.000902076     -0.00041294
