! TOUCHSTONE file generated by CST MICROWAVE STUDIO
! Date and time: Tue Oct 14 17:38:40 2025
! Project name: Teste_Macro_Metasurface_Nanopilar.cst
! Parameters = {H=600; L_x=130; L_y=180; Lambda=1064; Max_L=200; Min_L=70; PathPara=1; Phi=0; Step_L=10; Theta=0; p=520; phaseX=180; phaseY=0}
! Header version: 2018
! Port assignment regex: !\s*Touchstone port\s*([0-9]+)\s*=\s*(CST MWS port|CST DS port)\s*([0-9]+|Zmin|Zmax)\s*\(\"(.*)\"\)(\s*mode\s*([0-9]+))?.*
! Touchstone port assignment:
! Touchstone port 1 = CST MWS port Zmax ("") mode 1
! Touchstone port 2 = CST MWS port Zmax ("") mode 2
! Touchstone port 3 = CST MWS port Zmin ("") mode 1
! Touchstone port 4 = CST MWS port Zmin ("") mode 2
! S-Parameters are not renormalized. Each port impedance will be approximated by the real part at minimum frequency. The values are described via the [Reference] keyword.
! Default impedance is overridden by [Reference]
[Version] 2.0
# GHz S RI R 376.73
[Number of Ports] 4
[Reference]
376.73 376.73 259.814 259.814 
[Number of Frequencies] 51
[Network Data]
281700                   0.16328      -0.0435662      0.000396666    -0.000106319         0.666743       -0.719209      7.27528e-05     7.31329e-05
                     0.000307678     0.000104283         0.121498        0.189635     -0.000139457      0.00025854         0.871732       -0.424471
                        0.667141       -0.719486     -0.000296011     0.000351946       -0.0310903        0.160384      9.41405e-05     0.000454431
                     0.000247709     6.84463e-05         0.871624       -0.424518      -6.1803e-05     0.000268659        0.0758239        0.209691
281702                  0.163278       -0.043534      0.000396802    -0.000105195          0.66652        -0.71942      7.29047e-05     7.30899e-05
                     0.000307702     0.000104122         0.121518        0.189672     -0.000139378     0.000258657          0.87158       -0.424761
                        0.666917       -0.719697     -0.000295571     0.000350424       -0.0309575          0.1604      9.41406e-05     0.000454827
                     0.000247955     6.85462e-05         0.871473       -0.424809     -6.16171e-05     0.000268458        0.0759837        0.209677
281704                  0.163275      -0.0435018      0.000396935    -0.000104074         0.666297        -0.71963      7.30572e-05     7.30466e-05
                     0.000307725      0.00010396         0.121538         0.18971     -0.000139298     0.000258774         0.871427        -0.42505
                        0.666694       -0.719907     -0.000295132      0.00034891       -0.0308247        0.160415      9.41397e-05     0.000455222
                     0.000248201     6.86463e-05         0.871321         -0.4251      -6.1431e-05     0.000268257        0.0761435        0.209662
281706                  0.163272      -0.0434696      0.000397065    -0.000102958         0.666073        -0.71984      7.32103e-05     7.30029e-05
                     0.000307748     0.000103799         0.121558        0.189747     -0.000139219     0.000258891         0.871274        -0.42534
                         0.66647       -0.720118     -0.000294695     0.000347404       -0.0306919         0.16043       9.4138e-05     0.000455616
                     0.000248447     6.87468e-05          0.87117       -0.425392     -6.12446e-05     0.000268056        0.0763034        0.209648
281708                   0.16327      -0.0434374      0.000397192    -0.000101846          0.66585       -0.720051      7.33641e-05     7.29588e-05
                     0.000307771     0.000103637         0.121578        0.189784      -0.00013914     0.000259008          0.87112        -0.42563
                        0.666246       -0.720328     -0.000294258     0.000345905       -0.0305591        0.160446      9.41354e-05      0.00045601
                     0.000248694     6.88476e-05         0.871018       -0.425683     -6.10581e-05     0.000267855        0.0764633        0.209633
281710                  0.163267      -0.0434052      0.000397316    -0.000100739         0.665626       -0.720261      7.35185e-05     7.29144e-05
                     0.000307794     0.000103476         0.121598        0.189822      -0.00013906     0.000259125         0.870967       -0.425919
                        0.666022       -0.720538     -0.000293822     0.000344413       -0.0304264        0.160461      9.41319e-05     0.000456403
                     0.000248942     6.89488e-05         0.870866       -0.425974     -6.08714e-05     0.000267654        0.0766232        0.209618
281712                  0.163265       -0.043373      0.000397437    -9.96358e-05         0.665403       -0.720471      7.36735e-05     7.28697e-05
                     0.000307816     0.000103314         0.121618        0.189859     -0.000138981     0.000259242         0.870813       -0.426209
                        0.665799       -0.720749     -0.000293384     0.000342928       -0.0302936        0.160476      9.41276e-05     0.000456796
                      0.00024919     6.90503e-05         0.870714       -0.426266     -6.06844e-05     0.000267452        0.0767832        0.209603
281714                  0.163262      -0.0433408      0.000397554    -9.85373e-05         0.665179       -0.720681      7.38291e-05     7.28245e-05
                     0.000307839     0.000103152         0.121638        0.189896     -0.000138901     0.000259359          0.87066       -0.426498
                        0.665575       -0.720959     -0.000292946      0.00034145       -0.0301608        0.160491      9.41224e-05     0.000457189
                     0.000249439     6.91522e-05         0.870562       -0.426557     -6.04973e-05      0.00026725        0.0769432        0.209588
281716                  0.163259      -0.0433087      0.000397669    -9.74433e-05         0.664955        -0.72089      7.39854e-05     7.27791e-05
                     0.000307861     0.000102991         0.121658        0.189934     -0.000138821     0.000259475         0.870506       -0.426787
                        0.665351       -0.721169     -0.000292507      0.00033998       -0.0300281        0.160506      9.41163e-05     0.000457581
                     0.000249688     6.92545e-05          0.87041       -0.426848       -6.031e-05     0.000267048        0.0771033        0.209573
281718                  0.163257      -0.0432765      0.000397781    -9.63539e-05         0.664732         -0.7211      7.41423e-05     7.27333e-05
                     0.000307883     0.000102829         0.121678        0.189971     -0.000138741     0.000259591         0.870352       -0.427077
                        0.665127       -0.721378     -0.000292066     0.000338516       -0.0298953        0.160521      9.41093e-05     0.000457973
                     0.000249938     6.93573e-05         0.870257       -0.427139     -6.01226e-05     0.000266846        0.0772634        0.209558
281720                  0.163254      -0.0432444       0.00039789     -9.5269e-05         0.664508        -0.72131      7.42998e-05     7.26871e-05
                     0.000307905     0.000102667         0.121698        0.190009     -0.000138662     0.000259708         0.870198       -0.427366
                        0.664903       -0.721588     -0.000291623      0.00033706       -0.0297626        0.160535      9.41014e-05     0.000458364
                     0.000250188     6.94605e-05         0.870105        -0.42743     -5.99349e-05     0.000266644        0.0774235        0.209543
281722                  0.163252      -0.0432122      0.000397996    -9.41888e-05         0.664284       -0.721519       7.4458e-05     7.26406e-05
                     0.000307927     0.000102504         0.121718        0.190046     -0.000138582     0.000259824         0.870044       -0.427656
                        0.664678       -0.721798     -0.000291177     0.000335612       -0.0296299         0.16055      9.40927e-05     0.000458754
                     0.000250438     6.95643e-05         0.869952       -0.427721     -5.97471e-05     0.000266441        0.0775837        0.209527
281724                  0.163249      -0.0431801      0.000398099    -9.31133e-05          0.66406       -0.721729      7.46168e-05     7.25938e-05
                     0.000307949     0.000102342         0.121738        0.190084     -0.000138502      0.00025994          0.86989       -0.427945
                        0.664454       -0.722008     -0.000290729     0.000334171       -0.0294971        0.160564      9.40831e-05     0.000459145
                     0.000250689     6.96688e-05         0.869799       -0.428012     -5.95592e-05     0.000266238        0.0777439        0.209512
281726                  0.163247       -0.043148      0.000398199    -9.20425e-05         0.663836       -0.721938      7.47762e-05     7.25466e-05
                     0.000307971     0.000102179         0.121758        0.190121     -0.000138422     0.000260056         0.869736       -0.428234
                         0.66423       -0.722217     -0.000290279     0.000332739       -0.0293644        0.160579      9.40727e-05     0.000459534
                     0.000250941     6.97739e-05         0.869646       -0.428303      -5.9371e-05     0.000266035        0.0779042        0.209496
281728                  0.163244      -0.0431159      0.000398297    -9.09765e-05         0.663612       -0.722148      7.49363e-05     7.24991e-05
                     0.000307992     0.000102016         0.121778        0.190159     -0.000138342     0.000260172         0.869582       -0.428523
                        0.664006       -0.722427     -0.000289826     0.000331315       -0.0292317        0.160593      9.40615e-05     0.000459923
                     0.000251193       6.988e-05         0.869493       -0.428594     -5.91828e-05     0.000265831        0.0780645         0.20948
281730                  0.163242      -0.0430838      0.000398392    -8.99153e-05         0.663388       -0.722357       7.5097e-05     7.24512e-05
                     0.000308015     0.000101852         0.121798        0.190196     -0.000138262     0.000260287         0.869427       -0.428812
                        0.663781       -0.722636     -0.000289371     0.000329899        -0.029099        0.160607      9.40495e-05     0.000460312
                     0.000251445     6.99871e-05          0.86934       -0.428884     -5.89943e-05     0.000265628        0.0782248        0.209464
281732                  0.163239      -0.0430517      0.000398485    -8.88589e-05         0.663164       -0.722566      7.52584e-05     7.24029e-05
                     0.000308038     0.000101688         0.121818        0.190234     -0.000138183     0.000260403         0.869272       -0.429102
                        0.663557       -0.722846     -0.000288912     0.000328492       -0.0289663        0.160621      9.40368e-05       0.0004607
                     0.000251696     7.00953e-05         0.869187       -0.429175     -5.88058e-05     0.000265424        0.0783852        0.209448
281734                  0.163237      -0.0430197      0.000398575    -8.78074e-05         0.662939       -0.722775      7.54206e-05     7.23541e-05
                     0.000308062     0.000101524         0.121838        0.190272     -0.000138103     0.000260518         0.869118       -0.429391
                        0.663332       -0.723055     -0.000288451     0.000327094       -0.0288336        0.160635      9.40236e-05     0.000461087
                     0.000251947     7.02049e-05         0.869033       -0.429466     -5.86171e-05     0.000265219        0.0785456        0.209432
281736                  0.163234      -0.0429876      0.000398662    -8.67609e-05         0.662715       -0.722984      7.55835e-05     7.23049e-05
                     0.000308088     0.000101361         0.121858        0.190309     -0.000138023     0.000260633         0.868963        -0.42968
                        0.663108       -0.723264     -0.000287988     0.000325704       -0.0287009        0.160649      9.40104e-05     0.000461473
                     0.000252196     7.03156e-05          0.86888       -0.429756     -5.84283e-05     0.000265015         0.078706        0.209416
281738                  0.163232      -0.0429555      0.000398747    -8.57193e-05         0.662491       -0.723193      7.57473e-05     7.22547e-05
                     0.000308115       0.0001012         0.121878        0.190347     -0.000137943     0.000260748         0.868808       -0.429969
                        0.662883       -0.723473     -0.000287522     0.000324324       -0.0285682        0.160663      9.39985e-05     0.000461858
                     0.000252442     7.04262e-05         0.868726       -0.430047     -5.82393e-05      0.00026481        0.0788665          0.2094
281740                  0.163229      -0.0429235       0.00039883    -8.46827e-05         0.662266       -0.723402      7.59118e-05     7.22025e-05
                     0.000308142     0.000101042         0.121898        0.190385     -0.000137863     0.000260863         0.868653       -0.430258
                        0.662659       -0.723682     -0.000287053     0.000322952       -0.0284356        0.160677       9.3996e-05      0.00046224
                     0.000252684     7.05343e-05         0.868572       -0.430337     -5.80502e-05     0.000264605         0.079027        0.209384
281742                  0.163227      -0.0428915       0.00039891    -8.36511e-05         0.662042       -0.723611      7.60724e-05     7.21459e-05
                     0.000308167     0.000100888         0.121918        0.190422     -0.000137783     0.000260978         0.868498       -0.430547
                        0.662434       -0.723891     -0.000286582      0.00032159       -0.0283029        0.160691      9.39814e-05     0.000462727
                     0.000252925     7.06366e-05         0.868418       -0.430628      -5.7861e-05       0.0002644        0.0791876        0.209367
281744                  0.163225      -0.0428594      0.000398988    -8.26244e-05         0.661817        -0.72382      7.62268e-05     7.21017e-05
                     0.000308187     0.000100733         0.121938         0.19046     -0.000137703     0.000261092         0.868342       -0.430836
                        0.662209         -0.7241     -0.000286109     0.000320236       -0.0281702        0.160704      9.39189e-05     0.000463042
                     0.000253168     7.07325e-05         0.868264       -0.430918     -5.76717e-05     0.000264194        0.0793482        0.209351
281746                  0.163222      -0.0428274      0.000399064    -8.16024e-05         0.661593       -0.724028      7.63946e-05     7.20571e-05
                     0.000308206     0.000100576         0.121959        0.190498     -0.000137623     0.000261206         0.868187       -0.431124
                        0.661984       -0.724309     -0.000285633     0.000318891       -0.0280376        0.160718      9.39044e-05     0.000463418
                     0.000253418     7.08255e-05          0.86811       -0.431208     -5.74822e-05     0.000263988        0.0795088        0.209334
281748                   0.16322      -0.0427954      0.000399139    -8.05845e-05         0.661368       -0.724237      7.65626e-05     7.20077e-05
                     0.000308224     0.000100419         0.121979        0.190536     -0.000137543      0.00026132         0.868031       -0.431413
                         0.66176       -0.724518     -0.000285156     0.000317555       -0.0279049        0.160731       9.3886e-05     0.000463799
                     0.000253674     7.09198e-05         0.867955       -0.431499     -5.72925e-05     0.000263781        0.0796695        0.209317
281750                  0.163217      -0.0427634       0.00039921    -7.95689e-05         0.661143       -0.724446      7.67303e-05     7.19571e-05
                     0.000308242      0.00010026         0.121999        0.190573     -0.000137464     0.000261434         0.867876       -0.431702
                        0.661535       -0.724726     -0.000284677     0.000316228       -0.0277723        0.160744      9.38657e-05     0.000464181
                     0.000253934     7.10171e-05         0.867801       -0.431789     -5.71026e-05     0.000263575        0.0798302          0.2093
281752                  0.163215      -0.0427314      0.000399272    -7.85558e-05         0.660919       -0.724654      7.68982e-05      7.1906e-05
                     0.000308259       0.0001001         0.122019        0.190611     -0.000137384     0.000261547          0.86772       -0.431991
                         0.66131       -0.724935     -0.000284196     0.000314908       -0.0276397        0.160757      9.38439e-05     0.000464564
                     0.000254195     7.11174e-05         0.867646       -0.432079     -5.69119e-05     0.000263368         0.079991        0.209283
281754                  0.163213      -0.0426994      0.000399328    -7.75608e-05         0.660694       -0.724862      7.70663e-05     7.18545e-05
                     0.000308277     9.99396e-05         0.122039        0.190649     -0.000137305     0.000261658         0.867564        -0.43228
                        0.661085       -0.725143     -0.000283714     0.000313596       -0.0275071         0.16077      9.38209e-05     0.000464946
                     0.000254456     7.12199e-05         0.867491       -0.432369     -5.67178e-05     0.000263162        0.0801518        0.209266
281756                   0.16321      -0.0426675      0.000399391    -7.65727e-05         0.660469        -0.72507      7.72349e-05     7.18027e-05
                     0.000308295     9.97792e-05         0.122059        0.190687     -0.000137256      0.00026174         0.867408       -0.432568
                         0.66086       -0.725352     -0.000283231     0.000312292       -0.0273745        0.160783      9.37969e-05     0.000465328
                     0.000254718     7.13241e-05         0.867336       -0.432659     -5.65491e-05     0.000262936        0.0803126        0.209249
281758                  0.163208      -0.0426355      0.000399454    -7.55863e-05         0.660244       -0.725279       7.7404e-05     7.17505e-05
                     0.000308314     9.96186e-05          0.12208        0.190725     -0.000137143     0.000261893         0.867252       -0.432857
                        0.660634        -0.72556     -0.000282749     0.000310995       -0.0272418        0.160796      9.37718e-05     0.000465709
                     0.000254979     7.14293e-05         0.867181       -0.432949     -5.63502e-05     0.000262741        0.0804734        0.209232
281760                  0.163205      -0.0426036      0.000399515    -7.46038e-05         0.660019       -0.725487      7.75737e-05     7.16981e-05
                     0.000308332     9.94579e-05           0.1221        0.190763     -0.000137064     0.000262003         0.867096       -0.433145
                        0.660409       -0.725768     -0.000282268     0.000309707       -0.0271092        0.160809      9.37457e-05      0.00046609
                     0.000255241     7.15354e-05         0.867026       -0.433239     -5.61588e-05     0.000262534        0.0806344        0.209214
281762                  0.163203      -0.0425716      0.000399574    -7.36262e-05         0.659794       -0.725695      7.77439e-05     7.16454e-05
                      0.00030835     9.92972e-05          0.12212        0.190801     -0.000136985     0.000262115         0.866939       -0.433434
                        0.660184       -0.725976     -0.000281788     0.000308427       -0.0269766        0.160822      9.37186e-05     0.000466471
