! TOUCHSTONE file generated by CST MICROWAVE STUDIO
! Date and time: Tue Oct 14 17:38:24 2025
! Project name: Teste_Macro_Metasurface_Nanopilar.cst
! Parameters = {H=600; L_x=110; L_y=140; Lambda=1064; Max_L=200; Min_L=70; PathPara=1; Phi=0; Step_L=10; Theta=0; p=520; phaseX=180; phaseY=0}
! Header version: 2018
! Port assignment regex: !\s*Touchstone port\s*([0-9]+)\s*=\s*(CST MWS port|CST DS port)\s*([0-9]+|Zmin|Zmax)\s*\(\"(.*)\"\)(\s*mode\s*([0-9]+))?.*
! Touchstone port assignment:
! Touchstone port 1 = CST MWS port Zmax ("") mode 1
! Touchstone port 2 = CST MWS port Zmax ("") mode 2
! Touchstone port 3 = CST MWS port Zmin ("") mode 1
! Touchstone port 4 = CST MWS port Zmin ("") mode 2
! S-Parameters are not renormalized. Each port impedance will be approximated by the real part at minimum frequency. The values are described via the [Reference] keyword.
! Default impedance is overridden by [Reference]
[Version] 2.0
# GHz S RI R 376.73
[Number of Ports] 4
[Reference]
376.73 376.73 259.814 259.814 
[Number of Frequencies] 51
[Network Data]
281700                 0.0409583        0.113544     -9.92448e-05    -0.000378124         0.955851        0.243135      7.95208e-05    -0.000310508
                    -4.68092e-05    -0.000469403           0.1638      -0.0146527      0.000367381     0.000121052        -0.465824        0.859255
                        0.956067         0.24345      0.000247641     0.000243851       -0.0892932        0.081448      0.000487743     0.000307317
                     2.85141e-05    -0.000380991         -0.46616         0.85889      0.000377241     0.000360464        0.0754814        0.144817
281702                 0.0409779         0.11356       -9.933e-05    -0.000378204         0.955932        0.242806      7.94312e-05    -0.000310582
                    -4.70058e-05    -0.000469466         0.163784      -0.0146741      0.000367434     0.000120945        -0.465478        0.859445
                        0.956149        0.243121      0.000247706     0.000243699       -0.0892619       0.0815134      0.000488165     0.000307121
                     2.83343e-05    -0.000381132        -0.465815        0.859079      0.000377473     0.000360242        0.0755713        0.144755
281704                 0.0409975        0.113576     -9.94153e-05    -0.000378286         0.956013        0.242477      7.93415e-05    -0.000310656
                    -4.72023e-05    -0.000469529         0.163769      -0.0146956      0.000367487     0.000120839        -0.465133        0.859634
                         0.95623        0.242792      0.000247772     0.000243548       -0.0892306       0.0815788      0.000488588     0.000306924
                     2.81543e-05    -0.000381274        -0.465469        0.859269      0.000377704     0.000360005        0.0756612        0.144693
281706                 0.0410171        0.113591     -9.95006e-05    -0.000378367         0.956094        0.242147      7.92517e-05    -0.000310729
                    -4.73989e-05    -0.000469592         0.163754       -0.014717       0.00036754     0.000120733        -0.464788        0.859823
                        0.956312        0.242463      0.000247838     0.000243396       -0.0891992       0.0816443      0.000489011     0.000306728
                     2.79743e-05    -0.000381417        -0.465124        0.859458      0.000377925     0.000359746         0.075751        0.144631
281708                 0.0410367        0.113607     -9.95861e-05    -0.000378448         0.956175        0.241818      7.91617e-05    -0.000310802
                    -4.75954e-05    -0.000469654         0.163738      -0.0147384      0.000367593     0.000120628        -0.464442        0.860012
                        0.956393        0.242134      0.000247903     0.000243244       -0.0891678       0.0817097      0.000489434     0.000306531
                     2.77941e-05     -0.00038156        -0.464779        0.859646      0.000378108     0.000359467        0.0758408        0.144568
281710                 0.0410563        0.113622     -9.96717e-05    -0.000378529         0.956256        0.241489      7.90715e-05    -0.000310874
                    -4.77919e-05    -0.000469717         0.163723      -0.0147598      0.000367646     0.000120524        -0.464096          0.8602
                        0.956474        0.241805      0.000247969     0.000243092       -0.0891363       0.0817751      0.000489858     0.000306335
                     2.76138e-05    -0.000381705        -0.464433        0.859835       0.00037823      0.00035921        0.0759305        0.144506
281712                 0.0410759        0.113638     -9.97573e-05    -0.000378611         0.956337        0.241159      7.89811e-05    -0.000310946
                    -4.79884e-05    -0.000469779         0.163707      -0.0147812      0.000367698      0.00012042        -0.463751        0.860389
                        0.956555        0.241475      0.000248035      0.00024294       -0.0891048       0.0818405      0.000490282     0.000306138
                     2.74333e-05     -0.00038185        -0.464088        0.860024      0.000378337     0.000359032        0.0760202        0.144444
281714                 0.0410955        0.113653     -9.98431e-05    -0.000378693         0.956418         0.24083      7.88906e-05    -0.000311017
                    -4.81848e-05    -0.000469841         0.163692      -0.0148026      0.000367749     0.000120318        -0.463405        0.860577
                        0.956636        0.241146        0.0002481     0.000242788       -0.0890732       0.0819059      0.000490706     0.000305942
                     2.72528e-05    -0.000381996        -0.463742        0.860212      0.000378497     0.000358897        0.0761098        0.144381
281716                  0.041115        0.113669     -9.99289e-05    -0.000378775         0.956498        0.240501      7.87999e-05    -0.000311088
                    -4.83813e-05    -0.000469903         0.163677       -0.014824      0.000367799     0.000120216        -0.463059        0.860766
                        0.956716        0.240817      0.000248166     0.000242636       -0.0890416       0.0819713       0.00049113     0.000305746
                     2.70722e-05    -0.000382142        -0.463396          0.8604        0.0003787     0.000358754        0.0761993        0.144319
281718                 0.0411346        0.113684     -0.000100015    -0.000378857         0.956579        0.240171      7.87091e-05    -0.000311158
                    -4.85777e-05    -0.000469965         0.163661      -0.0148453      0.000367847     0.000120116        -0.462713        0.860954
                        0.956797        0.240488      0.000248231     0.000242483       -0.0890099       0.0820366      0.000491555      0.00030555
                     2.68914e-05     -0.00038229        -0.463051        0.860589      0.000378921     0.000358591        0.0762888        0.144256
281720                 0.0411542          0.1137     -0.000100101    -0.000378939         0.956659        0.239842       7.8618e-05    -0.000311228
                    -4.87741e-05    -0.000470027         0.163646      -0.0148667      0.000367893     0.000120015        -0.462367        0.861142
                        0.956877        0.240158      0.000248297     0.000242331       -0.0889782        0.082102       0.00049198     0.000305354
                     2.67106e-05    -0.000382438        -0.462705        0.860777      0.000379145     0.000358414        0.0763783        0.144193
281722                 0.0411738        0.113715     -0.000100187    -0.000379021         0.956739        0.239512      7.85269e-05    -0.000311297
                    -4.89705e-05    -0.000470089          0.16363      -0.0148881      0.000367935     0.000119912        -0.462021         0.86133
                        0.956958        0.239829      0.000248363     0.000242178       -0.0889464       0.0821674      0.000492406     0.000305159
                     2.65296e-05    -0.000382587        -0.462359        0.860965      0.000379369     0.000358228        0.0764677        0.144131
281724                 0.0411934         0.11373     -0.000100273    -0.000379103         0.956819        0.239183      7.84355e-05    -0.000311365
                    -4.91668e-05     -0.00047015         0.163615      -0.0149094      0.000367976     0.000119807        -0.461675        0.861518
                        0.957038          0.2395      0.000248428     0.000242025       -0.0889146       0.0822327      0.000492831     0.000304963
                     2.63486e-05    -0.000382737        -0.462013        0.861152      0.000379592     0.000358036        0.0765571        0.144068
281726                  0.041213        0.113746     -0.000100359    -0.000379186         0.956899        0.238853       7.8344e-05    -0.000311433
                    -4.93631e-05    -0.000470212         0.163599      -0.0149308      0.000368016     0.000119699        -0.461329        0.861705
                        0.957118        0.239171      0.000248494     0.000241872       -0.0888827       0.0822981      0.000493257     0.000304768
                     2.61675e-05    -0.000382887        -0.461667         0.86134      0.000379813     0.000357841        0.0766464        0.144005
281728                 0.0412326        0.113761     -0.000100445    -0.000379268         0.956979        0.238524      7.82523e-05    -0.000311501
                    -4.95594e-05    -0.000470273         0.163584      -0.0149521      0.000368056     0.000119587        -0.460982        0.861893
                        0.957198        0.238841      0.000248559     0.000241719       -0.0888508       0.0823634      0.000493683     0.000304573
                     2.59862e-05    -0.000383039         -0.46132        0.861527      0.000380033     0.000357643        0.0767357        0.143942
281730                 0.0412522        0.113777     -0.000100532    -0.000379351         0.957059        0.238194      7.81604e-05    -0.000311567
                    -4.97556e-05    -0.000470334         0.163568      -0.0149735      0.000368098     0.000119473        -0.460636         0.86208
                        0.957278        0.238512      0.000248625     0.000241565       -0.0888188       0.0824287       0.00049411     0.000304378
                     2.58049e-05    -0.000383191        -0.460974        0.861715      0.000380251     0.000357443        0.0768249        0.143879
281732                 0.0412719        0.113792     -0.000100618    -0.000379434         0.957139        0.237864      7.80684e-05    -0.000311633
                    -4.99519e-05    -0.000470395         0.163553      -0.0149948      0.000368143     0.000119358         -0.46029        0.862267
                        0.957358        0.238183      0.000248691     0.000241412       -0.0887868        0.082494      0.000494537     0.000304184
                     2.56234e-05    -0.000383344        -0.460628        0.861902      0.000380468     0.000357242        0.0769141        0.143816
281734                 0.0412915        0.113808     -0.000100704    -0.000379517         0.957218        0.237535      7.79762e-05    -0.000311699
                     -5.0148e-05    -0.000470456         0.163537      -0.0150161       0.00036819     0.000119242        -0.459943        0.862454
                        0.957438        0.237853      0.000248756     0.000241258       -0.0887547       0.0825594      0.000494964     0.000303989
                     2.54418e-05    -0.000383498        -0.460281        0.862089      0.000380684      0.00035704        0.0770032        0.143753
281736                 0.0413111        0.113823     -0.000100791      -0.0003796         0.957298        0.237205      7.78838e-05    -0.000311764
                    -5.03442e-05    -0.000470516         0.163522      -0.0150375      0.000368238     0.000119127        -0.459596        0.862641
                        0.957517        0.237524      0.000248822     0.000241105       -0.0887226       0.0826246      0.000495392     0.000303795
                       2.526e-05    -0.000383653        -0.459935        0.862276        0.0003809     0.000356837        0.0770923         0.14369
281738                 0.0413307        0.113839     -0.000100877    -0.000379684         0.957377        0.236875      7.77912e-05    -0.000311828
                    -5.05402e-05    -0.000470577         0.163506      -0.0150588      0.000368287     0.000119013         -0.45925        0.862828
                        0.957597        0.237194      0.000248888     0.000240951       -0.0886904       0.0826899       0.00049582     0.000303601
                     2.50778e-05    -0.000383808        -0.459588        0.862463      0.000381114     0.000356634        0.0771813        0.143627
281740                 0.0413503        0.113854     -0.000100964    -0.000379767         0.957456        0.236546      7.76985e-05    -0.000311891
                    -5.07361e-05    -0.000470637         0.163491      -0.0150801      0.000368337     0.000118899        -0.458903        0.863015
                        0.957676        0.236865      0.000248954     0.000240797       -0.0886582       0.0827552      0.000496248     0.000303408
                      2.4895e-05    -0.000383965        -0.459242         0.86265      0.000381329      0.00035643        0.0772702        0.143563
281742                 0.0413699         0.11387     -0.000101051    -0.000379851         0.957535        0.236216      7.76056e-05    -0.000311954
                    -5.09317e-05    -0.000470697         0.163475      -0.0151014      0.000368387     0.000118786        -0.458556        0.863201
                        0.957755        0.236535       0.00024902     0.000240643        -0.088626       0.0828205      0.000496677     0.000303215
                     2.47103e-05    -0.000384123        -0.458895        0.862836      0.000381542     0.000356225        0.0773592          0.1435
281744                 0.0413895        0.113885     -0.000101137    -0.000379935         0.957614        0.235886      7.75125e-05    -0.000312016
                    -5.11263e-05    -0.000470756          0.16346      -0.0151227      0.000368437     0.000118673        -0.458209        0.863388
                        0.957834        0.236206      0.000249086     0.000240489       -0.0885937       0.0828857      0.000497106     0.000303022
                     2.45192e-05    -0.000384293        -0.458548        0.863022      0.000381755     0.000356021         0.077448        0.143437
281746                 0.0414092        0.113901     -0.000101224    -0.000380019         0.957693        0.235557      7.74192e-05    -0.000312078
                     -5.1334e-05    -0.000470804         0.163444       -0.015144      0.000368487     0.000118561        -0.457862        0.863574
                        0.957914        0.235876      0.000249152     0.000240335       -0.0885613        0.082951      0.000497535     0.000302829
                     2.43728e-05    -0.000384448        -0.458201        0.863209      0.000381968     0.000355815        0.0775368        0.143373
281748                 0.0414287        0.113916     -0.000101311    -0.000380103         0.957772        0.235227      7.73257e-05    -0.000312139
                    -5.15249e-05    -0.000470878         0.163429      -0.0151653      0.000368537     0.000118449        -0.457515         0.86376
                        0.957992        0.235547      0.000249218     0.000240181       -0.0885289       0.0830162      0.000497964     0.000302637
                     2.41822e-05    -0.000384599        -0.457854        0.863395      0.000382181      0.00035561        0.0776256         0.14331
281750                 0.0414484        0.113931     -0.000101398    -0.000380187          0.95785        0.234897      7.72321e-05    -0.000312199
                    -5.17195e-05    -0.000470938         0.163413      -0.0151865      0.000368587     0.000118338        -0.457167        0.863946
                        0.958071        0.235217      0.000249281     0.000240034       -0.0884965       0.0830814      0.000498394     0.000302445
                     2.39978e-05    -0.000384758        -0.457507        0.863581      0.000382393     0.000355404        0.0777143        0.143246
281752                  0.041468        0.113947     -0.000101485    -0.000380273         0.957929        0.234567      7.71383e-05    -0.000312258
                     -5.1915e-05    -0.000470997         0.163397      -0.0152078      0.000368637     0.000118226         -0.45682        0.864132
                         0.95815        0.234888      0.000249345     0.000239868        -0.088464       0.0831466      0.000498825     0.000302253
                      2.3815e-05    -0.000384919         -0.45716        0.863767      0.000382605     0.000355198         0.077803        0.143182
281754                 0.0414876        0.113962     -0.000101571    -0.000380357         0.958007        0.234237      7.70443e-05    -0.000312317
                    -5.21108e-05    -0.000471057         0.163382      -0.0152291      0.000368686     0.000118115        -0.456473        0.864317
                        0.958228        0.234558      0.000249413     0.000239713       -0.0884314       0.0832118      0.000499255     0.000302062
                     2.36327e-05    -0.000385081        -0.456813        0.863952      0.000382816     0.000354992        0.0778916        0.143119
281756                 0.0415072        0.113978     -0.000101657    -0.000380442         0.958085        0.233908      7.69501e-05    -0.000312375
                    -5.23066e-05    -0.000471116         0.163366      -0.0152503      0.000368735     0.000118004        -0.456125        0.864503
                        0.958307        0.234229       0.00024948     0.000239558       -0.0883988        0.083277      0.000499686     0.000301871
                     2.34508e-05    -0.000385243        -0.456465        0.864138      0.000383028     0.000354786        0.0779802        0.143055
281758                 0.0415268        0.113993     -0.000101744    -0.000380526         0.958164        0.233578      7.68557e-05    -0.000312432
                    -5.25025e-05    -0.000471175         0.163351      -0.0152716      0.000368783     0.000117893        -0.455778        0.864688
                        0.958385        0.233899      0.000249547     0.000239403       -0.0883662       0.0833422      0.000500118     0.000301681
                      2.3269e-05    -0.000385407        -0.456118        0.864323       0.00038324      0.00035458        0.0780687        0.142991
281760                 0.0415465        0.114008     -0.000101831    -0.000380611         0.958242        0.233248      7.67612e-05    -0.000312488
                    -5.26983e-05    -0.000471234         0.163335      -0.0152928       0.00036883     0.000117782         -0.45543        0.864873
                        0.958463        0.233569      0.000249614     0.000239248       -0.0883335       0.0834073      0.000500549     0.000301491
                     2.30873e-05    -0.000385571         -0.45577        0.864509      0.000383452     0.000354374        0.0781572        0.142927
281762                 0.0415661        0.114024     -0.000101918    -0.000380696         0.958319        0.232918      7.66664e-05    -0.000312544
                    -5.28942e-05    -0.000471293         0.163319      -0.0153141      0.000368876     0.000117671        -0.455082        0.865059
                        0.958541         0.23324       0.00024968     0.000239092       -0.0883008       0.0834725      0.000500981     0.000301301
