! TOUCHSTONE file generated by CST MICROWAVE STUDIO
! Date and time: Tue Oct 14 17:38:28 2025
! Project name: Teste_Macro_Metasurface_Nanopilar.cst
! Parameters = {H=600; L_x=120; L_y=80; Lambda=1064; Max_L=200; Min_L=70; PathPara=1; Phi=0; Step_L=10; Theta=0; p=520; phaseX=180; phaseY=0}
! Header version: 2018
! Port assignment regex: !\s*Touchstone port\s*([0-9]+)\s*=\s*(CST MWS port|CST DS port)\s*([0-9]+|Zmin|Zmax)\s*\(\"(.*)\"\)(\s*mode\s*([0-9]+))?.*
! Touchstone port assignment:
! Touchstone port 1 = CST MWS port Zmax ("") mode 1
! Touchstone port 2 = CST MWS port Zmax ("") mode 2
! Touchstone port 3 = CST MWS port Zmin ("") mode 1
! Touchstone port 4 = CST MWS port Zmin ("") mode 2
! S-Parameters are not renormalized. Each port impedance will be approximated by the real part at minimum frequency. The values are described via the [Reference] keyword.
! Default impedance is overridden by [Reference]
[Version] 2.0
# GHz S RI R 376.73
[Number of Ports] 4
[Reference]
376.73 376.73 259.814 259.814 
[Number of Frequencies] 51
[Network Data]
281700                 0.0105152      -0.0954715      8.80761e-05    -7.18442e-05        -0.113523       -0.988263     -0.000150241     5.76095e-05
                     0.000144192    -8.92514e-05        0.0846625       0.0497793     -0.000114206     9.77116e-05        -0.896863       -0.422109
                       -0.113318        -0.98784     -0.000126987     0.000157451        0.0318069       0.0907344      9.21793e-05    -4.72746e-06
                    -0.000236845     4.98388e-05        -0.897241       -0.421743      0.000143226     9.10351e-05       -0.0922403      -0.0322867
281702                 0.0105033      -0.0954683      8.81354e-05    -7.18842e-05        -0.113766       -0.988235      -0.00015022     5.76486e-05
                     0.000144141    -8.93056e-05        0.0846739       0.0497833     -0.000114164     9.77881e-05        -0.896993       -0.421828
                       -0.113561       -0.987812     -0.000126981     0.000157509        0.0318393       0.0907183      9.22042e-05    -4.76661e-06
                    -0.000236781     4.98863e-05        -0.897371       -0.421462      0.000143277     9.09179e-05       -0.0922709      -0.0322353
281704                 0.0104914       -0.095465      8.81947e-05    -7.19244e-05         -0.11401       -0.988208     -0.000150198     5.76876e-05
                      0.00014409    -8.93598e-05        0.0846853       0.0497874     -0.000114122     9.78646e-05        -0.897123       -0.421547
                       -0.113805       -0.987784     -0.000126975     0.000157567        0.0318716       0.0907021      9.22291e-05    -4.80574e-06
                    -0.000236717     4.99337e-05        -0.897501       -0.421181      0.000143329     9.08007e-05       -0.0923015      -0.0321838
281706                 0.0104795      -0.0954618       8.8254e-05    -7.19648e-05        -0.114253        -0.98818     -0.000150177     5.77265e-05
                      0.00014404     -8.9414e-05        0.0846967       0.0497914     -0.000114079      9.7941e-05        -0.897254       -0.421266
                       -0.114048       -0.987757     -0.000126969     0.000157625        0.0319039        0.090686      9.22541e-05    -4.84484e-06
                    -0.000236652     4.99811e-05        -0.897631         -0.4209       0.00014338     9.06836e-05       -0.0923321      -0.0321323
281708                 0.0104676      -0.0954585      8.83133e-05    -7.20053e-05        -0.114497       -0.988152     -0.000150156     5.77655e-05
                     0.000143989    -8.94681e-05        0.0847081       0.0497954     -0.000114037     9.80175e-05        -0.897384       -0.420985
                       -0.114292       -0.987729     -0.000126963     0.000157684        0.0319362       0.0906699       9.2279e-05    -4.88393e-06
                    -0.000236588     5.00285e-05        -0.897761       -0.420619      0.000143431     9.05666e-05       -0.0923627      -0.0320808
281710                 0.0104556      -0.0954553      8.83726e-05     -7.2046e-05         -0.11474       -0.988124     -0.000150135     5.78043e-05
                     0.000143939    -8.95223e-05        0.0847196       0.0497994     -0.000113994     9.80939e-05        -0.897514       -0.420704
                       -0.114535       -0.987701     -0.000126957     0.000157742        0.0319686       0.0906537       9.2304e-05    -4.92299e-06
                    -0.000236524     5.00758e-05        -0.897891       -0.420338      0.000143482     9.04496e-05       -0.0923932      -0.0320292
281712                 0.0104437       -0.095452       8.8432e-05    -7.20868e-05        -0.114984       -0.988097     -0.000150113     5.78432e-05
                     0.000143888    -8.95763e-05         0.084731       0.0498034     -0.000113952     9.81703e-05        -0.897644       -0.420423
                       -0.114779       -0.987673     -0.000126951       0.0001578        0.0320009       0.0906376       9.2329e-05    -4.96203e-06
                     -0.00023646     5.01231e-05        -0.898021       -0.420057      0.000143534     9.03327e-05       -0.0924237      -0.0319777
281714                 0.0104318      -0.0954487      8.84913e-05    -7.21277e-05        -0.115227       -0.988069     -0.000150092      5.7882e-05
                     0.000143837    -8.96304e-05        0.0847424       0.0498074     -0.000113909     9.82466e-05        -0.897774       -0.420141
                       -0.115022       -0.987645     -0.000126945     0.000157859        0.0320332       0.0906214      9.23541e-05    -5.00106e-06
                    -0.000236396     5.01704e-05         -0.89815       -0.419776      0.000143585     9.02157e-05       -0.0924541      -0.0319261
281716                 0.0104199      -0.0954455      8.85506e-05    -7.21689e-05        -0.115471       -0.988041     -0.000150071     5.79208e-05
                     0.000143787    -8.96844e-05        0.0847538       0.0498114     -0.000113866     9.83229e-05        -0.897904        -0.41986
                       -0.115265       -0.987617     -0.000126939     0.000157918        0.0320655       0.0906052      9.23791e-05    -5.04006e-06
                    -0.000236332     5.02176e-05         -0.89828       -0.419494      0.000143636     9.00988e-05       -0.0924846      -0.0318744
281718                  0.010408      -0.0954422        8.861e-05    -7.22102e-05        -0.115714       -0.988013      -0.00015005     5.79595e-05
                     0.000143736    -8.97384e-05        0.0847652       0.0498154     -0.000113823     9.83992e-05        -0.898034       -0.419579
                       -0.115509       -0.987589     -0.000126933     0.000157977        0.0320977        0.090589      9.24042e-05    -5.07905e-06
                    -0.000236267     5.02647e-05        -0.898409       -0.419213      0.000143687      8.9982e-05        -0.092515      -0.0318228
281720                 0.0103961       -0.095439      8.86693e-05    -7.22516e-05        -0.115958       -0.987984     -0.000150028     5.79982e-05
                     0.000143686    -8.97923e-05        0.0847766       0.0498194      -0.00011378     9.84755e-05        -0.898163       -0.419297
                       -0.115752        -0.98756     -0.000126927     0.000158036          0.03213       0.0905728      9.24294e-05    -5.11802e-06
                    -0.000236203     5.03119e-05        -0.898539       -0.418932      0.000143738     8.98651e-05       -0.0925454      -0.0317711
281722                 0.0103841      -0.0954357      8.87286e-05    -7.22932e-05        -0.116201       -0.987956     -0.000150007     5.80369e-05
                     0.000143635    -8.98462e-05         0.084788       0.0498234     -0.000113737     9.85518e-05        -0.898293       -0.419016
                       -0.115996       -0.987532     -0.000126921     0.000158096        0.0321623       0.0905566      9.24545e-05    -5.15697e-06
                    -0.000236139      5.0359e-05        -0.898668        -0.41865      0.000143789     8.97482e-05       -0.0925757      -0.0317194
281724                 0.0103722      -0.0954324      8.87879e-05     -7.2335e-05        -0.116445       -0.987928     -0.000149986     5.80755e-05
                     0.000143585       -8.99e-05        0.0847995       0.0498274     -0.000113693      9.8628e-05        -0.898422       -0.418735
                       -0.116239       -0.987504     -0.000126915     0.000158155        0.0321945       0.0905403      9.24797e-05    -5.19591e-06
                    -0.000236075     5.04061e-05        -0.898797       -0.418369       0.00014384     8.96313e-05       -0.0926061      -0.0316677
281726                 0.0103603      -0.0954292      8.88472e-05    -7.23769e-05        -0.116688         -0.9879     -0.000149965     5.81141e-05
                     0.000143534    -8.99538e-05        0.0848109       0.0498314      -0.00011365     9.87042e-05        -0.898552       -0.418453
                       -0.116482       -0.987475     -0.000126908     0.000158215        0.0322268       0.0905241       9.2505e-05    -5.23483e-06
                    -0.000236011     5.04532e-05        -0.898927       -0.418087      0.000143891     8.95144e-05       -0.0926363       -0.031616
281728                 0.0103484      -0.0954259      8.89064e-05    -7.24189e-05        -0.116932       -0.987871     -0.000149944     5.81526e-05
                     0.000143483    -9.00076e-05        0.0848223       0.0498353     -0.000113607     9.87804e-05        -0.898681       -0.418172
                       -0.116726       -0.987447     -0.000126902     0.000158274         0.032259       0.0905078      9.25302e-05    -5.27374e-06
                    -0.000235947     5.05002e-05        -0.899056       -0.417806      0.000143942     8.93975e-05       -0.0926666      -0.0315642
281730                 0.0103365      -0.0954226      8.89656e-05    -7.24612e-05        -0.117175       -0.987843     -0.000149922     5.81911e-05
                     0.000143433    -9.00613e-05        0.0848338       0.0498393     -0.000113563     9.88566e-05         -0.89881        -0.41789
                       -0.116969       -0.987418     -0.000126896     0.000158334        0.0322913       0.0904916      9.25555e-05    -5.31264e-06
                    -0.000235883     5.05472e-05        -0.899185       -0.417524      0.000143993     8.92806e-05       -0.0926969      -0.0315125
281732                 0.0103246      -0.0954194      8.90248e-05    -7.25036e-05        -0.117419       -0.987815     -0.000149901     5.82296e-05
                     0.000143382    -9.01149e-05        0.0848452       0.0498433     -0.000113519     9.89327e-05         -0.89894       -0.417608
                       -0.117213        -0.98739     -0.000126889     0.000158394        0.0323235       0.0904753      9.25809e-05    -5.35152e-06
                    -0.000235818     5.05942e-05        -0.899314       -0.417243      0.000144043     8.91637e-05       -0.0927271      -0.0314607
281734                 0.0103127      -0.0954161      8.90839e-05    -7.25461e-05        -0.117662       -0.987786      -0.00014988      5.8268e-05
                     0.000143332    -9.01685e-05        0.0848566       0.0498473     -0.000113475     9.90089e-05        -0.899069       -0.417327
                       -0.117456       -0.987361     -0.000126882     0.000158454        0.0323557        0.090459      9.26063e-05    -5.39039e-06
                    -0.000235754     5.06411e-05        -0.899443       -0.416961      0.000144094     8.90467e-05       -0.0927572      -0.0314088
281736                 0.0103007      -0.0954128       8.9143e-05    -7.25889e-05        -0.117906       -0.987757     -0.000149859     5.83064e-05
                     0.000143281     -9.0222e-05        0.0848681       0.0498513     -0.000113431      9.9085e-05        -0.899198       -0.417045
                       -0.117699       -0.987333     -0.000126876     0.000158514        0.0323879       0.0904427      9.26317e-05    -5.42926e-06
                     -0.00023569     5.06879e-05        -0.899571       -0.416679      0.000144145     8.89296e-05       -0.0927874       -0.031357
281738                 0.0102888      -0.0954096       8.9202e-05    -7.26317e-05        -0.118149       -0.987729     -0.000149838     5.83447e-05
                     0.000143231    -9.02754e-05        0.0848795       0.0498552     -0.000113387     9.91611e-05        -0.899327       -0.416763
                       -0.117943       -0.987304     -0.000126869     0.000158575        0.0324201       0.0904264      9.26571e-05    -5.46811e-06
                    -0.000235626     5.07347e-05          -0.8997       -0.416397      0.000144195     8.88126e-05       -0.0928175      -0.0313051
281740                 0.0102769      -0.0954063      8.92609e-05    -7.26748e-05        -0.118392         -0.9877     -0.000149817      5.8383e-05
                      0.00014318    -9.03288e-05        0.0848909       0.0498592     -0.000113343     9.92372e-05        -0.899455       -0.416481
                       -0.118186       -0.987275     -0.000126862     0.000158635        0.0324523       0.0904101      9.26826e-05    -5.50696e-06
                    -0.000235561     5.07814e-05        -0.899829       -0.416115      0.000144246     8.86955e-05       -0.0928476      -0.0312532
281742                  0.010265       -0.095403      8.93198e-05    -7.27179e-05        -0.118636       -0.987671     -0.000149795     5.84213e-05
                      0.00014313    -9.03821e-05        0.0849024       0.0498632     -0.000113298     9.93132e-05        -0.899584         -0.4162
                       -0.118429       -0.987246     -0.000126855     0.000158696        0.0324845       0.0903937      9.27082e-05     -5.5458e-06
                    -0.000235497     5.08281e-05        -0.899957       -0.415834      0.000144296     8.85783e-05       -0.0928777      -0.0312013
281744                 0.0102531      -0.0953997      8.93786e-05    -7.27613e-05        -0.118879       -0.987642     -0.000149774     5.84595e-05
                     0.000143079    -9.04354e-05        0.0849138       0.0498671     -0.000113253     9.93893e-05        -0.899713       -0.415918
                       -0.118673       -0.987217     -0.000126849     0.000158757        0.0325167       0.0903774      9.27338e-05    -5.58463e-06
                    -0.000235433     5.08746e-05        -0.900085       -0.415552      0.000144347     8.84611e-05       -0.0929077      -0.0311494
281746                 0.0102412      -0.0953964      8.94373e-05    -7.28048e-05        -0.119123       -0.987614     -0.000149753     5.84977e-05
                     0.000143029    -9.04885e-05        0.0849253       0.0498711     -0.000113208     9.94653e-05        -0.899841       -0.415636
                       -0.118916       -0.987188     -0.000126841     0.000158817        0.0325488        0.090361      9.27594e-05    -5.62346e-06
                    -0.000235368     5.09211e-05        -0.900214        -0.41527      0.000144397     8.83438e-05       -0.0929377      -0.0310974
281748                 0.0102293      -0.0953932      8.94959e-05    -7.28484e-05        -0.119366       -0.987585     -0.000149732     5.85359e-05
                     0.000142978    -9.05416e-05        0.0849367        0.049875     -0.000113163     9.95412e-05         -0.89997       -0.415354
                       -0.119159       -0.987159     -0.000126834     0.000158878         0.032581       0.0903447       9.2785e-05    -5.66228e-06
                    -0.000235304     5.09674e-05        -0.900342       -0.414988      0.000144447     8.82265e-05       -0.0929677      -0.0310454
281750                 0.0102174      -0.0953899      8.95544e-05    -7.28922e-05         -0.11961       -0.987556     -0.000149711      5.8574e-05
                     0.000142928    -9.05945e-05        0.0849482        0.049879     -0.000113117     9.96168e-05        -0.900098       -0.415072
                       -0.119403        -0.98713     -0.000126827     0.000158939        0.0326131       0.0903283      9.28107e-05    -5.70109e-06
                     -0.00023524     5.10137e-05         -0.90047       -0.414706      0.000144498     8.81091e-05       -0.0929977      -0.0309934
281752                 0.0102054      -0.0953866      8.96128e-05    -7.29361e-05        -0.119853       -0.987527      -0.00014969     5.86121e-05
                     0.000142877    -9.06474e-05        0.0849596       0.0498829     -0.000113071     9.96921e-05        -0.900227        -0.41479
                       -0.119646       -0.987101      -0.00012682        0.000159        0.0326453       0.0903119      9.28365e-05     -5.7399e-06
                    -0.000235176     5.10599e-05        -0.900598       -0.414424      0.000144548     8.79916e-05       -0.0930276      -0.0309414
281754                 0.0101935      -0.0953833       8.9671e-05    -7.29801e-05        -0.120096       -0.987497     -0.000149669     5.86501e-05
                     0.000142827    -9.07001e-05        0.0849711       0.0498869     -0.000113025     9.97666e-05        -0.900355       -0.414508
                       -0.119889       -0.987072     -0.000126812     0.000159062        0.0326774       0.0902955      9.28623e-05     -5.7787e-06
                    -0.000235111      5.1106e-05        -0.900726       -0.414141      0.000144598     8.78741e-05       -0.0930575      -0.0308893
281756                 0.0101816        -0.09538      8.97291e-05    -7.30243e-05         -0.12034       -0.987468     -0.000149648     5.86881e-05
                     0.000142776    -9.07528e-05        0.0849826       0.0498908     -0.000112979     9.98399e-05        -0.900483       -0.414225
                       -0.120133       -0.987042     -0.000126805     0.000159123        0.0327095       0.0902791      9.28881e-05    -5.81749e-06
                    -0.000235047      5.1152e-05        -0.900854       -0.413859      0.000144648     8.77565e-05       -0.0930873      -0.0308372
281758                 0.0101697      -0.0953768      8.97871e-05    -7.30686e-05        -0.120583       -0.987439     -0.000149627     5.87261e-05
                     0.000142726    -9.08053e-05         0.084994       0.0498948     -0.000112934     9.99124e-05        -0.900611       -0.413943
                       -0.120376       -0.987013     -0.000126797     0.000159184        0.0327417       0.0902627       9.2914e-05    -5.85627e-06
                    -0.000234983     5.11979e-05        -0.900982       -0.413577      0.000144697     8.76388e-05       -0.0931172      -0.0307851
281760                 0.0101578      -0.0953735      8.98449e-05     -7.3113e-05        -0.120827        -0.98741     -0.000149606      5.8764e-05
                     0.000142675    -9.08576e-05        0.0850055       0.0498987     -0.000112891     9.99857e-05        -0.900739       -0.413661
                       -0.120619       -0.986984      -0.00012679     0.000159246        0.0327738       0.0902462      9.29398e-05    -5.89503e-06
                    -0.000234919     5.12437e-05         -0.90111       -0.413295      0.000144747      8.7521e-05        -0.093147       -0.030733
281762                 0.0101459      -0.0953702      8.99025e-05    -7.31574e-05         -0.12107        -0.98738     -0.000149585     5.88019e-05
                     0.000142625    -9.09098e-05         0.085017       0.0499027     -0.000112849     0.000100061        -0.900867       -0.413379
                       -0.120862       -0.986954     -0.000126782     0.000159307        0.0328059       0.0902298      9.29658e-05    -5.93376e-06
