! TOUCHSTONE file generated by CST MICROWAVE STUDIO
! Date and time: Tue Oct 14 17:39:06 2025
! Project name: Teste_Macro_Metasurface_Nanopilar.cst
! Parameters = {H=600; L_x=170; L_y=120; Lambda=1064; Max_L=200; Min_L=70; PathPara=1; Phi=0; Step_L=10; Theta=0; p=520; phaseX=180; phaseY=0}
! Header version: 2018
! Port assignment regex: !\s*Touchstone port\s*([0-9]+)\s*=\s*(CST MWS port|CST DS port)\s*([0-9]+|Zmin|Zmax)\s*\(\"(.*)\"\)(\s*mode\s*([0-9]+))?.*
! Touchstone port assignment:
! Touchstone port 1 = CST MWS port Zmax ("") mode 1
! Touchstone port 2 = CST MWS port Zmax ("") mode 2
! Touchstone port 3 = CST MWS port Zmin ("") mode 1
! Touchstone port 4 = CST MWS port Zmin ("") mode 2
! S-Parameters are not renormalized. Each port impedance will be approximated by the real part at minimum frequency. The values are described via the [Reference] keyword.
! Default impedance is overridden by [Reference]
[Version] 2.0
# GHz S RI R 376.73
[Number of Ports] 4
[Reference]
376.73 376.73 259.814 259.814 
[Number of Frequencies] 51
[Network Data]
281700                 0.0714899       0.0801391     -0.000262332    -3.25822e-05         0.963504        0.220876      0.000169021      6.5175e-05
                    -0.000229869    -0.000136464          0.39146        -0.32251     -7.17889e-05     4.90168e-05         0.834822        -0.11962
                        0.963696        0.220926     -6.83232e-05     8.70093e-06       -0.0977725       0.0419433      0.000235154    -5.61696e-05
                     0.000198522     0.000162903         0.834287       -0.119127       0.00030111    -7.44716e-05        -0.440612       -0.227247
281702                 0.0714992        0.080153     -0.000262066    -3.23181e-05         0.963576        0.220552      0.000168798      6.5126e-05
                    -0.000229622    -0.000136344         0.391183       -0.322417     -7.23483e-05     4.90193e-05         0.834926       -0.120147
                        0.963769        0.220602     -6.81886e-05     9.38752e-06       -0.0977588       0.0420174      0.000234744     -5.6748e-05
                     0.000198123      0.00016296          0.83439       -0.119653       0.00030176    -7.48762e-05        -0.440609       -0.226666
281704                 0.0715084       0.0801669       -0.0002618    -3.20546e-05         0.963649        0.220228      0.000168575     6.50775e-05
                    -0.000229376    -0.000136225         0.390907       -0.322323     -7.29049e-05      4.9023e-05         0.835029       -0.120673
                        0.963842        0.220277     -6.80531e-05     1.00739e-05       -0.0977452       0.0420916      0.000234334    -5.73249e-05
                     0.000197724     0.000163017         0.834493        -0.12018      0.000302406    -7.52798e-05        -0.440604       -0.226086
281706                 0.0715177       0.0801808     -0.000261532    -3.17916e-05         0.963722        0.219904      0.000168353     6.50294e-05
                     -0.00022913    -0.000136106         0.390631       -0.322229     -7.34588e-05     4.90279e-05         0.835131       -0.121199
                        0.963914        0.219952     -6.79167e-05     1.07602e-05       -0.0977315       0.0421657      0.000233923    -5.79005e-05
                     0.000197326     0.000163074         0.834595       -0.120706      0.000303047    -7.56823e-05        -0.440599       -0.225507
281708                 0.0715269       0.0801946     -0.000261264    -3.15294e-05         0.963794         0.21958       0.00016813     6.49819e-05
                    -0.000228884    -0.000135988         0.390355       -0.322136     -7.40099e-05     4.90338e-05         0.835233       -0.121725
                        0.963987        0.219628     -6.77794e-05     1.14463e-05       -0.0977177       0.0422398      0.000233511    -5.84746e-05
                     0.000196929     0.000163133         0.834696       -0.121232      0.000303683    -7.60837e-05        -0.440593       -0.224928
281710                 0.0715362       0.0802085     -0.000260995    -3.12677e-05         0.963867        0.219256      0.000167908     6.49348e-05
                    -0.000228639     -0.00013587          0.39008       -0.322042     -7.45582e-05     4.90408e-05         0.835334       -0.122251
                        0.964059        0.219303     -6.76413e-05     1.21322e-05       -0.0977039        0.042314      0.000233098    -5.90471e-05
                     0.000196534     0.000163192         0.834797       -0.121758      0.000304316    -7.64841e-05        -0.440587        -0.22435
281712                 0.0715454       0.0802224     -0.000260725    -3.10066e-05         0.963939        0.218931      0.000167686     6.48883e-05
                    -0.000228395    -0.000135753         0.389805       -0.321948      -7.5104e-05     4.90488e-05         0.835435       -0.122776
                        0.964131        0.218979     -6.75022e-05     1.28178e-05         -0.09769       0.0423881      0.000232685     -5.9618e-05
                     0.000196139     0.000163251         0.834897       -0.122283      0.000304943    -7.68834e-05         -0.44058       -0.223772
281714                 0.0715547       0.0802363     -0.000260455    -3.07462e-05         0.964011        0.218607      0.000167464     6.48422e-05
                    -0.000228151    -0.000135636          0.38953       -0.321853      -7.5647e-05     4.90579e-05         0.835535       -0.123302
                        0.964203        0.218654     -6.73622e-05     1.35033e-05       -0.0976761       0.0424622       0.00023227    -6.01872e-05
                     0.000195745     0.000163312         0.834997       -0.122809      0.000305567    -7.72816e-05        -0.440573       -0.223194
281716                  0.071564       0.0802502     -0.000260184    -3.04864e-05         0.964083        0.218283      0.000167243     6.47967e-05
                    -0.000227907    -0.000135519         0.389256       -0.321759     -7.61875e-05     4.90678e-05         0.835635       -0.123827
                        0.964275        0.218329     -6.72214e-05     1.41884e-05       -0.0976621       0.0425363      0.000231854    -6.07548e-05
                     0.000195353     0.000163373         0.835096       -0.123335      0.000306187    -7.76787e-05        -0.440565       -0.222617
281718                 0.0715732       0.0802641     -0.000259912    -3.02273e-05         0.964155        0.217959      0.000167021     6.47517e-05
                    -0.000227663    -0.000135403         0.388981       -0.321665     -7.67254e-05     4.90787e-05         0.835734       -0.124353
                        0.964347        0.218005     -6.70795e-05     1.48733e-05       -0.0976481       0.0426105      0.000231437    -6.13205e-05
                     0.000194961     0.000163435         0.835194        -0.12386      0.000306802    -7.80747e-05        -0.440556       -0.222041
281720                 0.0715825        0.080278     -0.000259639    -2.99688e-05         0.964227        0.217634        0.0001668     6.47072e-05
                    -0.000227421    -0.000135288         0.388708        -0.32157     -7.72608e-05     4.90905e-05         0.835832       -0.124878
                        0.964419         0.21768     -6.69368e-05     1.55579e-05        -0.097634       0.0426846      0.000231019    -6.18845e-05
                      0.00019457     0.000163497         0.835292       -0.124385      0.000307413    -7.84696e-05        -0.440547       -0.221464
281722                 0.0715918       0.0802918     -0.000259366    -2.97109e-05         0.964299         0.21731      0.000166579     6.46633e-05
                    -0.000227178    -0.000135173         0.388434       -0.321476     -7.77936e-05     4.91032e-05          0.83593       -0.125403
                        0.964491        0.217355     -6.67931e-05     1.62422e-05       -0.0976199       0.0427587        0.0002306    -6.24465e-05
                     0.000194181      0.00016356          0.83539        -0.12491       0.00030802    -7.88634e-05        -0.440537       -0.220889
281724                  0.071601       0.0803057     -0.000259092    -2.94537e-05          0.96437        0.216986      0.000166358     6.46199e-05
                    -0.000226936    -0.000135058         0.388161       -0.321381      -7.8324e-05     4.91167e-05         0.836028       -0.125928
                        0.964562         0.21703     -6.66485e-05     1.69262e-05       -0.0976057       0.0428328      0.000230179    -6.30066e-05
                     0.000193792     0.000163624         0.835487       -0.125436      0.000308624    -7.92562e-05        -0.440527       -0.220314
281726                 0.0716103       0.0803196     -0.000258817    -2.91971e-05         0.964442        0.216661      0.000166137      6.4577e-05
                    -0.000226694    -0.000134944         0.387889       -0.321286      -7.8852e-05      4.9131e-05         0.836125       -0.126453
                        0.964634        0.216706      -6.6503e-05     1.76098e-05       -0.0975914       0.0429069      0.000229756    -6.35647e-05
                     0.000193404     0.000163688         0.835583        -0.12596      0.000309223    -7.96478e-05        -0.440515       -0.219739
281728                 0.0716196       0.0803335     -0.000258541    -2.89412e-05         0.964513        0.216337      0.000165917     6.45348e-05
                    -0.000226453     -0.00013483         0.387616       -0.321191     -7.93776e-05      4.9146e-05         0.836221       -0.126978
                        0.964705        0.216381     -6.63565e-05     1.82931e-05       -0.0975771        0.042981      0.000229333    -6.41208e-05
                     0.000193017     0.000163753         0.835679       -0.126485      0.000309818    -8.00383e-05        -0.440504       -0.219165
281730                 0.0716289       0.0803473     -0.000258265     -2.8686e-05         0.964585        0.216013      0.000165696     6.44931e-05
                    -0.000226212    -0.000134716         0.387344       -0.321096     -7.99008e-05     4.91619e-05         0.836317       -0.127502
                        0.964776        0.216056      -6.6209e-05     1.89759e-05       -0.0975628       0.0430551      0.000228907    -6.46748e-05
                     0.000192631     0.000163818         0.835774        -0.12701       0.00031041    -8.04277e-05        -0.440492       -0.218591
281732                 0.0716381       0.0803612     -0.000257987    -2.84314e-05         0.964656        0.215688      0.000165475      6.4452e-05
                    -0.000225971    -0.000134603         0.387072       -0.321001     -8.04216e-05     4.91784e-05         0.836412       -0.128027
                        0.964847        0.215731     -6.60606e-05     1.96584e-05       -0.0975484       0.0431291      0.000228481    -6.52266e-05
                     0.000192246     0.000163884         0.835869       -0.127535      0.000310997    -8.08159e-05        -0.440479       -0.218018
281734                 0.0716474       0.0803751     -0.000257709    -2.81775e-05         0.964727        0.215364      0.000165255     6.44116e-05
                    -0.000225731     -0.00013449         0.386801       -0.320906     -8.09402e-05     4.91956e-05         0.836507       -0.128551
                        0.964918        0.215406     -6.59112e-05     2.03405e-05       -0.0975339       0.0432032      0.000228053    -6.57762e-05
                     0.000191862     0.000163951         0.835963       -0.128059      0.000311581    -8.12031e-05        -0.440465       -0.217445
281736                 0.0716567       0.0803889      -0.00025743    -2.79242e-05         0.964798        0.215039      0.000165035     6.43717e-05
                    -0.000225491    -0.000134377          0.38653       -0.320811     -8.14564e-05     4.92134e-05         0.836601       -0.129075
                        0.964989        0.215081     -6.57609e-05     2.10221e-05       -0.0975194       0.0432773      0.000227623    -6.63236e-05
                     0.000191478     0.000164018         0.836056       -0.128583      0.000312161    -8.15891e-05        -0.440451       -0.216873
281738                  0.071666       0.0804028     -0.000257151    -2.76716e-05         0.964869        0.214715      0.000164814     6.43325e-05
                    -0.000225251    -0.000134265         0.386259       -0.320715     -8.19705e-05     4.92319e-05         0.836695       -0.129599
                         0.96506        0.214756     -6.56095e-05     2.17033e-05       -0.0975048       0.0433514      0.000227191    -6.68687e-05
                     0.000191096     0.000164086         0.836149       -0.129108      0.000312738     -8.1974e-05        -0.440437       -0.216301
281740                 0.0716753       0.0804167      -0.00025687    -2.74197e-05         0.964939        0.214391      0.000164594     6.42939e-05
                    -0.000225012    -0.000134154         0.385989        -0.32062     -8.24823e-05      4.9251e-05         0.836788       -0.130123
                         0.96513        0.214432     -6.54572e-05     2.23841e-05       -0.0974902       0.0434254      0.000226759    -6.74114e-05
                     0.000190715     0.000164154         0.836242       -0.129632       0.00031331    -8.23578e-05        -0.440422        -0.21573
281742                 0.0716846       0.0804305     -0.000256589    -2.71685e-05          0.96501        0.214066      0.000164373     6.42559e-05
                    -0.000224773    -0.000134042         0.385719       -0.320524     -8.29919e-05     4.92707e-05          0.83688       -0.130647
                        0.965201        0.214107      -6.5304e-05     2.30643e-05       -0.0974755       0.0434995      0.000226324    -6.79517e-05
                     0.000190334     0.000164223         0.836334       -0.130156       0.00031388    -8.27405e-05        -0.440406       -0.215159
281744                 0.0716939       0.0804444     -0.000256306     -2.6918e-05         0.965081        0.213742      0.000164153     6.42187e-05
                    -0.000224535    -0.000133931         0.385449       -0.320428     -8.34993e-05     4.92909e-05         0.836972       -0.131171
                        0.965271        0.213782     -6.51497e-05      2.3744e-05       -0.0974608       0.0435736      0.000225888    -6.84896e-05
                     0.000189954     0.000164292         0.836425       -0.130679      0.000314445     -8.3122e-05         -0.44039       -0.214589
281746                 0.0717032       0.0804583     -0.000256023    -2.66682e-05         0.965151        0.213417      0.000163933     6.41821e-05
                    -0.000224297     -0.00013382         0.385179       -0.320333     -8.40047e-05     4.93117e-05         0.837064       -0.131694
                        0.965342        0.213457     -6.49945e-05     2.44232e-05        -0.097446       0.0436476       0.00022545    -6.90251e-05
                     0.000189575     0.000164362         0.836516       -0.131203      0.000315007    -8.35025e-05        -0.440373       -0.214019
281748                 0.0717125       0.0804721     -0.000255739    -2.64191e-05         0.965221        0.213093      0.000163712     6.41462e-05
                    -0.000224059     -0.00013371          0.38491       -0.320237     -8.45079e-05     4.93329e-05         0.837155       -0.132218
                        0.965412        0.213132     -6.48382e-05     2.51019e-05       -0.0974312       0.0437217      0.000225011     -6.9558e-05
                     0.000189197     0.000164432         0.836606       -0.131727      0.000315566    -8.38818e-05        -0.440355        -0.21345
281750                 0.0717218        0.080486     -0.000255454    -2.61707e-05         0.965292        0.212768      0.000163492      6.4111e-05
                    -0.000223822    -0.000133599         0.384641       -0.320141      -8.5009e-05     4.93547e-05         0.837245       -0.132741
                        0.965482        0.212807      -6.4681e-05       2.578e-05       -0.0974163       0.0437957       0.00022457    -7.00883e-05
                      0.00018882     0.000164503         0.836696        -0.13225      0.000316121    -8.42599e-05        -0.440337       -0.212881
281752                 0.0717311       0.0804998     -0.000255169     -2.5923e-05         0.965362        0.212444      0.000163271     6.40765e-05
                    -0.000223585    -0.000133489         0.384373       -0.320045     -8.55081e-05     4.93769e-05         0.837335       -0.133264
                        0.965552        0.212482     -6.45227e-05     2.64576e-05       -0.0974014       0.0438698      0.000224127     -7.0616e-05
                     0.000188444     0.000164574         0.836785       -0.132774      0.000316673     -8.4637e-05        -0.440319       -0.212312
281754                 0.0717404       0.0805137     -0.000254882     -2.5676e-05         0.965432        0.212119       0.00016305     6.40428e-05
                    -0.000223348     -0.00013338         0.384105       -0.319948     -8.60052e-05     4.93996e-05         0.837425       -0.133787
                        0.965622        0.212157     -6.43635e-05     2.71345e-05       -0.0973864       0.0439438      0.000223683    -7.11411e-05
                     0.000188068     0.000164646         0.836874       -0.133297      0.000317221    -8.50129e-05          -0.4403       -0.211744
281756                 0.0717497       0.0805275     -0.000254595    -2.54297e-05         0.965502        0.211794      0.000162829     6.40099e-05
                    -0.000223112    -0.000133271         0.383837       -0.319852     -8.65003e-05     4.94227e-05         0.837513        -0.13431
                        0.965691        0.211832     -6.42032e-05     2.78109e-05       -0.0973713       0.0440178      0.000223237    -7.16634e-05
                     0.000187694     0.000164718         0.836962        -0.13382      0.000317766    -8.53876e-05         -0.44028       -0.211177
281758                 0.0717591       0.0805414     -0.000254306    -2.51841e-05         0.965571         0.21147      0.000162608     6.39777e-05
                    -0.000222876    -0.000133161         0.383569       -0.319756     -8.69934e-05     4.94461e-05         0.837602       -0.134833
                        0.965761        0.211507     -6.40419e-05     2.84866e-05       -0.0973562       0.0440919      0.000222789     -7.2183e-05
                      0.00018732     0.000164791          0.83705       -0.134343      0.000318308    -8.57613e-05        -0.440259        -0.21061
281760                 0.0717684       0.0805552     -0.000254017    -2.49392e-05         0.965641        0.211145      0.000162387     6.39463e-05
                     -0.00022264    -0.000133053         0.383302       -0.319659     -8.74846e-05       4.947e-05         0.837689       -0.135355
                        0.965831        0.211182     -6.38797e-05     2.91616e-05       -0.0973411       0.0441659       0.00022234    -7.26999e-05
                     0.000186947     0.000164864         0.837137       -0.134866      0.000318846    -8.61338e-05        -0.440239       -0.210043
281762                 0.0717777        0.080569     -0.000253727    -2.46949e-05         0.965711        0.210821      0.000162166     6.39157e-05
                    -0.000222405    -0.000132944         0.383035       -0.319563     -8.79739e-05     4.94942e-05         0.837777       -0.135878
                          0.9659        0.210857     -6.37164e-05      2.9836e-05       -0.0973259       0.0442399      0.000221889    -7.32139e-05
