! TOUCHSTONE file generated by CST MICROWAVE STUDIO
! Date and time: Tue Oct 14 17:38:53 2025
! Project name: Teste_Macro_Metasurface_Nanopilar.cst
! Parameters = {H=600; L_x=150; L_y=150; Lambda=1064; Max_L=200; Min_L=70; PathPara=1; Phi=0; Step_L=10; Theta=0; p=520; phaseX=180; phaseY=0}
! Header version: 2018
! Port assignment regex: !\s*Touchstone port\s*([0-9]+)\s*=\s*(CST MWS port|CST DS port)\s*([0-9]+|Zmin|Zmax)\s*\(\"(.*)\"\)(\s*mode\s*([0-9]+))?.*
! Touchstone port assignment:
! Touchstone port 1 = CST MWS port Zmax ("") mode 1
! Touchstone port 2 = CST MWS port Zmax ("") mode 2
! Touchstone port 3 = CST MWS port Zmin ("") mode 1
! Touchstone port 4 = CST MWS port Zmin ("") mode 2
! S-Parameters are not renormalized. Each port impedance will be approximated by the real part at minimum frequency. The values are described via the [Reference] keyword.
! Default impedance is overridden by [Reference]
[Version] 2.0
# GHz S RI R 376.73
[Number of Ports] 4
[Reference]
376.73 376.73 259.814 259.814 
[Number of Frequencies] 51
[Network Data]
281700                  0.439008       -0.285977     -0.000118611    -1.15566e-05         0.822541      -0.0360028      0.000224368    -0.000114908
                    -0.000125172     5.04026e-05          0.43859       -0.285627     -6.33282e-05    -9.52582e-05         0.822608      -0.0363892
                         0.82272      -0.0360056     -5.79397e-05    -6.32408e-05        -0.416344       -0.287687      -2.9107e-05     5.98512e-05
                     0.000183624    -0.000144281         0.823008      -0.0362382     -1.51399e-05     0.000130751        -0.415817        -0.28726
281702                  0.438549        -0.28588     -0.000118553    -1.16913e-05         0.822827      -0.0366778      0.000223914    -0.000114805
                    -0.000124993     5.03219e-05          0.43813       -0.285529     -6.34739e-05    -9.49077e-05         0.822895      -0.0370649
                        0.823006      -0.0366798     -5.79683e-05    -6.29872e-05        -0.416398       -0.286858     -2.87615e-05     5.93587e-05
                     0.000183407    -0.000144002         0.823294      -0.0369143      -1.4726e-05     0.000130035         -0.41587       -0.286429
281704                  0.438091       -0.285782     -0.000118494    -1.18264e-05         0.823112      -0.0373527      0.000223462    -0.000114703
                    -0.000124814     5.02406e-05          0.43767        -0.28543     -6.36172e-05    -9.45586e-05         0.823181      -0.0377405
                        0.823291      -0.0373539     -5.79967e-05     -6.2732e-05        -0.416451        -0.28603     -2.84176e-05     5.88678e-05
                      0.00018319    -0.000143723         0.823579      -0.0375903     -1.43145e-05     0.000129321        -0.415922       -0.285599
281706                  0.437634       -0.285684     -0.000118436    -1.19619e-05         0.823395      -0.0380274      0.000223012      -0.0001146
                    -0.000124637     5.01588e-05         0.437212       -0.285332     -6.37581e-05    -9.42109e-05         0.823465      -0.0384158
                        0.823574      -0.0380278      -5.8025e-05    -6.24752e-05        -0.416502       -0.285203     -2.80753e-05     5.83785e-05
                     0.000182975    -0.000143444         0.823862       -0.038266     -1.39054e-05     0.000128607        -0.415973       -0.284771
281708                  0.437177       -0.285586     -0.000118379    -1.20977e-05         0.823678      -0.0387018      0.000222564    -0.000114497
                     -0.00012446     5.00765e-05         0.436754       -0.285232     -6.38967e-05    -9.38647e-05         0.823747       -0.039091
                        0.823857      -0.0387015     -5.80532e-05    -6.22169e-05        -0.416552       -0.284377     -2.77347e-05     5.78908e-05
                     0.000182761    -0.000143165         0.824144      -0.0389415     -1.34988e-05     0.000127894        -0.416022       -0.283943
281710                  0.436722       -0.285487     -0.000118321    -1.22339e-05         0.823959      -0.0393761      0.000222117    -0.000114395
                    -0.000124285     4.99937e-05         0.436297       -0.285133      -6.4033e-05    -9.35199e-05         0.824029      -0.0397659
                        0.824137      -0.0393749     -5.80811e-05    -6.19571e-05        -0.416601       -0.283552     -2.73957e-05     5.74047e-05
                     0.000182548    -0.000142886         0.824425      -0.0396168     -1.30945e-05     0.000127183         -0.41607       -0.283117
281712                  0.436267       -0.285388     -0.000118264    -1.23705e-05         0.824238      -0.0400502      0.000221673    -0.000114292
                     -0.00012411     4.99104e-05         0.435841       -0.285033      -6.4167e-05    -9.31766e-05         0.824309      -0.0404407
                        0.824417      -0.0400482     -5.81088e-05    -6.16959e-05        -0.416649       -0.282728     -2.70583e-05     5.69202e-05
                     0.000182336    -0.000142607         0.824705      -0.0402919     -1.26925e-05     0.000126472        -0.416117       -0.282292
281714                  0.435813       -0.285288     -0.000118207    -1.25074e-05         0.824517      -0.0407241       0.00022123    -0.000114189
                    -0.000123937     4.98266e-05         0.435386       -0.284933     -6.42989e-05    -9.28348e-05         0.824588      -0.0411152
                        0.824695      -0.0407213     -5.81364e-05    -6.14332e-05        -0.416695       -0.281905     -2.67224e-05     5.64373e-05
                     0.000182125    -0.000142328         0.824983      -0.0409668     -1.22928e-05     0.000125761        -0.416162       -0.281468
281716                   0.43536       -0.285188     -0.000118151    -1.26446e-05         0.824794      -0.0413977      0.000220788    -0.000114086
                    -0.000123764     4.97423e-05         0.434931       -0.284832     -6.44287e-05    -9.24944e-05         0.824866      -0.0417895
                        0.824972      -0.0413942     -5.81637e-05    -6.11693e-05         -0.41674       -0.281083     -2.63882e-05      5.5956e-05
                     0.000181915    -0.000142049         0.825261      -0.0416415     -1.18954e-05     0.000125052        -0.416206       -0.280645
281718                  0.434907       -0.285088     -0.000118095    -1.27821e-05          0.82507      -0.0420712      0.000220349    -0.000113983
                    -0.000123592     4.96575e-05         0.434478       -0.284731     -6.45563e-05    -9.21556e-05         0.825142      -0.0424636
                        0.825248      -0.0420668     -5.81907e-05    -6.09041e-05        -0.416783       -0.280263     -2.60554e-05     5.54762e-05
                     0.000181706    -0.000141771         0.825536       -0.042316     -1.15003e-05     0.000124344        -0.416249       -0.279823
281720                  0.434456       -0.284987     -0.000118039    -1.29198e-05         0.825344      -0.0427444      0.000219911     -0.00011388
                    -0.000123421     4.95722e-05         0.434025        -0.28463      -6.4682e-05    -9.18183e-05         0.825417      -0.0431375
                        0.825523      -0.0427392     -5.82175e-05    -6.06376e-05        -0.416826       -0.279443     -2.57242e-05     5.49981e-05
                     0.000181498    -0.000141492         0.825811      -0.0429903     -1.11074e-05     0.000123637         -0.41629       -0.279002
281722                  0.434005       -0.284886     -0.000117983    -1.30579e-05         0.825618      -0.0434175      0.000219475    -0.000113777
                    -0.000123252     4.94865e-05         0.433573       -0.284528     -6.48056e-05    -9.14825e-05         0.825691      -0.0438112
                        0.825796      -0.0434115      -5.8244e-05    -6.03699e-05        -0.416867       -0.278625     -2.53945e-05     5.45216e-05
                     0.000181291    -0.000141213         0.826084      -0.0436643     -1.07167e-05     0.000122931        -0.416331       -0.278183
281724                  0.433556       -0.284785     -0.000117928    -1.31963e-05          0.82589      -0.0440903      0.000219041    -0.000113674
                    -0.000123083     4.94003e-05         0.433122       -0.284426     -6.49271e-05    -9.11482e-05         0.825964      -0.0444846
                        0.826068      -0.0440835     -5.82703e-05    -6.01011e-05        -0.416907       -0.277807     -2.50663e-05     5.40466e-05
                     0.000181084    -0.000140935         0.826356      -0.0443382     -1.03283e-05     0.000122226         -0.41637       -0.277364
281726                  0.433107       -0.284683     -0.000117873    -1.33349e-05          0.82616      -0.0447629      0.000218608    -0.000113571
                    -0.000122915     4.93136e-05         0.432672       -0.284324     -6.50466e-05    -9.08154e-05         0.826235      -0.0451578
                        0.826338      -0.0447553     -5.82963e-05    -5.98312e-05        -0.416945       -0.276991     -2.47396e-05     5.35733e-05
                     0.000180879    -0.000140657         0.826627      -0.0450118     -9.94213e-06     0.000121521        -0.416407       -0.276547
281728                  0.432659       -0.284581     -0.000117818    -1.34738e-05          0.82643      -0.0454353      0.000218177    -0.000113467
                    -0.000122748     4.92265e-05         0.432223       -0.284221     -6.51639e-05    -9.04839e-05         0.826505      -0.0458309
                        0.826608      -0.0454269      -5.8322e-05    -5.95602e-05        -0.416982       -0.276176     -2.44143e-05     5.31015e-05
                     0.000180675    -0.000140379         0.826896      -0.0456852     -9.55831e-06     0.000120818        -0.416444        -0.27573
281730                  0.432212       -0.284479     -0.000117763    -1.36129e-05         0.826698      -0.0461075      0.000217748    -0.000113364
                    -0.000122582     4.91389e-05         0.431774       -0.284118     -6.52788e-05    -9.01537e-05         0.826774      -0.0465036
                        0.826876      -0.0460982     -5.83474e-05    -5.92881e-05        -0.417019       -0.275362     -2.40905e-05     5.26314e-05
                     0.000180472    -0.000140101         0.827164      -0.0463583     -9.17693e-06     0.000120116        -0.416479       -0.274915
281732                  0.431765       -0.284376     -0.000117709    -1.37522e-05         0.826965      -0.0467794       0.00021732    -0.000113261
                    -0.000122417     4.90509e-05         0.431327       -0.284014      -6.5391e-05    -8.98245e-05         0.827042      -0.0471762
                        0.827143      -0.0467694     -5.83724e-05    -5.90151e-05        -0.417053       -0.274549     -2.37681e-05     5.21628e-05
                      0.00018027    -0.000139823         0.827431      -0.0470313     -8.79819e-06     0.000119414        -0.416513       -0.274101
281734                   0.43132       -0.284273     -0.000117655    -1.38918e-05         0.827231      -0.0474512      0.000216895    -0.000113158
                    -0.000122252     4.89625e-05          0.43088        -0.28391        -6.55e-05    -8.94961e-05         0.827308      -0.0478485
                        0.827409      -0.0474403     -5.83972e-05    -5.87412e-05        -0.417087       -0.273737     -2.34472e-05     5.16958e-05
                     0.000180068    -0.000139545         0.827697       -0.047704     -8.42244e-06     0.000118713        -0.416546       -0.273288
281736                  0.430875       -0.284169     -0.000117601    -1.40315e-05         0.827495      -0.0481227       0.00021647    -0.000113054
                    -0.000122089     4.88737e-05         0.430434       -0.283806      -6.5605e-05    -8.91676e-05         0.827573      -0.0485206
                        0.827673       -0.048111     -5.84216e-05    -5.84663e-05        -0.417119       -0.272926     -2.31276e-05     5.12304e-05
                     0.000179868    -0.000139267         0.827961      -0.0483765     -8.05038e-06     0.000118011        -0.416577       -0.272476
281738                  0.430431       -0.284065     -0.000117548    -1.41714e-05         0.827758       -0.048794      0.000216048    -0.000112951
                    -0.000121927     4.87844e-05         0.429989       -0.283702     -6.57047e-05    -8.88373e-05         0.827837      -0.0491925
                        0.827936      -0.0487815     -5.84458e-05    -5.81906e-05         -0.41715       -0.272117     -2.28095e-05     5.07666e-05
                     0.000179669     -0.00013899         0.828224      -0.0490488      -7.6835e-06     0.000117309        -0.416608       -0.271665
281740                  0.429988       -0.283961     -0.000117495    -1.43116e-05          0.82802      -0.0494651      0.000215627    -0.000112847
                    -0.000121765     4.86948e-05         0.429544       -0.283597     -6.57977e-05    -8.85012e-05         0.828099      -0.0498642
                        0.828198      -0.0494517     -5.84696e-05     -5.7914e-05         -0.41718       -0.271308     -2.24928e-05     5.03044e-05
                      0.00017947    -0.000138713         0.828486      -0.0497208     -7.32557e-06     0.000116605        -0.416637       -0.270855
281742                  0.429546       -0.283857     -0.000117442    -1.44518e-05         0.828281      -0.0501361      0.000215208    -0.000112744
                    -0.000121605     4.86047e-05         0.429101       -0.283491     -6.58845e-05    -8.81502e-05          0.82836      -0.0505356
                        0.828459      -0.0501217      -5.8493e-05    -5.76366e-05        -0.417209         -0.2705     -2.21774e-05     4.98437e-05
                     0.000179273    -0.000138435         0.828747      -0.0503926     -6.98904e-06     0.000115892        -0.416664       -0.270047
281744                  0.429104       -0.283752     -0.000117389    -1.45923e-05         0.828538      -0.0508068      0.000214791    -0.000112641
                    -0.000121446     4.85143e-05         0.428658       -0.283386     -6.59804e-05    -8.77683e-05          0.82862      -0.0512068
                        0.828718      -0.0507915     -5.85162e-05    -5.73585e-05        -0.417236       -0.269694     -2.18635e-05     4.93846e-05
                     0.000179076    -0.000138159         0.829006      -0.0510642     -6.74626e-06     0.000115166        -0.416691       -0.269239
281746                  0.428663       -0.283647     -0.000117337    -1.47328e-05           0.8288      -0.0514751      0.000214375    -0.000112538
                    -0.000121287     4.84235e-05         0.428217        -0.28328      -6.6133e-05    -8.73672e-05         0.828879      -0.0518777
                        0.828976      -0.0514611      -5.8539e-05    -5.70796e-05        -0.417263        -0.26889     -2.15509e-05     4.89271e-05
                      0.00017888    -0.000137882         0.829264      -0.0517355     -6.33334e-06     0.000115212        -0.416716       -0.268433
281748                  0.428224       -0.283541     -0.000117285    -1.48735e-05         0.829056      -0.0521462      0.000213961    -0.000112435
                    -0.000121129     4.83322e-05         0.427776       -0.283174     -6.63361e-05    -8.70286e-05         0.829137      -0.0525484
                        0.829233      -0.0521304     -5.85615e-05    -5.68001e-05        -0.417288       -0.268085     -2.12398e-05     4.84711e-05
                     0.000178686    -0.000137605         0.829521      -0.0524066     -5.68544e-06     0.000114051        -0.416741       -0.267627
281750                  0.427785       -0.283435     -0.000117233    -1.50143e-05         0.829312      -0.0528163      0.000213548    -0.000112333
                    -0.000120973     4.82406e-05         0.427335       -0.283067     -6.65034e-05    -8.67478e-05         0.829393      -0.0532189
                        0.829489      -0.0527995     -5.85836e-05    -5.65198e-05        -0.417312       -0.267282     -2.09302e-05     4.80167e-05
                     0.000178492    -0.000137329         0.829777      -0.0530775     -5.35305e-06     0.000113287        -0.416764       -0.266823
281752                  0.427346       -0.283329     -0.000117182    -1.51552e-05         0.829567      -0.0534861      0.000213137    -0.000112236
                    -0.000120817     4.81487e-05         0.426896        -0.28296     -6.66315e-05     -8.6468e-05         0.829648      -0.0538891
                        0.829744      -0.0534684     -5.86054e-05     -5.6239e-05        -0.417334       -0.266479     -2.06223e-05     4.75638e-05
                     0.000178299    -0.000137052         0.830031      -0.0537481     -5.00545e-06     0.000112575        -0.416785        -0.26602
281754                  0.426909       -0.283222     -0.000117131    -1.52962e-05          0.82982      -0.0541555      0.000212741    -0.000112167
                    -0.000120662     4.80564e-05         0.426458       -0.282853     -6.67436e-05    -8.61767e-05         0.829902      -0.0545591
                        0.829997       -0.054137     -5.86269e-05    -5.59575e-05        -0.417356       -0.265678     -2.03165e-05     4.71124e-05
                     0.000178107    -0.000136776         0.830285      -0.0544185     -4.65202e-06     0.000111879        -0.416806       -0.265218
281756                  0.426473       -0.283116      -0.00011708    -1.54372e-05         0.830072      -0.0548247      0.000212337    -0.000111985
                    -0.000120508     4.79637e-05          0.42602       -0.282745     -6.68504e-05    -8.58767e-05         0.830155      -0.0552289
                        0.830249      -0.0548054     -5.86481e-05    -5.56755e-05        -0.417376       -0.264879     -2.00153e-05     4.66629e-05
                     0.000177916      -0.0001365         0.830537      -0.0550886     -4.29652e-06      0.00011119        -0.416825       -0.264417
281758                  0.426037       -0.283008     -0.000117029    -1.55783e-05         0.830323      -0.0554936      0.000211921    -0.000111896
                    -0.000120355     4.78707e-05         0.425583       -0.282637     -6.69555e-05    -8.55713e-05         0.830406      -0.0558984
                          0.8305      -0.0554735      -5.8669e-05     -5.5393e-05        -0.417395        -0.26408     -1.97297e-05     4.62447e-05
                     0.000177725    -0.000136225         0.830787      -0.0557585     -3.94052e-06     0.000110505        -0.416844       -0.263617
281760                  0.425602       -0.282901     -0.000116979    -1.57194e-05         0.830573      -0.0561623      0.000211515    -0.000111796
                    -0.000120203     4.77774e-05         0.425147       -0.282529       -6.706e-05    -8.52627e-05         0.830656      -0.0565677
                         0.83075      -0.0561414     -5.86895e-05    -5.51099e-05        -0.417413       -0.263282      -1.9384e-05     4.57794e-05
                     0.000177536    -0.000135949         0.831037      -0.0564281     -3.58477e-06     0.000109823        -0.416861       -0.262818
281762                  0.425168       -0.282793     -0.000116929    -1.58605e-05         0.830821      -0.0568308      0.000211112    -0.000111693
                    -0.000120052     4.76837e-05         0.424712       -0.282421     -6.71643e-05     -8.4952e-05         0.830905      -0.0572366
                        0.830998       -0.056809     -5.87098e-05    -5.48264e-05         -0.41743       -0.262485     -1.90864e-05     4.53288e-05
