! TOUCHSTONE file generated by CST MICROWAVE STUDIO
! Date and time: Tue Oct 14 17:38:42 2025
! Project name: Teste_Macro_Metasurface_Nanopilar.cst
! Parameters = {H=600; L_x=140; L_y=70; Lambda=1064; Max_L=200; Min_L=70; PathPara=1; Phi=0; Step_L=10; Theta=0; p=520; phaseX=180; phaseY=0}
! Header version: 2018
! Port assignment regex: !\s*Touchstone port\s*([0-9]+)\s*=\s*(CST MWS port|CST DS port)\s*([0-9]+|Zmin|Zmax)\s*\(\"(.*)\"\)(\s*mode\s*([0-9]+))?.*
! Touchstone port assignment:
! Touchstone port 1 = CST MWS port Zmax ("") mode 1
! Touchstone port 2 = CST MWS port Zmax ("") mode 2
! Touchstone port 3 = CST MWS port Zmin ("") mode 1
! Touchstone port 4 = CST MWS port Zmin ("") mode 2
! S-Parameters are not renormalized. Each port impedance will be approximated by the real part at minimum frequency. The values are described via the [Reference] keyword.
! Default impedance is overridden by [Reference]
[Version] 2.0
# GHz S RI R 376.73
[Number of Ports] 4
[Reference]
376.73 376.73 259.814 259.814 
[Number of Frequencies] 51
[Network Data]
281700                 0.0294209       -0.113404     -0.000229038    -2.43883e-05        0.0123723       -0.992771      -0.00025475     8.74071e-06
                    -0.000224332    -9.82134e-05         0.190534      -0.0688911      4.70274e-05      0.00020896        -0.915956        0.326625
                       0.0118492       -0.992793      9.40443e-05     0.000177511        0.0265558        0.114185      0.000136665     0.000384897
                    -0.000180495     8.94848e-05        -0.915909         0.32643       0.00024144     0.000235756        -0.190643       0.0674279
281702                 0.0294087       -0.113404     -0.000228961    -2.43145e-05        0.0121331       -0.992774     -0.000254807     8.85949e-06
                    -0.000224381    -9.81637e-05         0.190526      -0.0689186      4.70241e-05     0.000208873        -0.915837        0.326956
                         0.01161       -0.992797      9.40693e-05     0.000177473        0.0265986        0.114172      0.000136839     0.000384756
                    -0.000180484     8.95133e-05         -0.91579        0.326761      0.000241466     0.000235595        -0.190606       0.0675394
281704                 0.0293965       -0.113403     -0.000228885    -2.42407e-05        0.0118939       -0.992777     -0.000254864     8.97832e-06
                    -0.000224431    -9.81138e-05         0.190518      -0.0689461      4.70209e-05     0.000208787        -0.915717        0.327287
                       0.0113708         -0.9928      9.40943e-05     0.000177435        0.0266413        0.114158      0.000137014     0.000384615
                    -0.000180473     8.95415e-05        -0.915671        0.327092      0.000241491     0.000235433        -0.190568       0.0676508
281706                 0.0293843       -0.113403     -0.000228808    -2.41669e-05        0.0116548        -0.99278     -0.000254921      9.0972e-06
                     -0.00022448     -9.8064e-05          0.19051      -0.0689736      4.70178e-05     0.000208701        -0.915598        0.327618
                       0.0111317       -0.992803      9.41193e-05     0.000177397        0.0266841        0.114145      0.000137188     0.000384474
                    -0.000180463     8.95689e-05        -0.915552        0.327423      0.000241516     0.000235272        -0.190531       0.0677622
281708                 0.0293721       -0.113402     -0.000228731    -2.40932e-05        0.0114156       -0.992783     -0.000254977     9.21615e-06
                     -0.00022453     -9.8014e-05         0.190502      -0.0690011      4.70146e-05     0.000208615        -0.915478        0.327949
                       0.0108925       -0.992805      9.41444e-05     0.000177359        0.0267269        0.114131      0.000137362     0.000384333
                    -0.000180453      8.9595e-05        -0.915432        0.327755      0.000241541     0.000235111        -0.190493       0.0678735
281710                 0.0293599       -0.113402     -0.000228654    -2.40194e-05        0.0111764       -0.992786     -0.000255034     9.33519e-06
                    -0.000224579     -9.7964e-05         0.190494      -0.0690287      4.70115e-05     0.000208529        -0.915358         0.32828
                       0.0106533       -0.992808      9.41695e-05     0.000177321        0.0267697        0.114118      0.000137536     0.000384192
                    -0.000180443     8.96195e-05        -0.915313        0.328086      0.000241566      0.00023495        -0.190455       0.0679849
281712                 0.0293477       -0.113402     -0.000228577    -2.39456e-05        0.0109372       -0.992789     -0.000255091     9.45434e-06
                    -0.000224629     -9.7914e-05         0.190486      -0.0690562      4.70085e-05     0.000208444        -0.915238        0.328612
                       0.0104141       -0.992811      9.41947e-05     0.000177283        0.0268124        0.114104       0.00013771     0.000384051
                    -0.000180431     8.96428e-05        -0.915193        0.328417       0.00024159     0.000234789        -0.190417       0.0680962
281714                 0.0293355       -0.113401       -0.0002285    -2.38717e-05         0.010698       -0.992791     -0.000255147     9.57363e-06
                    -0.000224678    -9.78638e-05         0.190478      -0.0690837      4.70054e-05     0.000208358        -0.915118        0.328943
                       0.0101749       -0.992814        9.422e-05     0.000177246        0.0268552        0.114091      0.000137884      0.00038391
                    -0.000180417     8.96665e-05        -0.915073        0.328748      0.000241615     0.000234628        -0.190379       0.0682075
281716                 0.0293233       -0.113401     -0.000228424    -2.37978e-05        0.0104588       -0.992794     -0.000255203     9.69312e-06
                    -0.000224727    -9.78136e-05          0.19047      -0.0691112      4.70024e-05     0.000208273        -0.914998        0.329274
                      0.00993571       -0.992816      9.42456e-05     0.000177209        0.0268979        0.114077      0.000138059     0.000383768
                    -0.000180401     8.96916e-05        -0.914953        0.329079      0.000241639     0.000234467        -0.190341       0.0683187
281718                 0.0293111         -0.1134     -0.000228347    -2.37239e-05        0.0102196       -0.992797     -0.000255259     9.81289e-06
                    -0.000224777    -9.77633e-05         0.190461      -0.0691387      4.69993e-05     0.000208189        -0.914878        0.329604
                      0.00969651       -0.992819      9.42715e-05     0.000177172        0.0269407        0.114064      0.000138233     0.000383626
                    -0.000180386     8.97182e-05        -0.914833         0.32941      0.000241662     0.000234307        -0.190303         0.06843
281720                 0.0292989         -0.1134      -0.00022827      -2.365e-05       0.00998042       -0.992799     -0.000255315     9.93307e-06
                    -0.000224826     -9.7713e-05         0.190453      -0.0691662      4.69962e-05     0.000208104        -0.914757        0.329935
                      0.00945732       -0.992822      9.42978e-05     0.000177135        0.0269834         0.11405      0.000138408     0.000383483
                     -0.00018037     8.97457e-05        -0.914713        0.329741      0.000241686     0.000234146        -0.190265       0.0685412
281722                 0.0292867       -0.113399     -0.000228193     -2.3576e-05       0.00974123       -0.992802      -0.00025537     1.00539e-05
                    -0.000224875    -9.76625e-05         0.190445      -0.0691937      4.69931e-05      0.00020802        -0.914637        0.330266
                      0.00921812       -0.992824       9.4325e-05     0.000177099        0.0270261        0.114036      0.000138584     0.000383338
                    -0.000180355     8.97736e-05        -0.914593        0.330072      0.000241709     0.000233986        -0.190227       0.0686524
281724                 0.0292746       -0.113399     -0.000228116    -2.35019e-05       0.00950203       -0.992804     -0.000255425     1.01756e-05
                    -0.000224925     -9.7612e-05         0.190437      -0.0692212      4.69898e-05     0.000207936        -0.914516        0.330597
                      0.00897892       -0.992827      9.43535e-05     0.000177063        0.0270688        0.114023      0.000138761     0.000383191
                    -0.000180341     8.98018e-05        -0.914472        0.330403      0.000241731     0.000233825        -0.190189       0.0687636
281726                 0.0292624       -0.113399     -0.000228039    -2.34279e-05       0.00926283       -0.992807      -0.00025548     1.02992e-05
                    -0.000224974    -9.75614e-05         0.190429      -0.0692488      4.69865e-05     0.000207852        -0.914395        0.330928
                      0.00873971       -0.992829      9.43844e-05     0.000177027        0.0271116        0.114009      0.000138941      0.00038304
                    -0.000180327     8.98302e-05        -0.914352        0.330734      0.000241753     0.000233665        -0.190151       0.0688748
281728                 0.0292502       -0.113398     -0.000227962    -2.33539e-05       0.00902364       -0.992809     -0.000255532     1.04265e-05
                    -0.000225023    -9.75108e-05         0.190421      -0.0692763      4.69831e-05     0.000207768        -0.914275        0.331259
                      0.00850051       -0.992831      9.44189e-05      0.00017699        0.0271543        0.113995      0.000139126     0.000382879
                    -0.000180313     8.98585e-05        -0.914231        0.331064      0.000241775     0.000233505        -0.190112       0.0689859
281730                  0.029238       -0.113398     -0.000227884      -2.328e-05       0.00878444       -0.992812     -0.000255581     1.05632e-05
                    -0.000225073      -9.746e-05         0.190412      -0.0693038      4.69796e-05     0.000207685        -0.914154        0.331589
                       0.0082613       -0.992833      9.44578e-05     0.000176947         0.027197        0.113982      0.000139325     0.000382693
                      -0.0001803     8.98868e-05         -0.91411        0.331395      0.000241797     0.000233346        -0.190074        0.069097
281732                 0.0292258       -0.113397     -0.000227807    -2.32061e-05       0.00854523       -0.992814     -0.000255615      1.0742e-05
                    -0.000225122    -9.74092e-05         0.190404      -0.0693313      4.69759e-05     0.000207602        -0.914033        0.331919
                      0.00802209       -0.992836      9.44952e-05     0.000176892        0.0272397        0.113968      0.000139574     0.000382398
                    -0.000180286     8.99151e-05        -0.913989        0.331726      0.000241818     0.000233187        -0.190035        0.069208
281734                 0.0292136       -0.113397     -0.000227729    -2.31324e-05       0.00830603       -0.992816     -0.000256221     9.90404e-06
                    -0.000225171    -9.73583e-05         0.190396      -0.0693589      4.69719e-05     0.000207519         -0.91391        0.332255
                      0.00778288       -0.992838      9.45184e-05     0.000176831        0.0272823        0.113954      0.000136635     0.000383212
                    -0.000180273     8.99433e-05        -0.913868        0.332057      0.000241839     0.000233029        -0.189996       0.0693202
281736                 0.0292014       -0.113396     -0.000227651    -2.30589e-05       0.00806683       -0.992818     -0.000255809     1.07737e-05
                    -0.000225221    -9.73074e-05         0.190388      -0.0693864      4.69678e-05     0.000207437         -0.91379        0.332582
                      0.00754367        -0.99284      9.45292e-05     0.000176778         0.027325        0.113941      0.000139576     0.000382657
                    -0.000180259     8.99715e-05        -0.913747        0.332387      0.000241859     0.000232871        -0.189958       0.0694304
281738                 0.0291892       -0.113396     -0.000227573    -2.29856e-05       0.00782763        -0.99282     -0.000255847     1.09345e-05
                     -0.00022527    -9.72563e-05          0.19038      -0.0694139      4.69634e-05     0.000207355        -0.913668        0.332913
                      0.00730446       -0.992842      9.45403e-05     0.000176737        0.0273677        0.113927      0.000139835     0.000382412
                    -0.000180246     8.99998e-05        -0.913626        0.332718      0.000241879     0.000232715        -0.189919       0.0695414
281740                  0.029177       -0.113395     -0.000227494    -2.29125e-05       0.00758842       -0.992822     -0.000255896     1.10678e-05
                     -0.00022532    -9.72052e-05         0.190371      -0.0694414      4.69587e-05     0.000207273        -0.913547        0.333243
                      0.00706525       -0.992844      9.45557e-05       0.0001767        0.0274104        0.113913      0.000140034     0.000382236
                    -0.000180233      9.0028e-05        -0.913504        0.333049        0.0002419     0.000232559         -0.18988       0.0696524
281742                 0.0291648       -0.113395     -0.000227416    -2.28398e-05       0.00734921       -0.992824     -0.000255948     1.11937e-05
                    -0.000225369    -9.71541e-05         0.190363       -0.069469      4.69537e-05     0.000207191        -0.913425        0.333574
                      0.00682603       -0.992846      9.45744e-05     0.000176663         0.027453        0.113899      0.000140218      0.00038208
                    -0.000180219     9.00562e-05        -0.913383        0.333379      0.000241921     0.000232405        -0.189841       0.0697633
281744                 0.0291526       -0.113395     -0.000227338    -2.27673e-05       0.00711001       -0.992826     -0.000256002     1.13165e-05
                    -0.000225419    -9.71029e-05         0.190355      -0.0694965      4.69482e-05      0.00020711        -0.913303        0.333904
                      0.00658682       -0.992848      9.45953e-05     0.000176627        0.0274957        0.113885      0.000140396     0.000381932
                    -0.000180206     9.00844e-05        -0.913261         0.33371      0.000241943     0.000232252        -0.189802       0.0698743
281746                 0.0291404       -0.113394      -0.00022726    -2.26951e-05        0.0068708       -0.992828     -0.000256056     1.14376e-05
                    -0.000225468    -9.70516e-05         0.190347       -0.069524      4.69421e-05     0.000207028        -0.913181        0.334234
                       0.0063476       -0.992849      9.46174e-05     0.000176591        0.0275383        0.113872      0.000140571     0.000381788
                    -0.000180193     9.01126e-05        -0.913139         0.33404      0.000241968       0.0002321        -0.189763       0.0699852
281748                 0.0291283       -0.113394     -0.000227181    -2.26232e-05       0.00663159        -0.99283     -0.000256111     1.15578e-05
                    -0.000225518    -9.70004e-05         0.190338      -0.0695515      4.69352e-05     0.000206947        -0.913059        0.334565
                      0.00610839       -0.992851      9.46403e-05     0.000176553         0.027581        0.113858      0.000140744     0.000381647
                     -0.00018018     9.01409e-05        -0.913017        0.334371      0.000241995     0.000231948        -0.189724       0.0700961
281750                 0.0291161       -0.113393     -0.000227103    -2.25517e-05       0.00639237       -0.992832     -0.000256166     1.16774e-05
                    -0.000225567     -9.6949e-05          0.19033      -0.0695791      4.69268e-05     0.000206866        -0.912937        0.334895
                      0.00586917       -0.992853      9.46637e-05     0.000176516        0.0276236        0.113844      0.000140916     0.000381508
                    -0.000180166     9.01693e-05        -0.912895        0.334701      0.000242026     0.000231793        -0.189685        0.070207
281752                 0.0291039       -0.113393     -0.000227025    -2.24805e-05       0.00615314       -0.992833     -0.000256221     1.17966e-05
                    -0.000225616    -9.68977e-05         0.190322      -0.0696066      4.69154e-05     0.000206785        -0.912814        0.335226
                      0.00562995       -0.992854      9.46875e-05     0.000176478        0.0276662         0.11383      0.000141087      0.00038137
                    -0.000180153     9.01977e-05        -0.912773        0.335032      0.000242058     0.000231633        -0.189646       0.0703179
281754                 0.0290917       -0.113392     -0.000226947    -2.24096e-05       0.00591372       -0.992836     -0.000256276     1.19154e-05
                    -0.000225666    -9.68463e-05         0.190313      -0.0696342      4.69004e-05     0.000206696        -0.912692        0.335556
                      0.00539073       -0.992856      9.47116e-05      0.00017644        0.0277089        0.113816      0.000141257     0.000381233
                    -0.000180139     9.02264e-05        -0.912651        0.335362      0.000242087     0.000231467        -0.189607       0.0704287
281756                 0.0290795       -0.113392     -0.000226869     -2.2339e-05       0.00567484       -0.992836     -0.000256331      1.2034e-05
                    -0.000225715    -9.67949e-05         0.190305      -0.0696617      4.68992e-05     0.000206597        -0.912569        0.335886
                       0.0051515       -0.992858      9.47359e-05     0.000176402        0.0277514        0.113802      0.000141426     0.000381097
                    -0.000180125     9.02553e-05        -0.912528        0.335692      0.000242109     0.000231298        -0.189567       0.0705396
281758                 0.0290673       -0.113391     -0.000226791    -2.22687e-05       0.00543559       -0.992838     -0.000256386     1.21524e-05
                    -0.000225765    -9.67436e-05         0.190297      -0.0696892      4.69057e-05     0.000206515        -0.912446        0.336216
                      0.00491228       -0.992859      9.47606e-05     0.000176363        0.0277941        0.113788      0.000141595     0.000380962
                    -0.000180111     9.02849e-05        -0.912406        0.336023      0.000242123     0.000231134        -0.189528       0.0706504
281760                 0.0290551       -0.113391     -0.000226713    -2.21988e-05       0.00519637       -0.992839     -0.000256441     1.22706e-05
                    -0.000225814    -9.66923e-05         0.190289      -0.0697168      4.69036e-05     0.000206438        -0.912324        0.336547
                      0.00467306        -0.99286      9.47856e-05     0.000176325        0.0278367        0.113774      0.000141764     0.000380827
                    -0.000180095     9.03157e-05        -0.912283        0.336353      0.000242136     0.000230977        -0.189489       0.0707611
281762                 0.0290429        -0.11339     -0.000226636    -2.21293e-05       0.00495715       -0.992841     -0.000256496     1.23887e-05
                    -0.000225863    -9.66412e-05          0.19028      -0.0697443      4.68982e-05     0.000206358        -0.912201        0.336877
                      0.00443383       -0.992862      9.48113e-05     0.000176285        0.0278793         0.11376      0.000141932     0.000380693
