! TOUCHSTONE file generated by CST MICROWAVE STUDIO
! Date and time: Tue Oct 14 17:38:46 2025
! Project name: Teste_Macro_Metasurface_Nanopilar.cst
! Parameters = {H=600; L_x=140; L_y=150; Lambda=1064; Max_L=200; Min_L=70; PathPara=1; Phi=0; Step_L=10; Theta=0; p=520; phaseX=180; phaseY=0}
! Header version: 2018
! Port assignment regex: !\s*Touchstone port\s*([0-9]+)\s*=\s*(CST MWS port|CST DS port)\s*([0-9]+|Zmin|Zmax)\s*\(\"(.*)\"\)(\s*mode\s*([0-9]+))?.*
! Touchstone port assignment:
! Touchstone port 1 = CST MWS port Zmax ("") mode 1
! Touchstone port 2 = CST MWS port Zmax ("") mode 2
! Touchstone port 3 = CST MWS port Zmin ("") mode 1
! Touchstone port 4 = CST MWS port Zmin ("") mode 2
! S-Parameters are not renormalized. Each port impedance will be approximated by the real part at minimum frequency. The values are described via the [Reference] keyword.
! Default impedance is overridden by [Reference]
[Version] 2.0
# GHz S RI R 376.73
[Number of Ports] 4
[Reference]
376.73 376.73 259.814 259.814 
[Number of Frequencies] 51
[Network Data]
281700                  0.451489        0.482225      0.000447246     0.000103036         0.270761        -0.66489     -0.000762082     -0.00015889
                     0.000405673     0.000206534         0.144252        0.220386     -0.000444279    -0.000269239         0.818145       -0.501343
                        0.271011       -0.665477     -0.000346424    -0.000257747         0.638254      -0.0977447      0.000569889    -0.000354111
                    -0.000731006     -7.0308e-05         0.817947       -0.500515      0.000351879    -0.000189511         0.132491        0.224043
281702                  0.452056        0.482322      0.000446817     0.000103387         0.269991       -0.664693      -0.00076319    -0.000158485
                     0.000405794     0.000206583         0.144282        0.220436     -0.000445702    -0.000269253         0.817952       -0.501625
                         0.27024       -0.665281     -0.000346764    -0.000258182          0.63855      -0.0987348      0.000570464     -0.00035592
                    -0.000731901    -6.99619e-05          0.81775         -0.5008      0.000351576    -0.000191147         0.132683        0.223995
281704                  0.452625        0.482419      0.000446387     0.000103736         0.269221       -0.664494     -0.000764298    -0.000158077
                     0.000405915      0.00020663         0.144312        0.220486     -0.000447132    -0.000269261         0.817759       -0.501908
                        0.269469       -0.665084     -0.000347102    -0.000258618         0.638845      -0.0997268      0.000571036     -0.00035773
                    -0.000732799    -6.96166e-05         0.817554       -0.501085      0.000351266    -0.000192781         0.132875        0.223946
281706                  0.453194        0.482515      0.000445958     0.000104084          0.26845       -0.664293     -0.000765403    -0.000157664
                     0.000406036     0.000206674         0.144342        0.220536     -0.000448571    -0.000269263         0.817566        -0.50219
                        0.268697       -0.664885     -0.000347438    -0.000259054         0.639139       -0.100721      0.000571605    -0.000359541
                      -0.0007337    -6.92721e-05         0.817357       -0.501371      0.000350947    -0.000194413         0.133067        0.223898
281708                  0.453765         0.48261      0.000445528      0.00010443         0.267678       -0.664091     -0.000766507    -0.000157248
                     0.000406157     0.000206716         0.144373        0.220586     -0.000450018    -0.000269259         0.817373       -0.502472
                        0.267925       -0.664684     -0.000347773    -0.000259492         0.639432       -0.101716      0.000572171    -0.000361354
                    -0.000734604    -6.89286e-05          0.81716       -0.501656       0.00035062    -0.000196043         0.133259        0.223849
281710                  0.454336        0.482705      0.000445098     0.000104774         0.266906       -0.663887      -0.00076761    -0.000156828
                     0.000406278     0.000206755         0.144403        0.220635     -0.000451474    -0.000269249         0.817179       -0.502755
                        0.267153       -0.664481     -0.000348106    -0.000259931         0.639723       -0.102714      0.000572734    -0.000363168
                    -0.000735512    -6.85859e-05         0.816963       -0.501941      0.000350285    -0.000197671         0.133451          0.2238
281712                  0.454909        0.482799      0.000444667     0.000105117         0.266134       -0.663682      -0.00076871    -0.000156403
                     0.000406399     0.000206792         0.144434        0.220686     -0.000452937    -0.000269232         0.816986       -0.503037
                         0.26638       -0.664277     -0.000348437    -0.000260371         0.640013       -0.103714      0.000573294    -0.000364984
                    -0.000736423    -6.82442e-05         0.816766       -0.502226      0.000349942    -0.000199296         0.133644        0.223752
281714                  0.455483        0.482892      0.000444237     0.000105458         0.265362       -0.663475      -0.00076981    -0.000155975
                     0.000406519     0.000206827         0.144464        0.220736     -0.000454409     -0.00026921         0.816792       -0.503319
                        0.265606       -0.664072     -0.000348767    -0.000260813         0.640302       -0.104715      0.000573851    -0.000366801
                    -0.000737337    -6.79035e-05         0.816569       -0.502511      0.000349591     -0.00020092         0.133836        0.223703
281716                  0.456058        0.482985      0.000443806     0.000105797         0.264589       -0.663266     -0.000770908    -0.000155542
                     0.000406639     0.000206859         0.144495        0.220786     -0.000455888    -0.000269181         0.816598       -0.503601
                        0.264833       -0.663864     -0.000349094    -0.000261255         0.640589       -0.105719      0.000574405    -0.000368621
                    -0.000738254    -6.75638e-05         0.816372       -0.502795      0.000349232    -0.000202541         0.134028        0.223653
281718                  0.456634        0.483077      0.000443375     0.000106135         0.263815       -0.663056     -0.000772004    -0.000155106
                      0.00040676     0.000206888         0.144525        0.220836     -0.000457376    -0.000269145         0.816404       -0.503883
                        0.264059       -0.663655     -0.000349419    -0.000261699         0.640876       -0.106724      0.000574956    -0.000370442
                    -0.000739174    -6.72252e-05         0.816174        -0.50308      0.000348866     -0.00020416          0.13422        0.223604
281720                  0.457211        0.483168      0.000442944     0.000106471         0.263042       -0.662844     -0.000773099    -0.000154665
                      0.00040688     0.000206916         0.144556        0.220886     -0.000458871    -0.000269103          0.81621       -0.504165
                        0.263284       -0.663444     -0.000349743    -0.000262144         0.641161       -0.107731      0.000575504    -0.000372264
                    -0.000740098    -6.68878e-05         0.815977       -0.503365      0.000348492    -0.000205776         0.134413        0.223555
281722                  0.457789        0.483259      0.000442512     0.000106805         0.262267        -0.66263     -0.000774193     -0.00015422
                     0.000406999      0.00020694         0.144586        0.220936     -0.000460374    -0.000269055         0.816016       -0.504447
                        0.262509       -0.663232     -0.000350064     -0.00026259         0.641444        -0.10874      0.000576048    -0.000374089
                    -0.000741024    -6.65516e-05         0.815779        -0.50365      0.000348111    -0.000207389         0.134605        0.223505
281724                  0.458368        0.483349       0.00044208     0.000107138         0.261493       -0.662414     -0.000775286     -0.00015377
                     0.000407119     0.000206962         0.144617        0.220986     -0.000461885       -0.000269         0.815822       -0.504729
                        0.261734       -0.663018     -0.000350384    -0.000263038         0.641727       -0.109751       0.00057659    -0.000375916
                    -0.000741954    -6.62167e-05         0.815581       -0.503934      0.000347722       -0.000209         0.134797        0.223455
281726                  0.458948        0.483438      0.000441648     0.000107469         0.260718       -0.662197     -0.000776377    -0.000153316
                     0.000407239     0.000206982         0.144647        0.221037     -0.000463404    -0.000268938         0.815627       -0.505011
                        0.260958       -0.662802     -0.000350701    -0.000263487         0.642008       -0.110764      0.000577128    -0.000377745
                    -0.000742886    -6.58832e-05         0.815384       -0.504219      0.000347325    -0.000210608          0.13499        0.223406
281728                  0.459529        0.483527      0.000441215     0.000107799         0.259943       -0.661978     -0.000777468    -0.000152858
                     0.000407358     0.000206999         0.144678        0.221087     -0.000464931    -0.000268869         0.815433       -0.505293
                        0.260182       -0.662585     -0.000351016    -0.000263938         0.642288       -0.111779      0.000577662    -0.000379576
                    -0.000743822    -6.55512e-05         0.815185       -0.504503      0.000346921    -0.000212214         0.135182        0.223355
281730                  0.460111        0.483615      0.000440781     0.000108126         0.259167       -0.661757     -0.000778557    -0.000152395
                     0.000407477     0.000207013         0.144708        0.221137     -0.000466465    -0.000268794         0.815238       -0.505575
                        0.259406       -0.662365     -0.000351329    -0.000264389         0.642566       -0.112796      0.000578194    -0.000381409
                    -0.000744761    -6.52206e-05         0.814987       -0.504788       0.00034651    -0.000213816         0.135375        0.223305
281732                  0.460695        0.483703      0.000440347     0.000108452         0.258391       -0.661535     -0.000779645    -0.000151928
                     0.000407596     0.000207025         0.144739        0.221188     -0.000468006    -0.000268711         0.815043       -0.505856
                        0.258629       -0.662144      -0.00035164    -0.000264843         0.642843       -0.113814      0.000578722    -0.000383244
                    -0.000745703    -6.48916e-05         0.814789       -0.505072      0.000346092    -0.000215416         0.135567        0.223255
281734                  0.461279        0.483789      0.000439913     0.000108777         0.257615       -0.661311     -0.000780733    -0.000151456
                     0.000407715     0.000207034          0.14477        0.221238     -0.000469556    -0.000268622         0.814848       -0.506138
                        0.257852       -0.661922     -0.000351949    -0.000265297         0.643119       -0.114835      0.000579247    -0.000385083
                    -0.000746648    -6.45643e-05         0.814591       -0.505356      0.000345667    -0.000217012          0.13576        0.223205
281736                  0.461864        0.483875      0.000439478     0.000109099         0.256838       -0.661085      -0.00078182     -0.00015098
                     0.000407834      0.00020704           0.1448        0.221288     -0.000471112    -0.000268526         0.814653        -0.50642
                        0.257074       -0.661697     -0.000352256    -0.000265753         0.643393       -0.115857      0.000579768    -0.000386923
                    -0.000747597    -6.42385e-05         0.814392       -0.505641      0.000345235    -0.000218606         0.135953        0.223154
281738                  0.462451        0.483961      0.000439042      0.00010942         0.256061       -0.660858     -0.000782907    -0.000150499
                     0.000407953     0.000207044         0.144831        0.221339     -0.000472675    -0.000268423         0.814457       -0.506701
                        0.256296       -0.661471      -0.00035256    -0.000266211         0.643667       -0.116882      0.000580287    -0.000388767
                    -0.000748548    -6.39145e-05         0.814194       -0.505925      0.000344795    -0.000220196         0.136145        0.223103
281740                  0.463038        0.484045      0.000438606      0.00010974         0.255283       -0.660629     -0.000783992    -0.000150014
                     0.000408071     0.000207046         0.144862        0.221389     -0.000474246    -0.000268313         0.814262       -0.506983
                        0.255518       -0.661244     -0.000352862     -0.00026667         0.643938       -0.117908      0.000580802    -0.000390613
                    -0.000749504    -6.35922e-05         0.813995       -0.506209      0.000344349    -0.000221783         0.136338        0.223052
281742                  0.463627        0.484129      0.000438169     0.000110058         0.254505       -0.660398     -0.000785078    -0.000149524
                     0.000408189     0.000207044         0.144892         0.22144     -0.000475824    -0.000268196         0.814066       -0.507264
                        0.254739       -0.661014     -0.000353161    -0.000267131         0.644209       -0.118936      0.000581314    -0.000392463
                    -0.000750462    -6.32716e-05         0.813796       -0.506493      0.000343897    -0.000223367         0.136531        0.223002
281744                  0.464217        0.484213      0.000437731     0.000110374         0.253727       -0.660165     -0.000786163    -0.000149029
                     0.000408308      0.00020704         0.144923         0.22149     -0.000477408    -0.000268072         0.813871       -0.507546
                         0.25396       -0.660783     -0.000353459    -0.000267593         0.644478       -0.119966      0.000581822    -0.000394315
                    -0.000751424    -6.29529e-05         0.813597       -0.506777      0.000343437    -0.000224947         0.136724         0.22295
281746                  0.464807        0.484295      0.000437293     0.000110688         0.252948       -0.659931     -0.000787248    -0.000148529
                     0.000408426     0.000207033         0.144954        0.221541        -0.000479    -0.000267942         0.813675       -0.507827
                         0.25318        -0.66055     -0.000353754    -0.000268057         0.644745       -0.120998      0.000582328    -0.000396171
                     -0.00075239    -6.26359e-05         0.813398       -0.507061      0.000342971    -0.000226524         0.136917        0.222899
281748                  0.465399        0.484377      0.000436854     0.000111001         0.252169       -0.659695     -0.000788333    -0.000148025
                     0.000408544     0.000207024         0.144985        0.221592     -0.000480598    -0.000267804         0.813479       -0.508108
                        0.252401       -0.660315     -0.000354046    -0.000268522         0.645011       -0.122032       0.00058283     -0.00039803
                    -0.000753359    -6.23208e-05         0.813199       -0.507345      0.000342499    -0.000228097          0.13711        0.222848
281750                  0.465992        0.484458      0.000436414     0.000111312          0.25139       -0.659457     -0.000789417    -0.000147515
                     0.000408662     0.000207012         0.145016        0.221642     -0.000482202    -0.000267659         0.813282        -0.50839
                        0.251621       -0.660079     -0.000354336    -0.000268989         0.645276       -0.123068      0.000583329    -0.000399893
                    -0.000754331    -6.20076e-05         0.812999       -0.507629       0.00034202    -0.000229667         0.137303        0.222796
281752                  0.466586        0.484538      0.000435973     0.000111622         0.250611       -0.659217     -0.000790502    -0.000147001
                     0.000408779     0.000206997         0.145046        0.221693     -0.000483813    -0.000267507         0.813086       -0.508671
                         0.25084       -0.659841     -0.000354624    -0.000269457          0.64554       -0.124106      0.000583825    -0.000401759
                    -0.000755307    -6.16962e-05           0.8128       -0.507913      0.000341535    -0.000231233         0.137496        0.222744
281754                  0.467181        0.484618      0.000435531      0.00011193         0.249831       -0.658975     -0.000791587    -0.000146482
                     0.000408897     0.000206979         0.145077        0.221744      -0.00048543    -0.000267349          0.81289       -0.508952
                        0.250059       -0.659601     -0.000354909    -0.000269927         0.645802       -0.125146      0.000584318    -0.000403629
                    -0.000756287    -6.13867e-05           0.8126       -0.508196      0.000341043    -0.000232796         0.137689        0.222693
281756                  0.467777        0.484697      0.000435089     0.000112236          0.24905       -0.658732     -0.000792673    -0.000145958
                     0.000409014     0.000206958         0.145108        0.221795     -0.000487053    -0.000267183         0.812693       -0.509233
                        0.249278       -0.659359     -0.000355192    -0.000270399         0.646062       -0.126188      0.000584807    -0.000405503
                     -0.00075727    -6.10791e-05         0.812401        -0.50848      0.000340546    -0.000234355         0.137882        0.222641
281758                  0.468375        0.484775      0.000434646     0.000112541         0.248269       -0.658487     -0.000793759    -0.000145429
                     0.000409132     0.000206935         0.145139        0.221845     -0.000488682     -0.00026701         0.812496       -0.509514
                        0.248497       -0.659115     -0.000355472    -0.000270872         0.646321       -0.127231      0.000585294    -0.000407381
                    -0.000758257    -6.07735e-05         0.812201       -0.508764      0.000340043     -0.00023591         0.138075        0.222588
281760                  0.468973        0.484852      0.000434202     0.000112845         0.247488       -0.658241     -0.000794845    -0.000144895
                     0.000409249     0.000206909          0.14517        0.221896     -0.000490317    -0.000266831         0.812299       -0.509795
                        0.247715        -0.65887     -0.000355749    -0.000271347         0.646579       -0.128277      0.000585777    -0.000409263
                    -0.000759247    -6.04698e-05         0.812001       -0.509047      0.000339533    -0.000237461         0.138268        0.222536
281762                  0.469572        0.484929      0.000433757     0.000113146         0.246707       -0.657992     -0.000795932    -0.000144355
                     0.000409366     0.000206881         0.145201        0.221947     -0.000491958    -0.000266644         0.812102       -0.510076
                        0.246933       -0.658623     -0.000356024    -0.000271824         0.646835       -0.129324      0.000586257    -0.000411149
