! TOUCHSTONE file generated by CST MICROWAVE STUDIO
! Date and time: Tue Oct 14 17:39:26 2025
! Project name: Teste_Macro_Metasurface_Nanopilar.cst
! Parameters = {H=600; L_x=200; L_y=90; Lambda=1064; Max_L=200; Min_L=70; PathPara=1; Phi=0; Step_L=10; Theta=0; p=520; phaseX=180; phaseY=0}
! Header version: 2018
! Port assignment regex: !\s*Touchstone port\s*([0-9]+)\s*=\s*(CST MWS port|CST DS port)\s*([0-9]+|Zmin|Zmax)\s*\(\"(.*)\"\)(\s*mode\s*([0-9]+))?.*
! Touchstone port assignment:
! Touchstone port 1 = CST MWS port Zmax ("") mode 1
! Touchstone port 2 = CST MWS port Zmax ("") mode 2
! Touchstone port 3 = CST MWS port Zmin ("") mode 1
! Touchstone port 4 = CST MWS port Zmin ("") mode 2
! S-Parameters are not renormalized. Each port impedance will be approximated by the real part at minimum frequency. The values are described via the [Reference] keyword.
! Default impedance is overridden by [Reference]
[Version] 2.0
# GHz S RI R 376.73
[Number of Ports] 4
[Reference]
376.73 376.73 259.814 259.814 
[Number of Frequencies] 51
[Network Data]
281700                 0.0194304        0.143946      0.000311027     0.000109136        -0.967741       -0.182691     -0.000149626     0.000140406
                     9.70876e-05      5.2126e-05         0.915272       -0.199212      0.000383871    -0.000267779         0.246771        0.161514
                       -0.967942       -0.182826      0.000345369    -0.000227638       -0.0691823        0.127575     -9.45327e-05     0.000222681
                     0.000173737     2.06944e-05         0.246247        0.162113      -0.00018109     0.000390079       -0.0608688       -0.926987
281702                 0.0194502        0.143963      0.000310953     0.000109192        -0.967796        -0.18238      -0.00014936     0.000140354
                      9.6583e-05     5.23353e-05         0.915056       -0.199592      0.000383602    -0.000268195         0.247224        0.161589
                       -0.967997       -0.182514      0.000345167    -0.000227827       -0.0691252        0.127628     -9.40504e-05     0.000222582
                     0.000174291     1.98226e-05         0.246701        0.162188      -0.00018046     0.000390288       -0.0617862       -0.926796
281704                 0.0194701         0.14398       0.00031088     0.000109247        -0.967851       -0.182068     -0.000149095     0.000140301
                     9.60783e-05     5.25457e-05         0.914839       -0.199972      0.000383332     -0.00026861         0.247678        0.161663
                       -0.968052       -0.182203      0.000344965    -0.000228015        -0.069068        0.127682      -9.3568e-05     0.000222482
                     0.000174843     1.89491e-05         0.247155        0.162263      -0.00017983     0.000390495       -0.0627032       -0.926604
281706                 0.0194899        0.143997      0.000310806     0.000109304        -0.967906       -0.181757     -0.000148829     0.000140247
                     9.55735e-05     5.27571e-05         0.914622       -0.200352      0.000383062    -0.000269025         0.248132        0.161737
                       -0.968107       -0.181891      0.000344763    -0.000228203       -0.0690107        0.127735     -9.30856e-05      0.00022238
                     0.000175395     1.80739e-05         0.247609        0.162337     -0.000179199       0.0003907       -0.0636197        -0.92641
281708                 0.0195098        0.144014      0.000310733     0.000109361        -0.967961       -0.181445     -0.000148565     0.000140193
                     9.50686e-05     5.29696e-05         0.914405       -0.200731       0.00038279    -0.000269439         0.248585         0.16181
                       -0.968162        -0.18158       0.00034456     -0.00022839       -0.0689534        0.127788     -9.26031e-05     0.000222278
                     0.000175946      1.7197e-05         0.248063        0.162411     -0.000178567     0.000390904       -0.0645359       -0.926216
281710                 0.0195296        0.144032       0.00031066     0.000109418        -0.968016       -0.181134       -0.0001483     0.000140138
                     9.45637e-05     5.31831e-05         0.914188        -0.20111      0.000382518    -0.000269853         0.249039        0.161883
                       -0.968217       -0.181268      0.000344357    -0.000228576       -0.0688961        0.127842     -9.21205e-05     0.000222175
                     0.000176496     1.63184e-05         0.248517        0.162484     -0.000177934     0.000391107       -0.0654516       -0.926021
281712                 0.0195495        0.144049      0.000310586     0.000109476        -0.968071       -0.180823     -0.000148036     0.000140082
                     9.40586e-05     5.33977e-05          0.91397       -0.201488      0.000382245    -0.000270267         0.249493        0.161954
                       -0.968272       -0.180957      0.000344154    -0.000228762       -0.0688388        0.127895     -9.16379e-05      0.00022207
                     0.000177045     1.54382e-05         0.248971        0.162556       -0.0001773     0.000391308       -0.0663669       -0.925824
281714                 0.0195694        0.144066      0.000310513     0.000109535        -0.968126       -0.180511     -0.000147772     0.000140026
                     9.35536e-05     5.36133e-05         0.913752       -0.201867      0.000381971     -0.00027068         0.249947        0.162026
                       -0.968327       -0.180645      0.000343951    -0.000228947       -0.0687814        0.127948     -9.11553e-05     0.000221964
                     0.000177593     1.45564e-05         0.249426        0.162628     -0.000176666     0.000391508       -0.0672817       -0.925627
281716                 0.0195892        0.144083      0.000310439     0.000109594         -0.96818         -0.1802     -0.000147509     0.000139969
                     9.30484e-05       5.383e-05         0.913534       -0.202245      0.000381696    -0.000271093         0.250401        0.162096
                       -0.968381       -0.180334      0.000343747    -0.000229131       -0.0687239        0.128001     -9.06726e-05     0.000221858
                      0.00017814     1.36729e-05          0.24988        0.162699     -0.000176031     0.000391706       -0.0681961       -0.925428
281718                 0.0196091          0.1441      0.000310366     0.000109653        -0.968235       -0.179888     -0.000147246     0.000139912
                     9.25432e-05     5.40477e-05         0.913315       -0.202623      0.000381421    -0.000271505         0.250855        0.162166
                       -0.968435       -0.180022      0.000343542    -0.000229315       -0.0686665        0.128054     -9.01899e-05      0.00022175
                     0.000178687     1.27877e-05         0.250335         0.16277     -0.000175395     0.000391904       -0.0691102       -0.925229
281720                  0.019629        0.144117      0.000310293     0.000109713        -0.968289       -0.179577     -0.000146983     0.000139854
                     9.20379e-05     5.42664e-05         0.913096          -0.203      0.000381144    -0.000271917          0.25131        0.162235
                        -0.96849        -0.17971      0.000343338    -0.000229498        -0.068609        0.128107     -8.97072e-05     0.000221641
                     0.000179232     1.19009e-05         0.250789         0.16284     -0.000174759     0.000392099       -0.0700237       -0.925028
281722                 0.0196489        0.144135      0.000310219     0.000109774        -0.968343       -0.179265      -0.00014672     0.000139795
                     9.15325e-05     5.44862e-05         0.912877       -0.203378      0.000380867    -0.000272328         0.251764        0.162304
                       -0.968544       -0.179399      0.000343133    -0.000229681       -0.0685514        0.128161     -8.92244e-05     0.000221531
                     0.000179776     1.10124e-05         0.251244        0.162909     -0.000174121     0.000392294       -0.0709369       -0.924827
281724                 0.0196688        0.144152      0.000310146     0.000109835        -0.968398       -0.178954     -0.000146458     0.000139736
                     9.10271e-05      5.4707e-05         0.912658       -0.203755      0.000380589    -0.000272739         0.252219        0.162372
                       -0.968598       -0.179087      0.000342927    -0.000229862       -0.0684938        0.128214     -8.87416e-05      0.00022142
                      0.00018032     1.01223e-05         0.251699        0.162977     -0.000173483     0.000392486       -0.0718496       -0.924624
281726                 0.0196887        0.144169      0.000310072     0.000109896        -0.968452       -0.178642     -0.000146197     0.000139676
                     9.05216e-05     5.49288e-05         0.912438       -0.204131       0.00038031    -0.000273149         0.252673        0.162439
                       -0.968652       -0.178775      0.000342722    -0.000230044       -0.0684362        0.128267     -8.82588e-05     0.000221308
                     0.000180863     9.23057e-06         0.252154        0.163045     -0.000172845     0.000392678       -0.0727619        -0.92442
281728                 0.0197086        0.144186      0.000309999     0.000109958        -0.968506       -0.178331     -0.000145935     0.000139616
                      9.0016e-05     5.51517e-05         0.912218       -0.204508       0.00038003     -0.00027356         0.253128        0.162506
                       -0.968706       -0.178464      0.000342516    -0.000230225       -0.0683785         0.12832      -8.7776e-05     0.000221194
                     0.000181404      8.3372e-06         0.252609        0.163112     -0.000172205     0.000392868       -0.0736737       -0.924215
281730                 0.0197285        0.144203      0.000309926      0.00011002         -0.96856       -0.178019     -0.000145674     0.000139555
                     8.95104e-05     5.53756e-05         0.911998       -0.204884       0.00037975    -0.000273969         0.253583        0.162572
                        -0.96876       -0.178152       0.00034231    -0.000230405       -0.0683208        0.128373     -8.72932e-05      0.00022108
                     0.000181945     7.44221e-06         0.253064        0.163179     -0.000171565     0.000393057       -0.0745851        -0.92401
281732                 0.0197484         0.14422      0.000309853     0.000110083        -0.968613       -0.177707     -0.000145414     0.000139493
                     8.90047e-05     5.56005e-05         0.911777        -0.20526      0.000379469    -0.000274378         0.254037        0.162637
                       -0.968813        -0.17784      0.000342103    -0.000230584       -0.0682631        0.128426     -8.68104e-05     0.000220965
                     0.000182485     6.54559e-06         0.253519        0.163245     -0.000170925     0.000393244       -0.0754961       -0.923803
281734                 0.0197683        0.144238       0.00030978     0.000110147        -0.968667       -0.177396     -0.000145153     0.000139431
                      8.8499e-05     5.58264e-05         0.911557       -0.205635      0.000379187    -0.000274787         0.254492        0.162702
                       -0.968867       -0.177528      0.000341897    -0.000230763       -0.0682053        0.128479     -8.63276e-05     0.000220848
                     0.000183024     5.64735e-06         0.253974        0.163311     -0.000170283      0.00039343       -0.0764066       -0.923595
281736                 0.0197883        0.144255      0.000309707     0.000110211        -0.968721       -0.177084     -0.000144893     0.000139368
                     8.79932e-05     5.60534e-05         0.911336       -0.206011      0.000378904    -0.000275195         0.254947        0.162766
                       -0.968921       -0.177217       0.00034169    -0.000230941       -0.0681475        0.128532     -8.58449e-05     0.000220731
                     0.000183562      4.7475e-06          0.25443        0.163375     -0.000169641     0.000393614       -0.0773167       -0.923386
281738                 0.0198082        0.144272      0.000309634     0.000110276        -0.968774       -0.176772     -0.000144634     0.000139304
                     8.74874e-05     5.62813e-05         0.911114       -0.206386       0.00037862    -0.000275603         0.255402         0.16283
                       -0.968974       -0.176905      0.000341483    -0.000231119       -0.0680897        0.128585     -8.53621e-05     0.000220612
                     0.000184099     3.84604e-06         0.254885        0.163439     -0.000168999     0.000393797       -0.0782264       -0.923176
281740                 0.0198281        0.144289      0.000309561     0.000110342        -0.968828        -0.17646     -0.000144375      0.00013924
                     8.69814e-05     5.65103e-05         0.910893        -0.20676      0.000378336     -0.00027601         0.255858        0.162893
                       -0.969027       -0.176593      0.000341275    -0.000231295       -0.0680318        0.128637     -8.48793e-05     0.000220493
                     0.000184636     2.94297e-06         0.255341        0.163503     -0.000168355     0.000393979       -0.0791356       -0.922965
281742                 0.0198481        0.144306      0.000309488     0.000110407        -0.968881       -0.176149     -0.000144116     0.000139175
                     8.64755e-05     5.67403e-05         0.910671       -0.207135      0.000378051    -0.000276417         0.256313        0.162955
                        -0.96908       -0.176281      0.000341067    -0.000231471       -0.0679739         0.12869     -8.43966e-05     0.000220372
                     0.000185171      2.0383e-06         0.255796        0.163566     -0.000167712     0.000394159       -0.0800443       -0.922753
281744                  0.019868        0.144323      0.000309415     0.000110474        -0.968934       -0.175837     -0.000143857     0.000139109
                     8.59695e-05     5.69713e-05         0.910448       -0.207509      0.000377765    -0.000276824         0.256768        0.163017
                       -0.969134       -0.175969      0.000340859    -0.000231646       -0.0679159        0.128743     -8.39139e-05      0.00022025
                     0.000185705     1.13203e-06         0.256252        0.163628     -0.000167067     0.000394338       -0.0809526        -0.92254
281746                 0.0198879         0.14434      0.000309342     0.000110541        -0.968987       -0.175525     -0.000143599     0.000139043
                     8.54634e-05     5.72033e-05         0.910226       -0.207883      0.000377478     -0.00027723         0.257224        0.163078
                       -0.969187       -0.175657       0.00034065    -0.000231821       -0.0678579        0.128796     -8.34313e-05     0.000220128
                     0.000186239     2.24164e-07         0.256708         0.16369     -0.000166422     0.000394515       -0.0818605       -0.922325
281748                 0.0199079        0.144358      0.000309269     0.000110608         -0.96904       -0.175213     -0.000143341     0.000138976
                     8.49573e-05     5.74364e-05         0.910003       -0.208257      0.000377191    -0.000277635         0.257679        0.163138
                        -0.96924       -0.175345      0.000340441    -0.000231995       -0.0677999        0.128849     -8.29486e-05     0.000220004
                     0.000186771    -6.85292e-07         0.257164        0.163751     -0.000165776     0.000394691       -0.0827679        -0.92211
281750                 0.0199279        0.144375      0.000309196     0.000110676        -0.969093       -0.174901     -0.000143084     0.000138909
                     8.44511e-05     5.76704e-05          0.90978        -0.20863      0.000376903     -0.00027804         0.258135        0.163198
                       -0.969292       -0.175033      0.000340232    -0.000232168       -0.0677418        0.128901     -8.24661e-05     0.000219879
                     0.000187303    -1.59634e-06         0.257619        0.163811      -0.00016513     0.000394866       -0.0836749       -0.921894
281752                 0.0199478        0.144392      0.000309123     0.000110744        -0.969146        -0.17459     -0.000142827     0.000138841
                     8.39449e-05     5.79054e-05         0.909557       -0.209003      0.000376614    -0.000278445          0.25859        0.163257
                       -0.969345       -0.174721      0.000340023    -0.000232341       -0.0676837        0.128954     -8.19835e-05     0.000219753
                     0.000187834    -2.50896e-06         0.258075        0.163871     -0.000164483     0.000395039       -0.0845814       -0.921677
281754                 0.0199678        0.144409       0.00030905     0.000110813        -0.969199       -0.174278      -0.00014257     0.000138772
                     8.34386e-05     5.81414e-05         0.909333       -0.209376      0.000376324    -0.000278849         0.259046        0.163315
                       -0.969398       -0.174409      0.000339813    -0.000232513       -0.0676255        0.129007     -8.15011e-05     0.000219626
                     0.000188364    -3.42317e-06         0.258532         0.16393     -0.000163836     0.000395211       -0.0854875       -0.921458
281756                 0.0199878        0.144426      0.000308977     0.000110883        -0.969251       -0.173966     -0.000142314     0.000138703
                     8.29323e-05     5.83784e-05         0.909109       -0.209748      0.000376034    -0.000279252         0.259502        0.163373
                        -0.96945       -0.174097      0.000339603    -0.000232684       -0.0675673         0.12906     -8.10187e-05     0.000219498
                     0.000188893    -4.33896e-06         0.258988        0.163988     -0.000163188     0.000395381       -0.0863931       -0.921239
281758                 0.0200077        0.144443      0.000308905     0.000110953        -0.969304       -0.173654     -0.000142057     0.000138633
                     8.24259e-05     5.86164e-05         0.908885        -0.21012      0.000375743    -0.000279655         0.259958         0.16343
                       -0.969503       -0.173785      0.000339392    -0.000232855       -0.0675091        0.129112     -8.05363e-05     0.000219369
                      0.00018942    -5.25632e-06         0.259444        0.164046      -0.00016254      0.00039555       -0.0872982       -0.921019
281760                 0.0200277         0.14446      0.000308832     0.000111023        -0.969356       -0.173342     -0.000141802     0.000138562
                     8.19195e-05     5.88554e-05         0.908661       -0.210492      0.000375451    -0.000280058         0.260414        0.163487
                       -0.969555       -0.173473      0.000339182    -0.000233024       -0.0674508        0.129165     -8.00541e-05     0.000219239
                     0.000189947    -6.17526e-06           0.2599        0.164103     -0.000161891     0.000395718       -0.0882029       -0.920797
281762                 0.0200477        0.144477      0.000308759     0.000111094        -0.969409        -0.17303     -0.000141547     0.000138491
                      8.1413e-05     5.90954e-05         0.908436       -0.210864      0.000375159     -0.00028046          0.26087        0.163543
                       -0.969607       -0.173161      0.000338971    -0.000233194       -0.0673925        0.129217     -7.95719e-05     0.000219108
