! TOUCHSTONE file generated by CST MICROWAVE STUDIO
! Date and time: Tue Oct 14 17:39:17 2025
! Project name: Teste_Macro_Metasurface_Nanopilar.cst
! Parameters = {H=600; L_x=180; L_y=190; Lambda=1064; Max_L=200; Min_L=70; PathPara=1; Phi=0; Step_L=10; Theta=0; p=520; phaseX=180; phaseY=0}
! Header version: 2018
! Port assignment regex: !\s*Touchstone port\s*([0-9]+)\s*=\s*(CST MWS port|CST DS port)\s*([0-9]+|Zmin|Zmax)\s*\(\"(.*)\"\)(\s*mode\s*([0-9]+))?.*
! Touchstone port assignment:
! Touchstone port 1 = CST MWS port Zmax ("") mode 1
! Touchstone port 2 = CST MWS port Zmax ("") mode 2
! Touchstone port 3 = CST MWS port Zmin ("") mode 1
! Touchstone port 4 = CST MWS port Zmin ("") mode 2
! S-Parameters are not renormalized. Each port impedance will be approximated by the real part at minimum frequency. The values are described via the [Reference] keyword.
! Default impedance is overridden by [Reference]
[Version] 2.0
# GHz S RI R 376.73
[Number of Ports] 4
[Reference]
376.73 376.73 259.814 259.814 
[Number of Frequencies] 51
[Network Data]
281700                  0.386522        0.730402     -0.000411689    -1.98017e-05         0.280699       -0.331275      0.000223208    -0.000234977
                    -0.000355208    -5.98045e-05         0.317345        0.161542     -1.25848e-06     9.99176e-05         0.240301        -0.89924
                        0.280149       -0.331502     -8.15575e-07     0.000133025         0.639451        0.512878     -2.46351e-05    -0.000106262
                     0.000344199    -0.000249026          0.24057       -0.899093      -2.5883e-05    -2.53407e-05         0.354119       0.0181626
281702                  0.387432        0.729388     -0.000412468    -2.06659e-05         0.281269       -0.332492      0.000225791    -0.000241174
                    -0.000354542      -6.008e-05         0.317356        0.161521     -9.12399e-06     9.00063e-05         0.240038       -0.899312
                        0.280715       -0.332742     -4.92576e-07     0.000134606         0.640158        0.511273     -1.72428e-05    -9.27024e-05
                     0.000343998    -0.000248791         0.240308       -0.899175      2.40678e-05     2.58273e-05         0.354129       0.0179786
281704                  0.388337        0.728374     -0.000413287    -2.19779e-05         0.281833        -0.33371      0.000227916    -0.000246055
                    -0.000353878    -6.03111e-05         0.317368        0.161501     -2.04637e-05     8.17191e-05         0.239775       -0.899383
                        0.281276        -0.33398     -2.20606e-07     0.000136349         0.640858        0.509668     -1.88145e-05    -8.32088e-05
                     0.000343599    -0.000248565         0.240046       -0.899259       0.00011859    -9.51298e-05         0.354139       0.0177946
281706                  0.389236        0.727361     -0.000414015    -2.38377e-05         0.282391       -0.334929      0.000229633    -0.000249924
                    -0.000353225    -6.04938e-05         0.317379         0.16148     -3.48779e-05     7.80011e-05         0.239512       -0.899455
                         0.28183       -0.335217     -2.47163e-08     0.000138273         0.641551        0.508064     -2.19924e-05    -7.84203e-05
                     0.000343038    -0.000248429         0.239786       -0.899343      3.75294e-05    -0.000130204         0.354149       0.0176106
281708                  0.390131        0.726349     -0.000414444    -2.63069e-05         0.282942       -0.336148      0.000230993    -0.000253001
                    -0.000352596    -6.06274e-05         0.317391         0.16146     -4.89098e-05     8.12739e-05         0.239249       -0.899526
                        0.282379       -0.336451      6.22836e-08     0.000140395         0.642238        0.506462      -2.4714e-05    -7.60887e-05
                     0.000342381    -0.000248427         0.239527       -0.899427       1.0827e-05    -0.000120561         0.354159       0.0174266
281710                   0.39102        0.725337     -0.000414296    -2.93505e-05         0.283486       -0.337368       0.00023204    -0.000255447
                    -0.000352005    -6.07153e-05         0.317402        0.161439     -5.77252e-05     8.99539e-05         0.238986       -0.899597
                        0.282923       -0.337683     -1.97176e-09      0.00014273         0.642918        0.504861     -2.67688e-05    -7.49415e-05
                     0.000341694     -0.00024856         0.239269       -0.899511      1.96659e-07    -0.000113215         0.354169       0.0172426
281712                  0.391904        0.724326     -0.000413281    -3.27737e-05         0.284024       -0.338589      0.000232818    -0.000257385
                    -0.000351465    -6.07659e-05         0.317414        0.161419     -5.98666e-05     9.92673e-05         0.238723       -0.899667
                        0.283461       -0.338914     -2.71181e-07     0.000145286         0.643591        0.503261     -2.82823e-05    -7.43881e-05
                     0.000341023    -0.000248803         0.239014       -0.899596     -5.26266e-06    -0.000108306         0.354179       0.0170586
281714                  0.392782        0.723316     -0.000411211     -3.6207e-05         0.284555        -0.33981      0.000233363    -0.000258909
                    -0.000350987     -6.0793e-05         0.317426        0.161399     -5.76195e-05     0.000105931          0.23846       -0.899738
                        0.283993       -0.340142     -8.11716e-07     0.000148064         0.644258        0.501662     -2.93941e-05     -7.4149e-05
                     0.000340391    -0.000249128         0.238761        -0.89968     -8.53902e-06    -0.000104863         0.354188       0.0168746
281716                  0.393656        0.722307     -0.000408122    -3.91913e-05          0.28508       -0.341031      0.000233704     -0.00026009
                    -0.000350577    -6.08138e-05         0.317438        0.161379      -5.3682e-05     0.000109464         0.238197       -0.899808
                        0.284519       -0.341369     -1.70277e-06     0.000151047         0.644919        0.500064     -3.02096e-05    -7.40835e-05
                     0.000339805    -0.000249505          0.23851       -0.899764     -1.07141e-05    -0.000102318         0.354198       0.0166906
281718                  0.394524        0.721298     -0.000404299    -4.13464e-05         0.285599       -0.342253       0.00023387    -0.000260987
                    -0.000350234     -6.0847e-05         0.317449        0.161359     -4.95878e-05     0.000110632         0.237934       -0.899878
                         0.28504       -0.342594     -3.03409e-06     0.000154195         0.645573        0.498468      -3.0803e-05    -7.41159e-05
                     0.000339265    -0.000249914         0.238262       -0.899846     -1.22626e-05    -0.000100351         0.354207       0.0165067
281720                  0.395387         0.72029     -0.000400165      -4.251e-05         0.286111       -0.343474      0.000233882    -0.000261644
                     -0.00034995    -6.09094e-05         0.317461        0.161339     -4.59267e-05     0.000110288         0.237672       -0.899948
                        0.285555       -0.343817     -4.89961e-06     0.000157432          0.64622        0.496873     -3.12256e-05    -7.42023e-05
                     0.000338765    -0.000250342         0.238016       -0.899926     -1.34229e-05    -9.87771e-05         0.354217       0.0163227
281722                  0.396245        0.719283     -0.000396116    -4.27521e-05         0.286617       -0.344695       0.00023376    -0.000262097
                    -0.000349714    -6.10139e-05         0.317473        0.161319     -4.28316e-05     0.000109051         0.237409       -0.900017
                        0.286064       -0.345038     -7.38519e-06     0.000160644         0.646861         0.49528      -3.1513e-05    -7.43158e-05
                       0.0003383    -0.000250778         0.237772       -0.900003     -1.43267e-05    -9.74802e-05         0.354226       0.0161388
281724                  0.397097        0.718276     -0.000392413    -4.22828e-05         0.287117       -0.345917      0.000233521    -0.000262376
                    -0.000349511     -6.1168e-05         0.317484        0.161299      -4.0265e-05     0.000107309         0.237146       -0.900087
                        0.286568       -0.346257     -1.05495e-05      0.00016367         0.647496        0.493688     -3.16904e-05    -7.44383e-05
                     0.000337864    -0.000251217         0.237531       -0.900077     -1.50525e-05    -9.63865e-05         0.354235       0.0159548
281726                  0.397944        0.717271      -0.00038917    -4.13433e-05         0.287611       -0.347137      0.000233178    -0.000262506
                    -0.000349325    -6.13739e-05         0.317496        0.161279     -3.81426e-05     0.000105298         0.236884       -0.900156
                        0.287066       -0.347474     -1.43993e-05     0.000166307         0.648124        0.492098     -3.17751e-05    -7.45564e-05
                     0.000337453    -0.000251655          0.23729       -0.900146     -1.56497e-05    -9.54458e-05         0.354244       0.0157709
281728                  0.398786        0.716266     -0.000386393     -4.0139e-05         0.288099       -0.348358      0.000232745    -0.000262505
                    -0.000349145    -6.16294e-05         0.317508         0.16126      -3.6379e-05     0.000103158         0.236621       -0.900225
                        0.287558        -0.34869     -1.88653e-05     0.000168337         0.648746        0.490509      -3.1779e-05    -7.46592e-05
                     0.000337062     -0.00025209         0.237049       -0.900212      -1.6151e-05    -9.46235e-05         0.354253        0.015587
281730                  0.399623        0.715262     -0.000384033    -3.88174e-05          0.28858       -0.349578      0.000232232     -0.00026239
                     -0.00034896    -6.19297e-05         0.317519         0.16124     -3.49012e-05     0.000100972         0.236359       -0.900294
                        0.288044       -0.349904     -2.37879e-05     0.000169555         0.649361        0.488922     -3.17099e-05    -7.47364e-05
                     0.000336689     -0.00025252         0.236807       -0.900272     -1.65788e-05    -9.38945e-05         0.354262       0.0154031
281732                  0.400454        0.714259     -0.000382023    -3.74728e-05         0.289056       -0.350797      0.000231648    -0.000262175
                    -0.000348762    -6.22686e-05         0.317531         0.16122     -3.36505e-05     9.87897e-05         0.236096       -0.900362
                        0.288525       -0.351116     -2.89251e-05     0.000169819         0.649971        0.487337     -3.15715e-05    -7.47774e-05
                     0.000336331    -0.000252945         0.236562       -0.900329     -1.69489e-05    -9.32409e-05         0.354271       0.0152192
281734                   0.40128        0.713256     -0.000380294      -3.616e-05         0.289526       -0.352016      0.000231001     -0.00026187
                    -0.000348548    -6.26396e-05         0.317543          0.1612     -3.25813e-05     9.66407e-05         0.235834        -0.90043
                           0.289       -0.352326     -3.39864e-05     0.000169089         0.650574        0.485753     -3.13646e-05      -7.477e-05
                     0.000335987    -0.000253364         0.236314       -0.900383     -1.72727e-05    -9.26487e-05          0.35428       0.0150353
281736                  0.402101        0.712255     -0.000378786     -3.4907e-05          0.28999       -0.353233      0.000230297    -0.000261485
                    -0.000348314    -6.30367e-05         0.317554         0.16118     -3.16579e-05     9.45418e-05         0.235572       -0.900498
                        0.289469       -0.353535     -3.86854e-05     0.000167438          0.65117        0.484172     -3.10858e-05    -7.46992e-05
                     0.000335655    -0.000253777         0.236063       -0.900434     -1.75588e-05    -9.21078e-05         0.354289       0.0148514
281738                  0.402917        0.711254     -0.000377452    -3.37254e-05         0.290448        -0.35445      0.000229542    -0.000261027
                     -0.00034806    -6.34548e-05         0.317566        0.161161     -3.08532e-05     9.25022e-05          0.23531       -0.900566
                        0.289932       -0.354741     -4.27927e-05     0.000165038         0.651761        0.482592     -3.07276e-05    -7.45455e-05
                     0.000335334    -0.000254184         0.235808       -0.900484     -1.78136e-05    -9.16101e-05         0.354297       0.0146676
281740                  0.403728        0.710254     -0.000376252     -3.2617e-05           0.2909       -0.355666      0.000228741    -0.000260502
                    -0.000347786    -6.38899e-05         0.317577        0.161141      -3.0146e-05     9.05265e-05         0.235048       -0.900634
                         0.29039       -0.355946     -4.61682e-05     0.000162118         0.652345        0.481014     -3.02759e-05    -7.42819e-05
                     0.000335026    -0.000254583         0.235548       -0.900534     -1.80418e-05    -9.11494e-05         0.354306       0.0144837
281742                  0.404533        0.709255     -0.000375159    -3.15783e-05         0.291347        -0.35688      0.000227898    -0.000259914
                    -0.000347492     -6.4339e-05         0.317589        0.161121       -2.952e-05     8.86163e-05         0.234786       -0.900701
                        0.290841       -0.357148     -4.87673e-05     0.000158916         0.652923        0.479438     -2.97073e-05      -7.387e-05
                      0.00033473    -0.000254976         0.235286       -0.900585     -1.82473e-05    -9.07209e-05         0.354314       0.0142999
281744                  0.405334        0.708257     -0.000374148    -3.06026e-05         0.291788       -0.358094      0.000227016    -0.000259267
                    -0.000347178    -6.48004e-05         0.317601        0.161101     -2.89628e-05     8.67716e-05         0.234524       -0.900768
                        0.291287       -0.358349     -5.06232e-05     0.000155641         0.653495        0.477865     -2.89823e-05    -7.32526e-05
                     0.000334446    -0.000255361          0.23502       -0.900637     -1.84328e-05    -9.03209e-05         0.354323       0.0141162
281746                  0.406129        0.707261     -0.000373204    -2.96819e-05         0.292223       -0.359306        0.0002261    -0.000258561
                    -0.000346846    -6.52733e-05         0.317612        0.161082     -2.84649e-05     8.49909e-05         0.234263       -0.900835
                        0.291727       -0.359548     -5.18193e-05     0.000152455          0.65406        0.476293     -2.80325e-05    -7.23394e-05
                     0.000334178    -0.000255736         0.234752        -0.90069     -1.86005e-05    -8.99464e-05         0.354331       0.0139325
281748                  0.406919        0.706265     -0.000372315    -2.88075e-05         0.292653       -0.360516       0.00022515    -0.000257798
                    -0.000346496    -6.57582e-05         0.317624        0.161062     -2.80195e-05     8.32722e-05         0.234002       -0.900902
                        0.292161       -0.360744     -5.24612e-05     0.000149468         0.654619        0.474724     -2.67317e-05    -7.09803e-05
                     0.000333928      -0.0002561         0.234482       -0.900745     -1.87519e-05    -8.95956e-05         0.354339       0.0137488
281750                  0.407705        0.705271     -0.000371472    -2.79699e-05         0.293078       -0.361725      0.000224168    -0.000256976
                    -0.000346127    -6.62568e-05         0.317635        0.161042     -2.76216e-05     8.16129e-05         0.233741       -0.900969
                        0.292588       -0.361939     -5.26569e-05     0.000146741         0.655173        0.473157     -2.48253e-05    -6.89067e-05
                     0.000333698    -0.000256451         0.234211       -0.900802      -1.8888e-05    -8.92669e-05         0.354347       0.0135652
281752                  0.408486        0.704278      -0.00037067    -2.71594e-05         0.293498       -0.362933      0.000223156     -0.00025609
                    -0.000345739    -6.67724e-05         0.317647        0.161023     -2.72685e-05     8.00102e-05          0.23348       -0.901036
                        0.293009       -0.363131     -5.25031e-05     0.000144305          0.65572        0.471593      -2.1723e-05    -6.55914e-05
                     0.000333496    -0.000256784          0.23394       -0.900861     -1.90092e-05    -8.89599e-05         0.354355       0.0133817
281754                  0.409263        0.703287     -0.000369906    -2.63651e-05         0.293912       -0.364138      0.000222114    -0.000255135
                    -0.000345329    -6.73104e-05         0.317658        0.161003     -2.69597e-05     7.84609e-05         0.233219       -0.901103
                        0.293424        -0.36432     -5.20798e-05      0.00014216          0.65626        0.470031     -1.57421e-05    -5.98898e-05
                     0.000333329    -0.000257092         0.233667       -0.900921     -1.91153e-05    -8.86749e-05         0.354363       0.0131984
281756                  0.410037        0.702299     -0.000369183    -2.55751e-05         0.294321       -0.365342      0.000221044    -0.000254101
                    -0.000344891    -6.78798e-05          0.31767        0.160983      -2.6697e-05     7.69619e-05         0.232959        -0.90117
                         0.29383       -0.365505     -5.14479e-05     0.000140296         0.656795        0.468472     -1.44757e-07    -4.93751e-05
                      0.00033321    -0.000257362         0.233395       -0.900984     -1.92053e-05    -8.84133e-05         0.354371       0.0130153
281758                  0.410809        0.701315     -0.000368506     -2.4775e-05         0.294725       -0.366544      0.000219946    -0.000252971
                    -0.000344416    -6.84948e-05         0.317681        0.160964     -2.64861e-05     7.55096e-05         0.232698       -0.901237
                        0.294228       -0.366688     -5.06494e-05     0.000138689         0.657324        0.466917      6.71453e-05    -5.11831e-05
                     0.000333157    -0.000257574         0.233122       -0.901047     -1.92769e-05    -8.81781e-05          0.35438       0.0128324
281760                  0.411583        0.700341     -0.000367889    -2.39471e-05         0.295124       -0.367743      0.000218822    -0.000251723
                    -0.000343883    -6.91792e-05         0.317693        0.160944     -2.63378e-05     7.41005e-05         0.232438       -0.901304
                        0.294615       -0.367866     -4.97085e-05     0.000137312         0.657847        0.465364      6.09674e-06    -0.000176231
                       0.0003332    -0.000257683          0.23285       -0.901112     -1.93263e-05    -8.79751e-05         0.354389       0.0126493
281762                  0.412375        0.699391     -0.000367357    -2.30693e-05         0.295519        -0.36894      0.000217676    -0.000250321
                    -0.000343249    -6.99746e-05         0.317704        0.160925     -2.62728e-05     7.27307e-05         0.232177       -0.901371
                        0.294986       -0.369041      -4.8632e-05     0.000136128         0.658365        0.463815     -3.40944e-05    -0.000131334
