! TOUCHSTONE file generated by CST MICROWAVE STUDIO
! Date and time: Tue Oct 14 17:38:18 2025
! Project name: Teste_Macro_Metasurface_Nanopilar.cst
! Parameters = {H=600; L_x=100; L_y=160; Lambda=1064; Max_L=200; Min_L=70; PathPara=1; Phi=0; Step_L=10; Theta=0; p=520; phaseX=180; phaseY=0}
! Header version: 2018
! Port assignment regex: !\s*Touchstone port\s*([0-9]+)\s*=\s*(CST MWS port|CST DS port)\s*([0-9]+|Zmin|Zmax)\s*\(\"(.*)\"\)(\s*mode\s*([0-9]+))?.*
! Touchstone port assignment:
! Touchstone port 1 = CST MWS port Zmax ("") mode 1
! Touchstone port 2 = CST MWS port Zmax ("") mode 2
! Touchstone port 3 = CST MWS port Zmin ("") mode 1
! Touchstone port 4 = CST MWS port Zmin ("") mode 2
! S-Parameters are not renormalized. Each port impedance will be approximated by the real part at minimum frequency. The values are described via the [Reference] keyword.
! Default impedance is overridden by [Reference]
[Version] 2.0
# GHz S RI R 376.73
[Number of Ports] 4
[Reference]
376.73 376.73 259.814 259.814 
[Number of Frequencies] 51
[Network Data]
281700                 0.0990966        0.198519     -0.000343341     0.000303409           0.9248       -0.293098      3.65469e-06    -0.000233643
                    -0.000309443     0.000292209         0.130122        0.119747      9.91479e-05     0.000223098        -0.937396        0.277462
                        0.924757       -0.293249      0.000164086     0.000256429          0.03478        0.218082     -0.000321176    -5.76888e-05
                    -7.10836e-06    -0.000180454        -0.937395        0.276759     -0.000367681    -5.61862e-05       -0.0428141        0.170946
281702                 0.0991193        0.198542     -0.000343274     0.000303396         0.924696       -0.293403      3.62336e-06    -0.000233681
                    -0.000309355     0.000292186         0.130146         0.11974      9.92634e-05     0.000223067        -0.937293          0.2778
                        0.924653       -0.293554      0.000164298      0.00025636        0.0349199         0.21809     -0.000321182    -5.74738e-05
                    -7.13158e-06     -0.00018053        -0.937293        0.277097     -0.000367616    -5.59602e-05       -0.0427151        0.170984
281704                 0.0991419        0.198565     -0.000343207     0.000303384         0.924592       -0.293708      3.59204e-06    -0.000233719
                    -0.000309267     0.000292163          0.13017        0.119732      9.93792e-05     0.000223036         -0.93719        0.278138
                        0.924548       -0.293858       0.00016451     0.000256292        0.0350597        0.218098     -0.000321188    -5.72587e-05
                    -7.15481e-06    -0.000180606         -0.93719        0.277435     -0.000367552    -5.57343e-05       -0.0426162        0.171021
281706                 0.0991645        0.198587     -0.000343141     0.000303371         0.924488       -0.294014      3.56073e-06    -0.000233757
                    -0.000309179      0.00029214         0.130195        0.119724      9.94952e-05     0.000223004        -0.937087        0.278476
                        0.924444       -0.294163      0.000164722     0.000256223        0.0351997        0.218106     -0.000321194    -5.70436e-05
                    -7.17806e-06    -0.000180682        -0.937087        0.277773     -0.000367488    -5.55086e-05       -0.0425172        0.171059
281708                 0.0991872         0.19861     -0.000343074     0.000303358         0.924384       -0.294319      3.52943e-06    -0.000233795
                    -0.000309091     0.000292117         0.130219        0.119716      9.96114e-05     0.000222972        -0.936984        0.278815
                        0.924339       -0.294468      0.000164934     0.000256155        0.0353396        0.218114       -0.0003212    -5.68284e-05
                    -7.20132e-06    -0.000180759        -0.936984        0.278111     -0.000367424    -5.52831e-05       -0.0424181        0.171096
281710                 0.0992099        0.198633     -0.000343008     0.000303346         0.924279       -0.294624      3.49815e-06    -0.000233833
                    -0.000309003     0.000292094         0.130243        0.119708      9.97279e-05      0.00022294         -0.93688        0.279153
                        0.924235       -0.294773      0.000165145     0.000256085        0.0354796        0.218121     -0.000321206    -5.66131e-05
                     -7.2246e-06    -0.000180836         -0.93688        0.278448     -0.000367359    -5.50577e-05        -0.042319        0.171134
281712                 0.0992325        0.198655     -0.000342941     0.000303333         0.924175       -0.294929      3.46687e-06    -0.000233871
                    -0.000308916      0.00029207         0.130267          0.1197      9.98446e-05     0.000222908        -0.936776        0.279491
                         0.92413       -0.295077      0.000165357     0.000256016        0.0356195        0.218129     -0.000321212    -5.63978e-05
                     -7.2479e-06    -0.000180914        -0.936777        0.278786     -0.000367295    -5.48323e-05       -0.0422199        0.171171
281714                 0.0992552        0.198678     -0.000342874      0.00030332          0.92407       -0.295234       3.4356e-06     -0.00023391
                    -0.000308828     0.000292047         0.130292        0.119693      9.99615e-05     0.000222875        -0.936673        0.279829
                        0.924025       -0.295382      0.000165569     0.000255947        0.0357596        0.218136     -0.000321218    -5.61824e-05
                    -7.27122e-06    -0.000180992        -0.936674        0.279124     -0.000367231    -5.46071e-05       -0.0421208        0.171208
281716                 0.0992779        0.198701     -0.000342808     0.000303307         0.923965       -0.295539      3.40435e-06    -0.000233948
                     -0.00030874     0.000292024         0.130316        0.119685      0.000100079     0.000222843        -0.936569        0.280167
                         0.92392       -0.295686       0.00016578     0.000255877        0.0358996        0.218144     -0.000321224    -5.59669e-05
                    -7.29455e-06     -0.00018107         -0.93657        0.279462     -0.000367167    -5.43819e-05       -0.0420216        0.171245
281718                 0.0993005        0.198723     -0.000342741     0.000303295          0.92386       -0.295844       3.3731e-06    -0.000233987
                    -0.000308652        0.000292          0.13034        0.119677      0.000100196      0.00022281        -0.936465        0.280505
                        0.923815       -0.295991      0.000165992     0.000255807        0.0360397        0.218151      -0.00032123    -5.57514e-05
                     -7.3179e-06    -0.000181148        -0.936466          0.2798     -0.000367103    -5.41568e-05       -0.0419224        0.171283
281720                 0.0993232        0.198746     -0.000342675     0.000303282         0.923755       -0.296149      3.34187e-06    -0.000234025
                    -0.000308564     0.000291977         0.130364        0.119669      0.000100314     0.000222777         -0.93636        0.280844
                         0.92371       -0.296295      0.000166204     0.000255737        0.0361798        0.218158     -0.000321236    -5.55357e-05
                    -7.34126e-06    -0.000181227        -0.936362        0.280137     -0.000367039    -5.39318e-05       -0.0418232         0.17132
281722                 0.0993459        0.198769     -0.000342609     0.000303269          0.92365       -0.296453      3.31064e-06    -0.000234064
                    -0.000308476     0.000291953         0.130389        0.119661      0.000100432     0.000222744        -0.936256        0.281182
                        0.923605         -0.2966      0.000166415     0.000255666        0.0363199        0.218165     -0.000321242    -5.53201e-05
                    -7.36464e-06    -0.000181305        -0.936259        0.280475     -0.000366975    -5.37068e-05       -0.0417239        0.171357
281724                 0.0993686        0.198791     -0.000342542     0.000303256         0.923545       -0.296758      3.27942e-06    -0.000234103
                    -0.000308388     0.000291929         0.130413        0.119653       0.00010055     0.000222711        -0.936152         0.28152
                        0.923499       -0.296904      0.000166627     0.000255596          0.03646        0.218173     -0.000321247    -5.51043e-05
                    -7.38803e-06    -0.000181385        -0.936154        0.280813     -0.000366911    -5.34819e-05       -0.0416247        0.171394
281726                 0.0993913        0.198814     -0.000342476     0.000303243          0.92344       -0.297063      3.24821e-06    -0.000234142
                      -0.0003083     0.000291906         0.130437        0.119645      0.000100668     0.000222678        -0.936047        0.281858
                        0.923394       -0.297209      0.000166838     0.000255525        0.0366002         0.21818     -0.000321253    -5.48885e-05
                    -7.41143e-06    -0.000181464         -0.93605         0.28115     -0.000366847     -5.3257e-05       -0.0415253        0.171431
281728                  0.099414        0.198837     -0.000342409      0.00030323         0.923334       -0.297368        3.217e-06     -0.00023418
                    -0.000308212     0.000291882         0.130461        0.119637      0.000100786     0.000222645        -0.935943        0.282195
                        0.923288       -0.297513       0.00016705     0.000255454        0.0367404        0.218186     -0.000321259    -5.46726e-05
                    -7.43484e-06    -0.000181544        -0.935946        0.281488     -0.000366783    -5.30321e-05        -0.041426        0.171467
281730                 0.0994367        0.198859     -0.000342343     0.000303217         0.923229       -0.297672      3.18581e-06    -0.000234219
                    -0.000308125     0.000291858         0.130486        0.119629      0.000100905     0.000222611        -0.935838        0.282533
                        0.923182       -0.297817      0.000167261     0.000255382        0.0368806        0.218193     -0.000321265    -5.44567e-05
                    -7.45823e-06    -0.000181624        -0.935841        0.281826     -0.000366718    -5.28072e-05       -0.0413266        0.171504
281732                 0.0994594        0.198882     -0.000342277     0.000303204         0.923123       -0.297977      3.15461e-06    -0.000234258
                    -0.000308037     0.000291834          0.13051        0.119621      0.000101024     0.000222578        -0.935733        0.282871
                        0.923076       -0.298121      0.000167472     0.000255311        0.0370209          0.2182      -0.00032127    -5.42406e-05
                    -7.48156e-06    -0.000181704        -0.935737        0.282163     -0.000366654    -5.25824e-05       -0.0412272        0.171541
281734                 0.0994821        0.198905     -0.000342211      0.00030319         0.923017       -0.298282      3.12342e-06    -0.000234297
                     -0.00030795      0.00029181         0.130534        0.119613      0.000101143     0.000222545        -0.935628        0.283209
                        0.922971       -0.298426      0.000167684     0.000255239        0.0371612        0.218207     -0.000321276    -5.40245e-05
                    -7.50463e-06    -0.000181784        -0.935632        0.282501      -0.00036659    -5.23576e-05       -0.0411277        0.171578
281736                 0.0995048        0.198927     -0.000342144     0.000303177         0.922912       -0.298586      3.09224e-06    -0.000234336
                    -0.000307867     0.000291786         0.130558        0.119605      0.000101262     0.000222512        -0.935523        0.283547
                        0.922865        -0.29873      0.000167895     0.000255167        0.0373015        0.218213     -0.000321281    -5.38084e-05
                    -7.52527e-06    -0.000181861        -0.935527        0.282838     -0.000366526    -5.21328e-05       -0.0410282        0.171614
281738                 0.0995275         0.19895     -0.000342078     0.000303164         0.922806       -0.298891      3.06105e-06    -0.000234375
                    -0.000307767     0.000291761         0.130583        0.119598      0.000101381     0.000222478        -0.935417        0.283885
                        0.922758       -0.299034      0.000168106     0.000255095        0.0374418         0.21822     -0.000321287    -5.35921e-05
                    -7.55003e-06    -0.000181958        -0.935422        0.283176     -0.000366461     -5.1908e-05       -0.0409287        0.171651
281740                 0.0995502        0.198973     -0.000342012     0.000303151           0.9227       -0.299196      3.02987e-06    -0.000234414
                    -0.000307682     0.000291738         0.130607         0.11959      0.000101501     0.000222445        -0.935312        0.284222
                        0.922652       -0.299338      0.000168318     0.000255022        0.0375822        0.218226     -0.000321292    -5.33758e-05
                    -7.57633e-06    -0.000182034        -0.935317        0.283513     -0.000366397    -5.16833e-05       -0.0408292        0.171687
281742                  0.099573        0.198996     -0.000341946     0.000303137         0.922594         -0.2995      2.99869e-06    -0.000234453
                    -0.000307594     0.000291713         0.130631        0.119582      0.000101621     0.000222412        -0.935207         0.28456
                        0.922546       -0.299642      0.000168529      0.00025495        0.0377226        0.218232     -0.000321297    -5.31594e-05
                    -7.59997e-06    -0.000182115        -0.935212        0.283851     -0.000366333    -5.14585e-05       -0.0407296        0.171724
281744                 0.0995957        0.199018      -0.00034188     0.000303124         0.922487       -0.299804      2.96751e-06    -0.000234493
                    -0.000307507     0.000291689         0.130655        0.119574      0.000101741     0.000222378        -0.935101        0.284898
                        0.922439       -0.299946       0.00016874     0.000254877         0.037863        0.218239     -0.000321303    -5.29429e-05
                    -7.62356e-06    -0.000182197        -0.935107        0.284188     -0.000366269    -5.12338e-05         -0.04063         0.17176
281746                 0.0996184        0.199041     -0.000341814      0.00030311         0.922381       -0.300109      2.93633e-06    -0.000234532
                    -0.000307419     0.000291665          0.13068        0.119566      0.000101862     0.000222345        -0.934995        0.285236
                        0.922333        -0.30025      0.000168951     0.000254804        0.0380034        0.218245     -0.000321308    -5.27264e-05
                    -7.64716e-06    -0.000182279        -0.935001        0.284525     -0.000366205     -5.1009e-05       -0.0405304        0.171796
281748                 0.0996412        0.199064     -0.000341748     0.000303097         0.922275       -0.300413      2.90515e-06    -0.000234571
                    -0.000307331      0.00029164         0.130704        0.119558      0.000101985     0.000222312        -0.934889        0.285573
                        0.922226       -0.300554      0.000169162     0.000254731        0.0381439        0.218251     -0.000321313    -5.25098e-05
                    -7.67079e-06    -0.000182362        -0.934896        0.284863     -0.000366143    -5.07838e-05       -0.0404307        0.171833
281750                 0.0996639        0.199087     -0.000341682     0.000303083         0.922168       -0.300718      2.87396e-06     -0.00023461
                    -0.000307243     0.000291616         0.130728         0.11955      0.000102112     0.000222282        -0.934783        0.285911
                        0.922119       -0.300858      0.000169373     0.000254657        0.0382844        0.218257     -0.000321318    -5.22931e-05
                    -7.69445e-06    -0.000182445         -0.93479          0.2852     -0.000366088    -5.05537e-05        -0.040331        0.171869
281752                 0.0996867        0.199109     -0.000341616     0.000303069         0.922061       -0.301022      2.84277e-06    -0.000234649
                    -0.000307155     0.000291591         0.130752        0.119542      0.000102228     0.000222281        -0.934677        0.286248
                        0.922012       -0.301162      0.000169584     0.000254584        0.0384249        0.218263     -0.000321323    -5.20763e-05
                    -7.71813e-06    -0.000182528        -0.934684        0.285537     -0.000365993    -5.02982e-05       -0.0402313        0.171905
281754                 0.0997094        0.199132      -0.00034155     0.000303056         0.921955       -0.301326      2.81158e-06    -0.000234689
                    -0.000307066     0.000291567         0.130777        0.119534      0.000102321     0.000222227        -0.934571        0.286586
                        0.921905       -0.301466      0.000169795      0.00025451        0.0385654        0.218268     -0.000321328    -5.18594e-05
                    -7.74183e-06    -0.000182612        -0.934578        0.285874     -0.000365925    -5.01015e-05       -0.0401315        0.171941
281756                 0.0997322        0.199155     -0.000341484     0.000303042         0.921848       -0.301631      2.78039e-06    -0.000234728
                    -0.000306978     0.000291542         0.130801        0.119526      0.000102445     0.000222185        -0.934465        0.286923
                        0.921798        -0.30177      0.000170006     0.000254436         0.038706        0.218274     -0.000321333    -5.16425e-05
                    -7.76556e-06    -0.000182696        -0.934472        0.286212     -0.000365863     -4.9881e-05       -0.0400317        0.171977
281758                  0.099755        0.199178     -0.000341418     0.000303028         0.921741       -0.301935      2.74919e-06    -0.000234767
                     -0.00030689     0.000291517         0.130825        0.119518      0.000102566      0.00022215        -0.934358        0.287261
                        0.921691       -0.302074      0.000170217     0.000254363        0.0388466         0.21828     -0.000321337    -5.14255e-05
                    -7.78931e-06    -0.000182781        -0.934366        0.286549     -0.000365799    -4.96576e-05       -0.0399319        0.172013
281760                 0.0997777          0.1992     -0.000341353     0.000303013         0.921634       -0.302239      2.71799e-06    -0.000234807
                    -0.000306802     0.000291492         0.130849         0.11951      0.000102687     0.000222115        -0.934251        0.287598
                        0.921584       -0.302377      0.000170429      0.00025429        0.0389872        0.218285     -0.000321342    -5.12084e-05
                    -7.81308e-06    -0.000182866         -0.93426        0.286886     -0.000365733    -4.94336e-05        -0.039832        0.172049
281762                 0.0998005        0.199223     -0.000341286     0.000303003         0.921527       -0.302543      2.68678e-06    -0.000234846
                    -0.000306714     0.000291468         0.130874        0.119501      0.000102807     0.000222081        -0.934145        0.287936
                        0.921476       -0.302681      0.000170639     0.000254205        0.0391278        0.218291     -0.000321347    -5.09913e-05
