! TOUCHSTONE file generated by CST MICROWAVE STUDIO
! Date and time: Tue Oct 14 17:39:02 2025
! Project name: Teste_Macro_Metasurface_Nanopilar.cst
! Parameters = {H=600; L_x=160; L_y=180; Lambda=1064; Max_L=200; Min_L=70; PathPara=1; Phi=0; Step_L=10; Theta=0; p=520; phaseX=180; phaseY=0}
! Header version: 2018
! Port assignment regex: !\s*Touchstone port\s*([0-9]+)\s*=\s*(CST MWS port|CST DS port)\s*([0-9]+|Zmin|Zmax)\s*\(\"(.*)\"\)(\s*mode\s*([0-9]+))?.*
! Touchstone port assignment:
! Touchstone port 1 = CST MWS port Zmax ("") mode 1
! Touchstone port 2 = CST MWS port Zmax ("") mode 2
! Touchstone port 3 = CST MWS port Zmin ("") mode 1
! Touchstone port 4 = CST MWS port Zmin ("") mode 2
! S-Parameters are not renormalized. Each port impedance will be approximated by the real part at minimum frequency. The values are described via the [Reference] keyword.
! Default impedance is overridden by [Reference]
[Version] 2.0
# GHz S RI R 376.73
[Number of Ports] 4
[Reference]
376.73 376.73 259.814 259.814 
[Number of Frequencies] 51
[Network Data]
281700                   0.20322       0.0697642      1.19178e-05    -0.000280605         0.363431       -0.902738      0.000279347      9.3209e-05
                     1.00726e-05    -0.000303439         0.176701       0.0414541      0.000263121     0.000253209         0.544289       -0.814678
                        0.363726       -0.902651      0.000259142     0.000186526         0.193401       0.0882906     -0.000425298     0.000172554
                     0.000290616     0.000151985         0.544088        -0.81488     -0.000192837     0.000197746         0.105001          0.1453
281702                  0.203232        0.069769      1.17533e-05    -0.000280651         0.363171        -0.90284       0.00027942     9.31868e-05
                     9.92735e-06    -0.000303509         0.176704       0.0414579      0.000263334     0.000252986         0.544053       -0.814836
                        0.363465       -0.902753      0.000259175     0.000186649         0.193463       0.0881845     -0.000425257     0.000173019
                      0.00029079     0.000151939         0.543851       -0.815038     -0.000192889     0.000197898          0.10509        0.145241
281704                  0.203244       0.0697738      1.15889e-05    -0.000280697         0.362911       -0.902941      0.000279493      9.3164e-05
                     9.78224e-06    -0.000303578         0.176707       0.0414618      0.000263547     0.000252762         0.543816       -0.814993
                        0.363205       -0.902855      0.000259206     0.000186773         0.193526       0.0880784     -0.000425214     0.000173481
                     0.000290964     0.000151894         0.543615       -0.815196     -0.000192941     0.000198049         0.105179        0.145182
281706                  0.203256       0.0697787      1.14246e-05    -0.000280744          0.36265       -0.903043      0.000279566     9.31407e-05
                     9.63726e-06    -0.000303647          0.17671       0.0414656      0.000263759      0.00025254         0.543579        -0.81515
                        0.362945       -0.902956      0.000259236     0.000186897         0.193589       0.0879722      -0.00042517     0.000173942
                     0.000291137     0.000151848         0.543379       -0.815354     -0.000192991     0.000198201         0.105268        0.145122
281708                  0.203268       0.0697835      1.12604e-05     -0.00028079          0.36239       -0.903145      0.000279639      9.3117e-05
                     9.49243e-06    -0.000303715         0.176714       0.0414694      0.000263971     0.000252317         0.543343       -0.815307
                        0.362684       -0.903058      0.000259263     0.000187023         0.193652        0.087866     -0.000425126     0.000174402
                      0.00029131     0.000151802         0.543143       -0.815512     -0.000193041     0.000198351         0.105357        0.145063
281710                   0.20328       0.0697883      1.10963e-05    -0.000280836          0.36213       -0.903246      0.000279712     9.30928e-05
                     9.34773e-06    -0.000303784         0.176717       0.0414732      0.000264182     0.000252095         0.543106       -0.815464
                        0.362424       -0.903159      0.000259288     0.000187149         0.193715       0.0877597      -0.00042508      0.00017486
                     0.000291482     0.000151757         0.542906        -0.81567      -0.00019309     0.000198502         0.105446        0.145004
281712                  0.203292       0.0697931      1.09322e-05    -0.000280883          0.36187       -0.903348      0.000279786     9.30682e-05
                     9.20317e-06    -0.000303853          0.17672        0.041477      0.000264394     0.000251874         0.542869       -0.815621
                        0.362163        -0.90326      0.000259312     0.000187276         0.193777       0.0876534     -0.000425034     0.000175316
                     0.000291655     0.000151711          0.54267       -0.815828     -0.000193138     0.000198652         0.105535        0.144945
281714                  0.203304       0.0697979      1.07683e-05    -0.000280929         0.361609       -0.903449       0.00027986     9.30433e-05
                     9.05876e-06    -0.000303922         0.176723       0.0414808      0.000264604     0.000251653         0.542632       -0.815778
                        0.361903       -0.903362      0.000259333     0.000187405          0.19384       0.0875471     -0.000424986     0.000175771
                     0.000291827     0.000151665         0.542433       -0.815986     -0.000193186     0.000198801         0.105624        0.144885
281716                  0.203316       0.0698028      1.06044e-05    -0.000280976         0.361349       -0.903551      0.000279934     9.30181e-05
                     8.91449e-06    -0.000303991         0.176726       0.0414846      0.000264815     0.000251432         0.542395       -0.815934
                        0.361642       -0.903463      0.000259353     0.000187534         0.193902       0.0874407     -0.000424938     0.000176225
                     0.000291999     0.000151619         0.542197       -0.816144     -0.000193233     0.000198951         0.105713        0.144826
281718                  0.203328       0.0698076      1.04407e-05    -0.000281022         0.361088       -0.903652      0.000280008     9.29926e-05
                     8.77037e-06    -0.000304059         0.176729       0.0414884      0.000265025     0.000251211         0.542158       -0.816091
                        0.361382       -0.903564      0.000259371     0.000187664         0.193965       0.0873343     -0.000424889     0.000176677
                      0.00029217     0.000151573          0.54196       -0.816302     -0.000193279       0.0001991         0.105802        0.144766
281720                   0.20334       0.0698124       1.0277e-05    -0.000281069         0.360828       -0.903753      0.000280082     9.29669e-05
                     8.62638e-06    -0.000304128         0.176733       0.0414922      0.000265235     0.000250991         0.541921       -0.816248
                        0.361121       -0.903665      0.000259386     0.000187795         0.194027       0.0872278     -0.000424839     0.000177128
                     0.000292341     0.000151526         0.541724       -0.816459     -0.000193324     0.000199249         0.105891        0.144707
281722                  0.203352       0.0698172      1.01134e-05    -0.000281116         0.360568       -0.903854      0.000280157     9.29409e-05
                     8.48255e-06    -0.000304196         0.176736        0.041496      0.000265444     0.000250771         0.541684       -0.816404
                        0.360861       -0.903766        0.0002594     0.000187927         0.194089       0.0871213     -0.000424789     0.000177577
                     0.000292512      0.00015148         0.541487       -0.816617     -0.000193368     0.000199397         0.105979        0.144647
281724                  0.203364        0.069822      9.94992e-06    -0.000281163         0.360307       -0.903955      0.000280231     9.29146e-05
                     8.33886e-06    -0.000304265         0.176739       0.0414997      0.000265653     0.000250551         0.541447       -0.816561
                          0.3606       -0.903867      0.000259411      0.00018806         0.194152       0.0870148     -0.000424738     0.000178025
                     0.000292683     0.000151434          0.54125       -0.816775     -0.000193412     0.000199545         0.106068        0.144588
281726                  0.203376       0.0698267      9.78649e-06     -0.00028121         0.360047       -0.904056      0.000280306     9.28881e-05
                     8.19531e-06    -0.000304333         0.176742       0.0415035      0.000265862     0.000250332          0.54121       -0.816717
                        0.360339       -0.903968      0.000259421     0.000188194         0.194214       0.0869082     -0.000424686     0.000178472
                     0.000292853     0.000151387         0.541014       -0.816932     -0.000193455     0.000199693         0.106157        0.144528
281728                  0.203388       0.0698315      9.62316e-06    -0.000281257         0.359786       -0.904157      0.000280381     9.28615e-05
                     8.05191e-06    -0.000304402         0.176745       0.0415073       0.00026607     0.000250113         0.540973       -0.816874
                        0.360079       -0.904068      0.000259429     0.000188328         0.194276       0.0868016     -0.000424634     0.000178918
                     0.000293023     0.000151341         0.540777        -0.81709     -0.000193497      0.00019984         0.106245        0.144468
281730                    0.2034       0.0698363       9.4599e-06    -0.000281304         0.359525       -0.904258      0.000280455     9.28346e-05
                     7.90866e-06     -0.00030447         0.176749        0.041511      0.000266278     0.000249895         0.540736        -0.81703
                        0.359818       -0.904169      0.000259434     0.000188464         0.194338        0.086695     -0.000424581     0.000179362
                     0.000293193     0.000151294          0.54054       -0.817247     -0.000193539     0.000199987         0.106334        0.144408
281732                  0.203412       0.0698411      9.29672e-06    -0.000281351         0.359265       -0.904359       0.00028053     9.28075e-05
                     7.76556e-06    -0.000304538         0.176752       0.0415148      0.000266485     0.000249676         0.540498       -0.817186
                        0.359557       -0.904269      0.000259438     0.000188601           0.1944       0.0865883     -0.000424527     0.000179806
                     0.000293362     0.000151248         0.540303       -0.817404     -0.000193579     0.000200134         0.106422        0.144349
281734                  0.203424       0.0698459      9.13362e-06    -0.000281399         0.359004       -0.904459      0.000280605     9.27802e-05
                     7.62261e-06    -0.000304606         0.176755       0.0415185      0.000266693     0.000249459         0.540261       -0.817342
                        0.359297        -0.90437      0.000259439     0.000188738         0.194462       0.0864816     -0.000424473     0.000180248
                     0.000293531     0.000151201         0.540066       -0.817562     -0.000193619      0.00020028         0.106511        0.144289
281736                  0.203436       0.0698506      8.97061e-06    -0.000281446         0.358744        -0.90456       0.00028068     9.27528e-05
                     7.47981e-06    -0.000304675         0.176758       0.0415223      0.000266899     0.000249241         0.540024       -0.817498
                        0.359036        -0.90447      0.000259438     0.000188877         0.194524       0.0863748     -0.000424418     0.000180689
                       0.0002937     0.000151154         0.539829       -0.817719     -0.000193658     0.000200427         0.106599        0.144229
281738                  0.203448       0.0698554      8.80766e-06    -0.000281493         0.358483       -0.904661      0.000280755     9.27252e-05
                     7.33716e-06    -0.000304743         0.176761        0.041526      0.000267106     0.000249024         0.539786       -0.817654
                        0.358775       -0.904571      0.000259435     0.000189016         0.194586        0.086268     -0.000424363     0.000181128
                     0.000293868     0.000151108         0.539592       -0.817876     -0.000193696     0.000200572         0.106688        0.144169
281740                   0.20346       0.0698602       8.6448e-06    -0.000281541         0.358222       -0.904761      0.000280831     9.26973e-05
                     7.19465e-06    -0.000304811         0.176764       0.0415298      0.000267312     0.000248807         0.539549        -0.81781
                        0.358514       -0.904671       0.00025943     0.000189156         0.194647       0.0861611     -0.000424308     0.000181567
                     0.000294036     0.000151061         0.539355       -0.818033     -0.000193734     0.000200718         0.106776        0.144109
281742                  0.203472       0.0698649      8.48201e-06    -0.000281589         0.357961       -0.904862      0.000280906     9.26694e-05
                      7.0523e-06    -0.000304879         0.176768       0.0415335      0.000267518      0.00024859         0.539311       -0.817966
                        0.358253       -0.904771      0.000259423     0.000189298         0.194709       0.0860543     -0.000424252     0.000182004
                     0.000294204     0.000151014         0.539118        -0.81819      -0.00019377     0.000200863         0.106865        0.144049
281744                  0.203484       0.0698697       8.3193e-06    -0.000281636         0.357701       -0.904962      0.000280981     9.26412e-05
                      6.9101e-06    -0.000304947         0.176771       0.0415372      0.000267723     0.000248373         0.539074       -0.818122
                        0.357992       -0.904871      0.000259414      0.00018944         0.194771       0.0859473     -0.000424195      0.00018244
                     0.000294371     0.000150967         0.538881       -0.818347     -0.000193806     0.000201008         0.106953        0.143988
281746                  0.203496       0.0698745      8.15667e-06    -0.000281684          0.35744       -0.905062      0.000281057     9.26127e-05
                     6.76804e-06    -0.000305015         0.176774        0.041541      0.000267928     0.000248157         0.538836       -0.818278
                        0.357732       -0.904971      0.000259402     0.000189583         0.194832       0.0858404     -0.000424138     0.000182875
                     0.000294539      0.00015092         0.538643       -0.818504     -0.000193841     0.000201153         0.107041        0.143928
281748                  0.203508       0.0698792      7.99411e-06    -0.000281732         0.357179       -0.905162      0.000281132     9.25841e-05
                     6.62613e-06    -0.000305083         0.176777       0.0415447      0.000268133     0.000247942         0.538599       -0.818433
                        0.357471       -0.905071      0.000259388     0.000189727         0.194894       0.0857334      -0.00042408     0.000183309
                     0.000294706     0.000150873         0.538406        -0.81866     -0.000193875     0.000201297         0.107129        0.143868
281750                   0.20352        0.069884      7.83164e-06     -0.00028178         0.356918       -0.905262      0.000281208     9.25551e-05
                     6.48437e-06    -0.000305151          0.17678       0.0415484      0.000268337     0.000247726         0.538361       -0.818589
                         0.35721       -0.905171      0.000259372     0.000189872         0.194955       0.0856263     -0.000424021     0.000183741
                     0.000294872     0.000150826         0.538169       -0.818817     -0.000193908     0.000201441         0.107218        0.143808
281752                  0.203532       0.0698887      7.66927e-06    -0.000281828         0.356657       -0.905362      0.000281284     9.25256e-05
                     6.34273e-06    -0.000305219         0.176783       0.0415521      0.000268543     0.000247513         0.538123       -0.818744
                        0.356949       -0.905271      0.000259354     0.000190018         0.195017       0.0855193     -0.000423962     0.000184171
                     0.000295039     0.000150779         0.537931       -0.818974     -0.000193941     0.000201584         0.107306        0.143747
281754                  0.203544       0.0698934      7.50703e-06    -0.000281876         0.356397       -0.905462       0.00028136     9.24955e-05
                     6.20121e-06    -0.000305287         0.176787       0.0415558      0.000268745     0.000247295         0.537886         -0.8189
                        0.356688        -0.90537      0.000259334     0.000190165         0.195078       0.0854122     -0.000423901     0.000184598
                     0.000295205     0.000150732         0.537694       -0.819131     -0.000193972     0.000201728         0.107394        0.143687
281756                  0.203556       0.0698982      7.34514e-06    -0.000281926         0.356136       -0.905562      0.000281437     9.24641e-05
                     6.05972e-06    -0.000305354          0.17679       0.0415595      0.000268948     0.000247081         0.537648       -0.819055
                        0.356427        -0.90547      0.000259313     0.000190312         0.195139        0.085305     -0.000423838     0.000185021
                     0.000295371     0.000150684         0.537456       -0.819287     -0.000194003      0.00020187         0.107482        0.143626
281758                  0.203568       0.0699029      7.17924e-06    -0.000281971         0.355875       -0.905662      0.000281515     9.24298e-05
                       5.918e-06    -0.000305422         0.176793       0.0415632      0.000269151     0.000246866          0.53741        -0.81921
                        0.356166       -0.905569      0.000259278     0.000190459         0.195201       0.0851978     -0.000423769     0.000185435
                     0.000295537     0.000150637         0.537219       -0.819444     -0.000194033     0.000202013          0.10757        0.143566
281760                   0.20358       0.0699076      7.01932e-06     -0.00028202         0.355614       -0.905762      0.000281598     9.23849e-05
                     5.77276e-06    -0.000305489         0.176796       0.0415669      0.000269354     0.000246652         0.537172       -0.819366
                        0.355905       -0.905669      0.000259256     0.000190611         0.195262       0.0850906     -0.000423685     0.000185828
                     0.000295704     0.000150592         0.536981         -0.8196     -0.000194062     0.000202155         0.107658        0.143505
281762                  0.203592       0.0699124      6.85748e-06    -0.000282069         0.355353       -0.905861       0.00028188     9.20467e-05
                     5.63928e-06    -0.000305561         0.176799       0.0415706      0.000269556     0.000246438         0.536934       -0.819521
                        0.355643       -0.905768      0.000259227     0.000190762         0.195323       0.0849833     -0.000423454     0.000186123
