! TOUCHSTONE file generated by CST MICROWAVE STUDIO
! Date and time: Tue Oct 14 17:38:47 2025
! Project name: Teste_Macro_Metasurface_Nanopilar.cst
! Parameters = {H=600; L_x=140; L_y=160; Lambda=1064; Max_L=200; Min_L=70; PathPara=1; Phi=0; Step_L=10; Theta=0; p=520; phaseX=180; phaseY=0}
! Header version: 2018
! Port assignment regex: !\s*Touchstone port\s*([0-9]+)\s*=\s*(CST MWS port|CST DS port)\s*([0-9]+|Zmin|Zmax)\s*\(\"(.*)\"\)(\s*mode\s*([0-9]+))?.*
! Touchstone port assignment:
! Touchstone port 1 = CST MWS port Zmax ("") mode 1
! Touchstone port 2 = CST MWS port Zmax ("") mode 2
! Touchstone port 3 = CST MWS port Zmin ("") mode 1
! Touchstone port 4 = CST MWS port Zmin ("") mode 2
! S-Parameters are not renormalized. Each port impedance will be approximated by the real part at minimum frequency. The values are described via the [Reference] keyword.
! Default impedance is overridden by [Reference]
[Version] 2.0
# GHz S RI R 376.73
[Number of Ports] 4
[Reference]
376.73 376.73 259.814 259.814 
[Number of Frequencies] 51
[Network Data]
281700                  0.216072       -0.154325      0.000127771      6.6061e-05         0.860765       -0.415132       0.00012186    -0.000259403
                     0.000103114     7.76748e-05         0.212234        0.352328     -0.000348124    -6.51672e-06         0.622193       -0.649854
                        0.860922       -0.415087     -0.000334991    -0.000144926        -0.249125       0.0599674     -7.81515e-06     0.000119349
                     8.68575e-05    -0.000327747         0.622825       -0.649668     -0.000124164     1.46299e-05         0.362612        0.176433
281702                  0.216007       -0.154241      0.000128009     6.56234e-05         0.860627       -0.415491      0.000121951    -0.000258932
                     0.000103375     7.79097e-05         0.212383        0.352487     -0.000347836     -5.8482e-06         0.621774       -0.650103
                        0.860784       -0.415445     -0.000334927    -0.000144571        -0.248972       0.0601784     -7.91681e-06     0.000119221
                     8.69498e-05    -0.000327123         0.622406       -0.649915     -0.000124612      1.4611e-05         0.362973        0.176162
281704                  0.215942       -0.154158      0.000128243     6.51921e-05          0.86049       -0.415849      0.000122043    -0.000258462
                     0.000103633     7.81412e-05         0.212533        0.352647     -0.000347547    -5.18041e-06         0.621355       -0.650351
                        0.860645       -0.415804     -0.000334861    -0.000144217         -0.24882       0.0603891     -8.01727e-06     0.000119092
                     8.70403e-05    -0.000326501         0.621986       -0.650162      -0.00012506     1.45922e-05         0.363335         0.17589
281706                  0.215878       -0.154074      0.000128473     6.47671e-05         0.860352       -0.416208      0.000122137    -0.000257992
                     0.000103888     7.83695e-05         0.212683        0.352807     -0.000347257    -4.51332e-06         0.620936       -0.650598
                        0.860506       -0.416162     -0.000334796    -0.000143864        -0.248667       0.0605996     -8.11646e-06     0.000118961
                      8.7129e-05    -0.000325883         0.621567       -0.650409     -0.000125509     1.45734e-05         0.363696        0.175617
281708                  0.215813       -0.153991      0.000128701     6.43484e-05         0.860214       -0.416566      0.000122231    -0.000257522
                     0.000104141     7.85945e-05         0.212833        0.352966     -0.000346966    -3.84694e-06         0.620516       -0.650846
                        0.860367       -0.416519     -0.000334729    -0.000143511        -0.248515       0.0608099     -8.21432e-06     0.000118829
                      8.7216e-05    -0.000325267         0.621147       -0.650655     -0.000125958     1.45546e-05         0.364058        0.175344
281710                  0.215748       -0.153907      0.000128927      6.3936e-05         0.860076       -0.416925      0.000122326    -0.000257053
                      0.00010439     7.88163e-05         0.212984        0.353127     -0.000346674    -3.18128e-06         0.620095       -0.651094
                        0.860227       -0.416877     -0.000334662     -0.00014316        -0.248362         0.06102     -8.31077e-06     0.000118695
                     8.73014e-05    -0.000324654         0.620726       -0.650902     -0.000126408      1.4536e-05         0.364419         0.17507
281712                  0.215684       -0.153824      0.000129151     6.35297e-05         0.859938       -0.417283      0.000122423    -0.000256583
                     0.000104636     7.90348e-05         0.213134        0.353287      -0.00034638    -2.51632e-06         0.619675       -0.651341
                        0.860088       -0.417235     -0.000334594    -0.000142809         -0.24821       0.0612298     -8.40575e-06      0.00011856
                      8.7385e-05    -0.000324043         0.620305       -0.651149     -0.000126858     1.45174e-05         0.364781        0.174796
281714                  0.215619       -0.153741      0.000129375     6.31294e-05           0.8598       -0.417641       0.00012252    -0.000256114
                     0.000104879     7.92502e-05         0.213285        0.353447     -0.000346086    -1.85207e-06         0.619253       -0.651588
                        0.859948       -0.417592     -0.000334526    -0.000142459        -0.248057       0.0614393     -8.49919e-06     0.000118424
                      8.7467e-05    -0.000323436         0.619884       -0.651395     -0.000127308     1.44989e-05         0.365143        0.174521
281716                  0.215555       -0.153657      0.000129598     6.27348e-05         0.859661       -0.417999      0.000122618    -0.000255644
                     0.000105119     7.94623e-05         0.213436        0.353608      -0.00034579    -1.18852e-06         0.618832       -0.651834
                        0.859809       -0.417949     -0.000334456    -0.000142111        -0.247904       0.0616487     -8.59102e-06     0.000118286
                     8.75473e-05    -0.000322832         0.619462       -0.651642     -0.000127759     1.44805e-05         0.365505        0.174245
281718                  0.215491       -0.153574      0.000129823     6.23456e-05         0.859522       -0.418357      0.000122716    -0.000255175
                     0.000105357     7.96712e-05         0.213588        0.353768     -0.000345494    -5.25682e-07          0.61841       -0.652081
                        0.859669       -0.418307     -0.000334387    -0.000141763        -0.247751       0.0618578     -8.68119e-06     0.000118147
                      8.7626e-05     -0.00032223          0.61904       -0.651888      -0.00012821     1.44623e-05         0.365867        0.173969
281720                  0.215426       -0.153491      0.000130048     6.19614e-05         0.859384       -0.418714      0.000122815    -0.000254706
                     0.000105591      7.9877e-05         0.213739        0.353929     -0.000345196     1.36453e-07         0.617987       -0.652327
                        0.859529       -0.418664     -0.000334316    -0.000141416        -0.247598       0.0620667     -8.76961e-06     0.000118007
                     8.77032e-05    -0.000321631         0.618618       -0.652135     -0.000128662     1.44441e-05         0.366229        0.173693
281722                  0.215362       -0.153408      0.000130275     6.15818e-05         0.859245       -0.419072      0.000122915    -0.000254237
                     0.000105823     8.00796e-05         0.213891        0.354091     -0.000344897     7.97884e-07         0.617564       -0.652573
                        0.859389        -0.41902     -0.000334245     -0.00014107        -0.247445       0.0622753     -8.85625e-06     0.000117866
                     8.77787e-05    -0.000321035         0.618194       -0.652381     -0.000129115     1.44261e-05         0.366592        0.173416
281724                  0.215298       -0.153325      0.000130504     6.12063e-05         0.859106       -0.419429      0.000123015    -0.000253769
                     0.000106052     8.02791e-05         0.214043        0.354252     -0.000344597     1.45861e-06         0.617141       -0.652819
                        0.859249       -0.419377     -0.000334172    -0.000140726        -0.247292       0.0624838     -8.94103e-06     0.000117724
                     8.78526e-05    -0.000320441         0.617771       -0.652627     -0.000129567     1.44083e-05         0.366954        0.173138
281726                  0.215234       -0.153242      0.000130736     6.08345e-05         0.858966       -0.419786      0.000123115      -0.0002533
                     0.000106279     8.04755e-05         0.214195        0.354413     -0.000344297     2.11864e-06         0.616717       -0.653065
                        0.859108       -0.419734       -0.0003341    -0.000140382        -0.247138        0.062692      -9.0239e-06     0.000117581
                     8.79251e-05    -0.000319851         0.617347       -0.652873      -0.00013002     1.43906e-05         0.367317        0.172859
281728                   0.21517       -0.153159       0.00013097     6.04658e-05         0.858827       -0.420143      0.000123215    -0.000252831
                     0.000106502     8.06687e-05         0.214348        0.354575     -0.000343995     2.77797e-06         0.616293        -0.65331
                        0.858968        -0.42009     -0.000334026     -0.00014004        -0.246985       0.0628999     -9.10481e-06     0.000117436
                     8.79959e-05    -0.000319263         0.616922       -0.653118     -0.000130474      1.4373e-05         0.367679         0.17258
281730                  0.215107       -0.153076      0.000131208     6.00998e-05         0.858688         -0.4205      0.000123316    -0.000252363
                     0.000106723     8.08589e-05         0.214501        0.354737     -0.000343692     3.43659e-06         0.615868       -0.653555
                        0.858827       -0.420447     -0.000333952    -0.000139699        -0.246832       0.0631077      -9.1837e-06     0.000117291
                     8.80653e-05    -0.000318678         0.616497       -0.653364     -0.000130928     1.43557e-05         0.368042        0.172301
281732                  0.215043       -0.152993      0.000131449     5.97359e-05         0.858548       -0.420857      0.000123417    -0.000251895
                     0.000106942      8.1046e-05         0.214654        0.354899     -0.000343388     4.09452e-06         0.615443         -0.6538
                        0.858686       -0.420803     -0.000333877     -0.00013936        -0.246678       0.0633152     -9.26052e-06     0.000117146
                     8.81332e-05    -0.000318096         0.616072       -0.653609     -0.000131383     1.43385e-05         0.368405        0.172021
281734                  0.214979        -0.15291      0.000131694     5.93735e-05         0.858408       -0.421213      0.000123518    -0.000251426
                     0.000107158     8.12301e-05         0.214807        0.355061     -0.000343083     4.75174e-06         0.615017       -0.654045
                        0.858545       -0.421159     -0.000333801    -0.000139023        -0.246525       0.0635224     -9.33523e-06     0.000116999
                     8.81996e-05    -0.000317516         0.615646       -0.653855     -0.000131838     1.43215e-05         0.368768         0.17174
281736                  0.214916       -0.152827      0.000131942     5.90122e-05         0.858268        -0.42157      0.000123619    -0.000250959
                     0.000107371     8.14111e-05         0.214961        0.355223     -0.000342777     5.40827e-06         0.614591       -0.654289
                        0.858404       -0.421515     -0.000333724    -0.000138687        -0.246371       0.0637295     -9.40778e-06     0.000116852
                     8.82646e-05    -0.000316939          0.61522         -0.6541     -0.000132293     1.43047e-05         0.369131        0.171458
281738                  0.214852       -0.152744      0.000132194     5.86513e-05         0.858128       -0.421926       0.00012372    -0.000250491
                     0.000107582     8.15891e-05         0.215115        0.355386      -0.00034247     6.06411e-06         0.614165       -0.654533
                        0.858263        -0.42187     -0.000333647    -0.000138353        -0.246217       0.0639363     -9.47813e-06     0.000116704
                     8.83281e-05    -0.000316365         0.614793       -0.654344     -0.000132749     1.42881e-05         0.369494        0.171176
281740                  0.214789       -0.152662       0.00013245     5.82904e-05         0.857988       -0.422282      0.000123821    -0.000250024
                      0.00010779     8.17641e-05         0.215269        0.355548     -0.000342161     6.71924e-06         0.613738       -0.654777
                        0.858121       -0.422226     -0.000333569    -0.000138021        -0.246063       0.0641429     -9.54623e-06     0.000116556
                     8.83903e-05    -0.000315793         0.614365       -0.654589     -0.000133206     1.42718e-05         0.369857        0.170894
281742                  0.214725       -0.152579      0.000132709      5.7929e-05         0.857847       -0.422638      0.000123922    -0.000249557
                     0.000107996     8.19361e-05         0.215423        0.355711     -0.000341852     7.37367e-06         0.613311       -0.655021
                         0.85798       -0.422582     -0.000333491    -0.000137691        -0.245909       0.0643492     -9.61205e-06     0.000116407
                      8.8451e-05    -0.000315224         0.613937       -0.654833     -0.000133663     1.42557e-05         0.370221        0.170611
281744                  0.214662       -0.152496      0.000132972     5.75665e-05         0.857707       -0.422994      0.000124023     -0.00024909
                     0.000108199     8.21051e-05         0.215578        0.355874     -0.000341542     8.02741e-06         0.612883       -0.655264
                        0.857838       -0.422937     -0.000333412    -0.000137364        -0.245755       0.0645554     -9.67554e-06     0.000116258
                     8.85103e-05    -0.000314658         0.613509       -0.655077      -0.00013412     1.42398e-05         0.370584        0.170327
281746                  0.214599       -0.152414      0.000133239     5.72025e-05         0.857566        -0.42335      0.000124124    -0.000248624
                       0.0001084     8.22712e-05         0.215733        0.356037      -0.00034123     8.68044e-06         0.612455       -0.655508
                        0.857696       -0.423292     -0.000333333    -0.000137039        -0.245601       0.0647612     -9.73666e-06     0.000116109
                     8.85683e-05    -0.000314095          0.61308       -0.655321     -0.000134578     1.42242e-05         0.370948        0.170043
281748                  0.214536       -0.152331       0.00013351     5.68365e-05         0.857425       -0.423706      0.000124224    -0.000248159
                     0.000108599     8.24344e-05         0.215888        0.356201     -0.000340918     9.33278e-06         0.612026       -0.655751
                        0.857554       -0.423647     -0.000333255    -0.000136718        -0.245447       0.0649669     -9.79538e-06     0.000115959
                      8.8625e-05    -0.000313534         0.612651       -0.655564     -0.000135037     1.42089e-05         0.371311        0.169758
281750                  0.214473       -0.152249      0.000133783      5.6468e-05         0.857284       -0.424061      0.000124325    -0.000247694
                     0.000108795     8.25946e-05         0.216044        0.356364     -0.000340605     9.98441e-06         0.611597       -0.655994
                        0.857412       -0.424002     -0.000333177    -0.000136399        -0.245293       0.0651724     -9.85164e-06      0.00011581
                     8.86804e-05    -0.000312976         0.612221       -0.655808     -0.000135495     1.41939e-05         0.371675        0.169472
281752                   0.21441       -0.152166       0.00013406     5.60965e-05         0.857143       -0.424416      0.000124426     -0.00024723
                     0.000108989      8.2752e-05           0.2162        0.356528      -0.00034029     1.06353e-05         0.611168       -0.656236
                         0.85727       -0.424357       -0.0003331    -0.000136084        -0.245139       0.0653776     -9.90539e-06      0.00011566
                     8.87344e-05     -0.00031242          0.61179        -0.65605     -0.000135955     1.41792e-05         0.372039        0.169186
281754                  0.214347       -0.152084       0.00013434     5.57218e-05         0.857002       -0.424771      0.000124527    -0.000246766
                     0.000109181     8.29064e-05         0.216357        0.356692     -0.000339975     1.12855e-05         0.610738       -0.656479
                        0.857128       -0.424712     -0.000333025    -0.000135773        -0.244984       0.0655825     -9.95657e-06     0.000115511
                     8.87873e-05    -0.000311867          0.61136       -0.656293     -0.000136415     1.41648e-05         0.372403        0.168899
281756                  0.214284       -0.152001      0.000134623     5.53432e-05         0.856861       -0.425126      0.000124628    -0.000246304
                     0.000109371     8.30581e-05         0.216514        0.356856     -0.000339658      1.1935e-05         0.610307       -0.656721
                        0.856985       -0.425066     -0.000332955    -0.000135464         -0.24483       0.0657873     -1.00051e-05     0.000115362
                     8.88389e-05    -0.000311317         0.610928       -0.656535     -0.000136875     1.41507e-05         0.372768        0.168612
281758                  0.214221       -0.151919      0.000134908     5.49604e-05         0.856719       -0.425481      0.000124729    -0.000245843
                     0.000109558     8.32069e-05         0.216671         0.35702      -0.00033934     1.25837e-05         0.609877       -0.656963
                        0.856843        -0.42542      -0.00033289    -0.000135159        -0.244675       0.0659918     -1.00509e-05     0.000115213
                     8.88893e-05    -0.000310769         0.610496       -0.656776     -0.000137335     1.41371e-05         0.373132        0.168324
281760                  0.214159       -0.151837      0.000135195     5.45729e-05         0.856577       -0.425836      0.000124832    -0.000245383
                     0.000109743     8.33528e-05         0.216829        0.357184     -0.000339021     1.32317e-05         0.609445       -0.657204
                          0.8567       -0.425775     -0.000332833    -0.000134854        -0.244521       0.0661961     -1.00938e-05     0.000115064
                     8.89386e-05    -0.000310224         0.610064       -0.657018     -0.000137796     1.41239e-05         0.373496        0.168036
281762                  0.214096       -0.151755      0.000135485     5.41803e-05         0.856435       -0.426191      0.000124935    -0.000244924
                     0.000109926      8.3496e-05         0.216987        0.357348     -0.000338702     1.38788e-05         0.609014       -0.657446
                        0.856557       -0.426129     -0.000332789    -0.000134546        -0.244366       0.0664002     -1.01337e-05     0.000114915
