! TOUCHSTONE file generated by CST MICROWAVE STUDIO
! Date and time: Tue Oct 14 17:38:28 2025
! Project name: Teste_Macro_Metasurface_Nanopilar.cst
! Parameters = {H=600; L_x=120; L_y=70; Lambda=1064; Max_L=200; Min_L=70; PathPara=1; Phi=0; Step_L=10; Theta=0; p=520; phaseX=180; phaseY=0}
! Header version: 2018
! Port assignment regex: !\s*Touchstone port\s*([0-9]+)\s*=\s*(CST MWS port|CST DS port)\s*([0-9]+|Zmin|Zmax)\s*\(\"(.*)\"\)(\s*mode\s*([0-9]+))?.*
! Touchstone port assignment:
! Touchstone port 1 = CST MWS port Zmax ("") mode 1
! Touchstone port 2 = CST MWS port Zmax ("") mode 2
! Touchstone port 3 = CST MWS port Zmin ("") mode 1
! Touchstone port 4 = CST MWS port Zmin ("") mode 2
! S-Parameters are not renormalized. Each port impedance will be approximated by the real part at minimum frequency. The values are described via the [Reference] keyword.
! Default impedance is overridden by [Reference]
[Version] 2.0
# GHz S RI R 376.73
[Number of Ports] 4
[Reference]
376.73 376.73 259.814 259.814 
[Number of Frequencies] 51
[Network Data]
281700                 0.0399455       -0.121274     -0.000295702     0.000214915        0.0835209       -0.988006      8.62353e-05    -1.25391e-06
                    -0.000220686     0.000128969        0.0395451       0.0204108      0.000160257    -2.64289e-05        -0.686683       -0.722438
                       0.0834065       -0.988088      0.000142346    -0.000104537        0.0189613         0.12629     -0.000374651    -5.91314e-05
                     0.000159749    -0.000111416        -0.687161        -0.72185     -0.000387988     3.04869e-05       -0.0186896      -0.0397085
281702                 0.0399334       -0.121274     -0.000295763     0.000215014        0.0832849       -0.988026      8.62871e-05    -1.28977e-06
                    -0.000220576      0.00012908        0.0395475         0.02042      0.000160278    -2.64459e-05        -0.686887       -0.722243
                       0.0831705       -0.988109      0.000142339    -0.000104571        0.0190097         0.12628     -0.000374637    -5.89515e-05
                     0.000159806    -0.000111497        -0.687365       -0.721654     -0.000387967     3.06243e-05       -0.0187212      -0.0397007
281704                 0.0399213       -0.121275     -0.000295825     0.000215114         0.083049       -0.988047      8.63392e-05     -1.3257e-06
                    -0.000220465     0.000129192        0.0395499       0.0204292      0.000160299     -2.6463e-05        -0.687091       -0.722048
                       0.0829345        -0.98813      0.000142331    -0.000104604         0.019058        0.126269     -0.000374623    -5.87714e-05
                     0.000159863    -0.000111578         -0.68757       -0.721459     -0.000387945     3.07615e-05       -0.0187529      -0.0396929
281706                 0.0399093       -0.121276     -0.000295886     0.000215214         0.082813       -0.988067      8.63913e-05    -1.36168e-06
                    -0.000220355     0.000129303        0.0395523       0.0204384       0.00016032    -2.64802e-05        -0.687296       -0.721853
                       0.0826985        -0.98815      0.000142323    -0.000104637        0.0191063        0.126259     -0.000374609    -5.85911e-05
                      0.00015992    -0.000111659        -0.687774       -0.721264     -0.000387924     3.08987e-05       -0.0187846       -0.039685
281708                 0.0398972       -0.121276     -0.000295946     0.000215314        0.0825771       -0.988087      8.64436e-05    -1.39771e-06
                    -0.000220246     0.000129415        0.0395547       0.0204476      0.000160341    -2.64975e-05          -0.6875       -0.721658
                       0.0824624        -0.98817      0.000142315    -0.000104671        0.0191546        0.126248     -0.000374596    -5.84107e-05
                     0.000159975    -0.000111739        -0.687978       -0.721068     -0.000387902     3.10357e-05       -0.0188162      -0.0396772
281710                 0.0398851       -0.121277     -0.000296006     0.000215414        0.0823411       -0.988107      8.64959e-05    -1.43379e-06
                    -0.000220136     0.000129526         0.039557       0.0204567      0.000160361     -2.6515e-05        -0.687704       -0.721463
                       0.0822264       -0.988191      0.000142307    -0.000104704        0.0192029        0.126238     -0.000374582      -5.823e-05
                     0.000160031    -0.000111819        -0.688183       -0.720873     -0.000387881     3.11727e-05       -0.0188479      -0.0396693
281712                  0.039873       -0.121278     -0.000296065     0.000215514        0.0821051       -0.988127      8.65484e-05    -1.46992e-06
                    -0.000220027     0.000129638        0.0395594       0.0204659      0.000160382    -2.65325e-05        -0.687908       -0.721268
                       0.0819904       -0.988211      0.000142299    -0.000104738        0.0192512        0.126227     -0.000374569    -5.80491e-05
                     0.000160086    -0.000111899        -0.688387       -0.720678     -0.000387859     3.13094e-05       -0.0188795      -0.0396614
281714                  0.039861       -0.121278     -0.000296124     0.000215614        0.0818692       -0.988147      8.66011e-05    -1.50608e-06
                    -0.000219918     0.000129749        0.0395618       0.0204751      0.000160403    -2.65501e-05        -0.688112       -0.721073
                       0.0817544       -0.988231       0.00014229    -0.000104772        0.0192995        0.126217     -0.000374555    -5.78681e-05
                     0.000160141    -0.000111979        -0.688591       -0.720482     -0.000387837     3.14461e-05       -0.0189112      -0.0396534
281716                 0.0398489       -0.121279     -0.000296182     0.000215714        0.0816332       -0.988167      8.66538e-05    -1.54229e-06
                    -0.000219809     0.000129861        0.0395642       0.0204843      0.000160424    -2.65679e-05        -0.688316       -0.720878
                       0.0815183       -0.988251      0.000142282    -0.000104806        0.0193477        0.126206     -0.000374542    -5.76869e-05
                     0.000160196    -0.000112058        -0.688795       -0.720286     -0.000387815     3.15826e-05       -0.0189428      -0.0396455
281718                 0.0398368        -0.12128      -0.00029624     0.000215814        0.0813972       -0.988187      8.67066e-05    -1.57854e-06
                      -0.0002197     0.000129973        0.0395666       0.0204935      0.000160445    -2.65858e-05         -0.68852       -0.720682
                       0.0812823       -0.988272      0.000142273     -0.00010484         0.019396        0.126196     -0.000374529    -5.75055e-05
                      0.00016025    -0.000112137        -0.688999       -0.720091     -0.000387793      3.1719e-05       -0.0189745      -0.0396375
281720                 0.0398248       -0.121281     -0.000296297     0.000215915        0.0811612       -0.988207      8.67596e-05    -1.61482e-06
                    -0.000219592     0.000130084         0.039569       0.0205027      0.000160466    -2.66038e-05        -0.688724       -0.720487
                       0.0810462       -0.988292      0.000142264    -0.000104874        0.0194443        0.126185     -0.000374516     -5.7324e-05
                     0.000160304    -0.000112216        -0.689204       -0.719895     -0.000387771     3.18553e-05       -0.0190061      -0.0396295
281722                 0.0398127       -0.121281     -0.000296354     0.000216015        0.0809252       -0.988227      8.68126e-05    -1.65113e-06
                    -0.000219483     0.000130196        0.0395714       0.0205119      0.000160487    -2.66219e-05        -0.688928       -0.720291
                       0.0808102       -0.988312      0.000142255    -0.000104909        0.0194925        0.126174     -0.000374503    -5.71423e-05
                     0.000160359    -0.000112294        -0.689407       -0.719699     -0.000387749     3.19914e-05       -0.0190378      -0.0396215
281724                 0.0398006       -0.121282      -0.00029641     0.000216115        0.0806892       -0.988247      8.68657e-05    -1.68747e-06
                    -0.000219375     0.000130308        0.0395738       0.0205211      0.000160508    -2.66402e-05        -0.689132       -0.720096
                       0.0805741       -0.988332      0.000142246    -0.000104943        0.0195408        0.126164      -0.00037449    -5.69604e-05
                     0.000160413    -0.000112373        -0.689611       -0.719503     -0.000387726     3.21274e-05       -0.0190694      -0.0396135
281726                 0.0397885       -0.121283     -0.000296466     0.000216216        0.0804532       -0.988266       8.6919e-05    -1.72384e-06
                    -0.000219267      0.00013042        0.0395762       0.0205303      0.000160529    -2.66585e-05        -0.689336         -0.7199
                        0.080338       -0.988351      0.000142237    -0.000104977        0.0195891        0.126153     -0.000374477    -5.67785e-05
                     0.000160467    -0.000112451        -0.689815       -0.719308     -0.000387704     3.22632e-05        -0.019101      -0.0396054
281728                 0.0397765       -0.121283     -0.000296522     0.000216317        0.0802172       -0.988286      8.69723e-05    -1.76024e-06
                    -0.000219158     0.000130532        0.0395786       0.0205395       0.00016055     -2.6677e-05        -0.689539       -0.719704
                        0.080102       -0.988371      0.000142227    -0.000105012        0.0196373        0.126142     -0.000374464    -5.65963e-05
                     0.000160521    -0.000112529        -0.690019       -0.719112     -0.000387681     3.23989e-05       -0.0191327      -0.0395973
281730                 0.0397644       -0.121284     -0.000296577     0.000216417        0.0799812       -0.988306      8.70257e-05    -1.79667e-06
                     -0.00021905     0.000130644         0.039581       0.0205487      0.000160571    -2.66957e-05        -0.689743       -0.719509
                       0.0798659       -0.988391      0.000142218    -0.000105047        0.0196856        0.126132     -0.000374451    -5.64141e-05
                     0.000160574    -0.000112607        -0.690223       -0.718916     -0.000387659     3.25345e-05       -0.0191643      -0.0395892
281732                 0.0397523       -0.121285     -0.000296631     0.000216518        0.0797452       -0.988325      8.70792e-05    -1.83313e-06
                    -0.000218942     0.000130756        0.0395834       0.0205578      0.000160592    -2.67144e-05        -0.689946       -0.719313
                       0.0796298       -0.988411      0.000142208    -0.000105081        0.0197338        0.126121     -0.000374439    -5.62317e-05
                     0.000160628    -0.000112685        -0.690427       -0.718719     -0.000387636     3.26698e-05       -0.0191959      -0.0395811
281734                 0.0397402       -0.121285     -0.000296686     0.000216619        0.0795092       -0.988345      8.71327e-05    -1.86962e-06
                    -0.000218834     0.000130868        0.0395858        0.020567      0.000160614    -2.67333e-05         -0.69015       -0.719117
                       0.0793937        -0.98843      0.000142198    -0.000105116         0.019782         0.12611     -0.000374426    -5.60492e-05
                     0.000160682    -0.000112763         -0.69063       -0.718523     -0.000387613     3.28051e-05       -0.0192276       -0.039573
281736                 0.0397282       -0.121286     -0.000296739     0.000216719        0.0792732       -0.988364      8.71864e-05    -1.90613e-06
                    -0.000218725      0.00013098        0.0395882       0.0205762      0.000160635    -2.67524e-05        -0.690353       -0.718921
                       0.0791576        -0.98845      0.000142188    -0.000105151        0.0198302        0.126099     -0.000374414    -5.58665e-05
                     0.000160736    -0.000112841        -0.690834       -0.718327      -0.00038759     3.29401e-05       -0.0192592      -0.0395648
281738                 0.0397161       -0.121287     -0.000296793      0.00021682        0.0790371       -0.988383      8.72401e-05    -1.94267e-06
                    -0.000218617     0.000131092        0.0395906       0.0205854      0.000160656    -2.67715e-05        -0.690557       -0.718725
                       0.0789215        -0.98847      0.000142178    -0.000105186        0.0198785        0.126089     -0.000374401    -5.56838e-05
                     0.000160789    -0.000112919        -0.691038       -0.718131     -0.000387567      3.3075e-05       -0.0192908      -0.0395566
281740                  0.039704       -0.121287     -0.000296846     0.000216921        0.0788011       -0.988403      8.72938e-05    -1.97924e-06
                    -0.000218508     0.000131205        0.0395931       0.0205946      0.000160677    -2.67909e-05         -0.69076       -0.718529
                       0.0786854       -0.988489      0.000142168    -0.000105221        0.0199267        0.126078     -0.000374389    -5.55009e-05
                     0.000160843    -0.000112996        -0.691241       -0.717934     -0.000387544     3.32098e-05       -0.0193224      -0.0395484
281742                 0.0396919       -0.121288     -0.000296898     0.000217022         0.078565       -0.988422      8.73477e-05    -2.01583e-06
                      -0.0002184     0.000131317        0.0395955       0.0206038      0.000160699    -2.68103e-05        -0.690964       -0.718333
                       0.0784493       -0.988509      0.000142158    -0.000105256        0.0199749        0.126067     -0.000374376    -5.53179e-05
                     0.000160897    -0.000113074        -0.691445       -0.717738     -0.000387521     3.33443e-05        -0.019354      -0.0395402
281744                 0.0396799       -0.121289     -0.000296951     0.000217123         0.078329       -0.988441      8.74016e-05    -2.05246e-06
                    -0.000218291     0.000131429        0.0395979        0.020613       0.00016072      -2.683e-05        -0.691167       -0.718137
                       0.0782132       -0.988528      0.000142148    -0.000105292        0.0200231        0.126056     -0.000374364    -5.51349e-05
                      0.00016095    -0.000113151        -0.691648       -0.717542     -0.000387498     3.34788e-05       -0.0193856       -0.039532
281746                 0.0396678        -0.12129     -0.000297003     0.000217224        0.0780929        -0.98846      8.74555e-05    -2.08911e-06
                    -0.000218183     0.000131541        0.0396003       0.0206222      0.000160741    -2.68497e-05         -0.69137       -0.717941
                       0.0779771       -0.988547      0.000142138    -0.000105327        0.0200713        0.126045     -0.000374352    -5.49517e-05
                     0.000161004    -0.000113229        -0.691851       -0.717345     -0.000387475      3.3613e-05       -0.0194172      -0.0395237
281748                 0.0396557        -0.12129     -0.000297054     0.000217325        0.0778569       -0.988479      8.75095e-05     -2.1258e-06
                    -0.000218074     0.000131654        0.0396028       0.0206314      0.000160763    -2.68697e-05        -0.691573       -0.717744
                        0.077741       -0.988567      0.000142127    -0.000105362        0.0201195        0.126035      -0.00037434    -5.47685e-05
                     0.000161058    -0.000113306        -0.692055       -0.717149     -0.000387451      3.3747e-05       -0.0194488      -0.0395154
281750                 0.0396437       -0.121291     -0.000297105     0.000217427        0.0776208       -0.988498      8.75636e-05    -2.16252e-06
                    -0.000217965     0.000131766        0.0396052       0.0206405      0.000160784    -2.68897e-05        -0.691776       -0.717548
                       0.0775049       -0.988586      0.000142117    -0.000105398        0.0201677        0.126024     -0.000374328    -5.45851e-05
                     0.000161111    -0.000113384        -0.692258       -0.716952     -0.000387428     3.38809e-05       -0.0194804      -0.0395071
281752                 0.0396316       -0.121292     -0.000297156     0.000217528        0.0773848       -0.988517      8.76177e-05    -2.19927e-06
                    -0.000217856     0.000131879        0.0396076       0.0206497      0.000160806      -2.691e-05        -0.691979       -0.717352
                       0.0772687       -0.988605      0.000142106    -0.000105433        0.0202159        0.126013     -0.000374316    -5.44017e-05
                     0.000161165    -0.000113461        -0.692461       -0.716755     -0.000387404     3.40146e-05        -0.019512      -0.0394988
281754                 0.0396195       -0.121292     -0.000297207     0.000217629        0.0771487       -0.988536      8.76718e-05    -2.23606e-06
                    -0.000217747     0.000131991          0.03961       0.0206589      0.000160827    -2.69303e-05        -0.692182       -0.717155
                       0.0770326       -0.988624      0.000142095    -0.000105469         0.020264        0.126002     -0.000374304    -5.42182e-05
                     0.000161219    -0.000113539        -0.692664       -0.716558      -0.00038738     3.41482e-05       -0.0195436      -0.0394904
281756                 0.0396074       -0.121293     -0.000297257      0.00021773        0.0769126       -0.988555       8.7726e-05    -2.27288e-06
                    -0.000217638     0.000132103        0.0396125       0.0206681      0.000160849    -2.69508e-05        -0.692385       -0.716959
                       0.0767965       -0.988643      0.000142085    -0.000105504        0.0203122        0.125991     -0.000374292    -5.40347e-05
                     0.000161273    -0.000113616        -0.692867       -0.716362     -0.000387356     3.42816e-05       -0.0195752      -0.0394821
281758                 0.0395954       -0.121294     -0.000297307     0.000217832        0.0766765       -0.988574      8.77803e-05    -2.30975e-06
                    -0.000217529     0.000132216        0.0396149       0.0206773       0.00016087    -2.69715e-05        -0.692588       -0.716762
                       0.0765603       -0.988662      0.000142074     -0.00010554        0.0203604         0.12598      -0.00037428     -5.3851e-05
                     0.000161327    -0.000113694         -0.69307       -0.716165     -0.000387333     3.44149e-05       -0.0196068      -0.0394737
281760                 0.0395833       -0.121294     -0.000297356     0.000217933        0.0764404       -0.988593      8.78345e-05    -2.34665e-06
                    -0.000217419     0.000132328        0.0396174       0.0206865      0.000160892    -2.69922e-05        -0.692791       -0.716565
                       0.0763242       -0.988681      0.000142063    -0.000105576        0.0204085        0.125969     -0.000374268    -5.36674e-05
                     0.000161381    -0.000113771        -0.693273       -0.715968     -0.000387309     3.45481e-05       -0.0196384      -0.0394653
281762                 0.0395712       -0.121295     -0.000297405     0.000218035        0.0762043       -0.988611      8.78888e-05     -2.3836e-06
                     -0.00021731      0.00013244        0.0396198       0.0206957      0.000160913     -2.7013e-05        -0.692994       -0.716369
                        0.076088         -0.9887      0.000142052    -0.000105612        0.0204567        0.125958     -0.000374256    -5.34836e-05
