! TOUCHSTONE file generated by CST MICROWAVE STUDIO
! Date and time: Tue Oct 14 17:38:40 2025
! Project name: Teste_Macro_Metasurface_Nanopilar.cst
! Parameters = {H=600; L_x=130; L_y=170; Lambda=1064; Max_L=200; Min_L=70; PathPara=1; Phi=0; Step_L=10; Theta=0; p=520; phaseX=180; phaseY=0}
! Header version: 2018
! Port assignment regex: !\s*Touchstone port\s*([0-9]+)\s*=\s*(CST MWS port|CST DS port)\s*([0-9]+|Zmin|Zmax)\s*\(\"(.*)\"\)(\s*mode\s*([0-9]+))?.*
! Touchstone port assignment:
! Touchstone port 1 = CST MWS port Zmax ("") mode 1
! Touchstone port 2 = CST MWS port Zmax ("") mode 2
! Touchstone port 3 = CST MWS port Zmin ("") mode 1
! Touchstone port 4 = CST MWS port Zmin ("") mode 2
! S-Parameters are not renormalized. Each port impedance will be approximated by the real part at minimum frequency. The values are described via the [Reference] keyword.
! Default impedance is overridden by [Reference]
[Version] 2.0
# GHz S RI R 376.73
[Number of Ports] 4
[Reference]
376.73 376.73 259.814 259.814 
[Number of Frequencies] 51
[Network Data]
281700                  0.188259       -0.127941     -5.71082e-05    -0.000234717         0.808714       -0.530395     -0.000176046     5.46075e-05
                    -0.000126596    -0.000278663         0.112117        0.155039      0.000306812    -0.000114512         0.922303       -0.322869
                        0.808655        -0.53041      0.000247465    -6.95662e-05        -0.189469        0.112009      -0.00013991     7.31231e-06
                    -0.000267457     0.000201394         0.922503       -0.322854     -4.85971e-05    -0.000216554        0.0103183        0.189728
281702                  0.188225       -0.127881     -5.71322e-05    -0.000234496         0.808538       -0.530693     -0.000176035     5.47164e-05
                    -0.000126651    -0.000278555         0.112132         0.15506      0.000306696    -0.000114695         0.922194       -0.323164
                        0.808479       -0.530707      0.000247452    -7.00267e-05         -0.18932        0.112142     -0.000140051     7.31238e-06
                    -0.000267305     0.000201451         0.922394       -0.323148     -4.85928e-05    -0.000216491        0.0104424        0.189746
281704                  0.188192       -0.127821      -5.7156e-05    -0.000234275         0.808363       -0.530991     -0.000176024     5.48253e-05
                    -0.000126706    -0.000278446         0.112146        0.155081      0.000306579    -0.000114877         0.922085       -0.323459
                        0.808303       -0.531005      0.000247439    -7.04848e-05        -0.189171        0.112275     -0.000140192     7.31306e-06
                    -0.000267153     0.000201507         0.922286       -0.323443     -4.85886e-05    -0.000216428        0.0105666        0.189764
281706                  0.188158       -0.127761     -5.71795e-05    -0.000234055         0.808186       -0.531288     -0.000176013     5.49344e-05
                    -0.000126762    -0.000278337         0.112161        0.155101       0.00030646    -0.000115059         0.921976       -0.323754
                        0.808127       -0.531302      0.000247426    -7.09413e-05        -0.189022        0.112408     -0.000140332     7.31435e-06
                    -0.000267001     0.000201563         0.922177       -0.323737     -4.85847e-05    -0.000216366        0.0106909        0.189782
281708                  0.188124       -0.127701     -5.72027e-05    -0.000233835          0.80801       -0.531586     -0.000176003     5.50435e-05
                    -0.000126817    -0.000278229         0.112175        0.155122      0.000306341    -0.000115241         0.921866       -0.324049
                         0.80795         -0.5316      0.000247412    -7.13967e-05        -0.188873        0.112541     -0.000140471     7.31627e-06
                    -0.000266848     0.000201618         0.922068       -0.324032     -4.85812e-05    -0.000216303        0.0108151          0.1898
281710                  0.188091       -0.127641     -5.72255e-05    -0.000233615         0.807834       -0.531883     -0.000175994     5.51527e-05
                    -0.000126873    -0.000278119          0.11219        0.155143       0.00030622    -0.000115424         0.921757       -0.324343
                        0.807774       -0.531897      0.000247398    -7.18513e-05        -0.188724        0.112673      -0.00014061     7.31885e-06
                    -0.000266695     0.000201672         0.921959       -0.324326      -4.8578e-05    -0.000216241        0.0109394        0.189818
281712                  0.188057       -0.127581     -5.72479e-05    -0.000233396         0.807658        -0.53218     -0.000175985     5.52619e-05
                     -0.00012693     -0.00027801         0.112205        0.155164      0.000306097    -0.000115607         0.921648       -0.324638
                        0.807597       -0.532194      0.000247383    -7.23052e-05        -0.188575        0.112805     -0.000140749     7.32209e-06
                    -0.000266542     0.000201726         0.921849       -0.324621     -4.85755e-05    -0.000216179        0.0110638        0.189836
281714                  0.188024        -0.12752     -5.72699e-05    -0.000233177         0.807481       -0.532478     -0.000175977     5.53712e-05
                    -0.000126986    -0.000277901         0.112219        0.155185      0.000305975    -0.000115791         0.921538       -0.324933
                        0.807421       -0.532491      0.000247367    -7.27585e-05        -0.188425        0.112937     -0.000140886     7.32601e-06
                    -0.000266388     0.000201779          0.92174       -0.324915     -4.85739e-05    -0.000216117        0.0111881        0.189854
281716                   0.18799        -0.12746     -5.72914e-05    -0.000232958         0.807305       -0.532775     -0.000175969     5.54805e-05
                    -0.000127043    -0.000277791         0.112234        0.155206      0.000305851    -0.000115976         0.921428       -0.325228
                        0.807244       -0.532788      0.000247351    -7.32115e-05        -0.188276        0.113069     -0.000141023     7.33062e-06
                    -0.000266234     0.000201832         0.921631       -0.325209     -4.85734e-05    -0.000216055        0.0113125        0.189871
281718                  0.187957       -0.127401     -5.73126e-05     -0.00023274         0.807128       -0.533072     -0.000175963     5.55898e-05
                      -0.0001271    -0.000277681         0.112248        0.155226      0.000305728    -0.000116162         0.921319       -0.325522
                        0.807067       -0.533085      0.000247334     -7.3664e-05        -0.188127        0.113201      -0.00014116     7.33592e-06
                     -0.00026608     0.000201884         0.921521       -0.325504     -4.85743e-05    -0.000215992        0.0114369        0.189889
281720                  0.187924       -0.127341     -5.73333e-05    -0.000232521         0.806951       -0.533369     -0.000175957     5.56991e-05
                    -0.000127157    -0.000277571         0.112263        0.155247      0.000305605    -0.000116348         0.921209       -0.325817
                         0.80689       -0.533382      0.000247316    -7.41162e-05        -0.187977        0.113333     -0.000141295     7.34193e-06
                    -0.000265925     0.000201936         0.921411       -0.325798     -4.85768e-05    -0.000215928        0.0115614        0.189906
281722                   0.18789       -0.127281     -5.73537e-05    -0.000232303         0.806774       -0.533665     -0.000175951     5.58083e-05
                    -0.000127214    -0.000277461         0.112278        0.155268      0.000305482    -0.000116535         0.921099       -0.326111
                        0.806713       -0.533678      0.000247297    -7.45681e-05        -0.187828        0.113465     -0.000141429     7.34863e-06
                    -0.000265771     0.000201987         0.921302       -0.326092     -4.85803e-05     -0.00021586        0.0116859        0.189924
281724                  0.187857       -0.127221     -5.73736e-05    -0.000232085         0.806598       -0.533962     -0.000175947     5.59176e-05
                    -0.000127271    -0.000277351         0.112292        0.155289      0.000305359    -0.000116722         0.920989       -0.326406
                        0.806536       -0.533975      0.000247278    -7.50197e-05        -0.187679        0.113596     -0.000141563     7.35603e-06
                    -0.000265616     0.000202037         0.921192       -0.326387      -4.8583e-05    -0.000215789        0.0118104        0.189941
281726                  0.187824       -0.127161     -5.73931e-05    -0.000231866          0.80642       -0.534259     -0.000175943     5.60267e-05
                    -0.000127329     -0.00027724         0.112307         0.15531      0.000305237     -0.00011691         0.920879         -0.3267
                        0.806358       -0.534271      0.000247258    -7.54711e-05        -0.187529        0.113727     -0.000141696     7.36412e-06
                     -0.00026546     0.000202086         0.921082       -0.326681     -4.85824e-05    -0.000215714         0.011935        0.189958
281728                   0.18779       -0.127101     -5.74122e-05    -0.000231648         0.806243       -0.534555      -0.00017594     5.61358e-05
                    -0.000127387     -0.00027713         0.112321        0.155331      0.000305115    -0.000117097         0.920769       -0.326995
                        0.806181       -0.534568      0.000247237    -7.59221e-05        -0.187379        0.113858     -0.000141827     7.37289e-06
                    -0.000265305     0.000202135         0.920972       -0.326975     -4.85766e-05    -0.000215639        0.0120596        0.189975
281730                  0.187757       -0.127041     -5.74308e-05     -0.00023143         0.806066       -0.534851     -0.000175938     5.62447e-05
                    -0.000127445    -0.000277019         0.112336        0.155352      0.000304993    -0.000117285         0.920658       -0.327289
                        0.806003       -0.534864      0.000247215     -7.6373e-05         -0.18723        0.113989     -0.000141958     7.38234e-06
                    -0.000265149     0.000202184         0.920862       -0.327269     -4.85665e-05    -0.000215566        0.0121842        0.189992
281732                  0.187724       -0.126981     -5.74491e-05    -0.000231212         0.805889       -0.535148     -0.000175936     5.63536e-05
                    -0.000127503    -0.000276908          0.11235        0.155373      0.000304872    -0.000117472         0.920548       -0.327584
                        0.805826        -0.53516      0.000247192    -7.68235e-05         -0.18708         0.11412     -0.000142087     7.39245e-06
                    -0.000264993     0.000202232         0.920752       -0.327563     -4.85546e-05    -0.000215496        0.0123088        0.190009
281734                  0.187691       -0.126922      -5.7467e-05    -0.000230994         0.805711       -0.535444     -0.000175936     5.64623e-05
                    -0.000127562    -0.000276796         0.112365        0.155394      0.000304751    -0.000117659         0.920437       -0.327878
                        0.805648       -0.535456      0.000247169    -7.72739e-05        -0.186931        0.114251     -0.000142215     7.40321e-06
                    -0.000264837     0.000202279         0.920641       -0.327857     -4.85428e-05     -0.00021543        0.0124335        0.190026
281736                  0.187658       -0.126862     -5.74845e-05    -0.000230775         0.805534        -0.53574     -0.000175936     5.65708e-05
                    -0.000127621    -0.000276685          0.11238        0.155415      0.000304629    -0.000117845         0.920327       -0.328172
                         0.80547       -0.535752      0.000247145    -7.77239e-05        -0.186781        0.114381     -0.000142342     7.41459e-06
                     -0.00026468     0.000202325         0.920531       -0.328152     -4.85319e-05    -0.000215365        0.0125582        0.190043
281738                  0.187624       -0.126802     -5.75016e-05    -0.000230557         0.805356       -0.536036     -0.000175937     5.66792e-05
                     -0.00012768    -0.000276573         0.112394        0.155435      0.000304508    -0.000118032         0.920216       -0.328467
                        0.805293       -0.536048       0.00024712    -7.81738e-05        -0.186631        0.114511     -0.000142468     7.42657e-06
                    -0.000264523     0.000202371         0.920421       -0.328446     -4.85221e-05    -0.000215302         0.012683         0.19006
281740                  0.187591       -0.126742     -5.75183e-05    -0.000230339         0.805178       -0.536332     -0.000175939     5.67874e-05
                    -0.000127739    -0.000276461         0.112409        0.155456      0.000304387    -0.000118217         0.920105       -0.328761
                        0.805115       -0.536343      0.000247094    -7.86234e-05        -0.186481        0.114642     -0.000142593     7.43915e-06
                    -0.000264366     0.000202416          0.92031        -0.32874     -4.85133e-05    -0.000215239        0.0128078        0.190077
281742                  0.187558       -0.126683     -5.75346e-05    -0.000230121         0.805001       -0.536627     -0.000175942     5.68953e-05
                    -0.000127798    -0.000276349         0.112424        0.155477      0.000304266    -0.000118403         0.919994       -0.329055
                        0.804936       -0.536639      0.000247067    -7.90727e-05        -0.186331        0.114772     -0.000142716     7.45229e-06
                    -0.000264209     0.000202461         0.920199       -0.329034     -4.85053e-05    -0.000215177        0.0129326        0.190093
281744                  0.187525       -0.126623     -5.75505e-05    -0.000229903         0.804823       -0.536923     -0.000175945     5.70031e-05
                    -0.000127858    -0.000276237         0.112438        0.155498      0.000304145    -0.000118588         0.919883       -0.329349
                        0.804758       -0.536934       0.00024704    -7.95217e-05        -0.186182        0.114901     -0.000142838     7.46599e-06
                    -0.000264051     0.000202505         0.920088       -0.329327     -4.84979e-05    -0.000215115        0.0130575         0.19011
281746                  0.187492       -0.126563      -5.7566e-05    -0.000229685         0.804645       -0.537219      -0.00017595     5.71107e-05
                    -0.000127918    -0.000276125         0.112453        0.155519      0.000304024    -0.000118773         0.919772       -0.329643
                         0.80458        -0.53723      0.000247011    -7.99706e-05        -0.186032        0.115031     -0.000142959     7.48021e-06
                    -0.000263894     0.000202548         0.919978       -0.329621      -4.8491e-05    -0.000215053        0.0131823        0.190126
281748                  0.187459       -0.126504     -5.75811e-05    -0.000229467         0.804467       -0.537514     -0.000175955     5.72181e-05
                    -0.000127978    -0.000276012         0.112467         0.15554      0.000303903    -0.000118958         0.919661       -0.329938
                        0.804402       -0.537525      0.000246982    -8.04191e-05        -0.185882        0.115161     -0.000143079     7.49496e-06
                    -0.000263736     0.000202591         0.919867       -0.329915     -4.84845e-05     -0.00021499        0.0133073        0.190143
281750                  0.187427       -0.126444     -5.75958e-05    -0.000229249         0.804288       -0.537809     -0.000175961     5.73253e-05
                    -0.000128038    -0.000275899         0.112482        0.155561      0.000303782    -0.000119143          0.91955       -0.330232
                        0.804223        -0.53782      0.000246953    -8.08673e-05        -0.185732         0.11529     -0.000143197     7.51021e-06
                    -0.000263577     0.000202633         0.919755       -0.330209     -4.84782e-05    -0.000214928        0.0134322        0.190159
281752                  0.187394       -0.126385     -5.76101e-05    -0.000229031          0.80411       -0.538105     -0.000175968     5.74323e-05
                    -0.000128098    -0.000275786         0.112497        0.155582       0.00030366    -0.000119327         0.919438       -0.330526
                        0.804045       -0.538115      0.000246922    -8.13153e-05        -0.185582        0.115419     -0.000143315     7.52595e-06
                    -0.000263419     0.000202674         0.919644       -0.330503     -4.84721e-05    -0.000214866        0.0135572        0.190175
281754                  0.187361       -0.126325      -5.7624e-05    -0.000228813         0.803932         -0.5384     -0.000175975     5.75391e-05
                    -0.000128159    -0.000275673         0.112511        0.155603      0.000303539    -0.000119511         0.919327        -0.33082
                        0.803866        -0.53841      0.000246891     -8.1763e-05        -0.185431        0.115548     -0.000143431      7.5422e-06
                     -0.00026326     0.000202715         0.919533       -0.330797     -4.84663e-05    -0.000214804        0.0136822        0.190192
281756                  0.187328       -0.126266     -5.76376e-05    -0.000228595         0.803753       -0.538695     -0.000175984     5.76457e-05
                    -0.000128219    -0.000275559         0.112526        0.155624      0.000303417    -0.000119694         0.919215       -0.331114
                        0.803687       -0.538705      0.000246858    -8.22104e-05        -0.185281        0.115677     -0.000143546     7.55894e-06
                    -0.000263101     0.000202755         0.919422       -0.331091     -4.84605e-05    -0.000214741        0.0138072        0.190208
281758                  0.187295       -0.126206     -5.76507e-05    -0.000228377         0.803574        -0.53899     -0.000175993     5.77522e-05
                     -0.00012828    -0.000275446         0.112541        0.155645      0.000303296    -0.000119877         0.919103       -0.331408
                        0.803508          -0.539      0.000246825    -8.26575e-05        -0.185131        0.115806      -0.00014366      7.5762e-06
                    -0.000262942     0.000202795          0.91931       -0.331384     -4.84549e-05    -0.000214679        0.0139323        0.190224
281760                  0.187263       -0.126147     -5.76634e-05    -0.000228159         0.803396       -0.539285     -0.000176002     5.78585e-05
                    -0.000128341    -0.000275332         0.112555        0.155666      0.000303174     -0.00012006         0.918992       -0.331702
                         0.80333       -0.539295      0.000246792    -8.31043e-05        -0.184981        0.115935     -0.000143773     7.59398e-06
                    -0.000262782     0.000202834         0.919199       -0.331678     -4.84494e-05    -0.000214617        0.0140574         0.19024
281762                   0.18723       -0.126087     -5.76758e-05    -0.000227941         0.803217       -0.539579     -0.000176013     5.79648e-05
                    -0.000128403    -0.000275218          0.11257        0.155687      0.000303052    -0.000120243          0.91888       -0.331996
                         0.80315       -0.539589      0.000246757    -8.35508e-05        -0.184831        0.116063     -0.000143885     7.61231e-06
