! TOUCHSTONE file generated by CST MICROWAVE STUDIO
! Date and time: Tue Oct 14 17:38:33 2025
! Project name: Teste_Macro_Metasurface_Nanopilar.cst
! Parameters = {H=600; L_x=120; L_y=170; Lambda=1064; Max_L=200; Min_L=70; PathPara=1; Phi=0; Step_L=10; Theta=0; p=520; phaseX=180; phaseY=0}
! Header version: 2018
! Port assignment regex: !\s*Touchstone port\s*([0-9]+)\s*=\s*(CST MWS port|CST DS port)\s*([0-9]+|Zmin|Zmax)\s*\(\"(.*)\"\)(\s*mode\s*([0-9]+))?.*
! Touchstone port assignment:
! Touchstone port 1 = CST MWS port Zmax ("") mode 1
! Touchstone port 2 = CST MWS port Zmax ("") mode 2
! Touchstone port 3 = CST MWS port Zmin ("") mode 1
! Touchstone port 4 = CST MWS port Zmin ("") mode 2
! S-Parameters are not renormalized. Each port impedance will be approximated by the real part at minimum frequency. The values are described via the [Reference] keyword.
! Default impedance is overridden by [Reference]
[Version] 2.0
# GHz S RI R 376.73
[Number of Ports] 4
[Reference]
376.73 376.73 259.814 259.814 
[Number of Frequencies] 51
[Network Data]
281700                  0.390605       -0.327744     -0.000647916    -0.000361627         0.834884       -0.106212     -0.000239974     0.000611979
                    -0.000612483    -0.000349387        0.0722457       0.0799735      0.000348179      0.00114813         0.961156        0.230474
                        0.835094       -0.105677      0.000411085      0.00111289        -0.433737       -0.246238        0.0011266    -0.000666404
                    -0.000147983     0.000646074         0.960483        0.230818      0.000960812    -0.000714793       -0.0992303       0.0394334
281702                  0.390327       -0.327651     -0.000648584    -0.000361226         0.834996       -0.106734     -0.000239348     0.000612049
                    -0.000613029    -0.000348883        0.0722543       0.0799862      0.000349053      0.00114753         0.961232        0.230151
                        0.835206       -0.106199      0.000412012      0.00111223        -0.433755       -0.245661       0.00112604    -0.000666646
                    -0.000147521       0.0006462         0.960559        0.230494      0.000960502    -0.000714772       -0.0992175       0.0395075
281704                  0.390051       -0.327559      -0.00064925    -0.000360825         0.835108       -0.107256     -0.000238722     0.000612119
                    -0.000613575    -0.000348379        0.0722629        0.079999      0.000349926      0.00114693         0.961308        0.229827
                        0.835318        -0.10672      0.000412936      0.00111158        -0.433773       -0.245085       0.00112548    -0.000666887
                    -0.000147059     0.000646325         0.960636        0.230171      0.000960194    -0.000714752       -0.0992046       0.0395817
281706                  0.389774       -0.327466     -0.000649914    -0.000360425          0.83522       -0.107778     -0.000238096     0.000612189
                     -0.00061412    -0.000347874        0.0722715       0.0800117      0.000350799      0.00114633         0.961384        0.229504
                        0.835429       -0.107242      0.000413858      0.00111092        -0.433791       -0.244509       0.00112492    -0.000667127
                    -0.000146597     0.000646449         0.960712        0.229847      0.000959886    -0.000714731       -0.0991916       0.0396559
281708                  0.389498       -0.327373     -0.000650577    -0.000360024          0.83533       -0.108299      -0.00023747     0.000612259
                    -0.000614664    -0.000347368        0.0722802       0.0800244      0.000351671      0.00114572          0.96146         0.22918
                         0.83554       -0.107763      0.000414778      0.00111027        -0.433807       -0.243933       0.00112436    -0.000667368
                    -0.000146135     0.000646574         0.960788        0.229524      0.000959579     -0.00071471       -0.0991786         0.03973
281710                  0.389222        -0.32728     -0.000651237    -0.000359623         0.835441       -0.108821     -0.000236843     0.000612328
                    -0.000615207    -0.000346862        0.0722888       0.0800372      0.000352542      0.00114512         0.961536        0.228857
                         0.83565       -0.108284      0.000415695      0.00110962        -0.433823       -0.243358        0.0011238    -0.000667608
                    -0.000145673     0.000646698         0.960864          0.2292      0.000959272     -0.00071469       -0.0991655       0.0398042
281712                  0.388946       -0.327187     -0.000651895    -0.000359223          0.83555       -0.109342     -0.000236216     0.000612397
                     -0.00061575    -0.000346356        0.0722974       0.0800499      0.000353412      0.00114452         0.961611        0.228533
                        0.835759       -0.108806       0.00041661      0.00110897        -0.433839       -0.242783       0.00112323    -0.000667848
                    -0.000145211     0.000646821         0.960939        0.228877      0.000958967    -0.000714669       -0.0991524       0.0398783
281714                  0.388671       -0.327094     -0.000652552    -0.000358823          0.83566       -0.109863      -0.00023559     0.000612466
                    -0.000616292    -0.000345849        0.0723061       0.0800626      0.000354282      0.00114392         0.961687         0.22821
                        0.835868       -0.109327      0.000417523      0.00110832        -0.433854       -0.242208       0.00112267    -0.000668087
                    -0.000144749     0.000646945         0.961015        0.228553      0.000958662    -0.000714648       -0.0991393       0.0399525
281716                  0.388396       -0.327001     -0.000653206    -0.000358423         0.835768       -0.110384     -0.000234962     0.000612534
                    -0.000616833    -0.000345342        0.0723147       0.0800753       0.00035515      0.00114331         0.961762        0.227886
                        0.835976       -0.109848      0.000418434      0.00110768        -0.433868       -0.241634       0.00112211    -0.000668327
                    -0.000144287     0.000647068         0.961091        0.228229      0.000958357    -0.000714628        -0.099126       0.0400266
281718                  0.388121       -0.326907     -0.000653859    -0.000358023         0.835876       -0.110905     -0.000234335     0.000612602
                    -0.000617373    -0.000344834        0.0723233       0.0800881      0.000356018      0.00114271         0.961837        0.227562
                        0.836084       -0.110369      0.000419342      0.00110703        -0.433881       -0.241061       0.00112155    -0.000668566
                    -0.000143825     0.000647191         0.961166        0.227906      0.000958054    -0.000714607       -0.0991128       0.0401008
281720                  0.387846       -0.326814      -0.00065451    -0.000357624         0.835984       -0.111426     -0.000233708      0.00061267
                    -0.000617912    -0.000344326         0.072332       0.0801008      0.000356885       0.0011421         0.961913        0.227239
                        0.836192       -0.110889      0.000420249      0.00110639        -0.433894       -0.240488       0.00112099    -0.000668804
                    -0.000143364     0.000647313         0.961242        0.227582      0.000957751    -0.000714586       -0.0990994       0.0401749
281722                  0.387572        -0.32672     -0.000655159    -0.000357225         0.836091       -0.111947      -0.00023308     0.000612737
                    -0.000618451    -0.000343817        0.0723406       0.0801135      0.000357752       0.0011415         0.961988        0.226915
                        0.836298        -0.11141      0.000421153      0.00110575        -0.433907       -0.239915       0.00112043    -0.000669043
                    -0.000142902     0.000647436         0.961317        0.227258      0.000957449    -0.000714566        -0.099086       0.0402491
281724                  0.387299       -0.326626     -0.000655806    -0.000356826         0.836197       -0.112468     -0.000232452     0.000612804
                    -0.000618989    -0.000343308        0.0723493       0.0801262      0.000358617      0.00114089         0.962063        0.226591
                        0.836405       -0.111931      0.000422056      0.00110512        -0.433919       -0.239343       0.00111986    -0.000669281
                     -0.00014244     0.000647558         0.961392        0.226934      0.000957148    -0.000714545       -0.0990726       0.0403232
281726                  0.387025       -0.326532     -0.000656452    -0.000356427         0.836303       -0.112989     -0.000231824     0.000612871
                    -0.000619526    -0.000342799        0.0723579       0.0801389      0.000359482      0.00114028         0.962138        0.226268
                         0.83651       -0.112451      0.000422956      0.00110448         -0.43393       -0.238771        0.0011193    -0.000669519
                    -0.000141978     0.000647679         0.961467        0.226611      0.000956847    -0.000714525       -0.0990591       0.0403973
281728                  0.386752       -0.326439     -0.000657095    -0.000356029         0.836409       -0.113509     -0.000231196     0.000612937
                    -0.000620063    -0.000342289        0.0723665       0.0801517      0.000360346      0.00113967         0.962212        0.225944
                        0.836616       -0.112971      0.000423854      0.00110385         -0.43394         -0.2382       0.00111874    -0.000669757
                    -0.000141517     0.000647801         0.961542        0.226287      0.000956547    -0.000714504       -0.0990456       0.0404714
281730                  0.386479       -0.326344     -0.000657737    -0.000355631         0.836513        -0.11403     -0.000230567     0.000613003
                    -0.000620598    -0.000341779        0.0723752       0.0801644       0.00036121      0.00113906         0.962287         0.22562
                         0.83672       -0.113492       0.00042475      0.00110322         -0.43395       -0.237629       0.00111818    -0.000669994
                    -0.000141056     0.000647922         0.961617        0.225963      0.000956248    -0.000714483        -0.099032       0.0405456
281732                  0.386207        -0.32625     -0.000658377    -0.000355234         0.836618        -0.11455     -0.000229939     0.000613068
                    -0.000621133    -0.000341268        0.0723838       0.0801771      0.000362072      0.00113846         0.962361        0.225296
                        0.836824       -0.114012      0.000425645      0.00110259         -0.43396       -0.237058       0.00111762    -0.000670231
                    -0.000140594     0.000648043         0.961691        0.225639      0.000955949    -0.000714463       -0.0990183       0.0406197
281734                  0.385935       -0.326156     -0.000659015    -0.000354837         0.836721        -0.11507      -0.00022931     0.000613133
                    -0.000621667    -0.000340756        0.0723925       0.0801898      0.000362934      0.00113785         0.962436        0.224973
                        0.836928       -0.114532      0.000426537      0.00110196        -0.433968       -0.236488       0.00111705    -0.000670467
                    -0.000140133     0.000648163         0.961766        0.225315      0.000955651    -0.000714442       -0.0990046       0.0406938
281736                  0.385663       -0.326062     -0.000659651     -0.00035444         0.836825        -0.11559     -0.000228681     0.000613198
                      -0.0006222    -0.000340245        0.0724012       0.0802025      0.000363795      0.00113723          0.96251        0.224649
                        0.837031       -0.115052      0.000427427      0.00110134        -0.433976       -0.235919       0.00111649    -0.000670704
                    -0.000139672     0.000648284          0.96184        0.224991      0.000955354    -0.000714422       -0.0989908       0.0407679
281738                  0.385391       -0.325967     -0.000660286    -0.000354044         0.836927        -0.11611     -0.000228052     0.000613263
                    -0.000622733    -0.000339733        0.0724098       0.0802152      0.000364655      0.00113662         0.962584        0.224325
                        0.837133       -0.115572      0.000428316      0.00110071        -0.433984        -0.23535       0.00111593     -0.00067094
                    -0.000139212     0.000648404         0.961914        0.224668      0.000955058    -0.000714401        -0.098977        0.040842
281740                   0.38512       -0.325873     -0.000660919    -0.000353648         0.837029        -0.11663     -0.000227422     0.000613327
                    -0.000623265     -0.00033922        0.0724185       0.0802279      0.000365514      0.00113601         0.962658        0.224001
                        0.837235       -0.116091      0.000429203      0.00110009        -0.433991       -0.234781       0.00111537    -0.000671175
                    -0.000138751     0.000648524         0.961989        0.224344      0.000954762    -0.000714381       -0.0989631       0.0409161
281742                  0.384849       -0.325778      -0.00066155    -0.000353252         0.837131        -0.11715     -0.000226793      0.00061339
                    -0.000623796    -0.000338707        0.0724271       0.0802406      0.000366373       0.0011354         0.962732        0.223677
                        0.837336       -0.116611      0.000430088      0.00109947        -0.433997       -0.234213        0.0011148    -0.000671411
                    -0.000138291     0.000648643         0.962063         0.22402      0.000954467     -0.00071436       -0.0989492       0.0409902
281744                  0.384579       -0.325683     -0.000662179    -0.000352857         0.837232       -0.117669     -0.000226163     0.000613454
                    -0.000624326    -0.000338194        0.0724358       0.0802533       0.00036723      0.00113479         0.962806        0.223354
                        0.837437       -0.117131      0.000430972      0.00109886        -0.434003       -0.233645       0.00111424    -0.000671646
                    -0.000137831     0.000648762         0.962137        0.223696      0.000954173     -0.00071434       -0.0989352       0.0410643
281746                  0.384309       -0.325589     -0.000662806    -0.000352463         0.837332       -0.118189     -0.000225534     0.000613517
                    -0.000624856     -0.00033768        0.0724445        0.080266      0.000368087      0.00113417          0.96288         0.22303
                        0.837538        -0.11765      0.000431854      0.00109824        -0.434008       -0.233078       0.00111368    -0.000671881
                    -0.000137371     0.000648881         0.962211        0.223372       0.00095388    -0.000714319       -0.0989212       0.0411384
281748                  0.384039       -0.325494     -0.000663431    -0.000352069         0.837432       -0.118708     -0.000224904     0.000613579
                    -0.000625384    -0.000337166        0.0724531       0.0802787      0.000368944      0.00113356         0.962954        0.222706
                        0.837637       -0.118169      0.000432737      0.00109763        -0.434013       -0.232511       0.00111311    -0.000672115
                    -0.000136912        0.000649         0.962284        0.223048      0.000953587    -0.000714299       -0.0989071       0.0412125
281750                  0.383769       -0.325399     -0.000664054    -0.000351676         0.837532       -0.119228     -0.000224274     0.000613641
                    -0.000625911    -0.000336651        0.0724618       0.0802914      0.000369799      0.00113294         0.963027        0.222382
                        0.837737       -0.118689       0.00043362      0.00109703        -0.434017       -0.231944       0.00111255    -0.000672349
                    -0.000136452     0.000649118         0.962358        0.222724      0.000953295    -0.000714279        -0.098893       0.0412866
281752                    0.3835       -0.325303     -0.000664674    -0.000351284         0.837631       -0.119747     -0.000223644     0.000613703
                    -0.000626439    -0.000336137        0.0724704       0.0803041      0.000370654      0.00113233         0.963101        0.222058
                        0.837835       -0.119208      0.000434508      0.00109643         -0.43402       -0.231378       0.00111199    -0.000672583
                    -0.000135994     0.000649236         0.962432          0.2224      0.000953003    -0.000714259       -0.0988788       0.0413607
281754                  0.383231       -0.325208      -0.00066529    -0.000350894         0.837729       -0.120266     -0.000223014     0.000613764
                    -0.000626966    -0.000335622        0.0724791       0.0803168      0.000371508      0.00113171         0.963174        0.221734
                        0.837933       -0.119727      0.000435419      0.00109585        -0.434023       -0.230813       0.00111143    -0.000672816
                    -0.000135535     0.000649354         0.962505        0.222076      0.000952712    -0.000714238       -0.0988645       0.0414348
281756                  0.382962       -0.325113     -0.000665901    -0.000350511         0.837827       -0.120785     -0.000222384     0.000613825
                    -0.000627492    -0.000335106        0.0724878       0.0803295      0.000372361      0.00113109         0.963247         0.22141
                        0.838031       -0.120245       0.00043686      0.00109532        -0.434025       -0.230247       0.00111086    -0.000673049
                    -0.000135078     0.000649472         0.962578        0.221754      0.000952422    -0.000714218       -0.0988502       0.0415089
281758                  0.382694       -0.325017     -0.000666521    -0.000350152         0.837924       -0.121304     -0.000221754     0.000613886
                    -0.000628017     -0.00033459        0.0724966       0.0803422      0.000373213      0.00113047          0.96332        0.221086
                        0.838128       -0.120764      0.000436977      0.00109449        -0.434027       -0.229683        0.0011103    -0.000673282
                     -0.00013462     0.000649589         0.962652        0.221427      0.000952133    -0.000714198       -0.0988358       0.0415829
281760                  0.382426       -0.324922     -0.000667185    -0.000349761         0.838021       -0.121823     -0.000221124     0.000613946
                    -0.000628541    -0.000334073        0.0725052       0.0803549      0.000374065      0.00112986         0.963393        0.220762
                        0.838225       -0.121283      0.000437895      0.00109394        -0.434028       -0.229118       0.00110974    -0.000673514
                    -0.000134163     0.000649706         0.962725        0.221103      0.000951844    -0.000714178       -0.0988214        0.041657
281762                  0.382158       -0.324826     -0.000667805    -0.000349346         0.838117       -0.122341     -0.000220494     0.000614005
                    -0.000629065    -0.000333556        0.0725139       0.0803676      0.000374916      0.00112924         0.963466        0.220438
                        0.838321       -0.121801      0.000438776      0.00109336        -0.434028       -0.228555       0.00110917    -0.000673746
