! TOUCHSTONE file generated by CST MICROWAVE STUDIO
! Date and time: Tue Oct 14 17:38:22 2025
! Project name: Teste_Macro_Metasurface_Nanopilar.cst
! Parameters = {H=600; L_x=110; L_y=100; Lambda=1064; Max_L=200; Min_L=70; PathPara=1; Phi=0; Step_L=10; Theta=0; p=520; phaseX=180; phaseY=0}
! Header version: 2018
! Port assignment regex: !\s*Touchstone port\s*([0-9]+)\s*=\s*(CST MWS port|CST DS port)\s*([0-9]+|Zmin|Zmax)\s*\(\"(.*)\"\)(\s*mode\s*([0-9]+))?.*
! Touchstone port assignment:
! Touchstone port 1 = CST MWS port Zmax ("") mode 1
! Touchstone port 2 = CST MWS port Zmax ("") mode 2
! Touchstone port 3 = CST MWS port Zmin ("") mode 1
! Touchstone port 4 = CST MWS port Zmin ("") mode 2
! S-Parameters are not renormalized. Each port impedance will be approximated by the real part at minimum frequency. The values are described via the [Reference] keyword.
! Default impedance is overridden by [Reference]
[Version] 2.0
# GHz S RI R 376.73
[Number of Ports] 4
[Reference]
376.73 376.73 259.814 259.814 
[Number of Frequencies] 51
[Network Data]
281700               -0.00664236       0.0263028     -0.000103806     2.92972e-05         -0.69155       -0.717732      0.000261939    -0.000153683
                    -4.73797e-05    -7.99736e-05        0.0616803       0.0733257       0.00025589    -0.000286353        -0.917807       -0.374583
                       -0.691763       -0.718038      0.000316344    -0.000355745       -0.0265791      0.00656417     -6.11348e-05    -0.000202757
                     0.000222916    -0.000323094        -0.917839       -0.374498      9.75274e-05    -7.80996e-05       -0.0949209       0.0103894
281702                 -0.006642       0.0263181     -0.000103854      2.9572e-05        -0.691755       -0.717534      0.000262263    -0.000153866
                    -4.71275e-05    -8.00276e-05        0.0616948       0.0733339      0.000255882    -0.000286463        -0.917924       -0.374289
                       -0.691968        -0.71784       0.00031629    -0.000356056       -0.0265908      0.00657858     -6.14695e-05    -0.000202677
                     0.000222767    -0.000323016        -0.917956       -0.374205      9.73843e-05    -7.81224e-05       -0.0949305       0.0104458
281704               -0.00664165       0.0263335       -0.0001039     2.98464e-05         -0.69196       -0.717335      0.000238072    -0.000218056
                    -4.69014e-05    -8.00745e-05        0.0617094       0.0733421      0.000255873    -0.000286573        -0.918048       -0.373993
                       -0.692173       -0.717641       0.00031623    -0.000356371       -0.0266025      0.00659301     -6.90083e-05    -0.000140503
                     0.000222573     -0.00032306        -0.918074       -0.373911      9.72402e-05     -7.8148e-05       -0.0949402       0.0105026
281706                -0.0066413       0.0263488     -0.000103944     3.01204e-05        -0.692165       -0.717137      0.000220547    -0.000262799
                    -4.66955e-05     -8.0121e-05        0.0617239       0.0733503      0.000255861    -0.000286684         -0.91818       -0.373694
                       -0.692378       -0.717443      0.000316163    -0.000356686       -0.0266143      0.00660745     -3.80509e-05    -0.000104464
                     0.000222551    -0.000323097        -0.918191       -0.373618       9.7095e-05    -7.81827e-05       -0.0949502       0.0105603
281708               -0.00664095       0.0263642     -0.000103987      3.0394e-05         -0.69237       -0.716938      0.000212241    -0.000284367
                    -4.65046e-05    -8.01703e-05        0.0617385       0.0733584      0.000255848    -0.000286798        -0.918329       -0.373386
                       -0.692583       -0.717244      0.000316088    -0.000356997        -0.026626      0.00662189       -1.926e-05    -9.69179e-05
                     0.000222502    -0.000323048        -0.918309       -0.373325       9.6985e-05    -7.82743e-05       -0.0949607       0.0106192
281710                -0.0066406       0.0263795     -0.000104028      3.0667e-05        -0.692571       -0.716738      0.000208349    -0.000294958
                    -4.63247e-05    -8.02237e-05         0.061753       0.0733666      0.000255835    -0.000286916        -0.918513       -0.373056
                       -0.692788       -0.717046      0.000316008      -0.0003573       -0.0266378      0.00663623     -1.05783e-05    -9.51867e-05
                     0.000222426    -0.000322994        -0.918426       -0.373031      9.68745e-05    -7.81535e-05       -0.0949717       0.0106805
281712               -0.00664024       0.0263949     -0.000104068     3.09394e-05        -0.692779        -0.71654      0.000206417    -0.000300607
                    -4.61527e-05    -8.02814e-05        0.0617676       0.0733748      0.000255826    -0.000287038        -0.918789       -0.372619
                       -0.692993       -0.716847      0.000315929    -0.000357596       -0.0266493      0.00665093     -6.30178e-06    -9.46245e-05
                     0.000222341    -0.000322942        -0.918543       -0.372738      9.66966e-05     -7.8189e-05       -0.0949828       0.0107474
281714               -0.00663989       0.0264102     -0.000104106     3.12111e-05        -0.692984       -0.716341      0.000205412    -0.000303869
                    -4.59863e-05    -8.03432e-05        0.0617822       0.0733829      0.000255824     -0.00028716        -0.918685       -0.371372
                       -0.693198       -0.716648      0.000315853    -0.000357886        -0.026661      0.00666539      -4.0396e-06    -9.43595e-05
                     0.000222253    -0.000322893         -0.91866       -0.372445      9.65455e-05    -7.82163e-05       -0.0949879       0.0108291
281716               -0.00663954       0.0264256     -0.000104143     3.14822e-05        -0.693189       -0.716142      0.000204878    -0.000305884
                     -4.5824e-05    -8.04088e-05        0.0617967       0.0733911      0.000255824    -0.000287277         -0.91803       -0.372026
                       -0.693403       -0.716449      0.000315782    -0.000358173       -0.0266727      0.00667989     -2.79031e-06    -9.41925e-05
                     0.000222163    -0.000322845        -0.918777       -0.372151      9.63987e-05    -7.82403e-05        -0.094932       0.0109165
281718               -0.00663919        0.026441     -0.000104179     3.17526e-05        -0.693393       -0.715943      0.000204601    -0.000307201
                    -4.56644e-05    -8.04775e-05        0.0618113       0.0733992      0.000255825    -0.000287391        -0.918387       -0.371923
                       -0.693607        -0.71625      0.000315714    -0.000358461       -0.0266843       0.0066944     -2.09353e-06    -9.40684e-05
                     0.000222071    -0.000322798        -0.918894       -0.371858      9.62532e-05     -7.8263e-05       -0.0949133        0.010886
281720               -0.00663883       0.0264563     -0.000104214     3.20222e-05        -0.693598       -0.715744      0.000204473    -0.000308104
                     -4.5507e-05    -8.05491e-05        0.0618259       0.0734074      0.000255825    -0.000287501        -0.918598       -0.371663
                       -0.693812       -0.716051      0.000315649    -0.000358749        -0.026696      0.00670893     -1.71823e-06    -9.39683e-05
                     0.000221979    -0.000322751        -0.919011       -0.371564      9.61081e-05     -7.8285e-05       -0.0949561       0.0109225
281722               -0.00663848       0.0264717     -0.000104247      3.2291e-05        -0.693802       -0.715545      0.000204433    -0.000308752
                    -4.53509e-05     -8.0623e-05        0.0618404       0.0734155      0.000255823    -0.000287611         -0.91876       -0.371379
                       -0.694017       -0.715852      0.000315586    -0.000359038       -0.0267077      0.00672347     -1.53974e-06    -9.38847e-05
                     0.000221887    -0.000322705        -0.919128        -0.37127      9.59632e-05    -7.83067e-05       -0.0949802       0.0109784
281724               -0.00663812       0.0264871      -0.00010428     3.25591e-05        -0.694007       -0.715345      0.000204448    -0.000309235
                    -4.51959e-05    -8.06988e-05         0.061855       0.0734236       0.00025582     -0.00028772        -0.918902        -0.37109
                       -0.694221       -0.715653      0.000315524    -0.000359328       -0.0267193      0.00673802     -1.48676e-06    -9.38133e-05
                     0.000221795    -0.000322659        -0.919244       -0.370977      9.58182e-05    -7.83282e-05       -0.0949966        0.011036
281726               -0.00663777       0.0265025     -0.000104312     3.28263e-05        -0.694211       -0.715146      0.000204499    -0.000309608
                    -4.50415e-05    -8.07763e-05        0.0618696       0.0734318      0.000255816    -0.000287829        -0.919034       -0.370798
                       -0.694426       -0.715454      0.000315462     -0.00035962       -0.0267309      0.00675259     -1.51647e-06    -9.37516e-05
                     0.000221702    -0.000322613        -0.919361       -0.370683      9.56732e-05    -7.83496e-05       -0.0950096       0.0110935
281728               -0.00663741       0.0265179     -0.000104343     3.30927e-05        -0.694416       -0.714947      0.000204573    -0.000309907
                    -4.48875e-05    -8.08552e-05        0.0618842       0.0734399      0.000255811    -0.000287937         -0.91916       -0.370505
                        -0.69463       -0.715254      0.000315401    -0.000359912       -0.0267426      0.00676717     -1.60216e-06    -9.36979e-05
                     0.000221609    -0.000322568        -0.919477       -0.370389      9.55281e-05    -7.83709e-05       -0.0950211       0.0111508
281730               -0.00663705       0.0265332     -0.000104374     3.33583e-05         -0.69462       -0.714747      0.000204661    -0.000310154
                    -4.47339e-05    -8.09352e-05        0.0618988        0.073448      0.000255806    -0.000288045        -0.919283       -0.370212
                       -0.694835       -0.715055       0.00031534    -0.000360206       -0.0267542      0.00678176     -1.72655e-06    -9.36509e-05
                     0.000221516    -0.000322522        -0.919594       -0.370096      9.53828e-05    -7.83921e-05       -0.0950317       0.0112078
281732               -0.00663668       0.0265486     -0.000104404      3.3623e-05        -0.694824       -0.714548      0.000204761    -0.000310364
                    -4.45804e-05    -8.10162e-05        0.0619133       0.0734562      0.000255801    -0.000288154        -0.919404       -0.369918
                       -0.695039       -0.714855      0.000315278      -0.0003605       -0.0267658      0.00679637     -1.87821e-06    -9.36093e-05
                     0.000221423    -0.000322477         -0.91971       -0.369802      9.52374e-05    -7.84134e-05       -0.0950417       0.0112647
281734               -0.00663632        0.026564     -0.000104434     3.38869e-05        -0.695029       -0.714348      0.000204867    -0.000310547
                     -4.4427e-05    -8.10979e-05        0.0619279       0.0734643      0.000255796    -0.000288262        -0.919523       -0.369624
                       -0.695243       -0.714656      0.000315217    -0.000360795       -0.0267774      0.00681099     -2.04933e-06    -9.35723e-05
                      0.00022133    -0.000322432        -0.919826       -0.369508      9.50918e-05    -7.84345e-05       -0.0950514       0.0113215
281736               -0.00663595       0.0265794     -0.000104463       3.415e-05        -0.695233       -0.714149      0.000204977    -0.000310711
                    -4.42737e-05    -8.11803e-05        0.0619425       0.0734724       0.00025579    -0.000288369        -0.919641        -0.36933
                       -0.695448       -0.714456      0.000315155    -0.000361091        -0.026789      0.00682562     -2.23452e-06    -9.35393e-05
                     0.000221236    -0.000322387        -0.919942       -0.369214       9.4946e-05    -7.84557e-05       -0.0950609       0.0113782
281738               -0.00663558       0.0265948     -0.000104493     3.44123e-05        -0.695437       -0.713949      0.000205091    -0.000310861
                    -4.41204e-05    -8.12631e-05        0.0619571       0.0734805      0.000255784    -0.000288477        -0.919759       -0.369036
                       -0.695652       -0.714257      0.000315093    -0.000361388       -0.0268006      0.00684026     -2.42997e-06    -9.35095e-05
                     0.000221143    -0.000322341        -0.920058        -0.36892         9.48e-05    -7.84768e-05       -0.0950701       0.0114348
281740                -0.0066352       0.0266102     -0.000104522     3.46737e-05        -0.695641       -0.713749      0.000205206    -0.000311001
                    -4.39671e-05    -8.13464e-05        0.0619717       0.0734886      0.000255778    -0.000288585        -0.919875       -0.368742
                       -0.695856       -0.714057       0.00031503    -0.000361685       -0.0268122      0.00685491     -2.63293e-06    -9.34825e-05
                     0.000221049    -0.000322296        -0.920174       -0.368626      9.46539e-05    -7.84979e-05       -0.0950793       0.0114914
281742               -0.00663482       0.0266256     -0.000104552     3.49343e-05        -0.695845        -0.71355      0.000205323    -0.000311133
                     -4.3814e-05    -8.14299e-05        0.0619863       0.0734967      0.000255772    -0.000288692        -0.919992       -0.368448
                        -0.69606       -0.713857      0.000314968    -0.000361983       -0.0268238      0.00686958     -2.84142e-06    -9.34577e-05
                     0.000220955     -0.00032225         -0.92029       -0.368332      9.45076e-05     -7.8519e-05       -0.0950883        0.011548
281744               -0.00663444        0.026641     -0.000104582     3.51939e-05        -0.696049        -0.71335      0.000205441    -0.000311259
                    -4.36611e-05    -8.15137e-05        0.0620009       0.0735048      0.000255766      -0.0002888        -0.920108       -0.368154
                       -0.696264       -0.713657      0.000314905    -0.000362281       -0.0268353      0.00688426     -3.05398e-06    -9.34349e-05
                     0.000220861    -0.000322204        -0.920406       -0.368038      9.43611e-05    -7.85401e-05       -0.0950972       0.0116046
281746               -0.00663406       0.0266563     -0.000104613     3.54527e-05        -0.696253        -0.71315      0.000205558    -0.000311381
                    -4.35085e-05    -8.15975e-05        0.0620155       0.0735129       0.00025576    -0.000288907        -0.920224       -0.367859
                       -0.696468       -0.713457      0.000314841     -0.00036258       -0.0268469      0.00689896     -3.26953e-06    -9.34138e-05
                     0.000220765    -0.000322156        -0.920521       -0.367744      9.42145e-05    -7.85611e-05       -0.0951061       0.0116612
281748               -0.00663367       0.0266717     -0.000104647     3.57107e-05        -0.696457        -0.71295      0.000205676      -0.0003115
                    -4.33566e-05    -8.16811e-05        0.0620302        0.073521      0.000255754    -0.000289014        -0.920339       -0.367565
                       -0.696672       -0.713257      0.000314778     -0.00036288       -0.0268584      0.00691366     -3.48725e-06     -9.3394e-05
                     0.000220668    -0.000322105        -0.920637        -0.36745      9.40676e-05    -7.85821e-05       -0.0951149       0.0117178
281750               -0.00663328       0.0266871     -0.000104683     3.59687e-05         -0.69666        -0.71275      0.000205794    -0.000311616
                    -4.32055e-05    -8.17644e-05        0.0620448       0.0735291      0.000255748    -0.000289121        -0.920455        -0.36727
                       -0.696876       -0.713057      0.000314714    -0.000363181         -0.02687      0.00692838     -3.70654e-06    -9.33752e-05
                      0.00022057    -0.000322042        -0.920752       -0.367156      9.39206e-05    -7.86031e-05       -0.0951237       0.0117744
281752               -0.00663288       0.0267025     -0.000104724     3.62294e-05        -0.696864        -0.71255      0.000205912    -0.000311731
                    -4.30557e-05    -8.18466e-05        0.0620594       0.0735372      0.000255742    -0.000289228         -0.92057       -0.366976
                        -0.69708       -0.712857       0.00031465    -0.000363482       -0.0268815      0.00694311     -3.92692e-06    -9.33574e-05
                      0.00022052     -0.00032196        -0.920868       -0.366862      9.37734e-05     -7.8624e-05       -0.0951324        0.011831
281754               -0.00663248       0.0267179     -0.000104769     3.64988e-05        -0.697068        -0.71235      0.000206029    -0.000311845
                    -4.29075e-05    -8.19267e-05         0.062074       0.0735452      0.000255736    -0.000289335        -0.920685       -0.366681
                       -0.697284       -0.712657      0.000314585    -0.000363786        -0.026893      0.00695785     -4.14805e-06    -9.33403e-05
                     0.000220455    -0.000321972        -0.920983       -0.366568       9.3626e-05    -7.86448e-05       -0.0951411       0.0118876
281756               -0.00663207       0.0267333     -0.000104807     3.67802e-05        -0.697271       -0.712149      0.000206146    -0.000311958
                    -4.27605e-05    -8.20031e-05        0.0620887       0.0735534       0.00025573    -0.000289441          -0.9208       -0.366387
                       -0.697487       -0.712457      0.000314521    -0.000364092       -0.0269046      0.00697261     -4.36966e-06    -9.33238e-05
                     0.000220345    -0.000321942        -0.921098       -0.366273      9.34785e-05    -7.86656e-05       -0.0951497       0.0119442
281758               -0.00663166       0.0267487     -0.000104829      3.7061e-05        -0.697475       -0.711949      0.000206262     -0.00031207
                    -4.26128e-05    -8.20734e-05        0.0621033       0.0735614      0.000255724    -0.000289548        -0.920915       -0.366092
                       -0.697691       -0.712257      0.000314455    -0.000364401       -0.0269161      0.00698738     -4.59154e-06    -9.33077e-05
                     0.000220244      -0.0003219        -0.921213       -0.365979      9.33308e-05    -7.86864e-05       -0.0951583       0.0120009
281760               -0.00663125        0.026764     -0.000104846     3.73312e-05        -0.697678       -0.711749      0.000206378    -0.000312183
                    -4.24601e-05    -8.21372e-05        0.0621179       0.0735695      0.000255718    -0.000289654         -0.92103       -0.365798
                       -0.697895       -0.712056      0.000314386    -0.000364717       -0.0269276      0.00700216     -4.81353e-06    -9.32919e-05
                     0.000220147    -0.000321856        -0.921328       -0.365684      9.31829e-05    -7.87071e-05       -0.0951669       0.0120575
281762               -0.00663083       0.0267794     -0.000104865     3.75944e-05        -0.697882       -0.711548      0.000206494    -0.000312295
                    -4.22975e-05    -8.21985e-05        0.0621325       0.0735775      0.000255712     -0.00028976        -0.921145       -0.365503
                       -0.698098       -0.711856      0.000314307    -0.000365045       -0.0269391      0.00701695     -5.03551e-06    -9.32763e-05
