! TOUCHSTONE file generated by CST MICROWAVE STUDIO
! Date and time: Tue Oct 14 17:38:47 2025
! Project name: Teste_Macro_Metasurface_Nanopilar.cst
! Parameters = {H=600; L_x=140; L_y=170; Lambda=1064; Max_L=200; Min_L=70; PathPara=1; Phi=0; Step_L=10; Theta=0; p=520; phaseX=180; phaseY=0}
! Header version: 2018
! Port assignment regex: !\s*Touchstone port\s*([0-9]+)\s*=\s*(CST MWS port|CST DS port)\s*([0-9]+|Zmin|Zmax)\s*\(\"(.*)\"\)(\s*mode\s*([0-9]+))?.*
! Touchstone port assignment:
! Touchstone port 1 = CST MWS port Zmax ("") mode 1
! Touchstone port 2 = CST MWS port Zmax ("") mode 2
! Touchstone port 3 = CST MWS port Zmin ("") mode 1
! Touchstone port 4 = CST MWS port Zmin ("") mode 2
! S-Parameters are not renormalized. Each port impedance will be approximated by the real part at minimum frequency. The values are described via the [Reference] keyword.
! Default impedance is overridden by [Reference]
[Version] 2.0
# GHz S RI R 376.73
[Number of Ports] 4
[Reference]
376.73 376.73 259.814 259.814 
[Number of Frequencies] 51
[Network Data]
281700                  0.171717       -0.042489      0.000981013     0.000796654         0.710716       -0.674282      -0.00154567      0.00053065
                      0.00108113      0.00142794         0.886559        0.251721     -0.000194599      0.00207144        0.0489804       -0.107121
                        0.710882       -0.674298     -0.000716152      0.00120882       -0.0510563        0.163871      0.000683663     -0.00159411
                     -0.00201337    -1.45812e-05        0.0494916       -0.107371      -0.00110747      -0.0023656         0.414986       -0.786213
281702                  0.171711      -0.0424615      0.000983258     0.000794026         0.710509       -0.674506      -0.00154475     0.000535294
                      0.00108702      0.00142674         0.887121        0.250188     -0.000190738      0.00207787        0.0495714       -0.105403
                        0.710675       -0.674521       -0.0007144       0.0012113       -0.0509267        0.163899      0.000680355     -0.00159648
                     -0.00201846    -8.09831e-06        0.0500836       -0.105634      -0.00110951     -0.00237154         0.412729       -0.787514
281704                  0.171704       -0.042434      0.000985517     0.000791389         0.710301       -0.674729       -0.0015438     0.000540157
                      0.00109292      0.00142552         0.887676        0.248654     -0.000186644      0.00208429        0.0501703       -0.103686
                        0.710468       -0.674744     -0.000712599      0.00121381        -0.050797        0.163927      0.000677089     -0.00159885
                     -0.00202355    -1.56998e-06         0.050684       -0.103901      -0.00111282     -0.00237645         0.410466       -0.788807
281706                  0.171698      -0.0424065      0.000987805     0.000788742         0.710094       -0.674952       -0.0015429     0.000545183
                      0.00109884      0.00142427         0.888225        0.247117     -0.000182185      0.00209066        0.0507773       -0.101971
                        0.710261       -0.674967     -0.000710733      0.00121634       -0.0506672        0.163955      0.000673863     -0.00160122
                     -0.00202862     5.00391e-06        0.0512928       -0.102171      -0.00111818     -0.00238041         0.408196        -0.79009
281708                  0.171691      -0.0423791      0.000990149     0.000786086         0.709886       -0.675174      -0.00154206     0.000550306
                      0.00110477      0.00142299         0.888768        0.245579      -0.00017717      0.00209692        0.0513924       -0.100259
                        0.710054        -0.67519     -0.000708793      0.00121887       -0.0505373        0.163983      0.000670671      -0.0016036
                     -0.00203369     1.16234e-05        0.0519098       -0.100445      -0.00112661     -0.00238345          0.40592       -0.791365
281710                  0.171685      -0.0423516      0.000992607     0.000783419         0.709677       -0.675396      -0.00154129     0.000555478
                      0.00111072      0.00142168         0.889304        0.244039     -0.000171319      0.00210295        0.0520155      -0.0985482
                        0.709846       -0.675412     -0.000706777      0.00122138       -0.0504073        0.164011      0.000667507       -0.001606
                     -0.00203875     1.82887e-05        0.0525351      -0.0987221      -0.00113959     -0.00238531         0.403639        -0.79263
281712                  0.171678      -0.0423242       0.00099532     0.000780727         0.709468       -0.675617      -0.00154056     0.000560668
                      0.00111669      0.00142034         0.889834        0.242496     -0.000164245      0.00210849        0.0526466        -0.09684
                        0.709639       -0.675635     -0.000704697      0.00122384        -0.050277        0.164038      0.000664365     -0.00160842
                     -0.00204381     2.49997e-05        0.0531687      -0.0970031      -0.00115938     -0.00238472         0.401351       -0.793887
281714                  0.171672      -0.0422968      0.000998765     0.000777916         0.709258       -0.675837      -0.00153986     0.000565859
                      0.00112267      0.00141896         0.890358        0.240952     -0.000155459        0.002113        0.0532859      -0.0951341
                        0.709431       -0.675858     -0.000702572      0.00122624       -0.0501465        0.164066      0.000661239     -0.00161085
                     -0.00204885     3.17567e-05        0.0538106      -0.0952877      -0.00118896     -0.00237761         0.399057       -0.795134
281716                  0.171665      -0.0422694       0.00100575     0.000773434         0.709046       -0.676056      -0.00153918     0.000571043
                      0.00112866      0.00141756         0.890875        0.239406     -0.000144549      0.00211536        0.0539332      -0.0934306
                        0.709224        -0.67608     -0.000700423      0.00122859       -0.0500153        0.164093      0.000658124     -0.00161331
                     -0.00205389     3.85596e-05        0.0544606      -0.0935758      -0.00122894     -0.00235286         0.396757       -0.796372
281718                  0.171659       -0.042242      0.000988869     0.000761995         0.708831        -0.67627       -0.0015385     0.000576218
                      0.00113468      0.00141613         0.891386        0.237859     -0.000131847      0.00211357        0.0545886      -0.0917296
                        0.709016       -0.676303     -0.000698269      0.00123087       -0.0498828         0.16412      0.000655016     -0.00161579
                     -0.00205891     4.54086e-05        0.0551189      -0.0918676       -0.0012619     -0.00229263         0.394452       -0.797601
281720                  0.171653      -0.0422146      0.000996935     0.000768141         0.708607       -0.676476      -0.00153782     0.000581382
                      0.00114071      0.00141467          0.89189        0.236309     -0.000119949      0.00210534        0.0552521      -0.0900311
                        0.708809       -0.676525     -0.000696122      0.00123311        -0.049746        0.164145       0.00065191     -0.00161828
                     -0.00206393     5.23036e-05        0.0557854      -0.0901629      -0.00124295     -0.00221363          0.39214        -0.79882
281722                  0.171646      -0.0421872       0.00100068     0.000766234         0.708332       -0.676635      -0.00153712     0.000586537
                      0.00114675      0.00141318         0.892388        0.234757     -0.000114325      0.00209137        0.0559237      -0.0883352
                        0.708601       -0.676747     -0.000693989      0.00123532       -0.0495801        0.164138      0.000648803      -0.0016208
                     -0.00206893     5.92449e-05        0.0564601      -0.0884617      -0.00118377     -0.00217954         0.389823        -0.80003
281724                   0.17164      -0.0421598       0.00100341     0.000763739         0.708433       -0.677321      -0.00153641     0.000591684
                      0.00115281      0.00141166         0.892879        0.233204      -0.00011821      0.00207829        0.0566035      -0.0866421
                        0.708393       -0.676969     -0.000691871       0.0012375       -0.0495342        0.164198      0.000645691     -0.00162333
                     -0.00207393     6.62324e-05        0.0571429      -0.0867642      -0.00114091      -0.0021873         0.387501        -0.80123
281726                  0.171633      -0.0421324        0.0010058     0.000761094         0.708083       -0.677264      -0.00153567     0.000596824
                      0.00115888       0.0014101         0.893364        0.231648     -0.000127271      0.00207246        0.0572914      -0.0849519
                        0.708185       -0.677191     -0.000689766      0.00123966        -0.049387         0.16423      0.000642574     -0.00162588
                     -0.00207891     7.32663e-05        0.0578339      -0.0850702      -0.00112227     -0.00220445         0.385173       -0.802421
281728                  0.171627       -0.042105       0.00100803     0.000758386         0.707852       -0.677455      -0.00153492     0.000601958
                      0.00116497      0.00140852         0.893842        0.230091     -0.000135325       0.0020736        0.0579875       -0.083265
                        0.707977       -0.677413     -0.000687673      0.00124182       -0.0492525        0.164257      0.000639449     -0.00162844
                     -0.00208388     8.03466e-05         0.058533      -0.0833798      -0.00111749     -0.00221921          0.38284       -0.803601
281730                   0.17162      -0.0420777       0.00101016     0.000755643         0.707634       -0.677665      -0.00153414     0.000607088
                      0.00117107       0.0014069         0.894313        0.228532     -0.000139983      0.00207844        0.0586918      -0.0815815
                        0.707769       -0.677635     -0.000685587      0.00124397       -0.0491206        0.164284      0.000636316     -0.00163101
                     -0.00208884     8.74734e-05        0.0592402       -0.081693      -0.00111957     -0.00223013         0.380503       -0.804771
281732                  0.171614      -0.0420503       0.00101222     0.000752876         0.707421       -0.677881      -0.00153333     0.000612216
                      0.00117719      0.00140526         0.894778        0.226971     -0.000141483      0.00208459        0.0594046      -0.0799021
                        0.707561       -0.677857     -0.000683506      0.00124611       -0.0489895        0.164311      0.000633173     -0.00163358
                     -0.00209379     9.46468e-05        0.0599555      -0.0800098      -0.00112513     -0.00223797         0.378162       -0.805929
281734                  0.171608       -0.042023       0.00101425      0.00075009         0.707209       -0.678099      -0.00153249     0.000617343
                      0.00118332      0.00140358         0.895236        0.225408     -0.000140684      0.00209097        0.0601262      -0.0782279
                        0.707353       -0.678079     -0.000681427      0.00124826        -0.048859        0.164337      0.000630022     -0.00163616
                     -0.00209873     0.000101867        0.0606788      -0.0783301      -0.00113258     -0.00224362         0.375819       -0.807076
281736                  0.171601      -0.0419957       0.00101624      0.00074729         0.706999       -0.678318      -0.00153163     0.000622471
                      0.00118947      0.00140187         0.895687        0.223843     -0.000138318       0.0020972         0.060858      -0.0765609
                        0.707145       -0.678301     -0.000679347       0.0012504       -0.0487286        0.164364      0.000626861     -0.00163874
                     -0.00210366     0.000109134        0.0614102      -0.0766541      -0.00114112     -0.00224774         0.373481       -0.808206
281738                  0.171595      -0.0419683        0.0010182     0.000744476         0.706789       -0.678538      -0.00153074     0.000627602
                      0.00119563      0.00140013         0.896132        0.222276     -0.000134894      0.00210318        0.0616049      -0.0749061
                        0.706937       -0.678522     -0.000677266      0.00125255       -0.0485984         0.16439      0.000623692     -0.00164132
                     -0.00210857     0.000116447        0.0621496      -0.0749818      -0.00115033     -0.00225082         0.371167       -0.809307
281740                  0.171588       -0.041941       0.00102014      0.00074165         0.706579       -0.678759      -0.00152982     0.000632739
                       0.0012018      0.00139835          0.89657        0.220707     -0.000130746      0.00210893        0.0623944      -0.0732691
                        0.706728       -0.678744     -0.000675181      0.00125469       -0.0484683        0.164417      0.000620514     -0.00164389
                     -0.00211347     0.000123808         0.062897      -0.0733131      -0.00115998     -0.00225315         0.369066       -0.810235
281742                  0.171582      -0.0419137       0.00102206     0.000738813         0.706369       -0.678979      -0.00152887     0.000637884
                      0.00120799      0.00139654         0.897001        0.219136     -0.000126093      0.00211451        0.0632705      -0.0715203
                         0.70652       -0.678965     -0.000673093      0.00125683       -0.0483383        0.164443      0.000617329     -0.00164646
                     -0.00211836     0.000131215        0.0636522      -0.0716482      -0.00116993     -0.00225495         0.365952       -0.811803
281744                  0.171576      -0.0418864       0.00102396     0.000735965         0.706159         -0.6792      -0.00152789     0.000643043
                      0.00121419      0.00139471         0.897424        0.217564     -0.000121082      0.00211994        0.0639391      -0.0697562
                        0.706312       -0.679187     -0.000670999      0.00125897       -0.0482083        0.164469      0.000614136     -0.00164901
                     -0.00212323      0.00013867        0.0644153      -0.0699872       -0.0011801     -0.00225638          0.36379       -0.812797
281746                  0.171569      -0.0418591       0.00102584     0.000733107          0.70595        -0.67942      -0.00152686     0.000648222
                      0.00122041      0.00139283         0.897841         0.21599     -0.000115813      0.00212528        0.0646614       -0.068107
                        0.706103       -0.679408     -0.000668901      0.00126111       -0.0480783        0.164495      0.000610937     -0.00165155
                     -0.00212809     0.000146171         0.065186      -0.0683303      -0.00119043     -0.00225753         0.361449       -0.813866
281748                  0.171563      -0.0418318       0.00102772     0.000730238          0.70574       -0.679641      -0.00152578     0.000653428
                      0.00122664      0.00139093          0.89825        0.214414     -0.000110354      0.00213055        0.0654232      -0.0664596
                        0.705894       -0.679629     -0.000666798      0.00126326       -0.0479483        0.164521      0.000607731     -0.00165408
                     -0.00213293      0.00015372        0.0659641      -0.0666777      -0.00120088     -0.00225848         0.359076       -0.814938
281750                  0.171557      -0.0418046       0.00102958     0.000727358         0.705531       -0.679862      -0.00152463     0.000658664
                      0.00123288      0.00138899         0.898651        0.212836     -0.000104755      0.00213576        0.0662021      -0.0648106
                        0.705686       -0.679851     -0.000664692       0.0012654       -0.0478184        0.164547      0.000604519     -0.00165658
                     -0.00213776     0.000161317        0.0667488      -0.0650302      -0.00121142     -0.00225928         0.356688       -0.816006
281752                   0.17155      -0.0417773       0.00103144     0.000724468         0.705321       -0.680082      -0.00152336     0.000663917
                      0.00123914      0.00138702         0.899042        0.211257     -9.90493e-05      0.00214094        0.0669925      -0.0631619
                        0.705477       -0.680072     -0.000662585      0.00126755       -0.0476884        0.164573      0.000601299     -0.00165905
                     -0.00214258     0.000168961        0.0675384      -0.0633889      -0.00122203     -0.00225996          0.35429       -0.817065
281754                  0.171544        -0.04175        0.0010333     0.000721566         0.705111       -0.680303      -0.00152194     0.000669126
                      0.00124541      0.00138502         0.899418        0.209675     -9.32623e-05      0.00214609        0.0677927      -0.0615148
                        0.705268       -0.680293     -0.000660481      0.00126971       -0.0475585        0.164598       0.00059807     -0.00166149
                     -0.00214738     0.000176653        0.0683265      -0.0617563       -0.0012327     -0.00226055         0.351886       -0.818116
281756                  0.171538      -0.0417228       0.00103518     0.000718651         0.704902       -0.680523      -0.00152039      0.00067418
                      0.00125169      0.00138298         0.899766        0.208072     -8.74114e-05      0.00215122        0.0686019        -0.05987
                        0.705059       -0.680514     -0.000658388      0.00127188       -0.0474286        0.164624       0.00059483      -0.0016639
                     -0.00215216     0.000184392        0.0690801      -0.0601257      -0.00124343     -0.00226108         0.349474       -0.819157
281758                  0.171532      -0.0416955       0.00103708     0.000715717         0.704692       -0.680744      -0.00151887     0.000679031
                      0.00125798       0.0013809         0.900168        0.206399     -8.15089e-05      0.00215634        0.0694198      -0.0582279
                         0.70485       -0.680735     -0.000656318      0.00127412       -0.0472987         0.16465      0.000591577     -0.00166627
                     -0.00215693      0.00019218        0.0698772      -0.0583288       -0.0012542     -0.00226155         0.347056       -0.820188
281760                  0.171525      -0.0416683       0.00103906     0.000712752         0.704482       -0.680964      -0.00151749     0.000683792
                      0.00126429       0.0013788         0.900601        0.204832     -7.55637e-05      0.00216144        0.0702462      -0.0565888
                        0.704641       -0.680955     -0.000654275      0.00127651       -0.0471687        0.164675      0.000588306      -0.0016686
                     -0.00216168     0.000200016        0.0708116      -0.0567204        -0.001265     -0.00226196         0.344632       -0.821209
281762                  0.171519      -0.0416411       0.00104121     0.000709719         0.704272       -0.681185      -0.00151621     0.000688592
                       0.0012706      0.00137666         0.900974        0.203263     -6.95818e-05      0.00216652         0.071081      -0.0549528
                        0.704432       -0.681176     -0.000651943      0.00127942       -0.0470388          0.1647      0.000585014     -0.00167089
