! TOUCHSTONE file generated by CST MICROWAVE STUDIO
! Date and time: Tue Oct 14 17:37:58 2025
! Project name: Teste_Macro_Metasurface_Nanopilar.cst
! Parameters = {H=600; L_x=70; L_y=170; Lambda=1064; Max_L=200; Min_L=70; PathPara=1; Phi=0; Step_L=10; Theta=0; p=520; phaseX=180; phaseY=0}
! Header version: 2018
! Port assignment regex: !\s*Touchstone port\s*([0-9]+)\s*=\s*(CST MWS port|CST DS port)\s*([0-9]+|Zmin|Zmax)\s*\(\"(.*)\"\)(\s*mode\s*([0-9]+))?.*
! Touchstone port assignment:
! Touchstone port 1 = CST MWS port Zmax ("") mode 1
! Touchstone port 2 = CST MWS port Zmax ("") mode 2
! Touchstone port 3 = CST MWS port Zmin ("") mode 1
! Touchstone port 4 = CST MWS port Zmin ("") mode 2
! S-Parameters are not renormalized. Each port impedance will be approximated by the real part at minimum frequency. The values are described via the [Reference] keyword.
! Default impedance is overridden by [Reference]
[Version] 2.0
# GHz S RI R 376.73
[Number of Ports] 4
[Reference]
376.73 376.73 259.814 259.814 
[Number of Frequencies] 51
[Network Data]
281700                -0.0857767       0.0388335      7.90233e-05     0.000117399         0.663832        0.730778     -0.000141132    -0.000148601
                     1.58142e-06     0.000317053        0.0100075       -0.102317     -0.000140268    -9.09454e-05       -0.0970354       -0.989715
                        0.663528         0.73059     -9.91861e-06    -0.000124716       -0.0479255       0.0842354      5.43573e-05     0.000333954
                    -7.73078e-05    -0.000148882       -0.0970229       -0.989502      0.000190252     0.000140905        0.0296088       0.0985596
281702                -0.0857671       0.0388805      7.88375e-05     0.000117323         0.664109        0.730525     -0.000141161    -0.000148645
                      1.6193e-06     0.000316992         0.009995       -0.102314     -0.000140238    -9.08709e-05        -0.097277       -0.989691
                        0.663804        0.730338     -1.00142e-05    -0.000124734       -0.0479076       0.0842575      5.45595e-05     0.000334046
                     -7.7364e-05    -0.000148873       -0.0972644       -0.989479      0.000190381      0.00014075         0.029644       0.0985447
281704                -0.0857576       0.0389274      7.86521e-05     0.000117247         0.664385        0.730272      -0.00014119     -0.00014869
                     1.65705e-06     0.000316931       0.00998246       -0.102311     -0.000140209    -9.07964e-05       -0.0975185       -0.989668
                        0.664081        0.730085     -1.01097e-05    -0.000124752       -0.0478897       0.0842795      5.47625e-05     0.000334138
                     -7.7422e-05    -0.000148868       -0.0975059       -0.989456       0.00019051     0.000140596        0.0296792       0.0985297
281706                 -0.085748       0.0389744      7.84669e-05     0.000117171         0.664662         0.73002     -0.000141219    -0.000148734
                     1.69464e-06      0.00031687       0.00996992       -0.102308      -0.00014018    -9.07219e-05       -0.0977601       -0.989644
                        0.664357        0.729833     -1.02052e-05    -0.000124771       -0.0478717       0.0843016      5.49663e-05     0.000334229
                    -7.74801e-05    -0.000148865       -0.0977473       -0.989432      0.000190639     0.000140442        0.0297143       0.0985147
281708                -0.0857384       0.0390214       7.8282e-05     0.000117095         0.664938        0.729767     -0.000141247    -0.000148778
                     1.73201e-06     0.000316809       0.00995737       -0.102305     -0.000140151    -9.06475e-05       -0.0980016       -0.989621
                        0.664633         0.72958     -1.03005e-05    -0.000124789       -0.0478538       0.0843237      5.51708e-05     0.000334319
                     -7.7538e-05    -0.000148863       -0.0979888       -0.989409      0.000190769     0.000140288        0.0297495       0.0984997
281710                -0.0857288       0.0390683      7.80975e-05     0.000117019         0.665215        0.729514     -0.000141276    -0.000148823
                     1.76908e-06     0.000316748       0.00994483       -0.102302     -0.000140122    -9.05731e-05       -0.0982432       -0.989597
                         0.66491        0.729327     -1.03958e-05    -0.000124807       -0.0478358       0.0843458      5.53759e-05     0.000334409
                    -7.75955e-05    -0.000148862       -0.0982303       -0.989385      0.000190899     0.000140135        0.0297846       0.0984847
281712                -0.0857193       0.0391153      7.79132e-05     0.000116943         0.665491        0.729261     -0.000141305    -0.000148868
                     1.80577e-06     0.000316687       0.00993229       -0.102299     -0.000140093    -9.04987e-05       -0.0984847       -0.989573
                        0.665186        0.729074     -1.04909e-05    -0.000124825       -0.0478178        0.084368      5.55817e-05     0.000334499
                    -7.76528e-05    -0.000148862       -0.0984717       -0.989362      0.000191029     0.000139981        0.0298198       0.0984697
281714                -0.0857096       0.0391622      7.77293e-05     0.000116868         0.665767        0.729007     -0.000141333    -0.000148912
                     1.84201e-06     0.000316626       0.00991975       -0.102296     -0.000140064    -9.04243e-05       -0.0987262        -0.98955
                        0.665462        0.728821      -1.0586e-05    -0.000124842       -0.0477999       0.0843901       5.5788e-05     0.000334588
                    -7.77098e-05    -0.000148862       -0.0987132       -0.989338      0.000191158     0.000139828        0.0298549       0.0984547
281716                   -0.0857       0.0392092      7.75456e-05     0.000116793         0.666043        0.728754     -0.000141362    -0.000148957
                     1.87778e-06     0.000316565        0.0099072       -0.102292     -0.000140035    -9.03499e-05       -0.0989677       -0.989526
                        0.665738        0.728568      -1.0681e-05     -0.00012486       -0.0477819       0.0844123      5.59949e-05     0.000334677
                    -7.77667e-05    -0.000148862       -0.0989547       -0.989315      0.000191288     0.000139674          0.02989       0.0984397
281718                -0.0856904       0.0392561      7.73622e-05     0.000116718         0.666319        0.728501      -0.00014139    -0.000149002
                     1.91319e-06     0.000316505       0.00989466       -0.102289     -0.000140007    -9.02756e-05       -0.0992092       -0.989502
                        0.666013        0.728315     -1.07758e-05    -0.000124877       -0.0477639       0.0844344      5.62023e-05     0.000334766
                    -7.78234e-05    -0.000148863       -0.0991961       -0.989291      0.000191418     0.000139521        0.0299252       0.0984246
281720                -0.0856808       0.0393031      7.71791e-05     0.000116644         0.666595        0.728247     -0.000141419    -0.000149047
                     1.94852e-06     0.000316446       0.00988212       -0.102286     -0.000139978    -9.02012e-05       -0.0994507       -0.989478
                        0.666289        0.728062     -1.08706e-05    -0.000124895       -0.0477458       0.0844566      5.64102e-05     0.000334855
                    -7.78799e-05    -0.000148863       -0.0994375       -0.989267      0.000191548     0.000139368        0.0299603       0.0984096
281722                -0.0856711         0.03935      7.69963e-05     0.000116569         0.666871        0.727994     -0.000141447    -0.000149093
                     1.98418e-06     0.000316387       0.00986958       -0.102283      -0.00013995    -9.01269e-05       -0.0996922       -0.989454
                        0.666565        0.727808     -1.09653e-05    -0.000124912       -0.0477278       0.0844788      5.66185e-05     0.000334943
                    -7.79364e-05    -0.000148864        -0.099679       -0.989243      0.000191678     0.000139214        0.0299954       0.0983945
281724                -0.0856614       0.0393969      7.68138e-05     0.000116495         0.667146         0.72774     -0.000141475    -0.000149138
                     2.02048e-06     0.000316329       0.00985704        -0.10228     -0.000139921    -9.00526e-05       -0.0999337        -0.98943
                         0.66684        0.727555     -1.10598e-05    -0.000124929       -0.0477098        0.084501      5.68273e-05      0.00033503
                    -7.79928e-05    -0.000148864       -0.0999204       -0.989219      0.000191807     0.000139061        0.0300305       0.0983794
281726                -0.0856518       0.0394438      7.66316e-05     0.000116422         0.667422        0.727486     -0.000141503    -0.000149183
                     2.05754e-06     0.000316272        0.0098445       -0.102277     -0.000139893    -8.99783e-05        -0.100175       -0.989406
                        0.667115        0.727301     -1.11543e-05    -0.000124945       -0.0476917       0.0845232      5.70366e-05     0.000335118
                    -7.80492e-05    -0.000148865        -0.100162       -0.989195      0.000191937     0.000138907        0.0300656       0.0983643
281728                -0.0856421       0.0394908      7.64496e-05     0.000116348         0.667697        0.727232     -0.000141531    -0.000149229
                     2.09523e-06     0.000316214       0.00983197       -0.102274     -0.000139865    -8.99041e-05        -0.100417       -0.989382
                        0.667391        0.727048     -1.12487e-05    -0.000124962       -0.0476737       0.0845454      5.72463e-05     0.000335205
                    -7.81055e-05    -0.000148865        -0.100403       -0.989171      0.000192066     0.000138754        0.0301007       0.0983492
281730                -0.0856324       0.0395377       7.6268e-05     0.000116275         0.667973        0.726978     -0.000141559    -0.000149275
                     2.13334e-06     0.000316155       0.00981943       -0.102271     -0.000139837    -8.98298e-05        -0.100658       -0.989358
                        0.667666        0.726794     -1.13431e-05    -0.000124978       -0.0476556       0.0845676      5.74563e-05     0.000335292
                    -7.81618e-05    -0.000148866        -0.100645       -0.989147      0.000192195     0.000138601        0.0301358       0.0983341
281732                -0.0856227       0.0395846      7.60866e-05     0.000116202         0.668248        0.726724     -0.000141587    -0.000149321
                     2.17165e-06     0.000316097       0.00980689       -0.102268     -0.000139809    -8.97556e-05          -0.1009       -0.989334
                        0.667941         0.72654     -1.14373e-05    -0.000124994       -0.0476375       0.0845898      5.76668e-05     0.000335378
                     -7.8218e-05    -0.000148866        -0.100886       -0.989123      0.000192324     0.000138447        0.0301708       0.0983189
281734                 -0.085613       0.0396315      7.59055e-05      0.00011613         0.668523         0.72647     -0.000141614    -0.000149367
                     2.21002e-06     0.000316038       0.00979435       -0.102265     -0.000139781    -8.96814e-05        -0.101141       -0.989309
                        0.668216        0.726286     -1.15315e-05    -0.000125009       -0.0476194       0.0846121      5.78777e-05     0.000335465
                    -7.82743e-05    -0.000148867        -0.101128       -0.989099      0.000192452     0.000138293        0.0302059       0.0983038
281736                -0.0856033       0.0396784      7.57247e-05     0.000116058         0.668798        0.726216     -0.000141642    -0.000149413
                     2.24836e-06     0.000315979       0.00978181       -0.102262     -0.000139753    -8.96073e-05        -0.101383       -0.989285
                        0.668491        0.726032     -1.16256e-05    -0.000125025       -0.0476013       0.0846343      5.80889e-05     0.000335551
                    -7.83305e-05    -0.000148867        -0.101369       -0.989074      0.000192581      0.00013814        0.0302409       0.0982886
281738                -0.0855935       0.0397253      7.55442e-05     0.000115986         0.669073        0.725961     -0.000141669    -0.000149459
                     2.28662e-06     0.000315919       0.00976928       -0.102259     -0.000139726    -8.95331e-05        -0.101624        -0.98926
                        0.668765        0.725778     -1.17197e-05     -0.00012504       -0.0475832       0.0846566      5.83005e-05     0.000335637
                    -7.83867e-05    -0.000148868         -0.10161        -0.98905      0.000192709     0.000137986         0.030276       0.0982735
281740                -0.0855838       0.0397722      7.53639e-05     0.000115915         0.669348        0.725707     -0.000141697    -0.000149505
                     2.32479e-06      0.00031586       0.00975674       -0.102256     -0.000139698     -8.9459e-05        -0.101865       -0.989236
                         0.66904        0.725523     -1.18137e-05    -0.000125055       -0.0475651       0.0846789      5.85124e-05     0.000335722
                    -7.84429e-05    -0.000148868        -0.101852       -0.989026      0.000192837     0.000137832         0.030311       0.0982583
281742                 -0.085574       0.0398191       7.5184e-05     0.000115844         0.669623        0.725452     -0.000141724    -0.000149552
                     2.36287e-06       0.0003158        0.0097442       -0.102253     -0.000139671    -8.93849e-05        -0.102107       -0.989211
                        0.669315        0.725269     -1.19077e-05     -0.00012507        -0.047547       0.0847011      5.87247e-05     0.000335808
                     -7.8499e-05    -0.000148869        -0.102093       -0.989001      0.000192965     0.000137678        0.0303461       0.0982431
281744                -0.0855643        0.039866      7.50043e-05     0.000115774         0.669897        0.725197     -0.000141751    -0.000149598
                     2.40084e-06      0.00031574       0.00973167        -0.10225     -0.000139644    -8.93108e-05        -0.102348       -0.989187
                        0.669589        0.725015     -1.20016e-05    -0.000125084       -0.0475288       0.0847234      5.89373e-05     0.000335893
                    -7.85552e-05    -0.000148869        -0.102334       -0.988977      0.000193093     0.000137524        0.0303811       0.0982279
281746                -0.0855545       0.0399128       7.4825e-05     0.000115704         0.670172        0.724943     -0.000141778    -0.000149645
                     2.43873e-06     0.000315681       0.00971913       -0.102247     -0.000139617    -8.92368e-05         -0.10259       -0.989162
                        0.669863         0.72476     -1.20956e-05    -0.000125098       -0.0475107       0.0847458      5.91503e-05     0.000335977
                    -7.86114e-05    -0.000148869        -0.102576       -0.988952       0.00019322     0.000137369        0.0304161       0.0982127
281748                -0.0855447       0.0399597      7.46459e-05     0.000115634         0.670446        0.724688     -0.000141804    -0.000149692
                     2.47653e-06     0.000315621        0.0097066       -0.102244      -0.00013959    -8.91628e-05        -0.102831       -0.989137
                        0.670138        0.724505     -1.21895e-05    -0.000125112       -0.0474925       0.0847681      5.93635e-05     0.000336062
                    -7.86676e-05     -0.00014887        -0.102817       -0.988927      0.000193347     0.000137215        0.0304511       0.0981974
281750                -0.0855349       0.0400066      7.44672e-05     0.000115565         0.670721        0.724433     -0.000141831    -0.000149738
                     2.51425e-06     0.000315561       0.00969407       -0.102241     -0.000139563    -8.90888e-05        -0.103073       -0.989113
                        0.670412         0.72425     -1.22834e-05    -0.000125126       -0.0474743       0.0847904      5.95771e-05     0.000336146
                    -7.87238e-05     -0.00014887        -0.103059       -0.988903      0.000193474     0.000137061        0.0304861       0.0981822
281752                -0.0855251       0.0400535      7.42888e-05     0.000115496         0.670995        0.724178     -0.000141858    -0.000149785
                      2.5519e-06     0.000315501       0.00968153       -0.102238     -0.000139537    -8.90149e-05        -0.103314       -0.989088
                        0.670686        0.723996     -1.23773e-05    -0.000125139       -0.0474561       0.0848127       5.9791e-05      0.00033623
                      -7.878e-05     -0.00014887          -0.1033       -0.988878      0.000193601     0.000136906        0.0305211       0.0981669
281754                -0.0855153       0.0401003      7.41106e-05     0.000115428         0.671269        0.723922     -0.000141884    -0.000149833
                     2.58949e-06     0.000315442         0.009669       -0.102235     -0.000139511     -8.8941e-05        -0.103555       -0.989063
                         0.67096        0.723741     -1.24712e-05    -0.000125152       -0.0474379       0.0848351      6.00052e-05     0.000336314
                    -7.88362e-05    -0.000148871        -0.103541       -0.988853      0.000193728     0.000136751        0.0305561       0.0981517
281756                -0.0855055       0.0401472      7.39328e-05     0.000115361         0.671543        0.723667      -0.00014191     -0.00014988
                     2.62702e-06     0.000315382       0.00965647       -0.102232     -0.000139484    -8.88671e-05        -0.103797       -0.989038
                        0.671234        0.723485     -1.25652e-05    -0.000125165       -0.0474197       0.0848575      6.02196e-05     0.000336398
                    -7.88924e-05    -0.000148871        -0.103783       -0.988828      0.000193854     0.000136596        0.0305911       0.0981364
281758                -0.0854956        0.040194      7.37553e-05     0.000115294         0.671817        0.723412     -0.000141936    -0.000149927
                     2.66449e-06     0.000315322       0.00964393       -0.102229     -0.000139458    -8.87933e-05        -0.104038       -0.989013
                        0.671507         0.72323     -1.26592e-05    -0.000125177       -0.0474015       0.0848798      6.04344e-05     0.000336481
                    -7.89486e-05    -0.000148871        -0.104024       -0.988803       0.00019398     0.000136441        0.0306261       0.0981211
281760                -0.0854858       0.0402409      7.35782e-05     0.000115227         0.672091        0.723156     -0.000141962    -0.000149975
                     2.70191e-06     0.000315262        0.0096314       -0.102226     -0.000139433    -8.87196e-05         -0.10428       -0.988988
                        0.671781        0.722975     -1.27532e-05    -0.000125189       -0.0473833       0.0849022      6.06494e-05     0.000336565
                    -7.90048e-05    -0.000148871        -0.104265       -0.988778      0.000194106     0.000136286        0.0306611       0.0981058
281762                -0.0854759       0.0402877      7.34013e-05     0.000115161         0.672364          0.7229     -0.000141988    -0.000150022
                     2.73929e-06     0.000315203       0.00961887       -0.102223     -0.000139407    -8.86458e-05        -0.104521       -0.988963
                        0.672054        0.722719     -1.28472e-05    -0.000125201        -0.047365       0.0849246      6.08647e-05     0.000336647
