! TOUCHSTONE file generated by CST MICROWAVE STUDIO
! Date and time: Tue Oct 14 17:39:23 2025
! Project name: Teste_Macro_Metasurface_Nanopilar.cst
! Parameters = {H=600; L_x=190; L_y=170; Lambda=1064; Max_L=200; Min_L=70; PathPara=1; Phi=0; Step_L=10; Theta=0; p=520; phaseX=180; phaseY=0}
! Header version: 2018
! Port assignment regex: !\s*Touchstone port\s*([0-9]+)\s*=\s*(CST MWS port|CST DS port)\s*([0-9]+|Zmin|Zmax)\s*\(\"(.*)\"\)(\s*mode\s*([0-9]+))?.*
! Touchstone port assignment:
! Touchstone port 1 = CST MWS port Zmax ("") mode 1
! Touchstone port 2 = CST MWS port Zmax ("") mode 2
! Touchstone port 3 = CST MWS port Zmin ("") mode 1
! Touchstone port 4 = CST MWS port Zmin ("") mode 2
! S-Parameters are not renormalized. Each port impedance will be approximated by the real part at minimum frequency. The values are described via the [Reference] keyword.
! Default impedance is overridden by [Reference]
[Version] 2.0
# GHz S RI R 376.73
[Number of Ports] 4
[Reference]
376.73 376.73 259.814 259.814 
[Number of Frequencies] 51
[Network Data]
281700                  0.299661         0.19845     -0.000268104     0.000254408         0.424137       -0.823724     -0.000499759    -7.03926e-05
                     -0.00027284      0.00024354         0.236659        0.089493     -0.000454448    -0.000332093        0.0976324       -0.958556
                        0.423512       -0.823589     -0.000532396    -0.000378126         0.332861        0.133594     -6.63515e-05     -0.00066443
                    -0.000448471    -9.53366e-05        0.0977903       -0.958452     -0.000161524    -0.000713799         0.247936      -0.0401197
281702                  0.299652        0.198376      -0.00026778      0.00025455         0.423863       -0.823894     -0.000499688    -7.01701e-05
                    -0.000272751     0.000241977         0.236665       0.0894865      -0.00045456     -0.00033169        0.0973476       -0.958584
                        0.423241       -0.823735     -0.000532551    -0.000378356         0.332889        0.133385     -6.67564e-05    -0.000664352
                    -0.000450412    -9.70931e-05        0.0975063       -0.958478     -0.000161922    -0.000713696         0.247917      -0.0402588
281704                  0.299643        0.198299     -0.000267452     0.000254692         0.423589       -0.824064     -0.000499613    -6.99501e-05
                     -0.00027302     0.000240252         0.236672         0.08948     -0.000454664    -0.000331289        0.0970628       -0.958612
                        0.422971       -0.823881     -0.000532704    -0.000378588         0.332916        0.133176     -6.71586e-05    -0.000664273
                    -0.000452339    -9.85918e-05        0.0972222       -0.958504     -0.000162308    -0.000713587         0.247898      -0.0403978
281706                  0.299635        0.198217     -0.000267121     0.000254833         0.423315       -0.824234     -0.000499534    -6.97324e-05
                     -0.00027372     0.000238468         0.236679       0.0894735     -0.000454758    -0.000330891        0.0967779        -0.95864
                        0.422703       -0.824026     -0.000532854    -0.000378821         0.332944        0.132967     -6.75578e-05    -0.000664193
                    -0.000454211    -9.98246e-05        0.0969381        -0.95853     -0.000162682    -0.000713475         0.247879      -0.0405369
281708                  0.299627        0.198117     -0.000266787     0.000254974          0.42304       -0.824404     -0.000499453     -6.9517e-05
                    -0.000274881     0.000236769         0.236685        0.089467     -0.000454844    -0.000330498         0.096493       -0.958668
                        0.422437       -0.824169     -0.000533001    -0.000379056         0.332971        0.132759     -6.79539e-05    -0.000664113
                    -0.000455987    -0.000100784         0.096654       -0.958556      -0.00016304    -0.000713359          0.24786      -0.0406759
281710                  0.299594        0.197922     -0.000266449     0.000255115         0.422766       -0.824573     -0.000499368    -6.93035e-05
                    -0.000276471     0.000235307         0.236692       0.0894605     -0.000454921     -0.00033011        0.0962081       -0.958695
                        0.422173       -0.824313     -0.000533146    -0.000379292         0.332998        0.132551     -6.83469e-05    -0.000664032
                    -0.000457624    -0.000101459        0.0963699       -0.958582     -0.000163381    -0.000713244         0.247841      -0.0408149
281712                  0.299414        0.198261     -0.000266108     0.000255256         0.422492       -0.824741     -0.000499279    -6.90918e-05
                     -0.00027839     0.000234212         0.236698        0.089454      -0.00045499    -0.000329729        0.0959232       -0.958723
                        0.421911       -0.824455     -0.000533288    -0.000379531         0.333026        0.132344     -6.87367e-05    -0.000663952
                    -0.000459071    -0.000101833        0.0960857       -0.958608     -0.000163703    -0.000713132         0.247822      -0.0409539
281714                  0.299548        0.198069     -0.000265763     0.000255396         0.422217        -0.82491     -0.000499187    -6.88818e-05
                    -0.000280499     0.000233557         0.236705       0.0894475     -0.000455053    -0.000329356        0.0956383       -0.958751
                        0.421652       -0.824599     -0.000533427    -0.000379771         0.333053        0.132136     -6.91234e-05    -0.000663872
                     -0.00046027    -0.000101872        0.0958015       -0.958634     -0.000164007    -0.000713027         0.247803      -0.0410929
281716                  0.299555        0.197968     -0.000265415     0.000255537         0.421943       -0.825078     -0.000499093    -6.86733e-05
                    -0.000282646     0.000233352         0.236711        0.089441     -0.000455111    -0.000328993        0.0953534       -0.958778
                        0.421395       -0.824743     -0.000533563    -0.000380012          0.33308        0.131929     -6.95072e-05    -0.000663793
                    -0.000461143    -0.000101507        0.0955172       -0.958659     -0.000164291    -0.000712933         0.247783      -0.0412319
281718                  0.299551        0.197886     -0.000265063     0.000255678         0.421668       -0.825246     -0.000498995    -6.84661e-05
                    -0.000284702      0.00023355         0.236718       0.0894344     -0.000455165    -0.000328639        0.0950684       -0.958806
                         0.42114       -0.824888     -0.000533696    -0.000380255         0.333107        0.131722     -6.98884e-05    -0.000663715
                    -0.000461586    -0.000100599         0.095233       -0.958685     -0.000164558    -0.000712855         0.247764      -0.0413709
281720                  0.299544        0.197809     -0.000264708     0.000255818         0.421394       -0.825413     -0.000498894    -6.82601e-05
                    -0.000286582      0.00023407         0.236724       0.0894279     -0.000455217    -0.000328295        0.0947835       -0.958833
                        0.420887       -0.825035     -0.000533827      -0.0003805         0.333135        0.131516      -7.0267e-05     -0.00066364
                    -0.000461449    -9.88429e-05        0.0949486        -0.95871      -0.00016481    -0.000712799         0.247744      -0.0415099
281722                  0.299535        0.197736     -0.000264349     0.000255959          0.42112        -0.82558      -0.00049879    -6.80553e-05
                    -0.000288237     0.000234823         0.236731       0.0894214      -0.00045527    -0.000327962        0.0944985        -0.95886
                        0.420636       -0.825184     -0.000533954    -0.000380747         0.333162        0.131309     -7.06436e-05    -0.000663566
                     -0.00046054      -9.551e-05        0.0946643       -0.958735     -0.000165052    -0.000712766         0.247725      -0.0416489
281724                  0.299526        0.197664     -0.000263986     0.000256099         0.420845       -0.825747     -0.000498683    -6.78515e-05
                    -0.000289657     0.000235727         0.236737       0.0894149     -0.000455324    -0.000327639        0.0942135       -0.958887
                        0.420386       -0.825335     -0.000534078    -0.000380995         0.333189        0.131103     -7.10185e-05    -0.000663495
                    -0.000458922    -8.86059e-05        0.0943799        -0.95876     -0.000165291    -0.000712762         0.247705      -0.0417878
281726                  0.299516        0.197593     -0.000263619      0.00025624         0.420571       -0.825914     -0.000498573    -6.76486e-05
                     -0.00029085     0.000236715         0.236744       0.0894084     -0.000455381    -0.000327325        0.0939285       -0.958914
                        0.420136       -0.825489       -0.0005342    -0.000381244         0.333216        0.130897      -7.1392e-05    -0.000663426
                    -0.000460224    -7.23243e-05        0.0940955       -0.958786     -0.000165532    -0.000712785         0.247685      -0.0419268
281728                  0.299506        0.197522     -0.000263249     0.000256381         0.420297        -0.82608     -0.000498461    -6.74465e-05
                    -0.000291836     0.000237738          0.23675       0.0894018     -0.000455445    -0.000327021        0.0936435       -0.958941
                        0.419887       -0.825646     -0.000534318    -0.000381495         0.333244        0.130691     -7.17646e-05    -0.000663359
                    -0.000492614    -5.12348e-05         0.093811       -0.958811     -0.000165783    -0.000712835         0.247665      -0.0420657
281730                  0.299496        0.197452     -0.000262874     0.000256522         0.420022       -0.826246     -0.000498346    -6.72452e-05
                    -0.000292639     0.000238762         0.236756       0.0893953     -0.000455516    -0.000326724        0.0933585       -0.958968
                        0.419637       -0.825805     -0.000534432    -0.000381748         0.333271        0.130486     -7.21367e-05    -0.000663295
                    -0.000519258     -8.7049e-05        0.0935265       -0.958836     -0.000166051    -0.000712909         0.247645      -0.0422046
281732                  0.299486        0.197383     -0.000262496     0.000256663         0.419748       -0.826412     -0.000498228    -6.70445e-05
                    -0.000293281     0.000239766         0.236763       0.0893888     -0.000455597    -0.000326434        0.0930734       -0.958995
                        0.419386       -0.825966     -0.000534544    -0.000382002         0.333298         0.13028     -7.25087e-05    -0.000663234
                    -0.000507813    -0.000104775         0.093242        -0.95886     -0.000166341    -0.000713001         0.247625      -0.0423435
281734                  0.299476        0.197314     -0.000262113     0.000256805         0.419474       -0.826578     -0.000498108    -6.68445e-05
                    -0.000293778     0.000240738         0.236769       0.0893822     -0.000455689     -0.00032615        0.0927884       -0.959022
                        0.419134       -0.826129     -0.000534652    -0.000382258         0.333326        0.130075     -7.28809e-05    -0.000663175
                    -0.000499899    -0.000108596        0.0929574       -0.958885     -0.000166657    -0.000713105         0.247605      -0.0424824
281736                  0.299465        0.197245     -0.000261727     0.000256946           0.4192       -0.826743     -0.000497985    -6.66451e-05
                    -0.000294137     0.000241675         0.236776       0.0893757     -0.000455795     -0.00032587        0.0925033       -0.959049
                        0.418881       -0.826294     -0.000534757    -0.000382515         0.333353         0.12987     -7.32537e-05    -0.000663118
                    -0.000495543    -0.000109372        0.0926728        -0.95891     -0.000167003    -0.000713216         0.247585      -0.0426213
281738                  0.299455        0.197176     -0.000261336     0.000257088         0.418926       -0.826908      -0.00049786    -6.64463e-05
                    -0.000294349     0.000242583         0.236782       0.0893692     -0.000455918    -0.000325595        0.0922182       -0.959075
                        0.418626        -0.82646     -0.000534858    -0.000382773         0.333381        0.129664     -7.36274e-05    -0.000663064
                    -0.000492951    -0.000109373        0.0923882       -0.958934     -0.000167379    -0.000713325         0.247565      -0.0427602
281740                  0.299444        0.197108     -0.000260941     0.000257229         0.418652       -0.827073     -0.000497732     -6.6248e-05
                    -0.000294383     0.000243491         0.236789       0.0893626     -0.000456061    -0.000325325        0.0919331       -0.959102
                        0.418369       -0.826627     -0.000534955    -0.000383033         0.333408        0.129459     -7.40023e-05    -0.000663012
                    -0.000491263    -0.000109157        0.0921035       -0.958959      -0.00016779    -0.000713429         0.247544      -0.0428991
281742                  0.299433        0.197041     -0.000260542     0.000257371         0.418379       -0.827237     -0.000497602    -6.60504e-05
                     -0.00029415     0.000244489         0.236795       0.0893561      -0.00045623    -0.000325065         0.091648       -0.959128
                        0.418111       -0.826794     -0.000535049    -0.000383294         0.333436        0.129254     -7.43787e-05    -0.000662962
                    -0.000490069    -0.000108891        0.0918188       -0.958983     -0.000168239    -0.000713523         0.247524       -0.043038
281744                  0.299423        0.196974     -0.000260139     0.000257511         0.418105       -0.827401     -0.000497469    -6.58534e-05
                    -0.000293501     0.000245936         0.236802       0.0893495     -0.000456428    -0.000324821        0.0913629       -0.959154
                        0.417851       -0.826961      -0.00053514    -0.000383556         0.333464         0.12905     -7.47571e-05    -0.000662916
                    -0.000489159    -0.000108633        0.0915341       -0.959007     -0.000168735    -0.000713608         0.247503      -0.0431768
281746                  0.299413        0.196908     -0.000259733     0.000257649         0.417832       -0.827565     -0.000497333    -6.56572e-05
                    -0.000293023     0.000249186         0.236808        0.089343     -0.000456658     -0.00032461        0.0910777       -0.959181
                         0.41759       -0.827128     -0.000535226    -0.000383819         0.333492        0.128845     -7.51378e-05    -0.000662873
                    -0.000488415    -0.000108404        0.0912493       -0.959031     -0.000169295    -0.000713697         0.247483      -0.0433157
281748                  0.299404        0.196844     -0.000259329     0.000257789         0.417559       -0.827729     -0.000497193    -6.54618e-05
                    -0.000297025     0.000252173         0.236814       0.0893364     -0.000456908    -0.000324461        0.0907925       -0.959207
                        0.417327       -0.827294     -0.000535309    -0.000384082         0.333521         0.12864     -7.55213e-05    -0.000662837
                    -0.000487769    -0.000108213        0.0909645       -0.959055     -0.000169931    -0.000713832         0.247462      -0.0434545
281750                  0.299399        0.196781     -0.000258923     0.000257935         0.417287       -0.827891     -0.000497047    -6.52674e-05
                    -0.000299276      0.00025046         0.236821       0.0893299     -0.000457135    -0.000324395        0.0905074       -0.959233
                        0.417064        -0.82746     -0.000535388    -0.000384346          0.33355        0.128437      -7.5906e-05    -0.000662819
                    -0.000487179    -0.000108063        0.0906796       -0.959079     -0.000170606    -0.000714102         0.247441      -0.0435933
281752                  0.299399        0.196715     -0.000258507     0.000258087         0.417013       -0.828052      -0.00049689    -6.50723e-05
                    -0.000299349     0.000249721         0.236827       0.0893233     -0.000457266    -0.000324391        0.0902222       -0.959259
                        0.416799       -0.827625     -0.000535463    -0.000384611         0.333579        0.128235     -7.62574e-05     -0.00066285
                     -0.00048662    -0.000107954        0.0903947       -0.959103     -0.000171147    -0.000714531          0.24742      -0.0437322
281754                    0.2994        0.196641     -0.000258084     0.000258238         0.416739       -0.828213     -0.000496711    -6.48642e-05
                    -0.000299241     0.000249716         0.236834       0.0893168     -0.000457273    -0.000324357         0.089937       -0.959285
                        0.416534       -0.827788     -0.000535535    -0.000384875         0.333606        0.128034     -7.64466e-05     -0.00066274
                    -0.000486075    -0.000107887        0.0901098       -0.959127     -0.000171448    -0.000714907         0.247399       -0.043871
281756                  0.299394         0.19656     -0.000257656     0.000258388         0.416462       -0.828374     -0.000496537    -6.45822e-05
                    -0.000299184     0.000249985          0.23684       0.0893102     -0.000457216    -0.000324219        0.0896518       -0.959311
                        0.416267       -0.827949     -0.000535606    -0.000385139         0.333631        0.127833     -7.69044e-05    -0.000662573
                    -0.000485534    -0.000107861        0.0898248        -0.95915     -0.000171678    -0.000715087         0.247378      -0.0440098
281758                  0.299381        0.196482     -0.000257223     0.000258538         0.416186       -0.828537     -0.000496488    -6.43354e-05
                    -0.000299181     0.000250365         0.236846       0.0893037     -0.000457175    -0.000323983        0.0893666       -0.959337
                        0.415998       -0.828109     -0.000535675    -0.000385403         0.333655        0.127629      -7.7334e-05     -0.00066252
                     -0.00048499    -0.000107874        0.0895398       -0.959174     -0.000171967    -0.000715143         0.247357      -0.0441486
281760                  0.299366        0.196409     -0.000256786     0.000258688          0.41591       -0.828701     -0.000496385    -6.41727e-05
                    -0.000299214     0.000250792         0.236853       0.0892971     -0.000457182    -0.000323694        0.0890813       -0.959362
                        0.415726       -0.828267     -0.000535745    -0.000385669          0.33368        0.127424      -7.7739e-05    -0.000662475
                    -0.000484439    -0.000107925        0.0892548       -0.959197     -0.000172322    -0.000715155         0.247336      -0.0442873
281762                  0.299352        0.196339     -0.000256344     0.000258839         0.415636       -0.828865     -0.000496247    -6.39978e-05
                    -0.000299273      0.00025124         0.236859       0.0892906     -0.000457232    -0.000323385         0.088796       -0.959388
                        0.415451       -0.828425     -0.000535814    -0.000385942         0.333706        0.127219     -7.81358e-05     -0.00066243
