! TOUCHSTONE file generated by CST MICROWAVE STUDIO
! Date and time: Tue Oct 14 17:37:55 2025
! Project name: Teste_Macro_Metasurface_Nanopilar.cst
! Parameters = {H=600; L_x=70; L_y=100; Lambda=1064; Max_L=200; Min_L=70; PathPara=1; Phi=0; Step_L=10; Theta=0; p=520; phaseX=180; phaseY=0}
! Header version: 2018
! Port assignment regex: !\s*Touchstone port\s*([0-9]+)\s*=\s*(CST MWS port|CST DS port)\s*([0-9]+|Zmin|Zmax)\s*\(\"(.*)\"\)(\s*mode\s*([0-9]+))?.*
! Touchstone port assignment:
! Touchstone port 1 = CST MWS port Zmax ("") mode 1
! Touchstone port 2 = CST MWS port Zmax ("") mode 2
! Touchstone port 3 = CST MWS port Zmin ("") mode 1
! Touchstone port 4 = CST MWS port Zmin ("") mode 2
! S-Parameters are not renormalized. Each port impedance will be approximated by the real part at minimum frequency. The values are described via the [Reference] keyword.
! Default impedance is overridden by [Reference]
[Version] 2.0
# GHz S RI R 376.73
[Number of Ports] 4
[Reference]
376.73 376.73 259.814 259.814 
[Number of Frequencies] 51
[Network Data]
281700                 0.0145941      -0.0819174      0.000396997    -0.000362437        -0.155141       -0.983531      8.66291e-06     0.000124955
                     0.000393154      -0.0003771        0.0516879       -0.127366     -5.88675e-05    -0.000119118         0.153415       -0.978317
                       -0.155315       -0.983676      3.47314e-05    -1.15697e-05        0.0389143        0.073613      0.000395925     0.000300147
                    -8.69806e-05     0.000206886         0.153458       -0.978144       0.00057428     0.000345378         0.010161        0.137117
281702                 0.0145834      -0.0819133      0.000396937    -0.000362576        -0.155386       -0.983493      8.70761e-06      0.00012499
                     0.000393065    -0.000377253        0.0516759       -0.127368     -5.87683e-05    -0.000119165         0.153184       -0.978353
                        -0.15556       -0.983638      3.47771e-05    -1.15795e-05        0.0389395       0.0735929      0.000396047     0.000300099
                    -8.68452e-05     0.000206951         0.153226        -0.97818       0.00057434     0.000345537         0.010214        0.137111
281704                 0.0145728      -0.0819091      0.000396877    -0.000362714         -0.15563       -0.983455      8.75236e-06     0.000125025
                     0.000392976    -0.000377405        0.0516639        -0.12737      -5.8669e-05    -0.000119212         0.152952        -0.97839
                       -0.155805       -0.983599      3.48228e-05    -1.15893e-05        0.0389647       0.0735728      0.000396168      0.00030005
                    -8.67098e-05     0.000207017         0.152994       -0.978217      0.000574399     0.000345694         0.010267        0.137104
281706                 0.0145621      -0.0819049      0.000396818    -0.000362852        -0.155875       -0.983417      8.79714e-06      0.00012506
                     0.000392886    -0.000377558        0.0516519       -0.127371     -5.85695e-05    -0.000119259          0.15272       -0.978427
                        -0.15605       -0.983561      3.48684e-05    -1.15991e-05        0.0389898       0.0735527      0.000396289     0.000300002
                    -8.65745e-05     0.000207083         0.152762       -0.978254      0.000574457     0.000345851          0.01032        0.137097
281708                 0.0145515      -0.0819007      0.000396758    -0.000362989        -0.156119       -0.983378      8.84196e-06     0.000125094
                     0.000392797    -0.000377711        0.0516399       -0.127373       -5.847e-05    -0.000119305         0.152488       -0.978463
                       -0.156295       -0.983523      3.49139e-05    -1.16089e-05         0.039015       0.0735326      0.000396411     0.000299953
                    -8.64392e-05     0.000207148          0.15253       -0.978291      0.000574514     0.000346008         0.010373         0.13709
281710                 0.0145409      -0.0818966      0.000396698    -0.000363127        -0.156364        -0.98334      8.88682e-06     0.000125129
                     0.000392708    -0.000377863         0.051628       -0.127375     -5.83703e-05    -0.000119351         0.152256         -0.9785
                        -0.15654       -0.983484      3.49595e-05    -1.16188e-05        0.0390402       0.0735125      0.000396532     0.000299905
                    -8.63039e-05     0.000207214         0.152299       -0.978327       0.00057457     0.000346164         0.010426        0.137083
281712                 0.0145302      -0.0818924      0.000396638    -0.000363265        -0.156609       -0.983302      8.93172e-06     0.000125164
                     0.000392619    -0.000378016         0.051616       -0.127377     -5.82705e-05    -0.000119397         0.152024       -0.978536
                       -0.156785       -0.983446       3.5005e-05    -1.16286e-05        0.0390653       0.0734923      0.000396654     0.000299856
                    -8.61687e-05     0.000207279         0.152067       -0.978364      0.000574626     0.000346319         0.010479        0.137077
281714                 0.0145196      -0.0818882      0.000396579    -0.000363403        -0.156853       -0.983263      8.97665e-06     0.000125199
                      0.00039253    -0.000378169         0.051604       -0.127379     -5.81705e-05    -0.000119443         0.151792       -0.978572
                        -0.15703       -0.983407      3.50505e-05    -1.16385e-05        0.0390904       0.0734722      0.000396775     0.000299807
                    -8.60334e-05     0.000207344         0.151835         -0.9784       0.00057468     0.000346475         0.010532         0.13707
281716                  0.014509       -0.081884      0.000396519     -0.00036354        -0.157098       -0.983225      9.02162e-06     0.000125234
                     0.000392441    -0.000378321         0.051592       -0.127381     -5.80704e-05    -0.000119489          0.15156       -0.978609
                       -0.157275       -0.983368      3.50959e-05    -1.16484e-05        0.0391155        0.073452      0.000396897     0.000299758
                    -8.58983e-05     0.000207409         0.151603       -0.978437      0.000574735      0.00034663        0.0105849        0.137063
281718                 0.0144983      -0.0818799      0.000396459    -0.000363678        -0.157342       -0.983186      9.06663e-06     0.000125269
                     0.000392352    -0.000378474          0.05158       -0.127383     -5.79702e-05    -0.000119534         0.151328       -0.978645
                       -0.157519        -0.98333      3.51413e-05    -1.16583e-05        0.0391407       0.0734319      0.000397018     0.000299709
                    -8.57631e-05     0.000207474         0.151371       -0.978473      0.000574788     0.000346784        0.0106379        0.137056
281720                 0.0144877      -0.0818757        0.0003964    -0.000363815        -0.157587       -0.983148      9.11168e-06     0.000125303
                     0.000392263    -0.000378627         0.051568       -0.127385     -5.78699e-05    -0.000119579         0.151096       -0.978681
                       -0.157764       -0.983291      3.51867e-05    -1.16682e-05        0.0391658       0.0734117       0.00039714      0.00029966
                     -8.5628e-05     0.000207539         0.151139       -0.978509      0.000574842     0.000346938        0.0106909        0.137049
281722                 0.0144771      -0.0818715       0.00039634    -0.000363953        -0.157831       -0.983109      9.15675e-06     0.000125338
                     0.000392174     -0.00037878         0.051556       -0.127386     -5.77694e-05    -0.000119624         0.150864       -0.978718
                       -0.158009       -0.983252      3.52321e-05    -1.16782e-05        0.0391908       0.0733915      0.000397261     0.000299611
                    -8.54928e-05     0.000207604         0.150907       -0.978546      0.000574895     0.000347092        0.0107438        0.137042
281724                 0.0144665      -0.0818673       0.00039628     -0.00036409        -0.158076        -0.98307      9.20186e-06     0.000125373
                     0.000392085    -0.000378932         0.051544       -0.127388     -5.76688e-05    -0.000119669         0.150633       -0.978754
                       -0.158254       -0.983213      3.52774e-05    -1.16881e-05        0.0392159       0.0733713      0.000397382     0.000299561
                    -8.53577e-05     0.000207669         0.150675       -0.978582      0.000574947     0.000347246        0.0107968        0.137035
281726                 0.0144558      -0.0818631      0.000396221    -0.000364227         -0.15832       -0.983031        9.247e-06     0.000125408
                     0.000391997    -0.000379085         0.051532        -0.12739     -5.75681e-05    -0.000119713         0.150401        -0.97879
                       -0.158499       -0.983174      3.53227e-05    -1.16981e-05         0.039241       0.0733512      0.000397504     0.000299512
                    -8.52226e-05     0.000207734         0.150443       -0.978618         0.000575     0.000347399        0.0108498        0.137028
281728                 0.0144452      -0.0818589      0.000396161    -0.000364364        -0.158565       -0.982992      9.29218e-06     0.000125442
                     0.000391908    -0.000379238          0.05152       -0.127392     -5.74673e-05    -0.000119758         0.150169       -0.978826
                       -0.158743       -0.983135       3.5368e-05    -1.17081e-05         0.039266       0.0733309      0.000397625     0.000299462
                    -8.50875e-05     0.000207799         0.150211       -0.978654      0.000575052     0.000347552        0.0109027        0.137021
281730                 0.0144346      -0.0818547      0.000396102    -0.000364501        -0.158809       -0.982954      9.33737e-06     0.000125477
                     0.000391819     -0.00037939         0.051508       -0.127394     -5.73663e-05    -0.000119802         0.149937       -0.978862
                       -0.158988       -0.983096      3.54133e-05    -1.17182e-05        0.0392911       0.0733107      0.000397747     0.000299412
                    -8.49525e-05     0.000207863         0.149979        -0.97869      0.000575104     0.000347705        0.0109557        0.137014
281732                 0.0144239      -0.0818505      0.000396042    -0.000364638        -0.159054       -0.982915       9.3826e-06     0.000125512
                      0.00039173    -0.000379543        0.0514961       -0.127396     -5.72653e-05    -0.000119846         0.149705       -0.978898
                       -0.159233       -0.983057      3.54585e-05    -1.17282e-05        0.0393161       0.0732905      0.000397868     0.000299362
                    -8.48174e-05     0.000207928         0.149747       -0.978726      0.000575155     0.000347857        0.0110086        0.137007
281734                 0.0144133      -0.0818464      0.000395983    -0.000364775        -0.159298       -0.982875      9.42784e-06     0.000125547
                     0.000391641    -0.000379696        0.0514841       -0.127397     -5.71641e-05     -0.00011989         0.149473       -0.978933
                       -0.159478       -0.983018      3.55038e-05    -1.17383e-05        0.0393412       0.0732703      0.000397989     0.000299312
                    -8.46823e-05     0.000207992         0.149515       -0.978762      0.000575207      0.00034801        0.0110615           0.137
281736                 0.0144027      -0.0818422      0.000395923    -0.000364912        -0.159543       -0.982836       9.4731e-06     0.000125582
                     0.000391552    -0.000379849        0.0514721       -0.127399     -5.70629e-05    -0.000119934         0.149241       -0.978969
                       -0.159723       -0.982979       3.5549e-05    -1.17484e-05        0.0393662       0.0732501      0.000398109     0.000299262
                    -8.45472e-05     0.000208056         0.149283       -0.978798      0.000575258     0.000348162        0.0111145        0.136993
281738                 0.0143921       -0.081838      0.000395864    -0.000365049        -0.159787       -0.982797      9.51837e-06     0.000125617
                     0.000391463    -0.000380001        0.0514601       -0.127401     -5.69616e-05    -0.000119978         0.149009       -0.979005
                       -0.159967       -0.982939      3.55941e-05    -1.17585e-05        0.0393912       0.0732298      0.000398229     0.000299212
                    -8.44122e-05     0.000208121         0.149051       -0.978834      0.000575309     0.000348314        0.0111674        0.136986
281740                 0.0143814      -0.0818338      0.000395804    -0.000365186        -0.160031       -0.982758      9.56362e-06     0.000125651
                     0.000391375    -0.000380154        0.0514481       -0.127403     -5.68602e-05    -0.000120022         0.148777       -0.979041
                       -0.160212         -0.9829      3.56393e-05    -1.17686e-05        0.0394162       0.0732096      0.000398349     0.000299164
                    -8.42771e-05     0.000208185         0.148819        -0.97887       0.00057536     0.000348466        0.0112203        0.136979
281742                 0.0143708      -0.0818296      0.000395745    -0.000365323        -0.160276       -0.982719      9.60884e-06     0.000125686
                     0.000391286    -0.000380307        0.0514361       -0.127405     -5.67587e-05    -0.000120066         0.148545       -0.979076
                       -0.160457       -0.982861      3.56844e-05    -1.17788e-05        0.0394412       0.0731893       0.00039847     0.000299116
                     -8.4142e-05     0.000208249         0.148587       -0.978905      0.000575411     0.000348618        0.0112733        0.136972
281744                 0.0143602      -0.0818254      0.000395685    -0.000365459         -0.16052       -0.982679      9.65397e-06     0.000125721
                     0.000391197    -0.000380459        0.0514241       -0.127407     -5.66572e-05     -0.00012011         0.148312       -0.979112
                       -0.160701       -0.982821      3.57295e-05     -1.1789e-05        0.0394662        0.073169      0.000398592     0.000299067
                    -8.40069e-05     0.000208313         0.148355       -0.978941      0.000575462     0.000348769        0.0113262        0.136965
281746                 0.0143496      -0.0818212      0.000395626    -0.000365596        -0.160765        -0.98264      9.69893e-06     0.000125756
                     0.000391108    -0.000380612        0.0514121       -0.127409     -5.65556e-05    -0.000120154          0.14808       -0.979147
                       -0.160946       -0.982781      3.57746e-05    -1.17993e-05        0.0394911       0.0731488      0.000398714     0.000299019
                    -8.38718e-05     0.000208377         0.148123       -0.978977      0.000575512     0.000348921        0.0113791        0.136958
281748                 0.0143389       -0.081817      0.000395566    -0.000365733        -0.161009         -0.9826      9.74364e-06     0.000125791
                     0.000391019    -0.000380765        0.0514001        -0.12741     -5.64539e-05    -0.000120198         0.147848       -0.979183
                       -0.161191       -0.982742      3.58197e-05    -1.18095e-05        0.0395161       0.0731285      0.000398836     0.000298969
                    -8.37367e-05     0.000208441         0.147891       -0.979012      0.000575563     0.000349072         0.011432         0.13695
281750                 0.0143283      -0.0818128      0.000395507    -0.000365869        -0.161254       -0.982561       9.7882e-06     0.000125825
                      0.00039093    -0.000380917        0.0513881       -0.127412     -5.63522e-05    -0.000120241         0.147616       -0.979218
                       -0.161436       -0.982702      3.58648e-05    -1.18198e-05         0.039541       0.0731082      0.000398958     0.000298919
                    -8.36016e-05     0.000208504         0.147659       -0.979048      0.000575613     0.000349223        0.0114849        0.136943
281752                 0.0143177      -0.0818086      0.000395447    -0.000366006        -0.161498       -0.982521      9.83304e-06     0.000125859
                     0.000390841     -0.00038107        0.0513761       -0.127414     -5.62505e-05    -0.000120285         0.147384       -0.979254
                        -0.16168       -0.982662      3.59098e-05    -1.18301e-05         0.039566       0.0730879       0.00039908     0.000298869
                    -8.34665e-05     0.000208568         0.147427       -0.979083      0.000575664     0.000349374        0.0115378        0.136936
281754                 0.0143071      -0.0818044      0.000395388    -0.000366142        -0.161742       -0.982482      9.87844e-06     0.000125893
                     0.000390752    -0.000381222        0.0513641       -0.127416     -5.61487e-05    -0.000120329         0.147152       -0.979289
                       -0.161925       -0.982623      3.59549e-05    -1.18405e-05        0.0395909       0.0730676      0.000399202     0.000298819
                    -8.33314e-05     0.000208632         0.147195       -0.979118      0.000575714     0.000349525        0.0115907        0.136929
281756                 0.0142964      -0.0818002      0.000395329    -0.000366278        -0.161987       -0.982442      9.92417e-06     0.000125926
                     0.000390664    -0.000381375        0.0513522       -0.127418     -5.60468e-05    -0.000120373          0.14692       -0.979324
                        -0.16217       -0.982583      3.59999e-05    -1.18509e-05        0.0396158       0.0730473      0.000399324     0.000298769
                    -8.31963e-05     0.000208695         0.146963       -0.979154      0.000575764     0.000349676        0.0116436        0.136921
281758                 0.0142858       -0.081796      0.000395269    -0.000366415        -0.162231       -0.982402      9.96996e-06     0.000125961
                     0.000390575    -0.000381528        0.0513402        -0.12742     -5.59449e-05    -0.000120417         0.146688       -0.979359
                       -0.162414       -0.982543      3.60448e-05    -1.18612e-05        0.0396407       0.0730269      0.000399446     0.000298719
                    -8.30613e-05     0.000208759         0.146731       -0.979189      0.000575814     0.000349827        0.0116965        0.136914
281760                 0.0142752      -0.0817918       0.00039521     -0.00036655        -0.162475       -0.982362      1.00157e-05     0.000125995
                     0.000390486     -0.00038168        0.0513282       -0.127421      -5.5843e-05     -0.00012046         0.146456       -0.979394
                       -0.162659       -0.982503      3.60895e-05    -1.18713e-05        0.0396656       0.0730066      0.000399567     0.000298669
                    -8.29263e-05     0.000208822         0.146499       -0.979224      0.000575864     0.000349978        0.0117494        0.136907
281762                 0.0142646      -0.0817875       0.00039515    -0.000366687         -0.16272       -0.982322      1.00614e-05     0.000126029
                     0.000390397    -0.000381833        0.0513162       -0.127423      -5.5741e-05    -0.000120504         0.146224       -0.979429
                       -0.162904       -0.982463      3.61353e-05    -1.18822e-05        0.0396905       0.0729863      0.000399689     0.000298618
