! TOUCHSTONE file generated by CST MICROWAVE STUDIO
! Date and time: Tue Oct 14 17:39:00 2025
! Project name: Teste_Macro_Metasurface_Nanopilar.cst
! Parameters = {H=600; L_x=160; L_y=140; Lambda=1064; Max_L=200; Min_L=70; PathPara=1; Phi=0; Step_L=10; Theta=0; p=520; phaseX=180; phaseY=0}
! Header version: 2018
! Port assignment regex: !\s*Touchstone port\s*([0-9]+)\s*=\s*(CST MWS port|CST DS port)\s*([0-9]+|Zmin|Zmax)\s*\(\"(.*)\"\)(\s*mode\s*([0-9]+))?.*
! Touchstone port assignment:
! Touchstone port 1 = CST MWS port Zmax ("") mode 1
! Touchstone port 2 = CST MWS port Zmax ("") mode 2
! Touchstone port 3 = CST MWS port Zmin ("") mode 1
! Touchstone port 4 = CST MWS port Zmin ("") mode 2
! S-Parameters are not renormalized. Each port impedance will be approximated by the real part at minimum frequency. The values are described via the [Reference] keyword.
! Default impedance is overridden by [Reference]
[Version] 2.0
# GHz S RI R 376.73
[Number of Ports] 4
[Reference]
376.73 376.73 259.814 259.814 
[Number of Frequencies] 51
[Network Data]
281700                    0.2145        0.354915      7.51006e-05    -0.000819193         0.618517       -0.650999      0.000311688     0.000127877
                     0.000160964    -0.000780593         0.220663       -0.155826      0.000159265     0.000297585         0.860523       -0.412474
                        0.618878       -0.651122      0.000123905     0.000227639         0.366526        0.175618     -0.000834154    -0.000177145
                     0.000226244     0.000103833         0.860713       -0.412836     -0.000924237    -0.000157764        -0.253456       0.0612768
281702                  0.214648        0.355084      7.45325e-05    -0.000818755         0.618105       -0.651236      0.000312159     0.000128167
                      0.00015945    -0.000780725         0.220597       -0.155744      0.000158782     0.000297333         0.860387       -0.412834
                        0.618443       -0.651364       0.00012359     0.000226944         0.366889        0.175337     -0.000834409    -0.000177228
                     0.000225041     0.000101872         0.860577       -0.413196      -0.00092155    -0.000159896        -0.253303       0.0614911
281704                  0.214795        0.355249       7.3992e-05    -0.000818377         0.617687       -0.651475       0.00031272     0.000128439
                     0.000157944    -0.000780623         0.220531       -0.155662      0.000158422     0.000297078          0.86025       -0.413193
                        0.618009       -0.651605      0.000123451     0.000226332         0.367251        0.175056     -0.000834715     -0.00017736
                     0.000224248     0.000101421          0.86044       -0.413556     -0.000919869    -0.000160632         -0.25315        0.061705
281706                  0.214942        0.355411      7.34819e-05    -0.000818066         0.617261       -0.651719      0.000313378     0.000128662
                     0.000156525    -0.000780309         0.220466        -0.15558      0.000158209     0.000296838         0.860113       -0.413552
                        0.617576       -0.651845      0.000123509     0.000225814         0.367613        0.174775     -0.000835085    -0.000177563
                     0.000223957     0.000101158         0.860303       -0.413916     -0.000919388     -0.00015987        -0.252997       0.0619188
281708                  0.215091        0.355571      7.30054e-05    -0.000817832         0.616827        -0.65198      0.000314128     0.000128799
                     0.000155254    -0.000779831           0.2204       -0.155497      0.000158167     0.000296642         0.859976       -0.413911
                        0.617143       -0.652084      0.000123793     0.000225399         0.367975        0.174493     -0.000835529    -0.000177872
                     0.000223877     0.000100874         0.860165       -0.414275     -0.000920153    -0.000157642        -0.252843       0.0621323
281710                  0.215242         0.35573      7.25662e-05    -0.000817683         0.616419       -0.652271      0.000314945     0.000128812
                     0.000154159    -0.000779256         0.220335       -0.155415      0.000158317     0.000296519         0.859839        -0.41427
                        0.616711       -0.652323      0.000124339     0.000225101         0.368337        0.174211     -0.000836054    -0.000178344
                     0.000223892     0.000100555         0.860027       -0.414634     -0.000922019     -0.00015412         -0.25269       0.0623455
281712                  0.215393         0.35589      7.21688e-05    -0.000817632         0.616052       -0.652528      0.000315788     0.000128672
                     0.000153239    -0.000778646         0.220269       -0.155333      0.000158677     0.000296508         0.859702       -0.414629
                         0.61628       -0.652561       0.00012519     0.000224936         0.368698        0.173928     -0.000836654    -0.000179069
                     0.000223954     0.000100208         0.859889       -0.414992     -0.000924669    -0.000149593        -0.252536       0.0625585
281714                  0.215546         0.35605      7.18182e-05    -0.000817693         0.615662       -0.652753      0.000316599     0.000128371
                     0.000152473     -0.00077805         0.220204       -0.155251      0.000159262     0.000296648         0.859564       -0.414987
                        0.615851       -0.652799      0.000126403     0.000224921          0.36906        0.173646     -0.000837275    -0.000180188
                     0.000224042     9.98423e-05          0.85975       -0.415351     -0.000927693    -0.000144421        -0.252382       0.0627713
281716                  0.215699         0.35621      7.15205e-05    -0.000817881         0.615253        -0.65298      0.000317323      0.00012793
                     0.000151832    -0.000777499         0.220138       -0.155169       0.00016008     0.000296975         0.859426       -0.415346
                        0.615422       -0.653037      0.000128051     0.000225078         0.369422        0.173363     -0.000837736    -0.000181903
                     0.000224145     9.94618e-05         0.859611       -0.415708     -0.000930681    -0.000138981        -0.252229       0.0629838
281718                  0.215853         0.35637      7.12827e-05    -0.000818216         0.614838       -0.653212      0.000317919     0.000127391
                     0.000151284    -0.000777008         0.220073       -0.155087      0.000161131     0.000297519         0.859289       -0.415704
                        0.614994       -0.653275      0.000130229      0.00022543         0.369784        0.173079     -0.000837577    -0.000184372
                     0.000224258     9.90705e-05         0.859471       -0.416066     -0.000933309    -0.000133619        -0.252075       0.0631961
281720                  0.216007         0.35653      7.11129e-05    -0.000818721         0.614419       -0.653447      0.000318374     0.000126808
                     0.000150802    -0.000776584         0.220008       -0.155005      0.000162411     0.000298296         0.859151       -0.416062
                        0.614567       -0.653512      0.000133065     0.000226005         0.370145        0.172795     -0.000835967    -0.000187298
                     0.000224376      9.8671e-05         0.859331       -0.416423     -0.000935373    -0.000128612        -0.251921       0.0634081
281722                  0.216161        0.356691      7.10209e-05    -0.000819421         0.613999       -0.653685      0.000318695     0.000126227
                     0.000150365    -0.000776223         0.219942       -0.154923      0.000163909     0.000299298         0.859012        -0.41642
                        0.614141        -0.65375      0.000136727     0.000226833         0.370507         0.17251     -0.000832414    -0.000189307
                     0.000224498     9.82649e-05         0.859191        -0.41678     -0.000936788    -0.000124149        -0.251767       0.0636199
281724                  0.216316        0.356852      7.10175e-05    -0.000820349         0.613577       -0.653923      0.000318905     0.000125683
                     0.000149955    -0.000775921         0.219877       -0.154841      0.000165609     0.000300493         0.858874       -0.416778
                        0.613716       -0.653988      0.000141448     0.000227939         0.370869        0.172225     -0.000828221      -0.0001889
                     0.000224622     9.78537e-05         0.859049       -0.417136     -0.000937559    -0.000120333        -0.251613       0.0638314
281726                  0.216471        0.357013      7.11153e-05    -0.000821539         0.613155       -0.654163      0.000319032     0.000125195
                     0.000149561    -0.000775672         0.219812       -0.154759      0.000167486     0.000301815         0.858736       -0.417136
                        0.613292       -0.654227      0.000147546     0.000229341         0.371231         0.17194     -0.000825364    -0.000186651
                     0.000224747      9.7438e-05         0.858908       -0.417492     -0.000937742    -0.000117198        -0.251459       0.0640427
281728                  0.216627        0.357174      7.13274e-05     -0.00082303         0.612731       -0.654403      0.000319102     0.000124769
                     0.000149175    -0.000775467         0.219747       -0.154677      0.000169503     0.000303172         0.858597       -0.417493
                        0.612868       -0.654466      0.000155466     0.000231029         0.371593        0.171654     -0.000824162    -0.000184135
                     0.000224872     9.70187e-05         0.858766       -0.417847     -0.000937422    -0.000114726        -0.251304       0.0642538
281730                  0.216782        0.357335      7.16672e-05    -0.000824863         0.612307       -0.654644      0.000319137     0.000124405
                      0.00014879    -0.000775302         0.219682       -0.154595      0.000171599     0.000304455         0.858458       -0.417851
                        0.612445       -0.654706       0.00016583     0.000232928         0.371956        0.171367     -0.000823939    -0.000182103
                     0.000224996     9.65962e-05         0.858623       -0.418202     -0.000936688    -0.000112868         -0.25115       0.0644646
281732                  0.216938        0.357497      7.21451e-05    -0.000827071         0.611882       -0.654885      0.000319153     0.000124097
                     0.000148403    -0.000775168         0.219617       -0.154513       0.00017369     0.000305558         0.858319       -0.418208
                        0.612022       -0.654947      0.000179493     0.000234817         0.372318         0.17108     -0.000824135    -0.000180618
                      0.00022512     9.61708e-05          0.85848       -0.418556     -0.000935622    -0.000111558        -0.250996       0.0646752
281734                  0.217094        0.357658      7.27634e-05    -0.000829668         0.611456       -0.655126      0.000319159     0.000123838
                     0.000148012    -0.000775063         0.219552       -0.154431      0.000175666     0.000306398          0.85818       -0.418565
                        0.611599       -0.655189      0.000197569      0.00023618         0.372681        0.170792     -0.000824468    -0.000179553
                     0.000225242     9.57428e-05         0.858336        -0.41891     -0.000934295    -0.000110725        -0.250841       0.0648856
281736                  0.217251         0.35782      7.35053e-05    -0.000832615         0.611029       -0.655367      0.000319165      0.00012362
                     0.000147615     -0.00077498         0.219488       -0.154349       0.00017741     0.000306943         0.858041       -0.418922
                        0.611176       -0.655432      0.000221261     0.000235964         0.373044        0.170503     -0.000824819    -0.000178779
                     0.000225363     9.53124e-05         0.858193       -0.419264     -0.000932767    -0.000110302        -0.250687       0.0650957
281738                  0.217407        0.357982      7.43138e-05    -0.000835764         0.610601       -0.655608      0.000319173     0.000123436
                     0.000147212    -0.000774917         0.219423       -0.154268       0.00017882     0.000307209         0.857902       -0.419279
                        0.610752       -0.655675      0.000251083     0.000232405         0.373407        0.170214     -0.000825146    -0.000178204
                     0.000225481     9.48795e-05         0.858049       -0.419618     -0.000931085    -0.000110223        -0.250532       0.0653056
281740                  0.217564        0.358145      7.50536e-05    -0.000838743         0.610173       -0.655849      0.000319186     0.000123281
                     0.000146802     -0.00077487         0.219359       -0.154186      0.000179831     0.000307259         0.857762       -0.419636
                        0.610329       -0.655919      0.000284628     0.000223886          0.37377        0.169924     -0.000825436    -0.000177767
                     0.000225598     9.44443e-05         0.857906       -0.419971     -0.000929286    -0.000110434        -0.250377       0.0655152
281742                  0.217721        0.358307      7.54517e-05    -0.000840791         0.609744       -0.656091      0.000319204     0.000123151
                     0.000146384    -0.000774836         0.219294       -0.154105      0.000180426     0.000307174         0.857623       -0.419992
                        0.609904       -0.656164      0.000312662     0.000213102         0.374133        0.169634     -0.000825687     -0.00017743
                     0.000225711     9.40067e-05         0.857764       -0.420326     -0.000927399    -0.000110885        -0.250223       0.0657247
281744                  0.217879         0.35847      7.50282e-05     -0.00084058         0.609314       -0.656332      0.000319228     0.000123041
                      0.00014596    -0.000774814         0.219231       -0.154024      0.000180626     0.000307034         0.857483       -0.420349
                         0.60948        -0.65641       0.00031657     0.000212492         0.374497        0.169343     -0.000825903    -0.000177165
                     0.000225821     9.35664e-05         0.857626       -0.420682     -0.000925446    -0.000111535        -0.250068       0.0659338
281746                  0.218036        0.358632       7.3092e-05    -0.000836272         0.608884       -0.656573      0.000319256     0.000122948
                     0.000145529    -0.000774802         0.219167       -0.153943      0.000180484     0.000306901         0.857343       -0.420705
                        0.609054       -0.656656      0.000274244     0.000229034         0.374861        0.169051     -0.000826088    -0.000176957
                     0.000225927     9.31233e-05         0.857492       -0.421042     -0.000923444    -0.000112348        -0.249913       0.0661428
281748                  0.218194        0.358795      6.89752e-05    -0.000826304         0.608453       -0.656814      0.000319286     0.000122871
                     0.000145092    -0.000774797         0.219104       -0.153863      0.000180063     0.000306817         0.857203       -0.421061
                        0.608627       -0.656903       0.00019328     0.000234395         0.375225        0.168759     -0.000826248    -0.000176795
                     0.000226029     9.26769e-05         0.857366       -0.421409     -0.000921406    -0.000113296        -0.249758       0.0663515
281750                  0.218351        0.358958      6.26096e-05    -0.000810943         0.608021       -0.657055      0.000319317     0.000122808
                     0.000144648    -0.000774799         0.219043       -0.153784      0.000179427     0.000306802         0.857062       -0.421417
                        0.608199        -0.65715       0.00012313     0.000214306          0.37559        0.168465     -0.000826387    -0.000176675
                     0.000226125     9.22265e-05          0.85725       -0.421789     -0.000919342    -0.000114354        -0.249603         0.06656
281752                   0.21851        0.359121      5.49857e-05    -0.000793063         0.607589       -0.657296      0.000319344     0.000122758
                     0.000144199    -0.000774807         0.218987       -0.153707      0.000178632     0.000306861         0.856922       -0.421773
                        0.607771       -0.657397      8.32384e-05     0.000190596         0.375954        0.168172     -0.000826509    -0.000176594
                     0.000226213     9.17711e-05         0.857144       -0.422196      -0.00091726    -0.000115501        -0.249447       0.0667683
281754                  0.218668        0.359284      4.76862e-05    -0.000776494         0.607156       -0.657537      0.000319363     0.000122724
                     0.000143744    -0.000774818         0.218963       -0.153616      0.000177724     0.000306992         0.856781       -0.422129
                        0.607341       -0.657644      6.31586e-05     0.000174131         0.376319        0.167877     -0.000826616    -0.000176558
                     0.000226291     9.13094e-05         0.857032        -0.42264     -0.000915165    -0.000116721        -0.249292       0.0669764
281756                  0.218826        0.359447      4.18409e-05    -0.000763588         0.606722       -0.657777      0.000319365     0.000122706
                     0.000143284    -0.000774833         0.218845       -0.153491       0.00017674     0.000307185          0.85664       -0.422484
                         0.60691       -0.657891      5.29482e-05     0.000164277         0.376684        0.167582     -0.000826712    -0.000176576
                     0.000226355     9.08388e-05         0.856882       -0.423115     -0.000913063    -0.000117999        -0.249137       0.0671842
281758                  0.218984         0.35961      3.77068e-05    -0.000754667         0.606288       -0.658018      0.000319339     0.000122711
                     0.000142819     -0.00077485         0.218774       -0.153429      0.000175707      0.00030743         0.856499        -0.42284
                        0.606478       -0.658138      4.75514e-05     0.000158581         0.377049        0.167286     -0.000826798    -0.000176671
                     0.000226399     9.03554e-05         0.856684       -0.423577     -0.000910955    -0.000119324        -0.248982       0.0673918
281760                  0.219143        0.359773      3.49919e-05    -0.000748947         0.605853       -0.658258      0.000319261     0.000122749
                      0.00014235    -0.000774867         0.218711       -0.153354      0.000174645     0.000307717         0.856358       -0.423195
                        0.606044       -0.658385      4.46005e-05     0.000155276         0.377415        0.166989     -0.000826867    -0.000176895
                     0.000226409      8.9852e-05          0.85647       -0.423995     -0.000908846    -0.000120686        -0.248826       0.0675992
281762                    0.2193        0.359936      3.32696e-05    -0.000745442         0.605418       -0.658498      0.000319087     0.000122844
                     0.000141875    -0.000774883         0.218648       -0.153276      0.000173569     0.000308036         0.856217       -0.423551
                         0.60561       -0.658631      4.29499e-05     0.000153318         0.377781        0.166692     -0.000826887    -0.000177367
