! TOUCHSTONE file generated by CST MICROWAVE STUDIO
! Date and time: Tue Oct 14 17:38:18 2025
! Project name: Teste_Macro_Metasurface_Nanopilar.cst
! Parameters = {H=600; L_x=100; L_y=150; Lambda=1064; Max_L=200; Min_L=70; PathPara=1; Phi=0; Step_L=10; Theta=0; p=520; phaseX=180; phaseY=0}
! Header version: 2018
! Port assignment regex: !\s*Touchstone port\s*([0-9]+)\s*=\s*(CST MWS port|CST DS port)\s*([0-9]+|Zmin|Zmax)\s*\(\"(.*)\"\)(\s*mode\s*([0-9]+))?.*
! Touchstone port assignment:
! Touchstone port 1 = CST MWS port Zmax ("") mode 1
! Touchstone port 2 = CST MWS port Zmax ("") mode 2
! Touchstone port 3 = CST MWS port Zmin ("") mode 1
! Touchstone port 4 = CST MWS port Zmin ("") mode 2
! S-Parameters are not renormalized. Each port impedance will be approximated by the real part at minimum frequency. The values are described via the [Reference] keyword.
! Default impedance is overridden by [Reference]
[Version] 2.0
# GHz S RI R 376.73
[Number of Ports] 4
[Reference]
376.73 376.73 259.814 259.814 
[Number of Frequencies] 51
[Network Data]
281700                 0.0523546        0.139507      0.000105102    -0.000142332         0.979002       0.0905871      0.000154588     0.000369431
                     0.000175955    -0.000223146        0.0961324        0.119779      0.000313964    -0.000338495          -0.9811       0.0503084
                        0.977962       0.0901892      0.000232676     -0.00027124       -0.0759012        0.128192     -7.46422e-05      0.00014537
                     0.000142617     0.000322499        -0.980809       0.0497126      3.02954e-05     0.000125712       -0.0820416        0.129286
281702                 0.0523744        0.139522      0.000105236    -0.000142335         0.979029       0.0902562      0.000154697     0.000369478
                     0.000175869    -0.000223164        0.0961553        0.119781      0.000313795    -0.000338587        -0.981079       0.0506492
                        0.977989       0.0898592      0.000232861    -0.000271381       -0.0758369        0.128254     -7.45785e-05     0.000145455
                     0.000142648     0.000322497        -0.980789       0.0500534      3.03737e-05     0.000125665       -0.0819744        0.129347
281704                 0.0523942        0.139536      0.000105317    -0.000143251         0.979057       0.0899253      0.000154803     0.000369524
                     0.000175783    -0.000223181        0.0961781        0.119782      0.000313627    -0.000338678        -0.981059       0.0509901
                        0.978016       0.0895292      0.000232444    -0.000270106       -0.0757724        0.128315     -7.45181e-05     0.000145536
                     0.000142679     0.000322496        -0.980767       0.0503952        3.048e-05     0.000125603       -0.0819071        0.129407
281706                  0.052414         0.13955      0.000105373    -0.000145059         0.979085       0.0895944      0.000154908     0.000369568
                     0.000175697    -0.000223199        0.0962008        0.119783      0.000313459    -0.000338767        -0.981038        0.051331
                        0.978043       0.0891991      0.000231396    -0.000267284        -0.075708        0.128377     -7.44609e-05     0.000145612
                      0.00014271     0.000322494        -0.980744       0.0507384      3.05529e-05     0.000125523       -0.0818397        0.129468
281708                 0.0524338        0.139565      0.000105467    -0.000147646         0.979112       0.0892635      0.000155011     0.000369611
                     0.000175611    -0.000223216        0.0962233        0.119785      0.000313293    -0.000338856        -0.981018        0.051672
                        0.978069       0.0888691      0.000229689    -0.000262753       -0.0756434        0.128438     -7.44069e-05     0.000145683
                     0.000142741     0.000322493         -0.98072       0.0510832      3.06231e-05     0.000125458       -0.0817723        0.129529
281710                 0.0524536        0.139579      0.000105673    -0.000150801          0.97914       0.0889326      0.000155112     0.000369652
                     0.000175524    -0.000223233        0.0962458        0.119786      0.000313129    -0.000338944        -0.980997       0.0520131
                        0.978096        0.088539      0.000227324    -0.000256363       -0.0755789          0.1285     -7.43563e-05      0.00014575
                     0.000142771     0.000322492        -0.980695       0.0514304      3.06962e-05     0.000125397       -0.0817048        0.129589
281712                 0.0524734        0.139594      0.000106039    -0.000154222         0.979167       0.0886017      0.000155211     0.000369692
                     0.000175438    -0.000223249        0.0962682        0.119788      0.000312966    -0.000339032        -0.980976       0.0523541
                        0.978122        0.088209      0.000224374    -0.000248094       -0.0755143        0.128561     -7.43088e-05     0.000145811
                       0.0001428     0.000322493        -0.980668       0.0517805      3.07705e-05     0.000125336       -0.0816373         0.12965
281714                 0.0524932        0.139608      0.000106549     -0.00015753         0.979194       0.0882708      0.000155309      0.00036973
                     0.000175351    -0.000223266        0.0962906        0.119789      0.000312804    -0.000339121        -0.980955       0.0526952
                        0.978148       0.0878789      0.000221079    -0.000238346       -0.0754496        0.128623     -7.42646e-05     0.000145869
                     0.000142827     0.000322495        -0.980641       0.0521343      3.08454e-05     0.000125275       -0.0815698         0.12971
281716                  0.052513        0.139622      0.000107099    -0.000160272         0.979221       0.0879399      0.000155405     0.000369767
                     0.000175264    -0.000223281         0.096313        0.119791      0.000312644    -0.000339211        -0.980934       0.0530362
                        0.978175       0.0875489      0.000217991    -0.000228522       -0.0753849        0.128684     -7.42234e-05     0.000145921
                     0.000142842     0.000322498        -0.980615       0.0524919      3.09205e-05     0.000125215       -0.0815022        0.129771
281718                 0.0525329        0.139637      0.000107486    -0.000161868         0.979248        0.087609      0.000155499     0.000369802
                     0.000175175    -0.000223295        0.0963356        0.119792      0.000312484    -0.000339302        -0.980913       0.0533773
                        0.978202       0.0872188       0.00021615    -0.000221938       -0.0753201        0.128745     -7.41852e-05      0.00014597
                     0.000142845     0.000322465        -0.980593       0.0528497      3.09956e-05     0.000125154       -0.0814345        0.129831
281720                 0.0525526        0.139651       0.00010743    -0.000161392         0.979276       0.0872785      0.000155592     0.000369836
                     0.000175083    -0.000223324        0.0963585        0.119794      0.000312324    -0.000339394        -0.980892       0.0537183
                        0.978226       0.0868885      0.000217187    -0.000224301       -0.0752553        0.128807     -7.41496e-05     0.000146014
                     0.000142906     0.000322437        -0.980579       0.0531968      3.10708e-05     0.000125093       -0.0813669        0.129892
281722                 0.0525724        0.139665      0.000106712    -0.000156843           0.9793       0.0869466      0.000155683     0.000369869
                     0.000175003    -0.000223336        0.0963822        0.119794      0.000312164    -0.000339487         -0.98087       0.0540594
                        0.978252       0.0865585      0.000223059    -0.000241408       -0.0751906        0.128868     -7.41166e-05     0.000146055
                     0.000142952     0.000322439        -0.980568       0.0535162      3.11459e-05     0.000125032       -0.0812991        0.129952
281724                 0.0525922         0.13968      0.000106684    -0.000142431         0.979328       0.0866159      0.000155774     0.000369901
                     0.000174916     -0.00022335        0.0964069        0.119795      0.000312003    -0.000339582        -0.980848       0.0544004
                        0.978278       0.0862285      0.000234856    -0.000273043       -0.0751256        0.128929     -7.40857e-05     0.000146093
                     0.000142989      0.00032244        -0.980555       0.0538025      3.12209e-05     0.000124971       -0.0812314        0.130013
281726                  0.052612        0.139694      0.000129058    -0.000102171         0.979354        0.086285      0.000155863     0.000369932
                     0.000174829    -0.000223365        0.0964328        0.119794      0.000311841    -0.000339676        -0.980827       0.0547414
                        0.978303       0.0858984      0.000250889    -0.000310349       -0.0750607         0.12899     -7.40565e-05     0.000146128
                     0.000143023     0.000322439        -0.980548       0.0540753      3.12958e-05      0.00012491       -0.0811635        0.130073
281728                 0.0526318        0.139709      0.000227272    -0.000142858         0.979381        0.085954      0.000155952     0.000369962
                     0.000174741     -0.00022338        0.0964596        0.119793      0.000311678    -0.000339771        -0.980805       0.0550824
                        0.978329       0.0855683      0.000267101    -0.000343166       -0.0749957        0.129052     -7.40285e-05     0.000146161
                     0.000143056     0.000322437        -0.980551       0.0543628      3.13706e-05     0.000124849       -0.0810957        0.130133
281730                 0.0526516        0.139723      0.000192304    -0.000204871         0.979407       0.0856231      0.000156041     0.000369991
                     0.000174654    -0.000223395        0.0964868        0.119791      0.000311514    -0.000339865        -0.980783       0.0554234
                        0.978354       0.0852383      0.000280298    -0.000367186       -0.0749306        0.129113     -7.40012e-05     0.000146193
                     0.000143088     0.000322435        -0.980556       0.0546748      3.14452e-05     0.000124788       -0.0810278        0.130193
281732                 0.0526714        0.139737      0.000169747    -0.000210438         0.979433       0.0852921       0.00015613     0.000370021
                     0.000174566     -0.00022341        0.0965137        0.119789      0.000311348    -0.000339959        -0.980761       0.0557643
                         0.97838       0.0849082      0.000289662     -0.00038311       -0.0748655        0.129174     -7.39736e-05     0.000146225
                     0.000143121     0.000322431        -0.980554       0.0550041      3.15197e-05     0.000124727       -0.0809598        0.130254
281734                 0.0526913        0.139752      0.000160284    -0.000210223         0.979459       0.0849611       0.00015622      0.00037005
                     0.000174478    -0.000223425        0.0965399        0.119788      0.000311183    -0.000340051        -0.980738       0.0561053
                        0.978405       0.0845781      0.000295811    -0.000393207       -0.0748004        0.129235     -7.39449e-05     0.000146258
                     0.000143153     0.000322428        -0.980544       0.0553417      3.15941e-05     0.000124666       -0.0808918        0.130314
281736                 0.0527111        0.139766      0.000155674    -0.000209624         0.979485       0.0846302      0.000156312      0.00037008
                      0.00017439     -0.00022344        0.0965653        0.119787      0.000311017    -0.000340142        -0.980716       0.0564463
                         0.97843        0.084248      0.000299681    -0.000399515       -0.0747352        0.129296     -7.39139e-05     0.000146294
                     0.000143186     0.000322424         -0.98053       0.0556827      3.16683e-05     0.000124605       -0.0808238        0.130374
281738                 0.0527309         0.13978      0.000153168    -0.000209186         0.979511       0.0842992      0.000156405     0.000370111
                     0.000174302    -0.000223454        0.0965898        0.119787      0.000310851    -0.000340232        -0.980693       0.0567872
                        0.978455       0.0839179      0.000302051    -0.000403454         -0.07467        0.129357     -7.38792e-05     0.000146335
                     0.000143219      0.00032242        -0.980512       0.0560248      3.17424e-05     0.000124545       -0.0807557        0.130434
281740                 0.0527507        0.139795      0.000151701    -0.000208917         0.979536       0.0839682      0.000156502     0.000370144
                     0.000174214    -0.000223468        0.0966138        0.119787      0.000310686    -0.000340321        -0.980671       0.0571282
                        0.978479       0.0835878      0.000303466    -0.000405928       -0.0746047        0.129418     -7.38391e-05     0.000146383
                     0.000143252     0.000322415        -0.980492       0.0563671      3.18164e-05     0.000124485       -0.0806875        0.130494
281742                 0.0527705        0.139809      0.000150794    -0.000208766         0.979562       0.0836372      0.000156603     0.000370179
                     0.000174126    -0.000223482        0.0966374        0.119787      0.000310522     -0.00034041        -0.980648       0.0574692
                        0.978504       0.0832577      0.000304278    -0.000407493       -0.0745394        0.129479     -7.37917e-05      0.00014644
                     0.000143285     0.000322411         -0.98047       0.0567093      3.18902e-05     0.000124425       -0.0806194        0.130554
281744                 0.0527903        0.139823      0.000150206    -0.000208692         0.979587       0.0833063       0.00015671     0.000370219
                     0.000174037    -0.000223496        0.0966608        0.119788      0.000310359    -0.000340498        -0.980625       0.0578102
                        0.978529       0.0829276      0.000304711    -0.000408494        -0.074474         0.12954     -7.37345e-05     0.000146511
                     0.000143318     0.000322406        -0.980448       0.0570513      3.19642e-05     0.000124366       -0.0805512        0.130614
281746                 0.0528101        0.139838      0.000149808    -0.000208668         0.979612       0.0829753      0.000156824     0.000370262
                     0.000173948     -0.00022351        0.0966839        0.119789      0.000310196    -0.000340586        -0.980602       0.0581512
                        0.978553       0.0825975      0.000304904     -0.00040914       -0.0744086        0.129601     -7.36647e-05     0.000146598
                     0.000143351     0.000322402        -0.980426       0.0573931      3.20386e-05     0.000124309       -0.0804829        0.130674
281748                 0.0528299        0.139852      0.000149524    -0.000208675         0.979638       0.0826443      0.000156947     0.000370312
                      0.00017386    -0.000223523        0.0967069         0.11979      0.000310034    -0.000340674        -0.980579       0.0584923
                        0.978577       0.0822674      0.000304948    -0.000409564       -0.0743432        0.129662     -7.35791e-05     0.000146707
                     0.000143384     0.000322397        -0.980403       0.0577347       3.2115e-05     0.000124253       -0.0804146        0.130734
281750                 0.0528497        0.139866      0.000149311    -0.000208703         0.979663       0.0823133      0.000157082     0.000370369
                     0.000173771    -0.000223537        0.0967299        0.119791      0.000309872    -0.000340762        -0.980557       0.0588334
                        0.978602       0.0819373      0.000304896    -0.000409848       -0.0742777        0.129722     -7.34737e-05     0.000146842
                     0.000143418     0.000322392         -0.98038       0.0580762      3.21975e-05       0.0001242       -0.0803463        0.130794
281752                 0.0528695        0.139881      0.000149142    -0.000208742         0.979688       0.0819823       0.00015723     0.000370436
                     0.000173682     -0.00022355        0.0967528        0.119792      0.000309711    -0.000340851        -0.980534       0.0591746
                        0.978626       0.0816072      0.000304786    -0.000410045       -0.0742121        0.129783     -7.33441e-05      0.00014701
                     0.000143451     0.000322387        -0.980356       0.0584175      3.22926e-05      0.00012414        -0.080278        0.130854
281754                 0.0528893        0.139895      0.000148999     -0.00020879         0.979712       0.0816513      0.000157394     0.000370513
                     0.000173593    -0.000223563        0.0967756        0.119793       0.00030955    -0.000340939        -0.980511       0.0595158
                         0.97865        0.081277      0.000304639    -0.000410187       -0.0741465        0.129844     -7.31853e-05     0.000147216
                     0.000143485     0.000322382        -0.980333       0.0587587      3.23809e-05     0.000124055       -0.0802096        0.130913
281756                 0.0529091        0.139909      0.000148871    -0.000208842         0.979737       0.0813203      0.000157578     0.000370604
                     0.000173504    -0.000223576        0.0967985        0.119794       0.00030939    -0.000341028        -0.980488       0.0598571
                        0.978674       0.0809469       0.00030447    -0.000410298       -0.0740808        0.129905      -7.2992e-05     0.000147467
                     0.000143519     0.000322377        -0.980309       0.0590998      3.24463e-05     0.000123975       -0.0801411        0.130973
281758                 0.0529289        0.139924      0.000148753    -0.000208896         0.979762       0.0809893      0.000157783     0.000370709
                     0.000173414    -0.000223588        0.0968214        0.119795      0.000309229    -0.000341118        -0.980466       0.0601985
                        0.978698       0.0806168       0.00030429     -0.00041039       -0.0740151        0.129966     -7.27589e-05     0.000147769
                     0.000143553     0.000322372        -0.980285       0.0594408      3.25096e-05     0.000123907       -0.0800727        0.131033
281760                 0.0529487        0.139938      0.000148639    -0.000208952         0.979786       0.0806583      0.000158011     0.000370831
                     0.000173325      -0.0002236        0.0968442        0.119796      0.000309069    -0.000341207        -0.980443         0.06054
                        0.978721       0.0802867      0.000304102    -0.000410472       -0.0739494        0.130026     -7.24818e-05     0.000148126
                     0.000143588     0.000322367        -0.980261       0.0597819      3.25761e-05     0.000123844       -0.0800042        0.131093
281762                 0.0529685        0.139952      0.000148527    -0.000209008         0.979811       0.0803273      0.000158264     0.000370968
                     0.000173235    -0.000223613         0.096867        0.119797      0.000308908    -0.000341297        -0.980421       0.0608817
                        0.978745       0.0799566      0.000303912     -0.00041055       -0.0738836        0.130087     -7.21593e-05     0.000148539
