! TOUCHSTONE file generated by CST MICROWAVE STUDIO
! Date and time: Tue Oct 14 17:38:37 2025
! Project name: Teste_Macro_Metasurface_Nanopilar.cst
! Parameters = {H=600; L_x=130; L_y=120; Lambda=1064; Max_L=200; Min_L=70; PathPara=1; Phi=0; Step_L=10; Theta=0; p=520; phaseX=180; phaseY=0}
! Header version: 2018
! Port assignment regex: !\s*Touchstone port\s*([0-9]+)\s*=\s*(CST MWS port|CST DS port)\s*([0-9]+|Zmin|Zmax)\s*\(\"(.*)\"\)(\s*mode\s*([0-9]+))?.*
! Touchstone port assignment:
! Touchstone port 1 = CST MWS port Zmax ("") mode 1
! Touchstone port 2 = CST MWS port Zmax ("") mode 2
! Touchstone port 3 = CST MWS port Zmin ("") mode 1
! Touchstone port 4 = CST MWS port Zmin ("") mode 2
! S-Parameters are not renormalized. Each port impedance will be approximated by the real part at minimum frequency. The values are described via the [Reference] keyword.
! Default impedance is overridden by [Reference]
[Version] 2.0
# GHz S RI R 376.73
[Number of Ports] 4
[Reference]
376.73 376.73 259.814 259.814 
[Number of Frequencies] 51
[Network Data]
281700                 0.0409104       -0.022921     -0.000203622     0.000526192         0.400865        0.904904     -0.000586234     0.000522499
                    -0.000175283     0.000714153        0.0201008        0.063781      -0.00062417     0.000377362         0.832321        0.537635
                        0.400806        0.905137     -0.000626985     0.000526064        0.0429311      -0.0122981     -0.000553468     0.000134205
                    -0.000461012     0.000465567         0.832899        0.537762     -0.000677168      0.00015264       -0.0659542       0.0101283
281702                  0.040896      -0.0228984     -0.000203387     0.000526536         0.401224        0.904747     -0.000586091      0.00052266
                    -0.000174909     0.000714393        0.0201123       0.0638041     -0.000624014     0.000377574         0.832515        0.537332
                        0.401165         0.90498     -0.000626745     0.000526194        0.0428946      -0.0123368     -0.000553596     0.000134323
                    -0.000460915     0.000465762         0.833093        0.537458     -0.000677327     0.000152691       -0.0659728       0.0101751
281704                 0.0408815      -0.0228758     -0.000203151      0.00052688         0.401583        0.904589     -0.000585948      0.00052282
                    -0.000174535     0.000714633        0.0201238       0.0638273     -0.000623859     0.000377787         0.832709        0.537029
                        0.401524        0.904822     -0.000626505     0.000526325         0.042858      -0.0123755     -0.000553725      0.00013444
                    -0.000460818     0.000465957         0.833288        0.537154     -0.000677485     0.000152743       -0.0659914        0.010222
281706                 0.0408671      -0.0228532     -0.000202915     0.000527224         0.401942        0.904431     -0.000585804      0.00052298
                    -0.000174161     0.000714873        0.0201353       0.0638504     -0.000623703        0.000378         0.832902        0.536725
                        0.401882        0.904664     -0.000626265     0.000526455        0.0428214      -0.0124141     -0.000553854     0.000134558
                    -0.000460721     0.000466152         0.833482         0.53685     -0.000677644     0.000152794       -0.0660099       0.0102689
281708                 0.0408527      -0.0228305     -0.000202678     0.000527568           0.4023        0.904273     -0.000585661     0.000523141
                    -0.000173787     0.000715112        0.0201469       0.0638735     -0.000623548     0.000378212         0.833096        0.536422
                        0.402241        0.904507     -0.000626025     0.000526585        0.0427848      -0.0124527     -0.000553983     0.000134675
                    -0.000460624     0.000466347         0.833676        0.536546     -0.000677804     0.000152846       -0.0660284       0.0103159
281710                 0.0408383      -0.0228079     -0.000202441     0.000527911         0.402659        0.904115     -0.000585518     0.000523301
                    -0.000173412     0.000715352        0.0201584       0.0638966     -0.000623392     0.000378424          0.83329        0.536119
                          0.4026        0.904349     -0.000625786     0.000526715        0.0427482      -0.0124912     -0.000554113     0.000134791
                    -0.000460527     0.000466542          0.83387        0.536242     -0.000677963     0.000152899       -0.0660469       0.0103628
281712                 0.0408239      -0.0227853     -0.000202204     0.000528255         0.403018        0.903957     -0.000585374     0.000523461
                    -0.000173037     0.000715591        0.0201699       0.0639198     -0.000623236     0.000378637         0.833483        0.535815
                        0.402958        0.904191     -0.000625546     0.000526845        0.0427115      -0.0125297     -0.000554242     0.000134908
                     -0.00046043     0.000466738         0.834064        0.535937     -0.000678123     0.000152951       -0.0660653       0.0104098
281714                 0.0408095      -0.0227626     -0.000201966     0.000528598         0.403376        0.903798     -0.000585231     0.000523621
                    -0.000172662      0.00071583        0.0201814       0.0639429      -0.00062308     0.000378849         0.833676        0.535511
                        0.403317        0.904032     -0.000625307     0.000526975        0.0426748      -0.0125682     -0.000554372     0.000135024
                    -0.000460332     0.000466933         0.834258        0.535633     -0.000678283     0.000153004       -0.0660837       0.0104568
281716                 0.0407951        -0.02274     -0.000201727     0.000528941         0.403735        0.903639     -0.000585087      0.00052378
                    -0.000172287     0.000716069         0.020193        0.063966     -0.000622924     0.000379061          0.83387        0.535208
                        0.403675        0.903874     -0.000625067     0.000527104         0.042638      -0.0126066     -0.000554503      0.00013514
                    -0.000460235     0.000467128         0.834452        0.535328     -0.000678443     0.000153058       -0.0661021       0.0105039
281718                 0.0407807      -0.0227173     -0.000201489     0.000529283         0.404093        0.903481     -0.000584943      0.00052394
                    -0.000171912     0.000716308        0.0202045       0.0639891     -0.000622768     0.000379273         0.834063        0.534904
                        0.404034        0.903715     -0.000624828     0.000527234        0.0426013       -0.012645     -0.000554633     0.000135255
                    -0.000460137     0.000467323         0.834645        0.535024     -0.000678604     0.000153111       -0.0661204        0.010551
281720                 0.0407664      -0.0226947     -0.000201249     0.000529626         0.404451        0.903322       -0.0005848     0.000524099
                    -0.000171536     0.000716546         0.020216       0.0640122     -0.000622611     0.000379485         0.834256          0.5346
                        0.404392        0.903557     -0.000624589     0.000527363        0.0425645      -0.0126833     -0.000554764     0.000135371
                    -0.000460039     0.000467519         0.834839        0.534719     -0.000678764     0.000153165       -0.0661387        0.010598
281722                  0.040752       -0.022672      -0.00020101     0.000529968         0.404809        0.903163     -0.000584656     0.000524258
                     -0.00017116     0.000716784        0.0202276       0.0640353     -0.000622455     0.000379697         0.834449        0.534296
                         0.40475        0.903398      -0.00062435     0.000527493        0.0425276      -0.0127216     -0.000554895     0.000135486
                    -0.000459941     0.000467714         0.835032        0.534415     -0.000678925      0.00015322        -0.066157       0.0106452
281724                 0.0407377      -0.0226493      -0.00020077      0.00053031         0.405168        0.903004     -0.000584512     0.000524417
                    -0.000170784     0.000717022        0.0202391       0.0640583     -0.000622298     0.000379909         0.834641        0.533993
                        0.405108        0.903239     -0.000624111     0.000527622        0.0424908      -0.0127598     -0.000555027     0.000135601
                    -0.000459844     0.000467909         0.835226         0.53411     -0.000679087     0.000153274       -0.0661752       0.0106923
281726                 0.0407233      -0.0226267     -0.000200529     0.000530652         0.405526        0.902844     -0.000584367     0.000524576
                    -0.000170408      0.00071726        0.0202507       0.0640814     -0.000622142     0.000380121         0.834834        0.533689
                        0.405467         0.90308     -0.000623872     0.000527751        0.0424539       -0.012798     -0.000555159     0.000135716
                    -0.000459746     0.000468105         0.835419        0.533805     -0.000679248     0.000153329       -0.0661934       0.0107395
281728                  0.040709       -0.022604     -0.000200288     0.000530994         0.405884        0.902685     -0.000584223     0.000524735
                    -0.000170032     0.000717498        0.0202622       0.0641045     -0.000621985     0.000380333         0.835027        0.533385
                        0.405825        0.902921     -0.000623633      0.00052788         0.042417      -0.0128362     -0.000555292     0.000135831
                    -0.000459648       0.0004683         0.835612          0.5335      -0.00067941     0.000153384       -0.0662115       0.0107866
281730                 0.0406947      -0.0225813     -0.000200047     0.000531336         0.406242        0.902525     -0.000584079     0.000524893
                    -0.000169655     0.000717735        0.0202738       0.0641276     -0.000621828     0.000380544         0.835219        0.533081
                        0.406183        0.902761     -0.000623394     0.000528009          0.04238      -0.0128743     -0.000555424     0.000135945
                    -0.000459549     0.000468496         0.835805        0.533195     -0.000679572      0.00015344       -0.0662297       0.0108339
281732                 0.0406804      -0.0225586     -0.000199805     0.000531677           0.4066        0.902366     -0.000583934     0.000525051
                    -0.000169278     0.000717972        0.0202854       0.0641507     -0.000621671     0.000380756         0.835411        0.532776
                        0.406541        0.902602     -0.000623156     0.000528137         0.042343      -0.0129124     -0.000555557      0.00013606
                    -0.000459451     0.000468691         0.835998        0.532891     -0.000679734     0.000153496       -0.0662478       0.0108811
281734                  0.040666      -0.0225359     -0.000199563     0.000532019         0.406957        0.902206     -0.000583789      0.00052521
                    -0.000168901     0.000718209        0.0202969       0.0641737     -0.000621514     0.000380967         0.835603        0.532472
                        0.406898        0.902442     -0.000622917     0.000528266         0.042306      -0.0129504     -0.000555691     0.000136174
                    -0.000459353     0.000468886          0.83619        0.532586     -0.000679897     0.000153552       -0.0662658       0.0109284
281736                 0.0406517      -0.0225132     -0.000199321      0.00053236         0.407315        0.902046     -0.000583644     0.000525367
                    -0.000168524     0.000718446        0.0203085       0.0641968     -0.000621356     0.000381179         0.835795        0.532168
                        0.407256        0.902283     -0.000622679     0.000528394        0.0422689      -0.0129884     -0.000555825     0.000136289
                    -0.000459255     0.000469082         0.836383         0.53228      -0.00068006     0.000153609       -0.0662838       0.0109756
281738                 0.0406375      -0.0224905     -0.000199078     0.000532701         0.407673        0.901886     -0.000583499     0.000525525
                    -0.000168147     0.000718683        0.0203201       0.0642198     -0.000621199      0.00038139         0.835987        0.531864
                        0.407614        0.902123      -0.00062244     0.000528523        0.0422319      -0.0130264     -0.000555959     0.000136403
                    -0.000459156     0.000469277         0.836575        0.531975     -0.000680223     0.000153666       -0.0663018        0.011023
281740                 0.0406232      -0.0224678     -0.000198834     0.000533042          0.40803        0.901725     -0.000583353     0.000525683
                    -0.000167769     0.000718919        0.0203317       0.0642429     -0.000621041     0.000381601         0.836179        0.531559
                        0.407971        0.901963     -0.000622202     0.000528651        0.0421947      -0.0130643     -0.000556094     0.000136518
                    -0.000459058     0.000469473         0.836768         0.53167     -0.000680386     0.000153723       -0.0663197       0.0110703
281742                 0.0406089      -0.0224451      -0.00019859     0.000533382         0.408388        0.901565     -0.000583207      0.00052584
                    -0.000167392     0.000719155        0.0203433       0.0642659     -0.000620884     0.000381812         0.836371        0.531255
                        0.408329        0.901802     -0.000621964     0.000528779        0.0421576      -0.0131022     -0.000556229     0.000136632
                    -0.000458959     0.000469668          0.83696        0.531365      -0.00068055     0.000153781       -0.0663376       0.0111177
281744                 0.0405946      -0.0224224     -0.000198346     0.000533723         0.408745        0.901404     -0.000583061     0.000525997
                    -0.000167014     0.000719391        0.0203549        0.064289     -0.000620726     0.000382023         0.836562         0.53095
                        0.408687        0.901642     -0.000621726     0.000528907        0.0421204        -0.01314     -0.000556364     0.000136747
                     -0.00045886     0.000469864         0.837152         0.53106     -0.000680713     0.000153839       -0.0663555        0.011165
281746                 0.0405804      -0.0223997     -0.000198101     0.000534063         0.409103        0.901244     -0.000582915     0.000526155
                    -0.000166635     0.000719627        0.0203665        0.064312     -0.000620568     0.000382234         0.836754        0.530646
                        0.409044        0.901482     -0.000621488     0.000529034        0.0420832      -0.0131778       -0.0005565     0.000136861
                    -0.000458762     0.000470059         0.837344        0.530754     -0.000680877     0.000153897       -0.0663733       0.0112124
281748                 0.0405661       -0.022377     -0.000197856     0.000534403          0.40946        0.901083     -0.000582768     0.000526312
                    -0.000166257     0.000719863        0.0203781       0.0643351      -0.00062041     0.000382445         0.836945        0.530341
                        0.409401        0.901321     -0.000621251     0.000529162         0.042046      -0.0132155     -0.000556636     0.000136976
                    -0.000458663     0.000470255         0.837536        0.530449     -0.000681042     0.000153956       -0.0663911       0.0112599
281750                 0.0405519      -0.0223543     -0.000197611     0.000534743         0.409817        0.900922     -0.000582621     0.000526469
                    -0.000165879     0.000720098        0.0203897       0.0643581     -0.000620252     0.000382656         0.837136        0.530036
                        0.409759         0.90116     -0.000621013      0.00052929        0.0420087      -0.0132532     -0.000556773      0.00013709
                    -0.000458564     0.000470451         0.837728        0.530143     -0.000681206     0.000154015       -0.0664089       0.0113073
281752                 0.0405377      -0.0223316     -0.000197365     0.000535082         0.410175        0.900761     -0.000582473     0.000526626
                      -0.0001655     0.000720333        0.0204013       0.0643811     -0.000620094     0.000382867         0.837327        0.529732
                        0.410116        0.900999     -0.000620775     0.000529417        0.0419714      -0.0132909      -0.00055691     0.000137205
                    -0.000458465     0.000470646         0.837919        0.529838     -0.000681371     0.000154074       -0.0664266       0.0113548
281754                 0.0405235      -0.0223088     -0.000197118     0.000535422         0.410532          0.9006     -0.000582326     0.000526784
                    -0.000165121     0.000720568        0.0204129       0.0644042     -0.000619936     0.000383078         0.837518        0.529427
                        0.410473        0.900838     -0.000620538     0.000529544        0.0419341      -0.0133285     -0.000557047      0.00013732
                    -0.000458366     0.000470842         0.838111        0.529532     -0.000681536     0.000154134       -0.0664443       0.0114023
281756                 0.0405092      -0.0222861     -0.000196871     0.000535761         0.410889        0.900438     -0.000582178     0.000526942
                    -0.000164742     0.000720803        0.0204246       0.0644272     -0.000619777     0.000383288         0.837709        0.529122
                         0.41083        0.900677       -0.0006203     0.000529672        0.0418967      -0.0133661     -0.000557185     0.000137435
                    -0.000458267     0.000471038         0.838302        0.529226     -0.000681702     0.000154194        -0.066462       0.0114499
281758                  0.040495      -0.0222634     -0.000196624       0.0005361         0.411246        0.900277      -0.00058203       0.0005271
                    -0.000164363     0.000721037        0.0204362       0.0644502     -0.000619619     0.000383499           0.8379        0.528817
                        0.411187        0.900516     -0.000620063     0.000529799        0.0418593      -0.0134036     -0.000557323      0.00013755
                    -0.000458168     0.000471233         0.838494        0.528921     -0.000681867     0.000154254       -0.0664796       0.0114974
281760                 0.0404808      -0.0222406     -0.000196376     0.000536439         0.411603        0.900115     -0.000581882     0.000527258
                    -0.000163983     0.000721272        0.0204478       0.0644732      -0.00061946     0.000383709         0.838091        0.528512
                        0.411544        0.900354     -0.000619826     0.000529925        0.0418219      -0.0134411     -0.000557461     0.000137666
                    -0.000458069     0.000471429         0.838685        0.528615     -0.000682033     0.000154315       -0.0664972        0.011545
281762                 0.0404667      -0.0222179     -0.000196128     0.000536778          0.41196        0.899953     -0.000581734     0.000527417
                    -0.000163604     0.000721506        0.0204595       0.0644962     -0.000619301      0.00038392         0.838281        0.528207
                        0.411901        0.900193     -0.000619589     0.000530052        0.0417845      -0.0134786     -0.000557599     0.000137781
