! TOUCHSTONE file generated by CST MICROWAVE STUDIO
! Date and time: Tue Oct 14 17:39:18 2025
! Project name: Teste_Macro_Metasurface_Nanopilar.cst
! Parameters = {H=600; L_x=190; L_y=70; Lambda=1064; Max_L=200; Min_L=70; PathPara=1; Phi=0; Step_L=10; Theta=0; p=520; phaseX=180; phaseY=0}
! Header version: 2018
! Port assignment regex: !\s*Touchstone port\s*([0-9]+)\s*=\s*(CST MWS port|CST DS port)\s*([0-9]+|Zmin|Zmax)\s*\(\"(.*)\"\)(\s*mode\s*([0-9]+))?.*
! Touchstone port assignment:
! Touchstone port 1 = CST MWS port Zmax ("") mode 1
! Touchstone port 2 = CST MWS port Zmax ("") mode 2
! Touchstone port 3 = CST MWS port Zmin ("") mode 1
! Touchstone port 4 = CST MWS port Zmin ("") mode 2
! S-Parameters are not renormalized. Each port impedance will be approximated by the real part at minimum frequency. The values are described via the [Reference] keyword.
! Default impedance is overridden by [Reference]
[Version] 2.0
# GHz S RI R 376.73
[Number of Ports] 4
[Reference]
376.73 376.73 259.814 259.814 
[Number of Frequencies] 51
[Network Data]
281700                0.00199652      -0.0909721      0.000465808    -0.000439521        -0.169636       -0.980552      0.000445647     0.000310145
                     0.000360367      -0.0004311       0.00219263        0.203421      0.000272304     0.000360941         0.969221       0.0765741
                       -0.169937       -0.980908      0.000249071     0.000393442        0.0323794       0.0852278     -0.000565459      0.00061903
                     0.000465494     0.000329335         0.969258        0.076818     -0.000533408     0.000467973       -0.0319811        0.200834
281702                 0.0019845      -0.0909683      0.000465798    -0.000439643         -0.17005       -0.980473      0.000445809     0.000310027
                     0.000360248    -0.000431222       0.00221942        0.203457      0.000274926     0.000377852         0.969241       0.0762236
                       -0.170178       -0.980867      0.000249101     0.000393305        0.0324225       0.0852031     -0.000565279     0.000619271
                     0.000465663     0.000329232         0.969278       0.0764676     -0.000536317      0.00050542       -0.0318681        0.200889
281704                0.00197247      -0.0909644      0.000465787    -0.000439765        -0.170291       -0.980432      0.000445973     0.000309909
                     0.000360129    -0.000431343       0.00224621        0.203493       0.00027511     0.000377755         0.969261       0.0758732
                        -0.17042       -0.980825      0.000249131     0.000393168        0.0324518       0.0851876     -0.000565099     0.000619511
                     0.000465832     0.000329129         0.969298       0.0761172     -0.000536157     0.000505623       -0.0317549        0.200943
281706                0.00196045      -0.0909605      0.000465776    -0.000439886        -0.170532        -0.98039      0.000446141      0.00030979
                      0.00036001    -0.000431465       0.00227301        0.203529      0.000275276     0.000377689         0.969281       0.0755227
                       -0.170661       -0.980784       0.00024916     0.000393032        0.0324811        0.085172     -0.000564919     0.000619751
                     0.000466001     0.000329025         0.969318       0.0757668     -0.000536034     0.000505848       -0.0316417        0.200997
281708                0.00194843      -0.0909567      0.000465765    -0.000440008        -0.170774       -0.980348      0.000446311     0.000309668
                     0.000359891    -0.000431587       0.00229982        0.203565      0.000275438      0.00037763         0.969301       0.0751722
                       -0.170903       -0.980742       0.00024919     0.000392895        0.0325104       0.0851565      -0.00056474     0.000619991
                      0.00046617     0.000328922         0.969338       0.0754164     -0.000535919     0.000506079       -0.0315285        0.201051
281710                 0.0019364      -0.0909528      0.000465753     -0.00044013        -0.171015       -0.980307      0.000446479     0.000309542
                     0.000359772    -0.000431708       0.00232663        0.203601      0.000275598     0.000377575         0.969321       0.0748218
                       -0.171145         -0.9807       0.00024922     0.000392758        0.0325397       0.0851409     -0.000564561     0.000620231
                     0.000466339     0.000328818         0.969357        0.075066     -0.000535809     0.000506312       -0.0314152        0.201105
281712                0.00192438       -0.090949      0.000465742    -0.000440252        -0.171256       -0.980265      0.000446646     0.000309413
                     0.000359653     -0.00043183       0.00235344        0.203636      0.000275758      0.00037752         0.969341       0.0744713
                       -0.171386       -0.980659       0.00024925     0.000392621        0.0325689       0.0851253     -0.000564382     0.000620471
                     0.000466508     0.000328714         0.969376       0.0747157       -0.0005357     0.000506546       -0.0313018        0.201159
281714                0.00191236      -0.0909451       0.00046573    -0.000440374        -0.171498       -0.980223       0.00044681     0.000309285
                     0.000359534    -0.000431952       0.00238027        0.203672      0.000275917     0.000377467          0.96936       0.0741208
                       -0.171628       -0.980617      0.000249281     0.000392485        0.0325982       0.0851096     -0.000564204      0.00062071
                     0.000466677     0.000328611         0.969396       0.0743652     -0.000535591     0.000506781       -0.0311884        0.201213
281716                0.00190034      -0.0909412      0.000465717    -0.000440496        -0.171739       -0.980181      0.000446973     0.000309156
                     0.000359415    -0.000432074       0.00240709        0.203708      0.000276076     0.000377413         0.969379       0.0737704
                       -0.171869       -0.980575      0.000249311     0.000392348        0.0326274        0.085094     -0.000564025      0.00062095
                     0.000466846     0.000328507         0.969415       0.0740148     -0.000535484     0.000507016       -0.0310749        0.201266
281718                0.00188832      -0.0909374      0.000465705    -0.000440619         -0.17198       -0.980139      0.000447136     0.000309028
                     0.000359296    -0.000432195       0.00243393        0.203744      0.000276234      0.00037736         0.969399       0.0734199
                       -0.172111       -0.980533      0.000249341     0.000392211        0.0326566       0.0850784     -0.000563847     0.000621189
                     0.000467015     0.000328403         0.969434       0.0736644     -0.000535376     0.000507252       -0.0309614         0.20132
281720                0.00187629      -0.0909335      0.000465692    -0.000440741        -0.172222       -0.980097      0.000447297     0.000308901
                     0.000359177    -0.000432317       0.00246076         0.20378      0.000276392     0.000377308         0.969418       0.0730694
                       -0.172352       -0.980491      0.000249371     0.000392074        0.0326859       0.0850627     -0.000563669     0.000621428
                     0.000467185     0.000328299         0.969453        0.073314     -0.000535269     0.000507488       -0.0308478        0.201374
281722                0.00186427      -0.0909296      0.000465678    -0.000440864        -0.172463       -0.980055      0.000447459     0.000308773
                     0.000359058    -0.000432439        0.0024876        0.203816      0.000276551     0.000377255         0.969437       0.0727189
                       -0.172594       -0.980449      0.000249402     0.000391937        0.0327151       0.0850471     -0.000563491     0.000621667
                     0.000467354     0.000328195         0.969471       0.0729635     -0.000535162     0.000507723       -0.0307342        0.201427
281724                0.00185225      -0.0909257      0.000465664    -0.000440987        -0.172704       -0.980013       0.00044762     0.000308646
                     0.000358939     -0.00043256       0.00251445        0.203852      0.000276709     0.000377202         0.969455       0.0723684
                       -0.172835       -0.980407      0.000249433       0.0003918        0.0327443       0.0850314     -0.000563313     0.000621905
                     0.000467523      0.00032809          0.96949       0.0726131     -0.000535055     0.000507959       -0.0306205        0.201481
281726                0.00184023      -0.0909219       0.00046565    -0.000441109        -0.172945       -0.979971      0.000447781     0.000308519
                      0.00035882    -0.000432682        0.0025413        0.203888      0.000276867     0.000377149         0.969474       0.0720179
                       -0.173077       -0.980365      0.000249463     0.000391663        0.0327735       0.0850158     -0.000563135     0.000622144
                     0.000467692     0.000327986         0.969508       0.0722627     -0.000534947     0.000508195       -0.0305067        0.201535
281728                0.00182821       -0.090918      0.000465635    -0.000441232        -0.173187       -0.979929      0.000447942     0.000308392
                     0.000358702    -0.000432804       0.00256817        0.203924      0.000277025     0.000377097         0.969493       0.0716674
                       -0.173318       -0.980323      0.000249494     0.000391526        0.0328027       0.0850001     -0.000562958     0.000622383
                     0.000467861     0.000327882         0.969527       0.0719122      -0.00053484     0.000508431       -0.0303929        0.201588
281730                0.00181619      -0.0909141       0.00046562    -0.000441356        -0.173428       -0.979887      0.000448103     0.000308265
                     0.000358583    -0.000432925       0.00259503         0.20396      0.000277183     0.000377044         0.969511       0.0713169
                        -0.17356       -0.980281      0.000249525     0.000391389        0.0328319       0.0849844      -0.00056278     0.000622621
                      0.00046803     0.000327777         0.969545       0.0715618     -0.000534732     0.000508668        -0.030279        0.201641
281732                0.00180417      -0.0909102      0.000465604    -0.000441479        -0.173669       -0.979844      0.000448264     0.000308138
                     0.000358464    -0.000433047       0.00262191        0.203996      0.000277342     0.000376991         0.969529       0.0709663
                       -0.173801       -0.980238      0.000249557     0.000391252         0.032861       0.0849687     -0.000562603      0.00062286
                       0.0004682     0.000327673         0.969563       0.0712113     -0.000534625     0.000508904       -0.0301651        0.201695
281734                0.00179215      -0.0909064      0.000465588    -0.000441602         -0.17391       -0.979802      0.000448424     0.000308011
                     0.000358345    -0.000433169       0.00264879        0.204032        0.0002775     0.000376938         0.969547       0.0706158
                       -0.174043       -0.980196      0.000249588     0.000391114        0.0328902        0.084953     -0.000562425     0.000623098
                     0.000468369     0.000327568         0.969581       0.0708609     -0.000534517      0.00050914       -0.0300511        0.201748
281736                0.00178013      -0.0909025      0.000465571    -0.000441726        -0.174152       -0.979759      0.000448585     0.000307884
                     0.000358226     -0.00043329       0.00267567        0.204068      0.000277658     0.000376885         0.969565       0.0702653
                       -0.174284       -0.980153      0.000249619     0.000390977        0.0329194       0.0849373     -0.000562248     0.000623336
                     0.000468538     0.000327463         0.969599       0.0705104     -0.000534409     0.000509376       -0.0299371        0.201801
281738                0.00176811      -0.0908986      0.000465554    -0.000441849        -0.174393       -0.979717      0.000448746     0.000307757
                     0.000358107    -0.000433412       0.00270256        0.204104      0.000277816     0.000376832         0.969583       0.0699148
                       -0.174526       -0.980111      0.000249651      0.00039084        0.0329485       0.0849215      -0.00056207     0.000623574
                     0.000468707     0.000327359         0.969616         0.07016     -0.000534301     0.000509612        -0.029823        0.201854
281740                0.00175609      -0.0908947      0.000465536    -0.000441973        -0.174634       -0.979674      0.000448907      0.00030763
                     0.000357988    -0.000433533       0.00272946         0.20414      0.000277974     0.000376779         0.969601       0.0695642
                       -0.174767       -0.980068      0.000249683     0.000390702        0.0329777       0.0849058     -0.000561893     0.000623812
                     0.000468876     0.000327254         0.969634       0.0698095     -0.000534193     0.000509848       -0.0297089        0.201907
281742                0.00174408      -0.0908908      0.000465518    -0.000442097        -0.174875       -0.979632      0.000449068     0.000307503
                     0.000357869    -0.000433654       0.00275636        0.204176      0.000278132     0.000376726         0.969619       0.0692137
                       -0.175009       -0.980026      0.000249715     0.000390565        0.0330068         0.08489     -0.000561715      0.00062405
                     0.000469046     0.000327149         0.969651       0.0694591     -0.000534085     0.000510084       -0.0295947         0.20196
281744                0.00173206      -0.0908869        0.0004655    -0.000442221        -0.175117       -0.979589      0.000449228     0.000307376
                      0.00035775    -0.000433776       0.00278326        0.204211       0.00027829     0.000376673         0.969636       0.0688632
                        -0.17525       -0.979983      0.000249747     0.000390427         0.033036       0.0848743     -0.000561538     0.000624287
                     0.000469215     0.000327044         0.969669       0.0691086     -0.000533976     0.000510321       -0.0294804        0.202013
281746                0.00172004       -0.090883      0.000465481    -0.000442345        -0.175358       -0.979546      0.000449389     0.000307249
                     0.000357631    -0.000433897       0.00281017        0.204247      0.000278448     0.000376619         0.969654       0.0685126
                       -0.175492        -0.97994      0.000249779     0.000390289        0.0330651       0.0848585     -0.000561361     0.000624525
                     0.000469384     0.000326939         0.969686       0.0687581     -0.000533868     0.000510557       -0.0293661        0.202066
281748                0.00170802      -0.0908792      0.000465461    -0.000442469        -0.175599       -0.979503       0.00044955     0.000307122
                     0.000357512    -0.000434018       0.00283709        0.204283      0.000278606     0.000376566         0.969671       0.0681621
                       -0.175733       -0.979898      0.000249812     0.000390152        0.0330942       0.0848427     -0.000561183     0.000624763
                     0.000469553     0.000326833         0.969703       0.0684077     -0.000533759     0.000510793       -0.0292518        0.202119
281750                0.00169601      -0.0908753      0.000465442    -0.000442593         -0.17584       -0.979461      0.000449711     0.000306995
                     0.000357393    -0.000434139       0.00286402        0.204319      0.000278765     0.000376512         0.969688       0.0678115
                       -0.175974       -0.979855      0.000249844     0.000390014        0.0331233        0.084827     -0.000561006        0.000625
                     0.000469722     0.000326728          0.96972       0.0680572      -0.00053365     0.000511029       -0.0291373        0.202172
281752                0.00168399      -0.0908714      0.000465422    -0.000442718        -0.176081       -0.979418      0.000449872     0.000306868
                     0.000357274    -0.000434261       0.00289094        0.204355      0.000278923     0.000376459         0.969705        0.067461
                       -0.176216       -0.979812      0.000249877     0.000389876        0.0331524       0.0848112     -0.000560829     0.000625237
                     0.000469891     0.000326623         0.969737       0.0677067     -0.000533541     0.000511265       -0.0290229        0.202225
281754                0.00167197      -0.0908675      0.000465402    -0.000442842        -0.176322       -0.979375      0.000450033     0.000306743
                     0.000357155    -0.000434382       0.00291788        0.204391      0.000279081     0.000376405         0.969722       0.0671104
                       -0.176457       -0.979769      0.000249909     0.000389738        0.0331815       0.0847954     -0.000560652     0.000625475
                      0.00047006     0.000326517         0.969753       0.0673562     -0.000533431     0.000511501       -0.0289083        0.202277
281756                0.00165996      -0.0908636      0.000465381    -0.000442967        -0.176564       -0.979332      0.000450194     0.000306622
                     0.000357036    -0.000434502       0.00294482        0.204427      0.000279239     0.000376352         0.969739       0.0667599
                       -0.176698       -0.979726      0.000249942     0.000389601        0.0332106       0.0847795     -0.000560475     0.000625712
                     0.000470229     0.000326411          0.96977       0.0670058     -0.000533322     0.000511737       -0.0287938         0.20233
281758                0.00164794      -0.0908597      0.000465361    -0.000443091        -0.176805       -0.979288      0.000450328     0.000306526
                     0.000356917    -0.000434623       0.00297176        0.204463      0.000279397     0.000376298         0.969755       0.0664093
                        -0.17694       -0.979683      0.000249975     0.000389464        0.0332397       0.0847637     -0.000560299     0.000625948
                     0.000470398     0.000326306         0.969786       0.0666553     -0.000533212     0.000511973       -0.0286791        0.202382
281760                0.00163593      -0.0908558       0.00046534    -0.000443216        -0.177046       -0.979245      0.000450489     0.000306335
                     0.000356798    -0.000434744       0.00299871        0.204499      0.000279555     0.000376244         0.969772       0.0660587
                       -0.177181        -0.97964      0.000250008     0.000389327        0.0332687       0.0847479     -0.000560129     0.000626183
                     0.000470567       0.0003262         0.969803       0.0663048     -0.000533102     0.000512209       -0.0285644        0.202435
281762                0.00162391      -0.0908519      0.000465319    -0.000443341        -0.177287       -0.979202      0.000450662     0.000306212
                     0.000356678    -0.000434864       0.00302567        0.204535      0.000279714      0.00037619         0.969788       0.0657081
                       -0.177423       -0.979597      0.000250041      0.00038919        0.0332978        0.084732     -0.000559909     0.000626418
