! TOUCHSTONE file generated by CST MICROWAVE STUDIO
! Date and time: Tue Oct 14 17:38:15 2025
! Project name: Teste_Macro_Metasurface_Nanopilar.cst
! Parameters = {H=600; L_x=100; L_y=90; Lambda=1064; Max_L=200; Min_L=70; PathPara=1; Phi=0; Step_L=10; Theta=0; p=520; phaseX=180; phaseY=0}
! Header version: 2018
! Port assignment regex: !\s*Touchstone port\s*([0-9]+)\s*=\s*(CST MWS port|CST DS port)\s*([0-9]+|Zmin|Zmax)\s*\(\"(.*)\"\)(\s*mode\s*([0-9]+))?.*
! Touchstone port assignment:
! Touchstone port 1 = CST MWS port Zmax ("") mode 1
! Touchstone port 2 = CST MWS port Zmax ("") mode 2
! Touchstone port 3 = CST MWS port Zmin ("") mode 1
! Touchstone port 4 = CST MWS port Zmin ("") mode 2
! S-Parameters are not renormalized. Each port impedance will be approximated by the real part at minimum frequency. The values are described via the [Reference] keyword.
! Default impedance is overridden by [Reference]
[Version] 2.0
# GHz S RI R 376.73
[Number of Ports] 4
[Reference]
376.73 376.73 259.814 259.814 
[Number of Frequencies] 51
[Network Data]
281700               -0.00067299      -0.0759059      0.000279567    -0.000175498        -0.227314       -0.969859      8.91085e-05    -9.65258e-05
                       0.0001708    -0.000173603      -0.00561977       -0.036767      0.000246578    -7.93408e-05        -0.414665       -0.907408
                       -0.227397       -0.970144      9.53954e-05     8.71069e-06         0.032949       0.0685518      0.000315568    -7.97395e-05
                     0.000164655    -2.92621e-05         -0.41422       -0.907884      0.000180185     9.55829e-05        0.0238309       0.0287746
281702              -0.000684512      -0.0758999      0.000279536    -0.000175572        -0.227559       -0.969803      8.90879e-05    -9.65052e-05
                     0.000170698    -0.000173677      -0.00562783      -0.0367573      0.000246641    -7.93859e-05        -0.414904       -0.907299
                       -0.227642       -0.970087      9.53701e-05     8.69831e-06        0.0329705        0.068535      0.000315581    -7.97496e-05
                     0.000164671    -2.92515e-05        -0.414459       -0.907775      0.000180236     9.56208e-05        0.0238333       0.0287617
281704              -0.000696033      -0.0758939      0.000279505    -0.000175645        -0.227804       -0.969746      8.90673e-05    -9.64847e-05
                     0.000170597    -0.000173752      -0.00563589      -0.0367475      0.000246703    -7.94312e-05        -0.415143       -0.907189
                       -0.227887        -0.97003      9.53448e-05     8.68597e-06        0.0329921       0.0685181      0.000315594    -7.97598e-05
                     0.000164688    -2.92408e-05        -0.414699       -0.907666      0.000180288     9.56532e-05        0.0238358       0.0287489
281706              -0.000707553      -0.0758879      0.000279475    -0.000175719        -0.228049       -0.969689      8.90466e-05    -9.64643e-05
                     0.000170495    -0.000173826      -0.00564395      -0.0367377      0.000246764    -7.94767e-05        -0.415383        -0.90708
                       -0.228132       -0.969973      9.53195e-05     8.67368e-06        0.0330137       0.0685013      0.000315607    -7.97701e-05
                     0.000164704    -2.92301e-05        -0.414938       -0.907557      0.000180342     9.56824e-05        0.0238382        0.028736
281708              -0.000719073      -0.0758819      0.000279444    -0.000175792        -0.228293       -0.969632      8.90259e-05     -9.6444e-05
                     0.000170394    -0.000173901      -0.00565201      -0.0367279      0.000246826    -7.95226e-05        -0.415622       -0.906971
                       -0.228377       -0.969916      9.52942e-05     8.66143e-06        0.0330352       0.0684844      0.000315619    -7.97805e-05
                      0.00016472    -2.92192e-05        -0.415177       -0.907447      0.000180397     9.57096e-05        0.0238407       0.0287232
281710              -0.000730592      -0.0758759      0.000279413    -0.000175866        -0.228538       -0.969574      8.90052e-05    -9.64238e-05
                     0.000170292    -0.000173976      -0.00566007      -0.0367181      0.000246886    -7.95688e-05        -0.415862       -0.906861
                       -0.228622       -0.969859       9.5269e-05     8.64923e-06        0.0330568       0.0684675      0.000315632     -7.9791e-05
                     0.000164736    -2.92082e-05        -0.415417       -0.907338      0.000180452     9.57354e-05        0.0238431       0.0287103
281712               -0.00074211      -0.0758699      0.000279383    -0.000175939        -0.228783       -0.969517      8.89845e-05    -9.64036e-05
                      0.00017019     -0.00017405      -0.00566812      -0.0367083      0.000246946    -7.96154e-05        -0.416101       -0.906752
                       -0.228867       -0.969802      9.52437e-05     8.63707e-06        0.0330783       0.0684506      0.000315645    -7.98016e-05
                     0.000164752    -2.91972e-05        -0.415656       -0.907229      0.000180509     9.57603e-05        0.0238455       0.0286975
281714              -0.000753628      -0.0758639      0.000279352    -0.000176013        -0.229028        -0.96946      8.89637e-05    -9.63836e-05
                     0.000170088    -0.000174125      -0.00567617      -0.0366986      0.000247006    -7.96625e-05         -0.41634       -0.906642
                       -0.229112       -0.969744      9.52185e-05     8.62496e-06        0.0330999       0.0684337      0.000315657    -7.98123e-05
                     0.000164769     -2.9186e-05        -0.415895       -0.907119      0.000180565     9.57845e-05        0.0238479       0.0286847
281716              -0.000765145      -0.0758579      0.000279321    -0.000176086        -0.229273       -0.969403      8.89429e-05    -9.63637e-05
                     0.000169986      -0.0001742      -0.00568422      -0.0366888      0.000247066    -7.97099e-05         -0.41658       -0.906532
                       -0.229356       -0.969687      9.51934e-05      8.6129e-06        0.0331214       0.0684168       0.00031567    -7.98231e-05
                     0.000164785    -2.91748e-05        -0.416134        -0.90701      0.000180622     9.58082e-05        0.0238503       0.0286718
281718              -0.000776662      -0.0758518       0.00027929     -0.00017616        -0.229518       -0.969345      8.89222e-05    -9.63439e-05
                     0.000169884    -0.000174274      -0.00569228       -0.036679      0.000247125    -7.97578e-05        -0.416819       -0.906422
                       -0.229601       -0.969629      9.51682e-05     8.60088e-06        0.0331429       0.0683999      0.000315682    -7.98341e-05
                     0.000164801    -2.91634e-05        -0.416374         -0.9069       0.00018068     9.58315e-05        0.0238527        0.028659
281720              -0.000788177      -0.0758458      0.000279259    -0.000176233        -0.229763       -0.969288      8.89014e-05    -9.63242e-05
                     0.000169782    -0.000174349      -0.00570032      -0.0366692      0.000247184    -7.98062e-05        -0.417058       -0.906313
                       -0.229846       -0.969572      9.51431e-05     8.58891e-06        0.0331644        0.068383      0.000315695    -7.98452e-05
                     0.000164816     -2.9152e-05        -0.416613       -0.906791      0.000180737     9.58545e-05        0.0238551       0.0286462
281722              -0.000799692      -0.0758398      0.000279228    -0.000176307        -0.230008        -0.96923      8.88806e-05    -9.63046e-05
                     0.000169679    -0.000174424      -0.00570837      -0.0366594      0.000247242     -7.9855e-05        -0.417297       -0.906203
                       -0.230091       -0.969514       9.5118e-05     8.57699e-06        0.0331859       0.0683661      0.000315707    -7.98565e-05
                     0.000164832    -2.91404e-05        -0.416852       -0.906681      0.000180795     9.58772e-05        0.0238575       0.0286334
281724              -0.000811207      -0.0758338      0.000279197     -0.00017638        -0.230253       -0.969173      8.88599e-05    -9.62851e-05
                     0.000169577    -0.000174498      -0.00571642      -0.0366496      0.000247301    -7.99043e-05        -0.417536       -0.906093
                       -0.230336       -0.969456      9.50929e-05     8.56512e-06        0.0332074       0.0683492       0.00031572    -7.98679e-05
                     0.000164848    -2.91288e-05        -0.417091       -0.906571      0.000180853     9.58997e-05        0.0238598       0.0286205
281726              -0.000822721      -0.0758278      0.000279166    -0.000176454        -0.230497       -0.969115      8.88391e-05    -9.62658e-05
                     0.000169474    -0.000174573      -0.00572446      -0.0366398      0.000247359     -7.9954e-05        -0.417776       -0.905983
                       -0.230581       -0.969399      9.50678e-05      8.5533e-06        0.0332289       0.0683323      0.000315732    -7.98794e-05
                     0.000164864    -2.91171e-05         -0.41733       -0.906461      0.000180911     9.59221e-05        0.0238622       0.0286077
281728              -0.000834234      -0.0758217      0.000279134    -0.000176527        -0.230742       -0.969058      8.88184e-05    -9.62465e-05
                     0.000169371    -0.000174648      -0.00573251        -0.03663      0.000247417    -8.00042e-05        -0.418015       -0.905873
                       -0.230825       -0.969341      9.50428e-05     8.54153e-06        0.0332504       0.0683153      0.000315745    -7.98911e-05
                      0.00016488    -2.91052e-05        -0.417569       -0.906352      0.000180969     9.59443e-05        0.0238645       0.0285949
281730              -0.000845747      -0.0758157      0.000279103    -0.000176601        -0.230987          -0.969      8.87978e-05    -9.62274e-05
                     0.000169268    -0.000174723      -0.00574055      -0.0366202      0.000247475    -8.00549e-05        -0.418254       -0.905763
                        -0.23107       -0.969283      9.50178e-05     8.52981e-06        0.0332718       0.0682984      0.000315758    -7.99029e-05
                     0.000164896    -2.90933e-05        -0.417808       -0.906242      0.000181028     9.59665e-05        0.0238669       0.0285821
281732              -0.000857259      -0.0758097      0.000279072    -0.000176674        -0.231232       -0.968942      8.87771e-05    -9.62084e-05
                     0.000169165    -0.000174798      -0.00574859      -0.0366104      0.000247534     -8.0106e-05        -0.418493       -0.905652
                       -0.231315       -0.969225      9.49929e-05     8.51814e-06        0.0332933       0.0682815       0.00031577    -7.99149e-05
                     0.000164911    -2.90813e-05        -0.418047       -0.906132      0.000181086     9.59885e-05        0.0238692       0.0285693
281734               -0.00086877      -0.0758037       0.00027904    -0.000176748        -0.231477       -0.968884      8.87565e-05    -9.61895e-05
                     0.000169062    -0.000174873      -0.00575663      -0.0366006      0.000247592    -8.01576e-05        -0.418732       -0.905542
                        -0.23156       -0.969167      9.49679e-05     8.50653e-06        0.0333147       0.0682645      0.000315783     -7.9927e-05
                     0.000164927    -2.90691e-05        -0.418286       -0.906022      0.000181145     9.60104e-05        0.0238716       0.0285565
281736               -0.00088028      -0.0757976      0.000279009    -0.000176822        -0.231721       -0.968826       8.8736e-05    -9.61707e-05
                     0.000168959    -0.000174947      -0.00576467      -0.0365908       0.00024765    -8.02096e-05        -0.418971       -0.905432
                       -0.231804       -0.969109       9.4943e-05     8.49497e-06        0.0333362       0.0682475      0.000315796    -7.99393e-05
                     0.000164943    -2.90569e-05        -0.418525       -0.905912      0.000181204     9.60323e-05        0.0238739       0.0285437
281738               -0.00089179      -0.0757916      0.000278978    -0.000176896        -0.231966       -0.968768      8.87155e-05    -9.61521e-05
                     0.000168856    -0.000175022       -0.0057727       -0.036581      0.000247708     -8.0262e-05         -0.41921       -0.905321
                       -0.232049       -0.969051      9.49182e-05     8.48346e-06        0.0333576       0.0682306      0.000315809    -7.99517e-05
                     0.000164958    -2.90446e-05        -0.418764       -0.905801      0.000181263     9.60542e-05        0.0238762       0.0285309
281740                -0.0009033      -0.0757856      0.000278946    -0.000176969        -0.232211        -0.96871      8.86951e-05    -9.61335e-05
                     0.000168753    -0.000175097      -0.00578074      -0.0365712      0.000247766    -8.03147e-05        -0.419449       -0.905211
                       -0.232294       -0.968993      9.48934e-05       8.472e-06         0.033379       0.0682136      0.000315822    -7.99643e-05
                     0.000164974    -2.90321e-05        -0.419003       -0.905691      0.000181321     9.60759e-05        0.0238785       0.0285181
281742              -0.000914808      -0.0757795      0.000278915    -0.000177043        -0.232456       -0.968652      8.86747e-05    -9.61151e-05
                     0.000168649    -0.000175172      -0.00578877      -0.0365614      0.000247824    -8.03679e-05        -0.419688         -0.9051
                       -0.232539       -0.968934      9.48686e-05      8.4606e-06        0.0334004       0.0681966      0.000315835     -7.9977e-05
                     0.000164989    -2.90196e-05        -0.419241       -0.905581       0.00018138     9.60977e-05        0.0238809       0.0285053
281744              -0.000926316      -0.0757735      0.000278883    -0.000177117          -0.2327       -0.968594      8.86545e-05    -9.60968e-05
                     0.000168545    -0.000175247      -0.00579681      -0.0365516      0.000247883    -8.04214e-05        -0.419927        -0.90499
                       -0.232783       -0.968876      9.48438e-05     8.44926e-06        0.0334218       0.0681797      0.000315848    -7.99898e-05
                     0.000165005     -2.9007e-05         -0.41948        -0.90547      0.000181439     9.61194e-05        0.0238832       0.0284926
281746              -0.000937824      -0.0757675      0.000278852    -0.000177191        -0.232945       -0.968536      8.86343e-05    -9.60785e-05
                     0.000168442    -0.000175322      -0.00580484      -0.0365418      0.000247941    -8.04753e-05        -0.420166       -0.904879
                       -0.233028       -0.968818      9.48191e-05     8.43797e-06        0.0334432       0.0681627      0.000315861    -8.00028e-05
                      0.00016502    -2.89942e-05        -0.419719        -0.90536      0.000181499     9.61411e-05        0.0238855       0.0284798
281748              -0.000949331      -0.0757614      0.000278821    -0.000177265         -0.23319       -0.968478      8.86142e-05    -9.60604e-05
                     0.000168338    -0.000175397      -0.00581287      -0.0365319         0.000248    -8.05295e-05        -0.420404       -0.904768
                       -0.233273       -0.968759      9.47945e-05     8.42673e-06        0.0334646       0.0681457      0.000315875    -8.00158e-05
                     0.000165035    -2.89814e-05        -0.419958        -0.90525      0.000181558     9.61627e-05        0.0238877        0.028467
281750              -0.000960837      -0.0757554       0.00027879    -0.000177339        -0.233434       -0.968419      8.85942e-05    -9.60424e-05
                     0.000168234    -0.000175472       -0.0058209      -0.0365221      0.000248058     -8.0584e-05        -0.420643       -0.904658
                       -0.233517       -0.968701      9.47699e-05     8.41556e-06         0.033486       0.0681287      0.000315889     -8.0029e-05
                     0.000165051    -2.89685e-05        -0.420196       -0.905139      0.000181617     9.61843e-05          0.02389       0.0284542
281752              -0.000972342      -0.0757493      0.000278758    -0.000177413        -0.233679       -0.968361      8.85744e-05    -9.60244e-05
                      0.00016813    -0.000175547      -0.00582892      -0.0365123      0.000248117    -8.06389e-05        -0.420882       -0.904547
                       -0.233762       -0.968642      9.47453e-05     8.40443e-06        0.0335073       0.0681117      0.000315903    -8.00422e-05
                     0.000165066    -2.89554e-05        -0.420435       -0.905028      0.000181676     9.62059e-05        0.0238923       0.0284415
281754              -0.000983847      -0.0757433      0.000278727    -0.000177487        -0.233924       -0.968302      8.85546e-05    -9.60066e-05
                     0.000168026    -0.000175622      -0.00583695      -0.0365025      0.000248176     -8.0694e-05        -0.421121       -0.904436
                       -0.234007       -0.968584      9.47208e-05     8.39337e-06        0.0335287       0.0680947      0.000315917    -8.00555e-05
                     0.000165081    -2.89423e-05        -0.420674       -0.904918      0.000181736     9.62275e-05        0.0238946       0.0284287
281756              -0.000995351      -0.0757373      0.000278696    -0.000177561        -0.234168       -0.968244       8.8535e-05    -9.59888e-05
                     0.000167921    -0.000175697      -0.00584497      -0.0364927      0.000248235    -8.07494e-05         -0.42136       -0.904325
                       -0.234251       -0.968525      9.46963e-05     8.38236e-06        0.0335501       0.0680776      0.000315931    -8.00688e-05
                     0.000165096     -2.8929e-05        -0.420912       -0.904807      0.000181795     9.62491e-05        0.0238968       0.0284159
281758               -0.00100685      -0.0757312      0.000278665    -0.000177634        -0.234413       -0.968185      8.85155e-05     -9.5971e-05
                     0.000167817    -0.000175772        -0.005853      -0.0364829      0.000248295    -8.08051e-05        -0.421598       -0.904214
                       -0.234496       -0.968466      9.46719e-05     8.37141e-06        0.0335714       0.0680606      0.000315946    -8.00821e-05
                     0.000165112    -2.89157e-05        -0.421151       -0.904696      0.000181855     9.62707e-05        0.0238991       0.0284032
281760               -0.00101836      -0.0757252      0.000278634    -0.000177708        -0.234658       -0.968126      8.84962e-05    -9.59534e-05
                     0.000167712    -0.000175848      -0.00586102       -0.036473      0.000248354    -8.08611e-05        -0.421837       -0.904103
                        -0.23474       -0.968407      9.46476e-05     8.36051e-06        0.0335927       0.0680436       0.00031596    -8.00955e-05
                     0.000165127    -2.89022e-05         -0.42139       -0.904585      0.000181914     9.62923e-05        0.0239013       0.0283904
281762               -0.00102986      -0.0757191      0.000278602    -0.000177782        -0.234902       -0.968068      8.84769e-05    -9.59358e-05
                     0.000167608    -0.000175923      -0.00586904      -0.0364632      0.000248414    -8.09173e-05        -0.422076       -0.903991
                       -0.234985       -0.968349      9.46233e-05     8.34968e-06        0.0336141       0.0680266      0.000315975    -8.01089e-05
