! TOUCHSTONE file generated by CST MICROWAVE STUDIO
! Date and time: Tue Oct 14 17:38:25 2025
! Project name: Teste_Macro_Metasurface_Nanopilar.cst
! Parameters = {H=600; L_x=110; L_y=150; Lambda=1064; Max_L=200; Min_L=70; PathPara=1; Phi=0; Step_L=10; Theta=0; p=520; phaseX=180; phaseY=0}
! Header version: 2018
! Port assignment regex: !\s*Touchstone port\s*([0-9]+)\s*=\s*(CST MWS port|CST DS port)\s*([0-9]+|Zmin|Zmax)\s*\(\"(.*)\"\)(\s*mode\s*([0-9]+))?.*
! Touchstone port assignment:
! Touchstone port 1 = CST MWS port Zmax ("") mode 1
! Touchstone port 2 = CST MWS port Zmax ("") mode 2
! Touchstone port 3 = CST MWS port Zmin ("") mode 1
! Touchstone port 4 = CST MWS port Zmin ("") mode 2
! S-Parameters are not renormalized. Each port impedance will be approximated by the real part at minimum frequency. The values are described via the [Reference] keyword.
! Default impedance is overridden by [Reference]
[Version] 2.0
# GHz S RI R 376.73
[Number of Ports] 4
[Reference]
376.73 376.73 259.814 259.814 
[Number of Frequencies] 51
[Network Data]
281700                 0.0849281        0.171586      4.23766e-06    -0.000551679         0.954237       -0.207235       0.00019633     0.000193229
                    -6.32769e-05    -0.000555649          0.14294      -0.0261106     -0.000131318    -0.000317841        -0.161512        0.966604
                        0.954537       -0.207062      2.03635e-05    -0.000238285      -0.00484384        0.190732      0.000591984     0.000113863
                     0.000224589     0.000191303          -0.1614        0.966569      0.000506573     0.000140492         0.124587       0.0718764
281702                 0.0849473        0.171605      4.06641e-06    -0.000551667         0.954165       -0.207547      0.000196373     0.000193202
                    -6.35106e-05    -0.000555575         0.142921      -0.0261236     -0.000131475    -0.000317715        -0.161121        0.966672
                        0.954465       -0.207373      2.00851e-05    -0.000238201      -0.00472839         0.19076      0.000591914     0.000113629
                     0.000224603     0.000191274        -0.161009        0.966637      0.000506657     0.000140321         0.124621       0.0717816
281704                 0.0849665        0.171623      3.89509e-06    -0.000551654         0.954092       -0.207858      0.000196417     0.000193174
                    -6.37444e-05    -0.000555502         0.142901      -0.0261366     -0.000131633     -0.00031759         -0.16073        0.966739
                        0.954392       -0.207685       1.9807e-05    -0.000238117      -0.00461291        0.190788      0.000591845     0.000113396
                     0.000224617     0.000191245        -0.160619        0.966704       0.00050674     0.000140151         0.124656       0.0716868
281706                 0.0849857        0.171642      3.72372e-06     -0.00055164         0.954019       -0.208169      0.000196461     0.000193147
                    -6.39783e-05    -0.000555429         0.142881      -0.0261496      -0.00013179    -0.000317464         -0.16034        0.966806
                         0.95432       -0.207996      1.95291e-05    -0.000238032       -0.0044974        0.190816      0.000591776     0.000113163
                      0.00022463     0.000191216        -0.160228        0.966772      0.000506824     0.000139981         0.124691       0.0715919
281708                 0.0850049        0.171661       3.5523e-06    -0.000551627         0.953946       -0.208481      0.000196505     0.000193119
                    -6.42123e-05    -0.000555355         0.142862      -0.0261626     -0.000131948    -0.000317338        -0.159949        0.966874
                        0.954247       -0.208307      1.92514e-05    -0.000237947      -0.00438185        0.190844      0.000591706      0.00011293
                     0.000224644     0.000191187        -0.159837        0.966839      0.000506907     0.000139811         0.124726       0.0714971
281710                 0.0850241         0.17168      3.38086e-06    -0.000551613         0.953873       -0.208792      0.000196549     0.000193091
                    -6.44464e-05    -0.000555281         0.142842      -0.0261755     -0.000132105    -0.000317212        -0.159558        0.966941
                        0.954174       -0.208618       1.8974e-05    -0.000237861      -0.00426627        0.190872      0.000591637     0.000112697
                     0.000224657     0.000191158        -0.159446        0.966907      0.000506991     0.000139641          0.12476       0.0714022
281712                 0.0850433        0.171699      3.20941e-06    -0.000551598           0.9538       -0.209103      0.000196593     0.000193064
                    -6.46806e-05    -0.000555208         0.142823      -0.0261885     -0.000132262    -0.000317085        -0.159167        0.967008
                        0.954102       -0.208929      1.86968e-05    -0.000237776      -0.00415065        0.190899      0.000591567     0.000112464
                     0.000224671     0.000191129        -0.159055        0.966974      0.000507074     0.000139471         0.124795       0.0713073
281714                 0.0850625        0.171717      3.03796e-06    -0.000551584         0.953727       -0.209415      0.000196637     0.000193036
                    -6.49149e-05    -0.000555134         0.142803      -0.0262015      -0.00013242    -0.000316959        -0.158776        0.967074
                        0.954029        -0.20924      1.84198e-05    -0.000237689        -0.004035        0.190927      0.000591497     0.000112231
                     0.000224684     0.000191101        -0.158664        0.967041      0.000507157     0.000139301         0.124829       0.0712124
281716                 0.0850818        0.171736      2.86652e-06    -0.000551569         0.953653       -0.209726      0.000196681     0.000193009
                    -6.51493e-05     -0.00055506         0.142783      -0.0262144     -0.000132577    -0.000316833        -0.158386        0.967141
                        0.953955       -0.209551       1.8143e-05    -0.000237603      -0.00391932        0.190954      0.000591428     0.000111999
                     0.000224698     0.000191072        -0.158273        0.967108       0.00050724     0.000139131         0.124864       0.0711175
281718                  0.085101        0.171755      2.69511e-06    -0.000551553          0.95358       -0.210037      0.000196725     0.000192981
                    -6.53837e-05    -0.000554986         0.142764      -0.0262274     -0.000132735    -0.000316707        -0.157995        0.967208
                        0.953882       -0.209862      1.78664e-05    -0.000237516      -0.00380361        0.190982      0.000591358     0.000111766
                     0.000224711     0.000191043        -0.157882        0.967174      0.000507323     0.000138961         0.124898       0.0710226
281720                 0.0851202        0.171774      2.52374e-06    -0.000551537         0.953506       -0.210348      0.000196769     0.000192953
                    -6.56183e-05    -0.000554912         0.142744      -0.0262403     -0.000132892     -0.00031658        -0.157604        0.967274
                        0.953809       -0.210173        1.759e-05    -0.000237428      -0.00368786        0.191009      0.000591288     0.000111533
                     0.000224724     0.000191014        -0.157491        0.967241      0.000507405     0.000138791         0.124932       0.0709276
281722                 0.0851394        0.171793      2.35242e-06    -0.000551521         0.953432       -0.210659      0.000196813     0.000192926
                    -6.58529e-05    -0.000554838         0.142724      -0.0262533      -0.00013305    -0.000316454        -0.157213         0.96734
                        0.953736       -0.210484      1.73138e-05    -0.000237341      -0.00357208        0.191037      0.000591218       0.0001113
                     0.000224737     0.000190985          -0.1571        0.967307      0.000507488     0.000138621         0.124966       0.0708326
281724                 0.0851587        0.171812      2.18118e-06    -0.000551504         0.953359       -0.210971      0.000196857     0.000192898
                    -6.60877e-05    -0.000554764         0.142704      -0.0262662     -0.000133208    -0.000316327        -0.156822        0.967406
                        0.953662       -0.210795      1.70378e-05    -0.000237252      -0.00345627        0.191064      0.000591148     0.000111068
                      0.00022475     0.000190956        -0.156709        0.967374      0.000507571     0.000138451            0.125       0.0707376
281726                 0.0851779         0.17183      2.01001e-06    -0.000551487         0.953285       -0.211282      0.000196901      0.00019287
                    -6.63225e-05     -0.00055469         0.142685      -0.0262791     -0.000133366    -0.000316201        -0.156431        0.967472
                        0.953588       -0.211106      1.67619e-05    -0.000237164      -0.00334042        0.191091      0.000591079     0.000110835
                     0.000224763     0.000190928        -0.156318         0.96744      0.000507654     0.000138281         0.125034       0.0706426
281728                 0.0851971        0.171849      1.83894e-06     -0.00055147         0.953211       -0.211593      0.000196946     0.000192843
                    -6.65575e-05    -0.000554616         0.142665       -0.026292     -0.000133524    -0.000316075         -0.15604        0.967537
                        0.953515       -0.211417      1.64863e-05    -0.000237075      -0.00322454        0.191118      0.000591008     0.000110602
                     0.000224776     0.000190899        -0.155927        0.967505      0.000507736     0.000138111         0.125068       0.0705476
281730                 0.0852164        0.171868      1.66797e-06    -0.000551452         0.953137       -0.211904       0.00019699     0.000192815
                    -6.67925e-05    -0.000554541         0.142645      -0.0263049     -0.000133682    -0.000315949        -0.155649        0.967603
                        0.953441       -0.211728      1.62108e-05    -0.000236985      -0.00310863        0.191145      0.000590938      0.00011037
                     0.000224789      0.00019087        -0.155536        0.967571      0.000507819     0.000137941         0.125102       0.0704525
281732                 0.0852356        0.171887      1.49712e-06    -0.000551434         0.953062       -0.212215      0.000197034     0.000192787
                    -6.70276e-05    -0.000554467         0.142626      -0.0263178     -0.000133839    -0.000315823        -0.155258        0.967668
                        0.953367       -0.212039      1.59355e-05    -0.000236895      -0.00299269        0.191172      0.000590868     0.000110137
                     0.000224802     0.000190841        -0.155144        0.967637      0.000507901     0.000137772         0.125136       0.0703575
281734                 0.0852549        0.171906      1.32638e-06    -0.000551416         0.952988       -0.212526      0.000197078     0.000192759
                    -6.72629e-05    -0.000554393         0.142606      -0.0263307     -0.000133997    -0.000315698        -0.154866        0.967733
                        0.953293        -0.21235      1.56604e-05    -0.000236805      -0.00287671        0.191199      0.000590798     0.000109904
                     0.000224815     0.000190813        -0.154753        0.967702      0.000507984     0.000137602          0.12517       0.0702624
281736                 0.0852741        0.171925      1.15577e-06    -0.000551397         0.952914       -0.212837      0.000197122     0.000192731
                    -6.74982e-05    -0.000554318         0.142586      -0.0263436     -0.000134154    -0.000315572        -0.154475        0.967798
                        0.953219       -0.212661      1.53854e-05    -0.000236714       -0.0027607        0.191226      0.000590728     0.000109672
                     0.000224828     0.000190784        -0.154362        0.967767      0.000508066     0.000137432         0.125203       0.0701673
281738                 0.0852934        0.171943      9.85285e-07    -0.000551378         0.952839       -0.213148      0.000197167     0.000192704
                    -6.77336e-05    -0.000554243         0.142567      -0.0263565     -0.000134312    -0.000315447        -0.154084        0.967863
                        0.953145       -0.212971      1.51107e-05    -0.000236622      -0.00264466        0.191253      0.000590657     0.000109439
                     0.000224841     0.000190756        -0.153971        0.967833      0.000508149     0.000137262         0.125237       0.0700722
281740                 0.0853126        0.171962      8.14915e-07    -0.000551359         0.952765       -0.213459      0.000197211     0.000192676
                    -6.79692e-05    -0.000554169         0.142547      -0.0263694     -0.000134468    -0.000315321        -0.153693        0.967928
                         0.95307       -0.213282      1.48362e-05    -0.000236531      -0.00252859         0.19128      0.000590587     0.000109207
                     0.000224853     0.000190727        -0.153579        0.967897      0.000508231     0.000137092          0.12527        0.069977
281742                 0.0853319        0.171981      6.44647e-07    -0.000551339          0.95269        -0.21377      0.000197255     0.000192648
                    -6.82048e-05    -0.000554094         0.142527      -0.0263822     -0.000134625    -0.000315196        -0.153302        0.967993
                        0.952996       -0.213593      1.45619e-05    -0.000236439      -0.00241248        0.191306      0.000590516     0.000108974
                     0.000224866     0.000190698        -0.153188        0.967962      0.000508314     0.000136922         0.125304       0.0698819
281744                 0.0853511           0.172      4.74446e-07    -0.000551319         0.952615        -0.21408      0.000197299      0.00019262
                    -6.84405e-05    -0.000554019         0.142507      -0.0263951     -0.000134782     -0.00031507         -0.15291        0.968057
                        0.952921       -0.213903      1.42879e-05    -0.000236346      -0.00229634        0.191333      0.000590446     0.000108742
                     0.000224878      0.00019067        -0.152797        0.968027      0.000508396     0.000136751         0.125337       0.0697867
281746                 0.0853704        0.172019      3.04252e-07    -0.000551299          0.95254       -0.214391      0.000197344     0.000192592
                    -6.86763e-05    -0.000553944         0.142488      -0.0264079     -0.000134938    -0.000314944        -0.152519        0.968121
                        0.952847       -0.214214      1.40144e-05    -0.000236253      -0.00218017        0.191359      0.000590375     0.000108509
                     0.000224891     0.000190641        -0.152405        0.968091      0.000508479     0.000136581          0.12537       0.0696915
281748                 0.0853897        0.172038      1.33958e-07    -0.000551279         0.952465       -0.214702      0.000197388     0.000192564
                    -6.89123e-05    -0.000553869         0.142468      -0.0264208     -0.000135094    -0.000314818        -0.152128        0.968185
                        0.952772       -0.214525      1.37416e-05     -0.00023616      -0.00206396        0.191386      0.000590305     0.000108276
                     0.000224903     0.000190613        -0.152014        0.968156      0.000508561      0.00013641         0.125404       0.0695963
281750                 0.0854089        0.172056     -3.66135e-08    -0.000551259          0.95239       -0.215013      0.000197433     0.000192536
                    -6.91483e-05    -0.000553794         0.142448      -0.0264336      -0.00013525    -0.000314692        -0.151736        0.968249
                        0.952697       -0.214835        1.347e-05    -0.000236066      -0.00194773        0.191412      0.000590235     0.000108042
                     0.000224916     0.000190584        -0.151623         0.96822      0.000508643     0.000136239         0.125437       0.0695011
281752                 0.0854282        0.172075     -2.07654e-07     -0.00055124         0.952315       -0.215324      0.000197477     0.000192508
                    -6.93845e-05    -0.000553719         0.142428      -0.0264464     -0.000135406    -0.000314566        -0.151345        0.968313
                        0.952622       -0.215146      1.32012e-05    -0.000235972      -0.00183146        0.191439      0.000590168      0.00010781
                     0.000224928     0.000190555        -0.151231        0.968284      0.000508725     0.000136068          0.12547       0.0694059
281754                 0.0854475        0.172094     -3.78319e-07    -0.000551225          0.95224       -0.215634      0.000197521      0.00019248
                    -6.96208e-05    -0.000553644         0.142409      -0.0264592     -0.000135562     -0.00031444        -0.150954        0.968377
                        0.952547       -0.215456      1.29379e-05    -0.000235873      -0.00171516        0.191465      0.000590098     0.000107581
                     0.000224941     0.000190527         -0.15084        0.968348      0.000508807     0.000135898         0.125503       0.0693106
281756                 0.0854668        0.172113     -5.40581e-07    -0.000551214         0.952164       -0.215945      0.000197566     0.000192453
                    -6.98575e-05    -0.000553569         0.142389       -0.026472     -0.000135718    -0.000314314        -0.150562         0.96844
                        0.952472       -0.215767       1.2668e-05    -0.000235755      -0.00159883        0.191491      0.000590026      0.00010735
                     0.000224953     0.000190498        -0.150448        0.968411      0.000508888     0.000135727         0.125536       0.0692154
281758                  0.085486        0.172132     -6.94289e-07    -0.000551189         0.952089       -0.216256       0.00019761     0.000192426
                    -7.00959e-05    -0.000553494         0.142369      -0.0264848     -0.000135874    -0.000314187        -0.150171        0.968503
                        0.952397       -0.216078      1.23757e-05    -0.000235651      -0.00148246        0.191517      0.000589954     0.000107119
                     0.000224966     0.000190466        -0.150057        0.968475       0.00050897     0.000135556         0.125568       0.0691201
281760                 0.0855053        0.172151      -8.5927e-07    -0.000551159         0.952013       -0.216566      0.000197653     0.000192396
                    -7.03316e-05    -0.000553415         0.142349      -0.0264976      -0.00013603    -0.000314061        -0.149779        0.968567
                        0.952321       -0.216388      1.20943e-05    -0.000235559      -0.00136606        0.191543      0.000589882     0.000106886
                     0.000224973     0.000190441        -0.149665        0.968538      0.000509051     0.000135385         0.125601       0.0690248
281762                 0.0855246         0.17217     -1.02791e-06    -0.000551132         0.951937       -0.216877      0.000197699     0.000192367
                    -7.05669e-05     -0.00055334          0.14233      -0.0265104     -0.000136186    -0.000313934        -0.149388         0.96863
                        0.952246       -0.216698      1.18189e-05    -0.000235465      -0.00124963        0.191569      0.000589811     0.000106654
