! TOUCHSTONE file generated by CST MICROWAVE STUDIO
! Date and time: Tue Oct 14 17:38:30 2025
! Project name: Teste_Macro_Metasurface_Nanopilar.cst
! Parameters = {H=600; L_x=120; L_y=110; Lambda=1064; Max_L=200; Min_L=70; PathPara=1; Phi=0; Step_L=10; Theta=0; p=520; phaseX=180; phaseY=0}
! Header version: 2018
! Port assignment regex: !\s*Touchstone port\s*([0-9]+)\s*=\s*(CST MWS port|CST DS port)\s*([0-9]+|Zmin|Zmax)\s*\(\"(.*)\"\)(\s*mode\s*([0-9]+))?.*
! Touchstone port assignment:
! Touchstone port 1 = CST MWS port Zmax ("") mode 1
! Touchstone port 2 = CST MWS port Zmax ("") mode 2
! Touchstone port 3 = CST MWS port Zmin ("") mode 1
! Touchstone port 4 = CST MWS port Zmin ("") mode 2
! S-Parameters are not renormalized. Each port impedance will be approximated by the real part at minimum frequency. The values are described via the [Reference] keyword.
! Default impedance is overridden by [Reference]
[Version] 2.0
# GHz S RI R 376.73
[Number of Ports] 4
[Reference]
376.73 376.73 259.814 259.814 
[Number of Frequencies] 51
[Network Data]
281700                  0.155884       0.0600742     -0.000155061     0.000469267        -0.929447        0.306141     -9.85145e-05     2.91462e-05
                    -0.000221376     0.000438651         0.134353       -0.068597     -9.62898e-05      4.7356e-05        -0.461683        0.863327
                       -0.929617        0.306249     -0.000217876     1.60171e-05       -0.0887299        0.140804      0.000509687    -0.000179698
                    -7.67799e-05    -1.82945e-05        -0.461568        0.863574      0.000505755    -0.000125765        0.0158939        0.149238
281702                  0.155899       0.0600559     -0.000154902      0.00046916        -0.929331        0.306485     -9.85232e-05     2.91121e-05
                    -0.000221187     0.000438578         0.134326      -0.0686111     -9.61647e-05     4.74101e-05        -0.461332        0.863517
                       -0.929502        0.306593      -0.00021773     1.61165e-05       -0.0886484        0.140864      0.000509606    -0.000179843
                    -7.67343e-05    -1.82665e-05        -0.461218        0.863764      0.000505614    -0.000125919        0.0159883         0.14921
281704                  0.155914       0.0600376     -0.000154743     0.000469051        -0.929216         0.30683     -8.18043e-05    -1.89478e-05
                    -0.000220998     0.000438505         0.134299      -0.0686252     -9.60395e-05     4.74639e-05        -0.460983        0.863703
                       -0.929386        0.306937     -0.000217583     1.62173e-05       -0.0885668        0.140924      0.000523223    -0.000132828
                    -7.66889e-05    -1.82386e-05        -0.460867        0.863954      0.000505473    -0.000126073        0.0160823        0.149182
281706                  0.155929       0.0600193     -0.000154585     0.000468943          -0.9291        0.307174     -8.56072e-05    -4.12241e-05
                    -0.000220809     0.000438431         0.134271      -0.0686392     -9.59142e-05     4.75175e-05        -0.460635        0.863884
                        -0.92927        0.307282     -0.000217435     1.63187e-05       -0.0884852        0.140984      0.000529121    -0.000127623
                    -7.66437e-05    -1.82107e-05        -0.460517        0.864144      0.000505332    -0.000126227        0.0161758        0.149154
281708                  0.155943        0.060001     -0.000154427     0.000468834        -0.928984        0.307518     -8.85768e-05    -4.88143e-05
                    -0.000220619     0.000438358         0.134244      -0.0686533     -9.57888e-05     4.75708e-05        -0.460287        0.864053
                       -0.929155        0.307626     -0.000217287     1.64203e-05       -0.0884036        0.141043      0.000530724    -0.000126368
                    -7.65987e-05    -1.81828e-05        -0.460166        0.864333      0.000505192    -0.000126381        0.0162684        0.149125
281710                  0.155958       0.0599827     -0.000154269     0.000468726        -0.928868        0.307862     -9.00633e-05     -5.1913e-05
                    -0.000220429     0.000438284         0.134217      -0.0686673     -9.56632e-05      4.7624e-05        -0.459936          0.8642
                       -0.929039         0.30797     -0.000217138     1.65219e-05       -0.0883219        0.141103      0.000531243    -0.000125959
                    -7.65539e-05     -1.8155e-05        -0.459815        0.864522      0.000505052    -0.000126534        0.0163592        0.149095
281712                  0.155973       0.0599644     -0.000154111     0.000468617        -0.928752        0.308207     -9.08267e-05     -5.3381e-05
                    -0.000220239      0.00043821          0.13419      -0.0686813     -9.55376e-05     4.76768e-05         -0.45955        0.864295
                       -0.928922        0.308314      -0.00021699     1.66235e-05       -0.0882402        0.141163       0.00053139    -0.000125841
                    -7.65093e-05    -1.81274e-05        -0.459464        0.864711      0.000504912    -0.000126688        0.0164446        0.149062
281714                  0.155988        0.059946     -0.000153953     0.000468508        -0.928636        0.308551     -9.12411e-05    -5.41448e-05
                    -0.000220049     0.000438136         0.134163      -0.0686953     -9.54119e-05     4.77295e-05        -0.458966        0.864408
                       -0.928806        0.308658     -0.000216841      1.6725e-05       -0.0881584        0.141222      0.000531382    -0.000125851
                    -7.64648e-05    -1.80998e-05        -0.459113          0.8649      0.000504772    -0.000126841        0.0165016        0.148984
281716                  0.156003       0.0599277     -0.000153796     0.000468399        -0.928519        0.308895     -9.14759e-05    -5.45635e-05
                    -0.000219859     0.000438061         0.134136      -0.0687093      -9.5286e-05     4.77819e-05        -0.458498        0.864881
                        -0.92869        0.309002     -0.000216692     1.68265e-05       -0.0880766        0.141282      0.000531299    -0.000125927
                    -7.64205e-05    -1.80723e-05        -0.458762        0.865089      0.000504633    -0.000126994        0.0167121        0.149018
281718                  0.156017       0.0599094     -0.000153638      0.00046829        -0.928403        0.309239      -9.1612e-05    -5.47966e-05
                    -0.000219668     0.000437987         0.134109      -0.0687233       -9.516e-05     4.78341e-05         -0.45826        0.865171
                       -0.928573        0.309346     -0.000216544     1.69279e-05       -0.0879947        0.141341      0.000531178     -0.00012604
                    -7.63764e-05    -1.80449e-05        -0.458411        0.865278      0.000504493    -0.000127148        0.0167733        0.148993
281720                  0.156032        0.059891     -0.000153481     0.000468181        -0.928286        0.309583      -9.1691e-05    -5.49229e-05
                    -0.000219478     0.000437912         0.134082      -0.0687373      -9.5034e-05     4.78861e-05        -0.457971        0.865372
                       -0.928456         0.30969     -0.000216395     1.70292e-05       -0.0879128        0.141401      0.000531034    -0.000126176
                    -7.63323e-05    -1.80176e-05         -0.45806        0.865467      0.000504354    -0.000127301        0.0168595        0.148964
281722                  0.156047       0.0598727     -0.000153324     0.000468072        -0.928169        0.309927     -9.17353e-05    -5.49843e-05
                    -0.000219287     0.000437838         0.134055      -0.0687513     -9.49078e-05     4.79379e-05         -0.45765         0.86556
                        -0.92834        0.310034     -0.000216246     1.71303e-05       -0.0878308         0.14146      0.000530878    -0.000126327
                    -7.62884e-05    -1.79905e-05        -0.457708        0.865655      0.000504215    -0.000127453        0.0169503        0.148935
281724                  0.156062       0.0598544     -0.000153167     0.000467963        -0.928052        0.310271     -9.17578e-05    -5.50046e-05
                    -0.000219097     0.000437763         0.134028      -0.0687652     -9.47814e-05     4.79895e-05        -0.457315        0.865746
                       -0.928223        0.310378     -0.000216097     1.72314e-05       -0.0877489        0.141519      0.000530714    -0.000126488
                    -7.62445e-05    -1.79635e-05        -0.457357        0.865843      0.000504076    -0.000127606        0.0170427        0.148906
281726                  0.156077        0.059836      -0.00015301     0.000467854        -0.927935        0.310615     -9.17662e-05     -5.4998e-05
                    -0.000218906     0.000437688         0.134001      -0.0687792      -9.4655e-05     4.80409e-05        -0.456974        0.865933
                       -0.928106        0.310722     -0.000215947     1.73323e-05       -0.0876668        0.141578      0.000530544    -0.000126655
                    -7.62007e-05    -1.79365e-05        -0.457006        0.866032      0.000503937    -0.000127759        0.0171357        0.148877
281728                  0.156091       0.0598176     -0.000152853     0.000467744        -0.927818        0.310959     -9.17653e-05    -5.49733e-05
                    -0.000218716     0.000437613         0.133974      -0.0687931     -9.45284e-05      4.8092e-05        -0.456628         0.86612
                       -0.927988        0.311066     -0.000215798     1.74331e-05       -0.0875847        0.141638      0.000530372    -0.000126828
                     -7.6157e-05    -1.79097e-05        -0.456654         0.86622      0.000503799    -0.000127911        0.0172291        0.148848
281730                  0.156106       0.0597993     -0.000152696     0.000467635        -0.927701        0.311302     -9.17581e-05    -5.49361e-05
                    -0.000218525     0.000437538         0.133947      -0.0688071     -9.44017e-05      4.8143e-05         -0.45628        0.866307
                       -0.927871         0.31141     -0.000215649     1.75337e-05       -0.0875026        0.141697      0.000530197    -0.000127004
                    -7.61134e-05     -1.7883e-05        -0.456302        0.866408       0.00050366    -0.000128064        0.0173227        0.148819
281732                  0.156121       0.0597809      -0.00015254     0.000467526        -0.927584        0.311646     -9.17467e-05    -5.48903e-05
                    -0.000218335     0.000437463         0.133919       -0.068821     -9.42749e-05     4.81938e-05         -0.45593        0.866494
                       -0.927754        0.311753       -0.0002155     1.76343e-05       -0.0874204        0.141756      0.000530021    -0.000127184
                    -7.60697e-05    -1.78564e-05        -0.455951        0.866595      0.000503521    -0.000128216        0.0174163         0.14879
281734                  0.156136       0.0597625     -0.000152383     0.000467417        -0.927466         0.31199     -9.17323e-05    -5.48383e-05
                    -0.000218145     0.000437388         0.133892      -0.0688349      -9.4148e-05     4.82444e-05         -0.45558        0.866681
                       -0.927636        0.312097      -0.00021535     1.77347e-05       -0.0873382        0.141815      0.000529843    -0.000127365
                    -7.60262e-05    -1.78298e-05        -0.455599        0.866783      0.000503383    -0.000128368        0.0175101        0.148761
281736                   0.15615       0.0597441     -0.000152227     0.000467308        -0.927348        0.312334     -9.17158e-05    -5.47819e-05
                    -0.000217954     0.000437313         0.133865      -0.0688488     -9.40209e-05     4.82948e-05        -0.455228        0.866869
                       -0.927518        0.312441     -0.000215201     1.78349e-05        -0.087256        0.141874      0.000529666    -0.000127548
                    -7.59826e-05    -1.78034e-05        -0.455247         0.86697      0.000503244     -0.00012852        0.0176039        0.148732
281738                  0.156165       0.0597257     -0.000152071     0.000467198         -0.92723        0.312678      -9.1698e-05    -5.47224e-05
                    -0.000217764     0.000437238         0.133838      -0.0688627     -9.38937e-05     4.83451e-05        -0.454877        0.867056
                         -0.9274        0.312785     -0.000215052     1.79351e-05       -0.0871737        0.141933      0.000529487    -0.000127732
                    -7.59391e-05     -1.7777e-05        -0.454895        0.867158      0.000503106    -0.000128672        0.0176976        0.148703
281740                   0.15618       0.0597073     -0.000151914     0.000467089        -0.927113        0.313021     -9.16792e-05    -5.46606e-05
                    -0.000217574     0.000437162         0.133811      -0.0688766     -9.37664e-05     4.83952e-05        -0.454525        0.867243
                       -0.927283        0.313128     -0.000214902     1.80351e-05       -0.0870913        0.141992      0.000529309    -0.000127917
                    -7.58956e-05    -1.77507e-05        -0.454543        0.867345      0.000502968    -0.000128823        0.0177914        0.148674
281742                  0.156195       0.0596889     -0.000151758     0.000466979        -0.926994        0.313365     -9.16598e-05    -5.45971e-05
                    -0.000217384     0.000437087         0.133784      -0.0688905     -9.36389e-05     4.84451e-05        -0.454172         0.86743
                       -0.927164        0.313472     -0.000214753     1.81349e-05        -0.087009        0.142051       0.00052913    -0.000128103
                     -7.5852e-05    -1.77245e-05        -0.454191        0.867532      0.000502829    -0.000128975        0.0178852        0.148645
281744                  0.156209       0.0596705     -0.000151602      0.00046687        -0.926876        0.313708     -9.16399e-05    -5.45325e-05
                    -0.000217194     0.000437011         0.133757      -0.0689043     -9.35113e-05     4.84948e-05         -0.45382        0.867617
                       -0.927046        0.313815     -0.000214603     1.82346e-05       -0.0869265        0.142109      0.000528951    -0.000128289
                    -7.58085e-05    -1.76984e-05        -0.453839        0.867719      0.000502691    -0.000129126        0.0179789        0.148616
281746                  0.156224       0.0596521     -0.000151447     0.000466761        -0.926758        0.314052     -9.16198e-05     -5.4467e-05
                    -0.000217005     0.000436936         0.133729      -0.0689182     -9.33836e-05     4.85445e-05        -0.453467        0.867804
                       -0.926928        0.314159     -0.000214453     1.83342e-05       -0.0868441        0.142168      0.000528772    -0.000128476
                    -7.57649e-05    -1.76723e-05        -0.453487        0.867906      0.000502553    -0.000129278        0.0180726        0.148587
281748                  0.156239       0.0596337     -0.000151291     0.000466651        -0.926639        0.314396     -9.15995e-05     -5.4401e-05
                    -0.000216815      0.00043686         0.133702       -0.068932     -9.32557e-05      4.8594e-05        -0.453115        0.867991
                       -0.926809        0.314502     -0.000214304     1.84336e-05       -0.0867616        0.142227      0.000528593    -0.000128664
                    -7.57214e-05    -1.76463e-05        -0.453134        0.868092      0.000502414    -0.000129429        0.0181663        0.148557
281750                  0.156253       0.0596152     -0.000151135     0.000466542        -0.926521        0.314739     -9.15792e-05    -5.43346e-05
                    -0.000216626     0.000436785         0.133675      -0.0689459     -9.31277e-05     4.86433e-05        -0.452762        0.868178
                       -0.926691        0.314846     -0.000214154     1.85329e-05        -0.086679        0.142286      0.000528414    -0.000128851
                    -7.56778e-05    -1.76204e-05        -0.452782        0.868279      0.000502276     -0.00012958          0.01826        0.148528
281752                  0.156268       0.0595968      -0.00015098     0.000466432        -0.926402        0.315083     -9.15588e-05    -5.42679e-05
                    -0.000216436     0.000436709         0.133648      -0.0689597     -9.29995e-05     4.86926e-05        -0.452409        0.868364
                       -0.926572        0.315189     -0.000214004     1.86321e-05       -0.0865964        0.142344      0.000528235    -0.000129039
                    -7.56341e-05    -1.75946e-05        -0.452429        0.868465      0.000502138     -0.00012973        0.0183536        0.148498
281754                  0.156283       0.0595784     -0.000150824     0.000466323        -0.926283        0.315426     -9.15385e-05    -5.42011e-05
                    -0.000216247     0.000436633         0.133621      -0.0689735     -9.28712e-05     4.87417e-05        -0.452056         0.86855
                       -0.926453        0.315533     -0.000213854     1.87311e-05       -0.0865138        0.142403      0.000528056    -0.000129227
                    -7.55905e-05    -1.75688e-05        -0.452077        0.868651         0.000502    -0.000129881        0.0184472        0.148469
281756                  0.156298       0.0595599     -0.000150669     0.000466213        -0.926164        0.315769     -9.15183e-05    -5.41343e-05
                    -0.000216058     0.000436557         0.133594      -0.0689873     -9.27428e-05     4.87908e-05        -0.451704        0.868736
                       -0.926334        0.315876     -0.000213704     1.88299e-05       -0.0864311        0.142461      0.000527877    -0.000129415
                    -7.55468e-05    -1.75432e-05        -0.451724        0.868838      0.000501862    -0.000130031        0.0185407        0.148439
281758                  0.156312       0.0595415     -0.000150514     0.000466104        -0.926045        0.316113     -9.14981e-05    -5.40675e-05
                    -0.000215869     0.000436481         0.133566      -0.0690011     -9.26142e-05     4.88397e-05        -0.451351        0.868922
                       -0.926215        0.316219     -0.000213555     1.89286e-05       -0.0863484         0.14252      0.000527698    -0.000129603
                    -7.55031e-05    -1.75177e-05        -0.451371        0.869024      0.000501725    -0.000130182        0.0186343        0.148409
281760                  0.156327        0.059523     -0.000150359     0.000465994        -0.925926        0.316456      -9.1478e-05    -5.40008e-05
                    -0.000215681     0.000436406         0.133539      -0.0690149     -9.24854e-05     4.88886e-05        -0.450998        0.869108
                       -0.926096        0.316563     -0.000213405     1.90272e-05       -0.0862656        0.142578      0.000527519     -0.00012979
                    -7.54594e-05    -1.74924e-05        -0.451018        0.869209      0.000501588    -0.000130331        0.0187278         0.14838
281762                  0.156342       0.0595045     -0.000150204     0.000465884        -0.925807        0.316799      -9.1458e-05    -5.39342e-05
                    -0.000215492      0.00043633         0.133512      -0.0690287     -9.23566e-05     4.89375e-05        -0.450645        0.869294
                       -0.925976        0.316906     -0.000213255     1.91256e-05       -0.0861828        0.142636       0.00052734    -0.000129978
