! TOUCHSTONE file generated by CST MICROWAVE STUDIO
! Date and time: Tue Oct 14 17:38:21 2025
! Project name: Teste_Macro_Metasurface_Nanopilar.cst
! Parameters = {H=600; L_x=110; L_y=80; Lambda=1064; Max_L=200; Min_L=70; PathPara=1; Phi=0; Step_L=10; Theta=0; p=520; phaseX=180; phaseY=0}
! Header version: 2018
! Port assignment regex: !\s*Touchstone port\s*([0-9]+)\s*=\s*(CST MWS port|CST DS port)\s*([0-9]+|Zmin|Zmax)\s*\(\"(.*)\"\)(\s*mode\s*([0-9]+))?.*
! Touchstone port assignment:
! Touchstone port 1 = CST MWS port Zmax ("") mode 1
! Touchstone port 2 = CST MWS port Zmax ("") mode 2
! Touchstone port 3 = CST MWS port Zmin ("") mode 1
! Touchstone port 4 = CST MWS port Zmin ("") mode 2
! S-Parameters are not renormalized. Each port impedance will be approximated by the real part at minimum frequency. The values are described via the [Reference] keyword.
! Default impedance is overridden by [Reference]
[Version] 2.0
# GHz S RI R 376.73
[Number of Ports] 4
[Reference]
376.73 376.73 259.814 259.814 
[Number of Frequencies] 51
[Network Data]
281700                 0.0192051       -0.104674     -0.000312233     1.33493e-05       -0.0566693       -0.992213       7.5519e-05    -0.000133446
                    -0.000319608     0.000113026         0.010875     -0.00127501      1.69645e-05    -7.47435e-05        -0.580914       -0.811226
                      -0.0559423       -0.992132      0.000289943    -4.27755e-05        0.0307449        0.101973     -0.000233648      0.00024085
                     9.80076e-05    -7.38004e-05        -0.580871        -0.81122     -0.000444973     0.000164548       0.00443022     -0.00919933
281702                 0.0191928       -0.104672     -0.000312259     1.33923e-05       -0.0569115         -0.9922      7.54807e-05    -0.000133464
                    -0.000319595     0.000113093        0.0108721     -0.00126392      1.69778e-05    -7.45379e-05        -0.581138       -0.811066
                      -0.0561845       -0.992119      0.000289993     -4.2711e-05        0.0307822        0.101957     -0.000233599     0.000240946
                     9.79467e-05    -7.37795e-05        -0.581094        -0.81106     -0.000444718     0.000164927       0.00441368     -0.00920253
281704                 0.0191805        -0.10467     -0.000312285     1.34355e-05       -0.0571537       -0.992186      7.54424e-05    -0.000133483
                    -0.000319581      0.00011316        0.0108691     -0.00125283      1.69919e-05    -7.43318e-05        -0.581361       -0.810906
                      -0.0564267       -0.992105      0.000290041    -4.26465e-05        0.0308195        0.101941      -0.00023355     0.000241042
                     9.78859e-05    -7.37586e-05        -0.581318         -0.8109     -0.000444461     0.000165304       0.00439714     -0.00920572
281706                 0.0191682       -0.104668     -0.000312311     1.34788e-05       -0.0573959       -0.992173      7.54041e-05    -0.000133502
                    -0.000319568     0.000113226        0.0108662     -0.00124174      1.70067e-05    -7.41251e-05        -0.581584       -0.810746
                      -0.0566689       -0.992092       0.00029009    -4.25819e-05        0.0308568        0.101926     -0.000233501     0.000241138
                      9.7825e-05    -7.37377e-05        -0.581541        -0.81074     -0.000444203     0.000165682       0.00438059     -0.00920889
281708                 0.0191558       -0.104666     -0.000312337     1.35223e-05       -0.0576381       -0.992159      7.53657e-05    -0.000133521
                    -0.000319555     0.000113293        0.0108633     -0.00123064      1.70222e-05     -7.3918e-05        -0.581807       -0.810585
                      -0.0569111       -0.992079      0.000290138    -4.25172e-05        0.0308941         0.10191     -0.000233452     0.000241234
                      9.7764e-05    -7.37168e-05        -0.581764       -0.810579     -0.000443943     0.000166059       0.00436404     -0.00921205
281710                 0.0191435       -0.104664     -0.000312363      1.3566e-05       -0.0578803       -0.992146      7.53274e-05     -0.00013354
                    -0.000319542      0.00011336        0.0108603     -0.00121955      1.70385e-05    -7.37104e-05        -0.582031       -0.810425
                      -0.0571533       -0.992065      0.000290186    -4.24524e-05        0.0309313        0.101894     -0.000233403      0.00024133
                     9.77031e-05    -7.36959e-05        -0.581988       -0.810419     -0.000443681     0.000166437       0.00434749      -0.0092152
281712                 0.0191312       -0.104662     -0.000312389     1.36099e-05       -0.0581225       -0.992132       7.5289e-05    -0.000133558
                    -0.000319529     0.000113426        0.0108574     -0.00120845      1.70556e-05    -7.35023e-05        -0.582254       -0.810265
                      -0.0573955       -0.992052      0.000290233    -4.23877e-05        0.0309686        0.101879     -0.000233353     0.000241426
                     9.76421e-05     -7.3675e-05        -0.582211       -0.810258     -0.000443417     0.000166813       0.00433094     -0.00921834
281714                 0.0191189        -0.10466     -0.000312415      1.3654e-05       -0.0583647       -0.992118      7.52505e-05    -0.000133577
                    -0.000319516     0.000113493        0.0108545     -0.00119736      1.70734e-05    -7.32938e-05        -0.582477       -0.810104
                      -0.0576377       -0.992038       0.00029028    -4.23228e-05        0.0310059        0.101863     -0.000233304     0.000241522
                      9.7581e-05    -7.36541e-05        -0.582434       -0.810098     -0.000443151      0.00016719       0.00431438     -0.00922146
281716                 0.0191066       -0.104658      -0.00031244     1.36982e-05       -0.0586069       -0.992104      7.52121e-05    -0.000133596
                    -0.000319503     0.000113559        0.0108516     -0.00118626       1.7092e-05    -7.30847e-05          -0.5827       -0.809944
                      -0.0578799       -0.992024      0.000290326    -4.22579e-05        0.0310431        0.101847     -0.000233254     0.000241618
                       9.752e-05    -7.36331e-05        -0.582657       -0.809937     -0.000442883     0.000167566       0.00429783     -0.00922456
281718                 0.0190942       -0.104656     -0.000312466     1.37426e-05       -0.0588491       -0.992091      7.51736e-05    -0.000133615
                     -0.00031949     0.000113626        0.0108487     -0.00117517      1.71113e-05    -7.28752e-05        -0.582923       -0.809783
                      -0.0581221       -0.992011      0.000290372    -4.21929e-05        0.0310804        0.101832     -0.000233205     0.000241713
                     9.74589e-05    -7.36122e-05         -0.58288       -0.809776     -0.000442614     0.000167942       0.00428127     -0.00922766
281720                 0.0190819       -0.104654     -0.000312492     1.37871e-05       -0.0590914       -0.992077      7.51352e-05    -0.000133633
                    -0.000319477     0.000113692        0.0108457     -0.00116407      1.71314e-05    -7.26652e-05        -0.583146       -0.809623
                      -0.0583643       -0.991997      0.000290418    -4.21279e-05        0.0311176        0.101816     -0.000233155     0.000241809
                     9.73978e-05    -7.35912e-05        -0.583104       -0.809616     -0.000442342     0.000168318        0.0042647     -0.00923074
281722                 0.0190696       -0.104653     -0.000312518     1.38318e-05       -0.0593335       -0.992063      7.50966e-05    -0.000133652
                    -0.000319464     0.000113759        0.0108428     -0.00115297      1.71523e-05    -7.24548e-05        -0.583369       -0.809462
                      -0.0586065       -0.991983      0.000290463    -4.20627e-05        0.0311548          0.1018     -0.000233105     0.000241904
                     9.73367e-05    -7.35702e-05        -0.583327       -0.809455     -0.000442069     0.000168693       0.00424814     -0.00923381
281724                 0.0190573       -0.104651     -0.000312544     1.38767e-05       -0.0595757       -0.992049      7.50581e-05    -0.000133671
                    -0.000319451     0.000113825        0.0108399     -0.00114187      1.71739e-05    -7.22439e-05        -0.583592       -0.809301
                      -0.0588486       -0.991969      0.000290507    -4.19976e-05        0.0311921        0.101784     -0.000233055        0.000242
                     9.72755e-05    -7.35492e-05         -0.58355       -0.809294     -0.000441794     0.000169068       0.00423157     -0.00923687
281726                  0.019045       -0.104649      -0.00031257     1.39218e-05       -0.0598179       -0.992035      7.50195e-05     -0.00013369
                    -0.000319438     0.000113891         0.010837     -0.00113077      1.71962e-05    -7.20325e-05        -0.583815        -0.80914
                      -0.0590908       -0.991955      0.000290551    -4.19324e-05        0.0312293        0.101769     -0.000233005     0.000242095
                     9.72143e-05    -7.35282e-05        -0.583773       -0.809133     -0.000441517     0.000169443         0.004215     -0.00923991
281728                 0.0190326       -0.104647     -0.000312595      1.3967e-05       -0.0600601       -0.992021       7.4981e-05    -0.000133708
                    -0.000319425     0.000113958        0.0108341     -0.00111966      1.72193e-05    -7.18208e-05        -0.584037       -0.808979
                       -0.059333       -0.991941      0.000290595    -4.18671e-05        0.0312665        0.101753     -0.000232955     0.000242191
                     9.71531e-05    -7.35072e-05        -0.583995       -0.808972     -0.000441239     0.000169817       0.00419843     -0.00924294
281730                 0.0190203       -0.104645     -0.000312621     1.40125e-05       -0.0603023       -0.992006      7.49424e-05    -0.000133727
                    -0.000319412     0.000114024        0.0108312     -0.00110856      1.72432e-05    -7.16085e-05         -0.58426       -0.808818
                      -0.0595752       -0.991927      0.000290639    -4.18017e-05        0.0313037        0.101737     -0.000232905     0.000242286
                     9.70918e-05    -7.34861e-05        -0.584218       -0.808811     -0.000440958     0.000170191       0.00418186     -0.00924595
281732                  0.019008       -0.104643     -0.000312647      1.4058e-05       -0.0605445       -0.991992      7.49037e-05    -0.000133745
                    -0.000319399      0.00011409        0.0108283     -0.00109746      1.72677e-05    -7.13958e-05        -0.584483       -0.808657
                      -0.0598173       -0.991913      0.000290681    -4.17363e-05        0.0313409        0.101721     -0.000232854     0.000242381
                     9.70305e-05     -7.3465e-05        -0.584441        -0.80865     -0.000440676     0.000170565       0.00416528     -0.00924896
281734                 0.0189957       -0.104641     -0.000312673     1.41038e-05       -0.0607867       -0.991978      7.48651e-05    -0.000133764
                    -0.000319386     0.000114157        0.0108254     -0.00108635      1.72931e-05    -7.11827e-05        -0.584706       -0.808496
                      -0.0600595       -0.991899      0.000290724    -4.16709e-05        0.0313781        0.101705     -0.000232804     0.000242476
                     9.69692e-05    -7.34439e-05        -0.584664       -0.808489     -0.000440392     0.000170938        0.0041487     -0.00925195
281736                 0.0189834       -0.104639     -0.000312698     1.41497e-05       -0.0610289       -0.991963      7.48264e-05    -0.000133783
                    -0.000319373     0.000114223        0.0108225     -0.00107524      1.73191e-05    -7.09692e-05        -0.584928       -0.808335
                      -0.0603017       -0.991885      0.000290766    -4.16053e-05        0.0314152         0.10169     -0.000232753     0.000242571
                     9.69079e-05    -7.34228e-05        -0.584887       -0.808328     -0.000440106     0.000171311       0.00413212     -0.00925492
281738                  0.018971       -0.104637     -0.000312724     1.41958e-05       -0.0612711       -0.991949      7.47877e-05    -0.000133801
                     -0.00031936     0.000114289        0.0108196     -0.00106414      1.73459e-05    -7.07552e-05        -0.585151       -0.808174
                      -0.0605438        -0.99187      0.000290807    -4.15397e-05        0.0314524        0.101674     -0.000232702     0.000242666
                     9.68466e-05    -7.34016e-05        -0.585109       -0.808166     -0.000439818     0.000171684       0.00411553     -0.00925789
281740                 0.0189587       -0.104635      -0.00031275     1.42421e-05       -0.0615133       -0.991935       7.4749e-05     -0.00013382
                    -0.000319347     0.000114355        0.0108167     -0.00105303      1.73734e-05    -7.05408e-05        -0.585373       -0.808013
                       -0.060786       -0.991856      0.000290849    -4.14741e-05        0.0314896        0.101658     -0.000232652      0.00024276
                     9.67852e-05    -7.33804e-05        -0.585332       -0.808005     -0.000439528     0.000172056       0.00409895     -0.00926084
281742                 0.0189464       -0.104632     -0.000312776     1.42885e-05       -0.0617554        -0.99192      7.47102e-05    -0.000133838
                    -0.000319334     0.000114421        0.0108138     -0.00104192      1.74015e-05     -7.0326e-05        -0.585596       -0.807851
                      -0.0610281       -0.991841      0.000290889    -4.14084e-05        0.0315267        0.101642     -0.000232601     0.000242855
                     9.67238e-05    -7.33591e-05        -0.585555       -0.807843     -0.000439237     0.000172428       0.00408236     -0.00926377
281744                 0.0189341        -0.10463     -0.000312801     1.43351e-05       -0.0619976       -0.991905      7.46714e-05    -0.000133857
                    -0.000319321     0.000114487        0.0108109     -0.00103081      1.74304e-05    -7.01107e-05        -0.585818        -0.80769
                      -0.0612703       -0.991827       0.00029093    -4.13426e-05        0.0315639        0.101626     -0.000232549     0.000242949
                     9.66624e-05    -7.33377e-05        -0.585777       -0.807682     -0.000438944       0.0001728       0.00406577      -0.0092667
281746                 0.0189218       -0.104628     -0.000312827     1.43818e-05       -0.0622398       -0.991891      7.46326e-05    -0.000133875
                    -0.000319308     0.000114553         0.010808      -0.0010197      1.74598e-05     -6.9895e-05        -0.586041       -0.807529
                      -0.0615124       -0.991812      0.000290969    -4.12768e-05         0.031601         0.10161     -0.000232498     0.000243043
                     9.66009e-05    -7.33163e-05           -0.586        -0.80752     -0.000438649     0.000173171       0.00404918     -0.00926961
281748                 0.0189094       -0.104626     -0.000312853     1.44288e-05       -0.0624819       -0.991876      7.45938e-05    -0.000133893
                    -0.000319295     0.000114619        0.0108051     -0.00100859      1.74896e-05    -6.96788e-05        -0.586263       -0.807367
                      -0.0617546       -0.991798      0.000291009    -4.12109e-05        0.0316381        0.101594     -0.000232447     0.000243136
                     9.65395e-05    -7.32947e-05        -0.586222       -0.807359     -0.000438352     0.000173543       0.00403258      -0.0092725
281750                 0.0188971       -0.104624     -0.000312878     1.44759e-05       -0.0627241       -0.991861       7.4555e-05    -0.000133911
                    -0.000319282     0.000114685        0.0108022    -0.000997475      1.75193e-05     -6.9462e-05        -0.586486       -0.807206
                      -0.0619967       -0.991783      0.000291048     -4.1145e-05        0.0316752        0.101578     -0.000232395     0.000243227
                     9.64781e-05    -7.32729e-05        -0.586445       -0.807197     -0.000438054     0.000173915       0.00401598     -0.00927539
281752                 0.0188848       -0.104622     -0.000312904     1.45231e-05       -0.0629662       -0.991846       7.4516e-05    -0.000133928
                     -0.00031927     0.000114751        0.0107994    -0.000986361       1.7547e-05    -6.92442e-05        -0.586708       -0.807044
                      -0.0622389       -0.991768      0.000291086     -4.1079e-05        0.0317123        0.101562     -0.000232342     0.000243313
                     9.64167e-05    -7.32507e-05        -0.586667       -0.807035     -0.000437754     0.000174289       0.00399938     -0.00927826
281754                 0.0188725        -0.10462      -0.00031293     1.45705e-05       -0.0632077       -0.991831      7.44755e-05    -0.000133936
                    -0.000319257     0.000114817        0.0107965    -0.000975246       1.7533e-05    -6.90399e-05         -0.58693       -0.806882
                       -0.062481       -0.991754      0.000291124    -4.10129e-05        0.0317495        0.101546     -0.000232272     0.000243362
                     9.63555e-05    -7.32275e-05        -0.586889       -0.806873      -0.00043749     0.000174679       0.00398278      -0.0092811
281756                 0.0188602       -0.104618     -0.000312955     1.46181e-05       -0.0634508       -0.991817      7.44377e-05    -0.000133976
                    -0.000319246     0.000114883        0.0107936     -0.00096413      1.76359e-05    -6.88194e-05        -0.587152        -0.80672
                      -0.0627232       -0.991739      0.000291162    -4.09467e-05        0.0317865        0.101531     -0.000232235     0.000243576
                     9.62949e-05    -7.32014e-05        -0.587112       -0.806712     -0.000437154     0.000175003       0.00396617     -0.00928397
281758                 0.0188478       -0.104616     -0.000312981     1.46658e-05       -0.0636929       -0.991802      7.43992e-05     -0.00013399
                    -0.000319242     0.000114947        0.0107907    -0.000953014      1.76636e-05    -6.85973e-05        -0.587375       -0.806559
                      -0.0629653       -0.991724      0.000291199    -4.08804e-05        0.0318236        0.101515     -0.000232189     0.000243639
                     9.62391e-05     -7.3147e-05        -0.587334        -0.80655     -0.000436845     0.000175378       0.00394957      -0.0092868
281760                 0.0188356       -0.104614     -0.000313006     1.47135e-05        -0.063935       -0.991787      7.43604e-05    -0.000134007
                     -0.00031921     0.000115017        0.0107878    -0.000941896      1.76966e-05    -6.83781e-05        -0.587597       -0.806397
                      -0.0632074       -0.991709      0.000291236    -4.08139e-05        0.0318607        0.101499     -0.000232138     0.000243726
                     9.61637e-05    -7.31937e-05        -0.587556       -0.806388     -0.000436537     0.000175748       0.00393296     -0.00928961
281762                 0.0188232       -0.104612     -0.000313031     1.47601e-05       -0.0641771       -0.991772      7.43214e-05    -0.000134025
                    -0.000319201     0.000115082         0.010785    -0.000930778      1.77315e-05     -6.8159e-05        -0.587819       -0.806235
                      -0.0634495       -0.991694      0.000291273    -4.07459e-05        0.0318978        0.101483     -0.000232086     0.000243818
