! TOUCHSTONE file generated by CST MICROWAVE STUDIO
! Date and time: Tue Oct 14 17:38:00 2025
! Project name: Teste_Macro_Metasurface_Nanopilar.cst
! Parameters = {H=600; L_x=80; L_y=80; Lambda=1064; Max_L=200; Min_L=70; PathPara=1; Phi=0; Step_L=10; Theta=0; p=520; phaseX=180; phaseY=0}
! Header version: 2018
! Port assignment regex: !\s*Touchstone port\s*([0-9]+)\s*=\s*(CST MWS port|CST DS port)\s*([0-9]+|Zmin|Zmax)\s*\(\"(.*)\"\)(\s*mode\s*([0-9]+))?.*
! Touchstone port assignment:
! Touchstone port 1 = CST MWS port Zmax ("") mode 1
! Touchstone port 2 = CST MWS port Zmax ("") mode 2
! Touchstone port 3 = CST MWS port Zmin ("") mode 1
! Touchstone port 4 = CST MWS port Zmin ("") mode 2
! S-Parameters are not renormalized. Each port impedance will be approximated by the real part at minimum frequency. The values are described via the [Reference] keyword.
! Default impedance is overridden by [Reference]
[Version] 2.0
# GHz S RI R 376.73
[Number of Ports] 4
[Reference]
376.73 376.73 259.814 259.814 
[Number of Frequencies] 51
[Network Data]
281700                 0.0437232       -0.122695     -0.000131002     8.22462e-05         0.105898       -0.985455      0.000197644     8.66385e-05
                    -0.000210745     0.000224527        0.0440648       -0.122392      0.000278522    -8.08556e-07         0.106178       -0.985364
                        0.106025       -0.985759      0.000285904    -7.52268e-05        0.0165689        0.129228     -4.85561e-05    -0.000223756
                     0.000322735       0.0001134         0.106254        -0.98545     -0.000167141    -0.000104184         0.016906        0.129022
281702                 0.0437112       -0.122696     -0.000130966     8.22993e-05         0.105663       -0.985481      0.000197633     8.65353e-05
                    -0.000210549     0.000224606        0.0440529       -0.122393      0.000278514    -8.92094e-07         0.105943       -0.985389
                         0.10579       -0.985784      0.000285839    -7.53292e-05        0.0166186        0.129218     -4.83551e-05    -0.000223485
                     0.000322618     0.000113362         0.106018       -0.985475     -0.000167058    -0.000103993        0.0169557        0.129013
281704                 0.0436991       -0.122697      -0.00013093     8.23524e-05         0.105428       -0.985506      0.000197623     8.64322e-05
                    -0.000210354     0.000224685        0.0440409       -0.122394      0.000278507    -9.75634e-07         0.105708       -0.985415
                        0.105554        -0.98581      0.000285775    -7.54316e-05        0.0166682        0.129209     -4.81534e-05    -0.000223213
                     0.000322501     0.000113325         0.105783       -0.985501     -0.000166975    -0.000103803        0.0170053        0.129003
281706                 0.0436871       -0.122698     -0.000130894     8.24053e-05         0.105192       -0.985532      0.000197613     8.63289e-05
                    -0.000210158     0.000224764         0.044029       -0.122395      0.000278499    -1.05918e-06         0.105473        -0.98544
                        0.105319       -0.985836      0.000285712    -7.55339e-05        0.0167179        0.129199     -4.79512e-05    -0.000222942
                     0.000322384     0.000113287         0.105548       -0.985527     -0.000166892    -0.000103613        0.0170549        0.128993
281708                  0.043675       -0.122699     -0.000130858     8.24583e-05         0.104957       -0.985557      0.000197602     8.62256e-05
                    -0.000209963     0.000224843         0.044017       -0.122396      0.000278492    -1.14273e-06         0.105237       -0.985466
                        0.105084       -0.985861      0.000285648    -7.56364e-05        0.0167675         0.12919     -4.77483e-05    -0.000222671
                     0.000322268      0.00011325         0.105313       -0.985552     -0.000166808    -0.000103424        0.0171045        0.128984
281710                  0.043663         -0.1227     -0.000130823     8.25111e-05         0.104722       -0.985583      0.000197591     8.61222e-05
                    -0.000209767     0.000224921         0.044005       -0.122397      0.000278484    -1.22628e-06         0.105002       -0.985491
                        0.104849       -0.985887      0.000285584    -7.57388e-05        0.0168172         0.12918     -4.75449e-05    -0.000222401
                     0.000322151     0.000113213         0.105078       -0.985578     -0.000166724    -0.000103234        0.0171541        0.128974
281712                  0.043651       -0.122701     -0.000130788     8.25639e-05         0.104487       -0.985608      0.000197579     8.60187e-05
                    -0.000209571        0.000225        0.0439931       -0.122398      0.000278476    -1.30986e-06         0.104767       -0.985517
                        0.104613       -0.985912       0.00028552    -7.58412e-05        0.0168668        0.129171     -4.73409e-05    -0.000222131
                     0.000322034     0.000113176         0.104843       -0.985603      -0.00016664    -0.000103045        0.0172038        0.128965
281714                 0.0436389       -0.122702     -0.000130752     8.26166e-05         0.104251       -0.985633      0.000197568     8.59152e-05
                    -0.000209376     0.000225078        0.0439811       -0.122399      0.000278469    -1.39346e-06         0.104532       -0.985542
                        0.104378       -0.985938      0.000285456    -7.59436e-05        0.0169165        0.129161     -4.71363e-05    -0.000221861
                     0.000321917      0.00011314         0.104608       -0.985628     -0.000166556    -0.000102856        0.0172534        0.128955
281716                 0.0436269       -0.122703     -0.000130717     8.26692e-05         0.104016       -0.985658      0.000197556     8.58116e-05
                     -0.00020918     0.000225156        0.0439691         -0.1224      0.000278461    -1.47708e-06         0.104297       -0.985567
                        0.104143       -0.985963      0.000285393    -7.60461e-05        0.0169661        0.129152     -4.69311e-05    -0.000221591
                     0.000321801     0.000113103         0.104372       -0.985654     -0.000166471    -0.000102668         0.017303        0.128945
281718                 0.0436148       -0.122705     -0.000130683     8.27218e-05         0.103781       -0.985684      0.000197544     8.57079e-05
                    -0.000208984     0.000225234        0.0439572       -0.122401      0.000278453    -1.56075e-06         0.104062       -0.985592
                        0.103908       -0.985988      0.000285329    -7.61485e-05        0.0170158        0.129142     -4.67253e-05    -0.000221321
                     0.000321684     0.000113066         0.104137       -0.985679     -0.000166387    -0.000102479        0.0173526        0.128936
281720                 0.0436028       -0.122706     -0.000130648     8.27743e-05         0.103546       -0.985709      0.000197532     8.56042e-05
                    -0.000208788     0.000225311        0.0439452       -0.122403      0.000278446    -1.64447e-06         0.103826       -0.985618
                        0.103672       -0.986013      0.000285265     -7.6251e-05        0.0170654        0.129132      -4.6519e-05    -0.000221052
                     0.000321567      0.00011303         0.103902       -0.985704     -0.000166302    -0.000102291        0.0174021        0.128926
281722                 0.0435907       -0.122707     -0.000130613     8.28268e-05         0.103311       -0.985734      0.000197519     8.55003e-05
                    -0.000208592     0.000225389        0.0439332       -0.122404      0.000278438    -1.72827e-06         0.103591       -0.985643
                        0.103437       -0.986038      0.000285202    -7.63535e-05         0.017115        0.129123      -4.6312e-05    -0.000220783
                      0.00032145     0.000112994         0.103667       -0.985729     -0.000166216    -0.000102103        0.0174517        0.128916
281724                 0.0435787       -0.122708     -0.000130579     8.28791e-05         0.103075       -0.985759      0.000197507     8.53964e-05
                    -0.000208396     0.000225466        0.0439213       -0.122405       0.00027843    -1.81216e-06         0.103356       -0.985668
                        0.103202       -0.986064      0.000285138    -7.64559e-05        0.0171646        0.129113     -4.61045e-05    -0.000220514
                     0.000321333     0.000112957         0.103432       -0.985754     -0.000166131    -0.000101916        0.0175013        0.128906
281726                 0.0435666       -0.122709     -0.000130544     8.29314e-05          0.10284       -0.985784      0.000197494     8.52924e-05
                    -0.000208201     0.000225543        0.0439093       -0.122406      0.000278422    -1.89616e-06         0.103121       -0.985693
                        0.102966       -0.986089      0.000285075    -7.65584e-05        0.0172142        0.129103     -4.58964e-05    -0.000220245
                     0.000321216     0.000112921         0.103196       -0.985779     -0.000166045    -0.000101728        0.0175509        0.128897
281728                 0.0435546        -0.12271      -0.00013051     8.29836e-05         0.102605       -0.985809      0.000197481     8.51883e-05
                    -0.000208005     0.000225619        0.0438974       -0.122407      0.000278414    -1.98029e-06         0.102885       -0.985718
                        0.102731       -0.986114      0.000285012    -7.66608e-05        0.0172638        0.129094     -4.56876e-05    -0.000219977
                     0.000321099     0.000112885         0.102961       -0.985804     -0.000165959    -0.000101541        0.0176004        0.128887
281730                 0.0435425       -0.122711     -0.000130476     8.30357e-05         0.102369       -0.985833      0.000197467     8.50842e-05
                    -0.000207808     0.000225696        0.0438854       -0.122408      0.000278406    -2.06455e-06          0.10265       -0.985742
                        0.102496       -0.986139      0.000284948    -7.67633e-05        0.0173134        0.129084     -4.54784e-05    -0.000219708
                     0.000320982      0.00011285         0.102726       -0.985829     -0.000165873    -0.000101354          0.01765        0.128877
281732                 0.0435305       -0.122712     -0.000130442     8.30878e-05         0.102134       -0.985858      0.000197454     8.49799e-05
                    -0.000207612     0.000225772        0.0438734       -0.122409      0.000278398    -2.14893e-06         0.102415       -0.985767
                         0.10226       -0.986163      0.000284885    -7.68658e-05         0.017363        0.129074     -4.52685e-05     -0.00021944
                     0.000320865     0.000112814         0.102491       -0.985854     -0.000165787    -0.000101168        0.0176996        0.128867
281734                 0.0435185       -0.122713     -0.000130409     8.31397e-05         0.101899       -0.985883       0.00019744     8.48755e-05
                    -0.000207416     0.000225849        0.0438615        -0.12241      0.000278389    -2.23336e-06          0.10218       -0.985792
                        0.102025       -0.986188      0.000284822    -7.69682e-05        0.0174126        0.129064      -4.5058e-05    -0.000219172
                     0.000320748     0.000112778         0.102255       -0.985879       -0.0001657    -0.000100981        0.0177491        0.128857
281736                 0.0435064       -0.122714     -0.000130375     8.31916e-05         0.101664       -0.985908      0.000197426     8.47711e-05
                     -0.00020722     0.000225925        0.0438495       -0.122411       0.00027838    -2.31773e-06         0.101944       -0.985817
                         0.10179       -0.986213      0.000284759    -7.70707e-05        0.0174622        0.129055      -4.4847e-05    -0.000218904
                     0.000320631     0.000112743          0.10202       -0.985904     -0.000165614    -0.000100795        0.0177987        0.128847
281738                 0.0434944       -0.122715     -0.000130342     8.32434e-05         0.101428       -0.985932      0.000197412     8.46665e-05
                    -0.000207024        0.000226        0.0438375       -0.122412      0.000278371    -2.40192e-06         0.101709       -0.985841
                        0.101554       -0.986238      0.000284696    -7.71731e-05        0.0175118        0.129045     -4.46353e-05    -0.000218636
                     0.000320514     0.000112707         0.101785       -0.985928     -0.000165527    -0.000100609        0.0178482        0.128838
281740                 0.0434823       -0.122716     -0.000130308     8.32952e-05         0.101193       -0.985957      0.000197397     8.45619e-05
                    -0.000206828     0.000226076        0.0438256       -0.122413      0.000278361    -2.48581e-06         0.101474       -0.985866
                        0.101319       -0.986262      0.000284633    -7.72756e-05        0.0175614        0.129035     -4.44231e-05    -0.000218369
                     0.000320397     0.000112672          0.10155       -0.985953     -0.000165439    -0.000100424        0.0178978        0.128828
281742                 0.0434703       -0.122717     -0.000130275     8.33468e-05         0.100958       -0.985981      0.000197382     8.44571e-05
                    -0.000206631     0.000226151        0.0438136       -0.122414      0.000278351    -2.56937e-06         0.101239        -0.98589
                        0.101084       -0.986287       0.00028457     -7.7378e-05         0.017611        0.129025     -4.42103e-05    -0.000218101
                      0.00032028     0.000112637         0.101314       -0.985978     -0.000165352    -0.000100238        0.0179473        0.128818
281744                 0.0434582       -0.122718     -0.000130242     8.33983e-05         0.100722       -0.986006      0.000197367     8.43523e-05
                    -0.000206435     0.000226226        0.0438016       -0.122416      0.000278342    -2.65262e-06         0.101003       -0.985915
                        0.100848       -0.986312      0.000284507    -7.74804e-05        0.0176605        0.129015      -4.3997e-05    -0.000217834
                     0.000320163     0.000112602         0.101079       -0.986002     -0.000165264    -0.000100053        0.0179968        0.128808
281746                 0.0434462       -0.122719     -0.000130209     8.34498e-05         0.100487        -0.98603      0.000197352     8.42473e-05
                    -0.000206239     0.000226301        0.0437897       -0.122417      0.000278332    -2.73565e-06         0.100768       -0.985939
                        0.100613       -0.986336      0.000284444    -7.75828e-05        0.0177101        0.129005      -4.3783e-05    -0.000217566
                     0.000320046     0.000112567         0.100844       -0.986027     -0.000165176    -9.98683e-05        0.0180463        0.128798
281748                 0.0434341        -0.12272     -0.000130176     8.35012e-05         0.100252       -0.986055      0.000197337     8.41423e-05
                    -0.000206042     0.000226376        0.0437777       -0.122418      0.000278322    -2.81855e-06         0.100533       -0.985964
                        0.100378        -0.98636      0.000284381    -7.76852e-05        0.0177596        0.128995     -4.35685e-05    -0.000217299
                     0.000319929     0.000112533         0.100609       -0.986051     -0.000165087    -9.96837e-05        0.0180959        0.128788
281750                 0.0434221       -0.122721     -0.000130144     8.35525e-05         0.100016       -0.986079      0.000197321     8.40371e-05
                    -0.000205846     0.000226451        0.0437657       -0.122419      0.000278313     -2.9014e-06         0.100297       -0.985988
                        0.100142       -0.986385      0.000284318    -7.77876e-05        0.0178092        0.128985     -4.33534e-05    -0.000217032
                     0.000319812     0.000112498         0.100373       -0.986076     -0.000164998    -9.94995e-05        0.0181454        0.128778
281752                   0.04341       -0.122722     -0.000130111     8.36037e-05         0.099781       -0.986103      0.000197306     8.39318e-05
                    -0.000205649     0.000226525        0.0437538        -0.12242      0.000278304    -2.98425e-06         0.100062       -0.986012
                       0.0999068       -0.986409      0.000284255      -7.789e-05        0.0178587        0.128976     -4.31377e-05    -0.000216765
                     0.000319695     0.000112463         0.100138         -0.9861     -0.000164907    -9.93155e-05        0.0181949        0.128768
281754                  0.043398       -0.122723     -0.000130079     8.36548e-05        0.0995456       -0.986127       0.00019729     8.38264e-05
                    -0.000205453     0.000226599        0.0437418       -0.122421      0.000278295    -3.06713e-06        0.0998267       -0.986036
                       0.0996715       -0.986433      0.000284193    -7.79924e-05        0.0179083        0.128966     -4.29215e-05    -0.000216498
                     0.000319578     0.000112429        0.0999028       -0.986124     -0.000164815    -9.91316e-05        0.0182444        0.128758
281756                 0.0433859       -0.122724     -0.000130047     8.37058e-05        0.0993103       -0.986151      0.000197273     8.37209e-05
                    -0.000205256     0.000226673        0.0437298       -0.122422      0.000278286    -3.15005e-06        0.0995914        -0.98606
                       0.0994361       -0.986458       0.00028413    -7.80947e-05        0.0179578        0.128956     -4.27047e-05    -0.000216231
                     0.000319461     0.000112395        0.0996675       -0.986148     -0.000164719    -9.89451e-05        0.0182939        0.128748
281758                 0.0433739       -0.122725     -0.000130014     8.37567e-05        0.0990748       -0.986176      0.000197257     8.36153e-05
                     -0.00020506     0.000226747        0.0437179       -0.122423      0.000278277    -3.23302e-06        0.0993561       -0.986084
                       0.0992007       -0.986482      0.000284067    -7.81971e-05        0.0180073        0.128946     -4.24873e-05    -0.000215964
                     0.000319343     0.000112361        0.0994322       -0.986172     -0.000164623    -9.87434e-05        0.0183434        0.128738
281760                 0.0433619       -0.122726     -0.000129982     8.38076e-05        0.0988397       -0.986199       0.00019724     8.35096e-05
                    -0.000204863      0.00022682        0.0437059       -0.122424      0.000278267    -3.31604e-06        0.0991207       -0.986108
                       0.0989652       -0.986506      0.000284005    -7.82994e-05        0.0180569        0.128936     -4.22693e-05    -0.000215697
                     0.000319226     0.000112327        0.0991968       -0.986197     -0.000164554    -9.85502e-05        0.0183928        0.128728
281762                 0.0433498       -0.122727     -0.000129951     8.38583e-05        0.0986042       -0.986223      0.000197224     8.34037e-05
                    -0.000204666     0.000226894        0.0436939       -0.122425      0.000278258    -3.39911e-06        0.0988854       -0.986132
                       0.0987298        -0.98653      0.000283942    -7.84017e-05        0.0181064        0.128926     -4.20508e-05     -0.00021543
