! TOUCHSTONE file generated by CST MICROWAVE STUDIO
! Date and time: Tue Oct 14 17:37:58 2025
! Project name: Teste_Macro_Metasurface_Nanopilar.cst
! Parameters = {H=600; L_x=70; L_y=180; Lambda=1064; Max_L=200; Min_L=70; PathPara=1; Phi=0; Step_L=10; Theta=0; p=520; phaseX=180; phaseY=0}
! Header version: 2018
! Port assignment regex: !\s*Touchstone port\s*([0-9]+)\s*=\s*(CST MWS port|CST DS port)\s*([0-9]+|Zmin|Zmax)\s*\(\"(.*)\"\)(\s*mode\s*([0-9]+))?.*
! Touchstone port assignment:
! Touchstone port 1 = CST MWS port Zmax ("") mode 1
! Touchstone port 2 = CST MWS port Zmax ("") mode 2
! Touchstone port 3 = CST MWS port Zmin ("") mode 1
! Touchstone port 4 = CST MWS port Zmin ("") mode 2
! S-Parameters are not renormalized. Each port impedance will be approximated by the real part at minimum frequency. The values are described via the [Reference] keyword.
! Default impedance is overridden by [Reference]
[Version] 2.0
# GHz S RI R 376.73
[Number of Ports] 4
[Reference]
376.73 376.73 259.814 259.814 
[Number of Frequencies] 51
[Network Data]
281700                -0.0428579        0.132001      -3.7929e-05     0.000206953         0.898294        0.399183     -0.000104138     3.68951e-05
                    -9.66353e-05     0.000168947       0.00545873      -0.0966467     -9.38354e-06     6.46208e-05        -0.132961       -0.985914
                        0.898867        0.399755      7.34433e-05    -2.00041e-05        -0.068491        0.122148      0.000197387    -2.80303e-05
                    -3.25022e-05     9.14293e-05        -0.133102       -0.985786       0.00029609    -5.14581e-05        0.0307849        0.091945
281702                -0.0428359        0.132036     -3.78145e-05     0.000207026         0.898437        0.398854     -0.000104138     3.68529e-05
                    -9.65626e-05     0.000168984        0.0054463      -0.0966432     -9.23924e-06     6.47244e-05        -0.133203       -0.985882
                        0.899009        0.399426      7.33577e-05    -2.00343e-05       -0.0684433        0.122205        0.0001974     -2.8005e-05
                    -3.25857e-05     9.14363e-05        -0.133344       -0.985754      0.000295939    -5.16367e-05         0.030817       0.0919299
281704                -0.0428139        0.132072     -3.77002e-05       0.0002071         0.898579        0.398525     -0.000104138     3.68107e-05
                    -9.64898e-05     0.000169022       0.00543387      -0.0966396     -9.09485e-06     6.48277e-05        -0.133445       -0.985849
                         0.89915        0.399097      7.32723e-05    -2.00645e-05       -0.0683956        0.122262      0.000197414    -2.79799e-05
                    -3.26692e-05     9.14432e-05        -0.133585       -0.985721      0.000295788    -5.18149e-05        0.0308491       0.0919147
281706                -0.0427918        0.132108     -3.75861e-05     0.000207173         0.898721        0.398195     -0.000104137     3.67686e-05
                     -9.6417e-05     0.000169059       0.00542144      -0.0966361     -8.95039e-06     6.49308e-05        -0.133686       -0.985817
                        0.899292        0.398768      7.31872e-05    -2.00946e-05       -0.0683478         0.12232      0.000197427    -2.79549e-05
                    -3.27526e-05     9.14501e-05        -0.133827       -0.985689      0.000295637    -5.19928e-05        0.0308812       0.0918995
281708                -0.0427697        0.132144     -3.74721e-05     0.000207246         0.898863        0.397866     -0.000104138     3.67266e-05
                    -9.63441e-05     0.000169097       0.00540902      -0.0966326     -8.80585e-06     6.50336e-05        -0.133928       -0.985785
                        0.899434        0.398439      7.31023e-05    -2.01248e-05       -0.0682999        0.122377       0.00019744      -2.793e-05
                     -3.2836e-05     9.14568e-05        -0.134069       -0.985656      0.000295485    -5.21704e-05        0.0309133       0.0918844
281710                -0.0427477         0.13218     -3.73584e-05     0.000207319         0.899005        0.397537     -0.000104138     3.66848e-05
                    -9.62711e-05     0.000169135       0.00539659      -0.0966291     -8.66123e-06     6.51361e-05         -0.13417       -0.985752
                        0.899575         0.39811      7.30176e-05    -2.01549e-05        -0.068252        0.122434      0.000197453    -2.79051e-05
                    -3.29193e-05     9.14635e-05         -0.13431       -0.985624      0.000295334    -5.23476e-05        0.0309453       0.0918692
281712                -0.0427256        0.132216     -3.72448e-05     0.000207392         0.899146        0.397207     -0.000104139     3.66432e-05
                    -9.61981e-05     0.000169172       0.00538416      -0.0966255     -8.51653e-06     6.52384e-05        -0.134411        -0.98572
                        0.899717        0.397781      7.29331e-05    -2.01851e-05       -0.0682041        0.122492      0.000197466    -2.78803e-05
                    -3.30026e-05     9.14701e-05        -0.134552       -0.985591      0.000295182    -5.25246e-05        0.0309774       0.0918539
281714                -0.0427035        0.132251     -3.71314e-05     0.000207465         0.899288        0.396878      -0.00010414     3.66019e-05
                    -9.61251e-05      0.00016921       0.00537173       -0.096622     -8.37175e-06     6.53404e-05        -0.134653       -0.985688
                        0.899858        0.397452      7.28489e-05    -2.02152e-05       -0.0681561        0.122549       0.00019748    -2.78556e-05
                    -3.30858e-05     9.14767e-05        -0.134793       -0.985558       0.00029503    -5.27012e-05        0.0310095       0.0918387
281716                -0.0426815        0.132287     -3.70182e-05     0.000207537         0.899429        0.396548     -0.000104142     3.65612e-05
                     -9.6052e-05     0.000169248        0.0053593      -0.0966185     -8.22688e-06     6.54421e-05        -0.134894       -0.985655
                        0.899999        0.397122       7.2765e-05    -2.02453e-05       -0.0681081        0.122606      0.000197493    -2.78309e-05
                    -3.31689e-05     9.14831e-05        -0.135035       -0.985525      0.000294878    -5.28776e-05        0.0310415       0.0918235
281718                -0.0426594        0.132323     -3.69051e-05     0.000207609         0.899571        0.396219     -0.000104145     3.65214e-05
                    -9.59789e-05     0.000169285       0.00534688       -0.096615     -8.08193e-06     6.55435e-05        -0.135136       -0.985622
                         0.90014        0.396793      7.26812e-05    -2.02754e-05         -0.06806        0.122663      0.000197506    -2.78063e-05
                    -3.32519e-05     9.14895e-05        -0.135276       -0.985492      0.000294726    -5.30537e-05        0.0310735       0.0918082
281720                -0.0426373        0.132359     -3.67923e-05     0.000207681         0.899712        0.395889     -0.000104148     3.64831e-05
                    -9.59057e-05     0.000169323       0.00533445      -0.0966114      -7.9369e-06     6.56446e-05        -0.135377        -0.98559
                        0.900281        0.396464      7.25978e-05    -2.03055e-05       -0.0680119         0.12272      0.000197519    -2.77817e-05
                    -3.33349e-05     9.14958e-05        -0.135518       -0.985459      0.000294574    -5.32294e-05        0.0311056        0.091793
281722                -0.0426152        0.132395     -3.66796e-05     0.000207753         0.899853        0.395559     -0.000104152     3.64473e-05
                    -9.58325e-05     0.000169361       0.00532202      -0.0966079     -7.79179e-06     6.57454e-05        -0.135619       -0.985557
                        0.900422        0.396134      7.25145e-05    -2.03355e-05       -0.0679637        0.122778      0.000197532    -2.77572e-05
                    -3.34178e-05     9.15021e-05         -0.13576       -0.985426      0.000294422     -5.3405e-05        0.0311376       0.0917777
281724                -0.0425931         0.13243     -3.65671e-05     0.000207825         0.899994         0.39523     -0.000104155     3.64149e-05
                    -9.57592e-05     0.000169399        0.0053096      -0.0966044     -7.64659e-06     6.58458e-05         -0.13586       -0.985524
                        0.900562        0.395805      7.24316e-05    -2.03656e-05       -0.0679155        0.122835      0.000197545    -2.77328e-05
                    -3.35007e-05     9.15082e-05        -0.136001       -0.985393       0.00029427    -5.35802e-05        0.0311696       0.0917624
281726                 -0.042571        0.132466     -3.64548e-05     0.000207896         0.900135          0.3949     -0.000104155     3.63868e-05
                    -9.56859e-05     0.000169436       0.00529717      -0.0966008     -7.50131e-06      6.5946e-05        -0.136102       -0.985491
                        0.900703        0.395476      7.23488e-05    -2.03956e-05       -0.0678673        0.122892      0.000197559    -2.77084e-05
                    -3.35834e-05     9.15143e-05        -0.136243        -0.98536      0.000294118    -5.37551e-05        0.0312016       0.0917472
281728                -0.0425489        0.132502     -3.63427e-05     0.000207968         0.900276         0.39457     -0.000104148      3.6361e-05
                    -9.56126e-05     0.000169474       0.00528474      -0.0965973     -7.35594e-06     6.60458e-05        -0.136344       -0.985458
                        0.900843        0.395146      7.22663e-05    -2.04256e-05        -0.067819        0.122949      0.000197572     -2.7684e-05
                    -3.36661e-05     9.15203e-05        -0.136484       -0.985327      0.000293966    -5.39295e-05        0.0312336       0.0917319
281730                -0.0425268        0.132538     -3.62308e-05     0.000208039         0.900416         0.39424     -0.000104132     3.63318e-05
                    -9.55392e-05     0.000169512       0.00527232      -0.0965937     -7.21049e-06     6.61453e-05        -0.136585       -0.985425
                        0.900984        0.394817      7.21841e-05    -2.04556e-05       -0.0677706        0.123006      0.000197585    -2.76597e-05
                    -3.37488e-05     9.15262e-05        -0.136726       -0.985294      0.000293815    -5.41033e-05        0.0312656       0.0917165
281732                -0.0425047        0.132574      -3.6119e-05      0.00020811         0.900557         0.39391     -0.000104113      3.6294e-05
                    -9.54657e-05      0.00016955       0.00525989      -0.0965902     -7.06496e-06     6.62445e-05        -0.136827       -0.985392
                        0.901124        0.394487      7.21022e-05    -2.04856e-05       -0.0677222        0.123063      0.000197598    -2.76354e-05
                    -3.38313e-05     9.15321e-05        -0.136967        -0.98526      0.000293663     -5.4276e-05        0.0312976       0.0917012
281734                -0.0424825        0.132609     -3.60074e-05      0.00020818         0.900697         0.39358     -0.000104096     3.62485e-05
                    -9.53922e-05     0.000169588       0.00524747      -0.0965867     -6.91933e-06     6.63434e-05        -0.137068       -0.985359
                        0.901264        0.394157      7.20205e-05    -2.05155e-05       -0.0676738        0.123121      0.000197611    -2.76111e-05
                    -3.39138e-05     9.15379e-05        -0.137209       -0.985227      0.000293512    -5.44472e-05        0.0313296       0.0916859
281736                -0.0424604        0.132645     -3.58961e-05     0.000208251         0.900837         0.39325     -0.000104084     3.61996e-05
                    -9.53187e-05     0.000169626       0.00523505      -0.0965831     -6.77362e-06     6.64419e-05         -0.13731       -0.985326
                        0.901404        0.393828       7.1939e-05    -2.05454e-05       -0.0676253        0.123178      0.000197624    -2.75869e-05
                    -3.39962e-05     9.15435e-05         -0.13745       -0.985194      0.000293359    -5.46171e-05        0.0313615       0.0916705
281738                -0.0424383        0.132681     -3.57848e-05     0.000208321         0.900977         0.39292     -0.000104077     3.61503e-05
                    -9.52451e-05     0.000169664       0.00522262      -0.0965796     -6.62783e-06       6.654e-05        -0.137551       -0.985293
                        0.901543        0.393498      7.18578e-05    -2.05753e-05       -0.0675768        0.123235      0.000197638    -2.75627e-05
                    -3.40785e-05     9.15492e-05        -0.137692        -0.98516      0.000293204    -5.47868e-05        0.0313935       0.0916552
281740                -0.0424162        0.132717     -3.56738e-05     0.000208391         0.901117         0.39259     -0.000104072      3.6102e-05
                    -9.51715e-05     0.000169702        0.0052102       -0.096576     -6.48194e-06     6.66378e-05        -0.137793       -0.985259
                        0.901683        0.393168      7.17769e-05    -2.06051e-05       -0.0675282        0.123292      0.000197651    -2.75385e-05
                    -3.41607e-05     9.15547e-05        -0.137933       -0.985127      0.000293048    -5.49572e-05        0.0314255       0.0916398
281742                 -0.042394        0.132752      -3.5563e-05     0.000208461         0.901257         0.39226     -0.000104068     3.60548e-05
                    -9.50978e-05      0.00016974       0.00519778      -0.0965725     -6.33596e-06     6.67353e-05        -0.138034       -0.985226
                        0.901823        0.392838      7.16963e-05    -2.06349e-05       -0.0674796        0.123349      0.000197664    -2.75144e-05
                    -3.42428e-05     9.15602e-05        -0.138175       -0.985093      0.000292892    -5.51283e-05        0.0314574       0.0916245
281744                -0.0423719        0.132788     -3.54523e-05     0.000208531         0.901397         0.39193     -0.000104066     3.60088e-05
                    -9.50241e-05     0.000169778       0.00518535      -0.0965689     -6.18988e-06     6.68325e-05        -0.138275       -0.985193
                        0.901962        0.392508      7.16159e-05    -2.06647e-05       -0.0674309        0.123406      0.000197677    -2.74902e-05
                    -3.43249e-05     9.15655e-05        -0.138416       -0.985059      0.000292736    -5.52997e-05        0.0314894       0.0916091
281746                -0.0423497        0.132824     -3.53419e-05       0.0002086         0.901537          0.3916     -0.000104063     3.59636e-05
                    -9.49503e-05     0.000169816       0.00517293      -0.0965654     -6.04369e-06     6.69294e-05        -0.138517       -0.985159
                        0.902101        0.392179      7.15358e-05    -2.06945e-05       -0.0673822        0.123463       0.00019769    -2.74661e-05
                    -3.44069e-05     9.15708e-05        -0.138657       -0.985026       0.00029258     -5.5471e-05        0.0315213       0.0915937
281748                -0.0423276         0.13286     -3.52316e-05     0.000208669         0.901676        0.391269     -0.000104061      3.5919e-05
                    -9.48765e-05     0.000169854       0.00516051      -0.0965618     -5.89735e-06      6.7026e-05        -0.138758       -0.985126
                         0.90224        0.391849      7.14559e-05    -2.07242e-05       -0.0673335         0.12352      0.000197704     -2.7442e-05
                    -3.44887e-05      9.1576e-05        -0.138899       -0.984992      0.000292425    -5.56422e-05        0.0315532       0.0915783
281750                -0.0423054        0.132895     -3.51215e-05     0.000208738         0.901815        0.390939      -0.00010406      3.5875e-05
                    -9.48027e-05     0.000169892       0.00514809      -0.0965583     -5.75077e-06     6.71225e-05           -0.139       -0.985092
                        0.902379        0.391519      7.13764e-05    -2.07538e-05       -0.0672846        0.123577      0.000197717     -2.7418e-05
                    -3.45705e-05     9.15812e-05         -0.13914       -0.984958      0.000292269    -5.58131e-05        0.0315851       0.0915628
281752                -0.0422832        0.132931     -3.50115e-05     0.000208807         0.901955        0.390609     -0.000104058     3.58314e-05
                    -9.47288e-05      0.00016993       0.00513567      -0.0965547     -5.60362e-06      6.7219e-05        -0.139241       -0.985059
                        0.902518        0.391189      7.12971e-05    -2.07834e-05       -0.0672358        0.123634       0.00019773    -2.73939e-05
                    -3.46522e-05     9.15862e-05        -0.139382       -0.984924      0.000292114    -5.59837e-05         0.031617       0.0915474
281754                -0.0422611        0.132967     -3.49018e-05     0.000208875         0.902094        0.390278     -0.000104056     3.57882e-05
                    -9.46548e-05     0.000169969       0.00512325      -0.0965512     -5.45476e-06     6.73153e-05        -0.139483       -0.985025
                        0.902657        0.390858       7.1218e-05     -2.0813e-05       -0.0671869        0.123691      0.000197743    -2.73699e-05
                    -3.47338e-05     9.15912e-05        -0.139623        -0.98489      0.000291958     -5.6154e-05         0.031649        0.091532
281756                -0.0422389        0.133003     -3.47922e-05     0.000208943         0.902233        0.389948     -0.000104054     3.57452e-05
                    -9.45809e-05     0.000170007       0.00511083      -0.0965476     -5.30367e-06     6.74076e-05        -0.139724       -0.984991
                        0.902796        0.390528      7.11393e-05    -2.08425e-05        -0.067138        0.123748      0.000197757    -2.73458e-05
                    -3.48153e-05     9.15961e-05        -0.139865       -0.984856      0.000291802     -5.6324e-05        0.0316808       0.0915165
281758                -0.0422167        0.133038     -3.46828e-05     0.000209011         0.902372        0.389617     -0.000104052     3.57025e-05
                    -9.45069e-05     0.000170045       0.00509841      -0.0965441     -5.15804e-06     6.74967e-05        -0.139966       -0.984957
                        0.902934        0.390198      7.10608e-05     -2.0872e-05        -0.067089        0.123805       0.00019777    -2.73218e-05
                    -3.48967e-05      9.1601e-05        -0.140106       -0.984822      0.000291646    -5.64937e-05        0.0317127        0.091501
281760                -0.0421945        0.133074     -3.45736e-05     0.000209079          0.90251        0.389287     -0.000104049     3.56599e-05
                    -9.44328e-05     0.000170084       0.00508599      -0.0965405     -5.01382e-06     6.75895e-05        -0.140207       -0.984923
                        0.903073        0.389868      7.09827e-05    -2.09014e-05       -0.0670399        0.123862      0.000197783    -2.72978e-05
                    -3.49779e-05     9.16057e-05        -0.140347       -0.984788       0.00029149    -5.66631e-05        0.0317446       0.0914856
281762                -0.0421723         0.13311     -3.44646e-05     0.000209147         0.902649        0.388956     -0.000104047     3.56175e-05
                    -9.43587e-05     0.000170122       0.00507357      -0.0965369     -4.86825e-06      6.7683e-05        -0.140448       -0.984889
                        0.903211        0.389538      7.09048e-05    -2.09308e-05       -0.0669909        0.123919      0.000197796    -2.72738e-05
