! TOUCHSTONE file generated by CST MICROWAVE STUDIO
! Date and time: Tue Oct 14 17:39:26 2025
! Project name: Teste_Macro_Metasurface_Nanopilar.cst
! Parameters = {H=600; L_x=200; L_y=80; Lambda=1064; Max_L=200; Min_L=70; PathPara=1; Phi=0; Step_L=10; Theta=0; p=520; phaseX=180; phaseY=0}
! Header version: 2018
! Port assignment regex: !\s*Touchstone port\s*([0-9]+)\s*=\s*(CST MWS port|CST DS port)\s*([0-9]+|Zmin|Zmax)\s*\(\"(.*)\"\)(\s*mode\s*([0-9]+))?.*
! Touchstone port assignment:
! Touchstone port 1 = CST MWS port Zmax ("") mode 1
! Touchstone port 2 = CST MWS port Zmax ("") mode 2
! Touchstone port 3 = CST MWS port Zmin ("") mode 1
! Touchstone port 4 = CST MWS port Zmin ("") mode 2
! S-Parameters are not renormalized. Each port impedance will be approximated by the real part at minimum frequency. The values are described via the [Reference] keyword.
! Default impedance is overridden by [Reference]
[Version] 2.0
# GHz S RI R 376.73
[Number of Ports] 4
[Reference]
376.73 376.73 259.814 259.814 
[Number of Frequencies] 51
[Network Data]
281700                -0.0403583     -0.00489159      0.000284865    -1.88553e-05         -0.57258       -0.816567     -0.000405145     0.000334481
                     0.000292572     -2.7998e-05          0.38202        0.503285     -0.000474114    -5.65816e-06         0.384192       -0.660307
                       -0.572583       -0.816946     -0.000382984    -9.42895e-05       -0.0091015       0.0402297      0.000436726    -0.000256132
                     -0.00044617     0.000288813         0.383888       -0.660134      0.000384661    -0.000374482         0.624264       0.0674964
281702                -0.0403647      -0.0048775      0.000285042    -1.88789e-05        -0.572799       -0.816416     -0.000405006     0.000334819
                     0.000292608    -2.80272e-05         0.382209        0.503317     -0.000473842    -5.64685e-06          0.38382       -0.660387
                       -0.572802       -0.816792     -0.000383149    -9.41553e-05      -0.00909535       0.0402359      0.000436534    -0.000256552
                    -0.000446219     0.000288955         0.383516       -0.660214      0.000384101    -0.000374288         0.624452       0.0670444
281704                -0.0403712     -0.00486341      0.000285219    -1.89031e-05        -0.573017       -0.816264     -0.000404867     0.000335157
                     0.000292644    -2.80566e-05         0.382398         0.50335     -0.000473572    -5.63541e-06         0.383448       -0.660466
                       -0.573021       -0.816639     -0.000383313    -9.40209e-05      -0.00908919       0.0402422      0.000436341    -0.000256971
                    -0.000446266     0.000289098         0.383144       -0.660293      0.000383544    -0.000374096         0.624641       0.0665921
281706                -0.0403777     -0.00484931      0.000285396    -1.89277e-05        -0.573235       -0.816112     -0.000404728     0.000335495
                     0.000292679     -2.8086e-05         0.382587        0.503382     -0.000473304    -5.62385e-06         0.383076       -0.660545
                        -0.57324       -0.816485     -0.000383477    -9.38864e-05      -0.00908303       0.0402484      0.000436148    -0.000257391
                    -0.000446314      0.00028924         0.382772       -0.660373      0.000382992    -0.000373906         0.624829       0.0661395
281708                -0.0403841     -0.00483522      0.000285573    -1.89529e-05        -0.573454        -0.81596     -0.000404588     0.000335833
                     0.000292714    -2.81155e-05         0.382777        0.503414     -0.000473038    -5.61216e-06         0.382704       -0.660624
                       -0.573459       -0.816331     -0.000383641    -9.37515e-05      -0.00907687       0.0402546      0.000435954     -0.00025781
                     -0.00044636     0.000289382           0.3824       -0.660452      0.000382442    -0.000373718         0.625016       0.0656867
281710                -0.0403906     -0.00482112      0.000285749    -1.89785e-05        -0.573672       -0.815808     -0.000404449     0.000336171
                     0.000292749    -2.81451e-05         0.382966        0.503446     -0.000472775    -5.60034e-06         0.382332       -0.660702
                       -0.573678       -0.816177     -0.000383805    -9.36165e-05       -0.0090707       0.0402608      0.000435761    -0.000258229
                    -0.000446406     0.000289523         0.382028        -0.66053      0.000381896    -0.000373533         0.625204       0.0652336
281712                -0.0403971     -0.00480703      0.000285925    -1.90046e-05         -0.57389       -0.815657     -0.000404309     0.000336509
                     0.000292783    -2.81748e-05         0.383155        0.503478     -0.000472514    -5.58838e-06          0.38196       -0.660781
                       -0.573897       -0.816024     -0.000383968    -9.34811e-05      -0.00906452       0.0402671      0.000435567    -0.000258649
                    -0.000446452     0.000289664         0.381656       -0.660609      0.000381353    -0.000373349         0.625391       0.0647802
281714                -0.0404035     -0.00479293      0.000286101    -1.90312e-05        -0.574108       -0.815505     -0.000404169     0.000336846
                     0.000292816    -2.82045e-05         0.383345         0.50351     -0.000472255    -5.57627e-06         0.381588       -0.660859
                       -0.574116        -0.81587     -0.000384131    -9.33454e-05      -0.00905834       0.0402733      0.000435372    -0.000259068
                    -0.000446496     0.000289805         0.381283       -0.660687      0.000380814    -0.000373167         0.625578       0.0643265
281716                  -0.04041     -0.00477883      0.000286277    -1.90582e-05        -0.574326       -0.815352     -0.000404029     0.000337184
                      0.00029285    -2.82344e-05         0.383534        0.503542     -0.000471998    -5.56403e-06         0.381216       -0.660937
                       -0.574334       -0.815716     -0.000384294    -9.32094e-05      -0.00905216       0.0402795      0.000435178    -0.000259487
                    -0.000446541     0.000289946         0.380911       -0.660765      0.000380278    -0.000372988         0.625764       0.0638725
281718                -0.0404164     -0.00476473      0.000286453    -1.90857e-05        -0.574544         -0.8152     -0.000403889     0.000337521
                     0.000292882    -2.82643e-05         0.383724        0.503574     -0.000471744    -5.55163e-06         0.380844       -0.661014
                       -0.574553       -0.815561     -0.000384457    -9.30731e-05      -0.00904597       0.0402858      0.000434983    -0.000259905
                    -0.000446585     0.000290086         0.380538       -0.660843      0.000379745     -0.00037281          0.62595       0.0634183
281720                -0.0404229     -0.00475063      0.000286629    -1.91136e-05        -0.574762       -0.815048     -0.000403749     0.000337858
                     0.000292915    -2.82943e-05         0.383913        0.503606     -0.000471492    -5.53908e-06         0.380471       -0.661092
                       -0.574772       -0.815407     -0.000384619    -9.29365e-05      -0.00903978        0.040292      0.000434788    -0.000260324
                    -0.000446628     0.000290225         0.380166        -0.66092      0.000379215    -0.000372635         0.626136       0.0629638
281722                -0.0404293     -0.00473653      0.000286805     -1.9142e-05        -0.574979       -0.814896     -0.000403608     0.000338195
                     0.000292947    -2.83243e-05         0.384103        0.503638     -0.000471241    -5.52638e-06         0.380099       -0.661169
                       -0.574991       -0.815253     -0.000384781    -9.27995e-05      -0.00903359       0.0402983      0.000434592    -0.000260743
                    -0.000446671     0.000290365         0.379793       -0.660997      0.000378689    -0.000372462         0.626322        0.062509
281724                -0.0404358     -0.00472242      0.000286981    -1.91708e-05        -0.575197       -0.814744     -0.000403468     0.000338532
                     0.000292979    -2.83544e-05         0.384293        0.503669     -0.000470993    -5.51351e-06         0.379726       -0.661246
                       -0.575209       -0.815099     -0.000384943    -9.26622e-05      -0.00902739       0.0403045      0.000434396    -0.000261161
                    -0.000446713     0.000290504          0.37942       -0.661075      0.000378166     -0.00037229         0.626507        0.062054
281726                -0.0404422     -0.00470832      0.000287157       -1.92e-05        -0.575415       -0.814591     -0.000403327     0.000338869
                      0.00029301    -2.83846e-05         0.384483        0.503701     -0.000470747    -5.50048e-06         0.379354       -0.661322
                       -0.575428       -0.814945     -0.000385105    -9.25246e-05      -0.00902118       0.0403107        0.0004342     -0.00026158
                    -0.000446755     0.000290643         0.379048       -0.661151      0.000377646    -0.000372121         0.626692       0.0615986
281728                -0.0404487     -0.00469422      0.000287333    -1.92296e-05        -0.575633       -0.814439     -0.000403186     0.000339206
                     0.000293041    -2.84149e-05         0.384673        0.503732     -0.000470504    -5.48729e-06         0.378981       -0.661399
                       -0.575647        -0.81479     -0.000385267    -9.23866e-05      -0.00901497        0.040317      0.000434004    -0.000261998
                    -0.000446796     0.000290781         0.378675       -0.661228      0.000377129    -0.000371953         0.626877        0.061143
281730                -0.0404551     -0.00468011      0.000287509    -1.92596e-05         -0.57585       -0.814286     -0.000403045     0.000339543
                     0.000293072    -2.84452e-05         0.384863        0.503764     -0.000470262    -5.47392e-06         0.378609       -0.661475
                       -0.575865       -0.814636     -0.000385429    -9.22483e-05      -0.00900876       0.0403233      0.000433807    -0.000262416
                    -0.000446837     0.000290919         0.378302       -0.661304      0.000376615    -0.000371788         0.627061       0.0606871
281732                -0.0404616       -0.004666      0.000287685      -1.929e-05        -0.576068       -0.814134     -0.000402903      0.00033988
                     0.000293102    -2.84756e-05         0.385053        0.503795     -0.000470022    -5.46038e-06         0.378236       -0.661551
                       -0.576084       -0.814481      -0.00038559    -9.21096e-05      -0.00900254       0.0403295       0.00043361    -0.000262834
                    -0.000446877     0.000291057         0.377929        -0.66138      0.000376105    -0.000371624         0.627245        0.060231
281734                 -0.040468     -0.00465189      0.000287862    -1.93208e-05        -0.576285       -0.813981     -0.000402762     0.000340216
                     0.000293132     -2.8506e-05         0.385243        0.503827     -0.000469785    -5.44666e-06         0.377863       -0.661627
                       -0.576302       -0.814327     -0.000385752    -9.19707e-05      -0.00899632       0.0403358      0.000433412    -0.000263252
                    -0.000446917     0.000291195         0.377556       -0.661456      0.000375598    -0.000371463         0.627429       0.0597745
281736                -0.0404745     -0.00463778      0.000288038    -1.93519e-05        -0.576503       -0.813828      -0.00040262     0.000340553
                     0.000293162    -2.85365e-05         0.385433        0.503858     -0.000469549    -5.43276e-06          0.37749       -0.661702
                       -0.576521       -0.814172     -0.000385913    -9.18314e-05      -0.00899009        0.040342      0.000433215     -0.00026367
                    -0.000446957     0.000291332         0.377183       -0.661532      0.000375093    -0.000371303         0.627613       0.0593178
281738                -0.0404809     -0.00462367      0.000288214    -1.93834e-05         -0.57672       -0.813676     -0.000402478     0.000340889
                     0.000293191    -2.85671e-05         0.385624        0.503889     -0.000469316    -5.41868e-06         0.377117       -0.661777
                       -0.576739       -0.814018     -0.000386074    -9.16918e-05      -0.00898386       0.0403483      0.000433017    -0.000264087
                    -0.000446996     0.000291469          0.37681       -0.661607      0.000374592    -0.000371146         0.627796       0.0588608
281740                -0.0404873     -0.00460956      0.000288391    -1.94153e-05        -0.576938       -0.813523     -0.000402336     0.000341225
                      0.00029322    -2.85977e-05         0.385814        0.503921     -0.000469084    -5.40441e-06         0.376744       -0.661852
                       -0.576958       -0.813863     -0.000386236    -9.15519e-05      -0.00897762       0.0403546      0.000432818    -0.000264505
                    -0.000447035     0.000291606         0.376437       -0.661682      0.000374094     -0.00037099         0.627979       0.0584036
281742                -0.0404938     -0.00459545      0.000288567    -1.94475e-05        -0.577155        -0.81337     -0.000402194     0.000341561
                     0.000293249    -2.86284e-05         0.386005        0.503952     -0.000468855    -5.38995e-06         0.376371       -0.661927
                       -0.577176       -0.813708     -0.000386397    -9.14117e-05      -0.00897138       0.0403608       0.00043262    -0.000264922
                    -0.000447073     0.000291742         0.376064       -0.661757      0.000373599    -0.000370836         0.628161        0.057946
281744                -0.0405002     -0.00458134      0.000288744    -1.94801e-05        -0.577373       -0.813217     -0.000402051     0.000341897
                     0.000293277    -2.86591e-05         0.386195        0.503983     -0.000468627    -5.37529e-06         0.375998       -0.662001
                       -0.577394       -0.813553     -0.000386558    -9.12711e-05      -0.00896514       0.0403671      0.000432421     -0.00026534
                    -0.000447111     0.000291878          0.37569       -0.661831      0.000373106    -0.000370685         0.628344       0.0574882
281746                -0.0405066     -0.00456722      0.000288921     -1.9513e-05         -0.57759       -0.813064     -0.000401909     0.000342233
                     0.000293306    -2.86899e-05         0.386386        0.504014     -0.000468402    -5.36044e-06         0.375625       -0.662075
                       -0.577612       -0.813398     -0.000386719    -9.11303e-05      -0.00895889       0.0403734      0.000432222    -0.000265757
                    -0.000447148     0.000292014         0.375317       -0.661906      0.000372617    -0.000370535         0.628526       0.0570301
281748                -0.0405131     -0.00455311      0.000289098    -1.95462e-05        -0.577807       -0.812911     -0.000401766     0.000342569
                     0.000293333    -2.87207e-05         0.386577        0.504045     -0.000468178    -5.34539e-06         0.375252       -0.662149
                       -0.577831       -0.813243      -0.00038688    -9.09892e-05      -0.00895264       0.0403797      0.000432022    -0.000266174
                    -0.000447185      0.00029215         0.374943        -0.66198      0.000372131    -0.000370387         0.628707       0.0565718
281750                -0.0405195     -0.00453899      0.000289275    -1.95797e-05        -0.578024       -0.812758     -0.000401623     0.000342905
                     0.000293361    -2.87516e-05         0.386768        0.504076     -0.000467957    -5.33013e-06         0.374879       -0.662223
                       -0.578049       -0.813088     -0.000387041    -9.08478e-05      -0.00894638       0.0403859      0.000431822    -0.000266591
                    -0.000447222     0.000292285          0.37457       -0.662054      0.000371648     -0.00037024         0.628889       0.0561131
281752                -0.0405259     -0.00452487      0.000289453    -1.96136e-05        -0.578241       -0.812605      -0.00040148      0.00034324
                     0.000293388    -2.87825e-05         0.386959        0.504107     -0.000467737    -5.31467e-06         0.374505       -0.662297
                       -0.578267       -0.812933     -0.000387203    -9.07061e-05      -0.00894011       0.0403922      0.000431622    -0.000267008
                    -0.000447258      0.00029242         0.374196       -0.662127      0.000371167    -0.000370096          0.62907       0.0556542
281754                -0.0405323     -0.00451075       0.00028963    -1.96478e-05        -0.578458       -0.812452     -0.000401336     0.000343576
                     0.000293415    -2.88135e-05          0.38715        0.504137     -0.000467519      -5.299e-06         0.374132        -0.66237
                       -0.578485       -0.812778     -0.000387364    -9.05641e-05      -0.00893385       0.0403985      0.000431422    -0.000267425
                    -0.000447294     0.000292555         0.373823       -0.662201       0.00037069    -0.000369954         0.629251        0.055195
281756                -0.0405388     -0.00449664      0.000289808    -1.96823e-05        -0.578675       -0.812298     -0.000401193     0.000343911
                     0.000293441    -2.88445e-05         0.387341        0.504168     -0.000467303    -5.28311e-06         0.373758       -0.662443
                       -0.578703       -0.812623     -0.000387525    -9.04219e-05      -0.00892758       0.0404048      0.000431221    -0.000267841
                    -0.000447329      0.00029269         0.373449       -0.662274      0.000370215    -0.000369813         0.629431       0.0547355
281758                -0.0405452     -0.00448251      0.000289986    -1.97171e-05        -0.578892       -0.812145     -0.000401049     0.000344247
                     0.000293468    -2.88756e-05         0.387532        0.504199      -0.00046709      -5.267e-06         0.373385       -0.662516
                       -0.578921       -0.812468     -0.000387686    -9.02793e-05       -0.0089213       0.0404111       0.00043102    -0.000268258
                    -0.000447364     0.000292824         0.373075       -0.662347      0.000369743    -0.000369675         0.629611       0.0542758
281760                -0.0405516     -0.00446839      0.000290164    -1.97521e-05        -0.579109       -0.811991     -0.000400906     0.000344582
                     0.000293494    -2.89067e-05         0.387724        0.504229     -0.000466878    -5.25067e-06         0.373011       -0.662588
                       -0.579139       -0.812312     -0.000387846    -9.01365e-05      -0.00891502       0.0404174      0.000430819    -0.000268674
                    -0.000447399     0.000292958         0.372702       -0.662419      0.000369274    -0.000369538         0.629791       0.0538158
281762                 -0.040558     -0.00445427      0.000290342    -1.97875e-05        -0.579326       -0.811838     -0.000400762     0.000344916
                      0.00029352    -2.89379e-05         0.387915         0.50426     -0.000466667     -5.2341e-06         0.372638        -0.66266
                       -0.579357       -0.812157     -0.000388007    -8.99934e-05      -0.00890874       0.0404237      0.000430617     -0.00026909
