! TOUCHSTONE file generated by CST MICROWAVE STUDIO
! Date and time: Tue Oct 14 17:39:28 2025
! Project name: Teste_Macro_Metasurface_Nanopilar.cst
! Parameters = {H=600; L_x=200; L_y=130; Lambda=1064; Max_L=200; Min_L=70; PathPara=1; Phi=0; Step_L=10; Theta=0; p=520; phaseX=180; phaseY=0}
! Header version: 2018
! Port assignment regex: !\s*Touchstone port\s*([0-9]+)\s*=\s*(CST MWS port|CST DS port)\s*([0-9]+|Zmin|Zmax)\s*\(\"(.*)\"\)(\s*mode\s*([0-9]+))?.*
! Touchstone port assignment:
! Touchstone port 1 = CST MWS port Zmax ("") mode 1
! Touchstone port 2 = CST MWS port Zmax ("") mode 2
! Touchstone port 3 = CST MWS port Zmin ("") mode 1
! Touchstone port 4 = CST MWS port Zmin ("") mode 2
! S-Parameters are not renormalized. Each port impedance will be approximated by the real part at minimum frequency. The values are described via the [Reference] keyword.
! Default impedance is overridden by [Reference]
[Version] 2.0
# GHz S RI R 376.73
[Number of Ports] 4
[Reference]
376.73 376.73 259.814 259.814 
[Number of Frequencies] 51
[Network Data]
281700                  0.196067        0.359001      0.000306978     0.000509694         0.634778       -0.634493     -0.000638366     0.000170375
                     0.000202334     0.000511247         0.190294       0.0405313     -0.000326985    -0.000254633         0.380548       -0.899732
                        0.634968       -0.634084     -0.000305638    -0.000222783         0.360572        0.168365      0.000673842    -0.000273618
                    -0.000539156     0.000104209         0.380555       -0.899746      0.000589328     -0.00024798         0.159793        0.104318
281702                  0.196249        0.359226      0.000300809     0.000511909         0.634283       -0.634771     -0.000639638     0.000170134
                     0.000202936      0.00051143          0.19031       0.0405491     -0.000327278    -0.000255073         0.380278       -0.899843
                        0.634476       -0.634359     -0.000306786    -0.000223771         0.361017        0.168048      0.000674692    -0.000274672
                    -0.000540088       0.0001049         0.380284       -0.899856      0.000590238    -0.000247545          0.15988        0.104223
281704                  0.196432        0.359451      0.000302386     0.000511163         0.633787       -0.635049     -0.000641077     0.000169799
                      0.00020363     0.000511646         0.190326        0.040567     -0.000327283    -0.000255631         0.380007       -0.899954
                        0.633982       -0.634634     -0.000307876    -0.000224705         0.361464        0.167731      0.000675587    -0.000275725
                    -0.000541089     0.000105586         0.380013       -0.899966       0.00059259    -0.000246618         0.159967        0.104127
281706                  0.196615        0.359677      0.000303142     0.000511134          0.63329       -0.635326     -0.000642783     0.000169374
                     0.000204425     0.000511925         0.190343       0.0405848     -0.000326419    -0.000256206         0.379737       -0.900065
                        0.633487       -0.634908     -0.000308914    -0.000225583          0.36191        0.167412      0.000676541    -0.000276776
                    -0.000542166     0.000106252         0.379743       -0.900075       0.00059839    -0.000247629         0.160054        0.104031
281708                  0.196798        0.359903      0.000303731     0.000511215         0.632793       -0.635603     -0.000644916     0.000168917
                     0.000205319     0.000512308         0.190359       0.0406026     -0.000323522    -0.000254225         0.379467       -0.900175
                        0.632992       -0.635183     -0.000309904    -0.000226402         0.362357        0.167092      0.000677575    -0.000277831
                    -0.000543325     0.000106876         0.379471       -0.900185      0.000601435    -0.000255967         0.160141        0.103935
281710                  0.196982         0.36013       0.00030426     0.000511332         0.632295       -0.635879     -0.000647699     0.000168635
                     0.000206293     0.000512843         0.190376       0.0406204     -0.000327821    -0.000249423         0.379197       -0.900286
                        0.632495       -0.635458      -0.00031085    -0.000227163         0.362804        0.166772      0.000678719    -0.000278895
                    -0.000544564     0.000107432           0.3792       -0.900294      0.000597392    -0.000260817         0.160227        0.103839
281712                  0.197167        0.360356       0.00030476     0.000511465         0.631796       -0.636156     -0.000651286      0.00016907
                     0.000207299     0.000513574         0.190392       0.0406382     -0.000331041    -0.000251261         0.378926       -0.900396
                        0.631998       -0.635732     -0.000311758    -0.000227864         0.363252         0.16645      0.000680021    -0.000279988
                     -0.00054587     0.000107891         0.378929       -0.900404      0.000594613    -0.000261825         0.160314        0.103743
281714                  0.197352        0.360583      0.000305245     0.000511605         0.631297       -0.636432     -0.000655221     0.000171126
                     0.000208265     0.000514528         0.190409        0.040656     -0.000332092    -0.000252536         0.378656       -0.900506
                        0.631499       -0.636007      -0.00031263    -0.000228505           0.3637        0.166128      0.000681553    -0.000281152
                    -0.000547221     0.000108227         0.378658       -0.900513       0.00059327     -0.00026223         0.160401        0.103646
281716                  0.197537        0.360811      0.000305721     0.000511749         0.630796       -0.636707     -0.000657905     0.000175051
                     0.000209102      0.00051569         0.190425       0.0406739     -0.000332774    -0.000253292         0.378385       -0.900616
                           0.631       -0.636281      -0.00031347    -0.000229086         0.364148        0.165805      0.000683428    -0.000282487
                    -0.000548579     0.000108421         0.378387       -0.900623      0.000592595    -0.000262668         0.160487         0.10355
281718                  0.197723        0.361038      0.000306192     0.000511895         0.630295       -0.636983     -0.000658153     0.000179165
                     0.000209735     0.000517001         0.190441       0.0406917     -0.000333379    -0.000253811         0.378115       -0.900726
                        0.630499       -0.636556     -0.000314282    -0.000229607         0.364596         0.16548      0.000685796    -0.000284248
                    -0.000549899      0.00010847         0.378116       -0.900732      0.000592239     -0.00026321         0.160574        0.103454
281720                   0.19791        0.361266      0.000306659     0.000512042         0.629794       -0.637258     -0.000656966      0.00018179
                     0.000210126     0.000518373         0.190458       0.0407095     -0.000333966    -0.000254209         0.377844       -0.900835
                        0.629998        -0.63683      -0.00031507    -0.000230067         0.365045        0.165155      0.000688722    -0.000287056
                    -0.000551137     0.000108389         0.377844       -0.900842       0.00059205     -0.00026384          0.16066        0.103357
281722                  0.198097        0.361494      0.000307125     0.000512188         0.629291       -0.637532     -0.000655754     0.000182972
                     0.000210287     0.000519712         0.190474       0.0407273     -0.000334551    -0.000254539         0.377573       -0.900945
                        0.629496       -0.637104     -0.000315835    -0.000230469         0.365494        0.164828      0.000691451    -0.000292124
                    -0.000552258     0.000108212         0.377573       -0.900951      0.000591956    -0.000264537         0.160746        0.103261
281724                  0.198285        0.361723      0.000307589     0.000512333         0.628788       -0.637807     -0.000655028     0.000183376
                     0.000210264     0.000520953         0.190491        0.040745     -0.000335139    -0.000254827         0.377303       -0.901054
                        0.628992       -0.637379     -0.000316582    -0.000230811         0.365943        0.164501      0.000690843    -0.000299519
                    -0.000553243     0.000107979         0.377302        -0.90106      0.000591919    -0.000265283         0.160833        0.103164
281726                  0.198474        0.361952      0.000308052     0.000512476         0.628284       -0.638081     -0.000654779     0.000183458
                     0.000210118      0.00052206         0.190507       0.0407628     -0.000335729    -0.000255087         0.377032       -0.901164
                        0.628488       -0.637653     -0.000317312    -0.000231095         0.366393        0.164173      0.000685505    -0.000304075
                    -0.000554093     0.000107735         0.377031        -0.90117      0.000591919    -0.000266068         0.160919        0.103067
281728                  0.198663        0.362181      0.000308515     0.000512618         0.627779       -0.638355     -0.000654888     0.000183435
                     0.000209907     0.000523029         0.190524       0.0407806     -0.000336324    -0.000255328         0.376761       -0.901273
                        0.627984       -0.637927     -0.000318027     -0.00023132         0.366843        0.163844      0.000681058    -0.000303808
                     -0.00055482     0.000107515         0.376759       -0.901279      0.000591944    -0.000266882         0.161005        0.102971
281730                  0.198852        0.362411      0.000308978     0.000512757         0.627274       -0.638628     -0.000655246     0.000183397
                     0.000209675     0.000523875          0.19054       0.0407984     -0.000336921    -0.000255555          0.37649       -0.901382
                        0.627478         -0.6382     -0.000318731    -0.000231489         0.367293        0.163513      0.000679439     -0.00030246
                    -0.000555449     0.000107344         0.376488       -0.901388      0.000591984    -0.000267719         0.161091        0.102874
281732                  0.199043        0.362642      0.000309442     0.000512894         0.626768       -0.638901     -0.000655779     0.000183379
                      0.00020945     0.000524618         0.190557       0.0408162     -0.000337522     -0.00025577         0.376219       -0.901491
                        0.626971       -0.638474     -0.000319424    -0.000231601         0.367744        0.163182      0.000679323    -0.000301658
                    -0.000556005     0.000107235         0.376217       -0.901497      0.000592036    -0.000268575         0.161177        0.102777
281734                  0.199233        0.362873      0.000309907     0.000513027         0.626261       -0.639174     -0.000656435     0.000183391
                     0.000209249     0.000525281         0.190573       0.0408339     -0.000338126    -0.000255977         0.375948       -0.901599
                        0.626463       -0.638747     -0.000320108    -0.000231657         0.368195         0.16285        0.0006798     -0.00030148
                     -0.00055651     0.000107193         0.375945       -0.901606      0.000592096    -0.000269446         0.161263         0.10268
281736                  0.199425        0.363105      0.000310373     0.000513157         0.625753       -0.639447     -0.000657183     0.000183436
                     0.000209078     0.000525884         0.190589       0.0408517     -0.000338732    -0.000256178         0.375677       -0.901708
                        0.625955        -0.63902     -0.000320784    -0.000231658         0.368646        0.162517      0.000680495    -0.000301752
                    -0.000556985     0.000107214         0.375674       -0.901715       0.00059216     -0.00027033         0.161349        0.102583
281738                  0.199616        0.363339      0.000310841     0.000513282         0.625244       -0.639719     -0.000658001      0.00018351
                     0.000208941     0.000526443         0.190606       0.0408695     -0.000339341    -0.000256372         0.375406       -0.901817
                        0.625446       -0.639293     -0.000321454    -0.000231603         0.369098        0.162182      0.000681268    -0.000302329
                    -0.000557445     0.000107294         0.375402       -0.901824      0.000592228    -0.000271226         0.161435        0.102486
281740                  0.199805        0.363574       0.00031131     0.000513403         0.624735       -0.639992     -0.000658875      0.00018361
                     0.000208837     0.000526972         0.190622       0.0408872     -0.000339952    -0.000256561         0.375135       -0.901925
                        0.624936       -0.639566     -0.000322117    -0.000231492          0.36955        0.161847      0.000682064    -0.000303121
                    -0.000557901     0.000107423         0.375131       -0.901932      0.000592297    -0.000272132         0.161521        0.102388
281742                  0.199993        0.363808      0.000311781     0.000513518         0.624225       -0.640264     -0.000659797     0.000183734
                     0.000208763     0.000527482         0.190639        0.040905     -0.000340564    -0.000256746         0.374864       -0.902034
                        0.624425       -0.639839     -0.000322775    -0.000231327         0.370002        0.161511       0.00068286    -0.000304074
                     -0.00055836     0.000107594         0.374859       -0.902041      0.000592366    -0.000273047         0.161606        0.102291
281744                   0.20018        0.364038      0.000312255     0.000513627         0.623715       -0.640536     -0.000660761     0.000183878
                     0.000208716     0.000527981         0.190655       0.0409227     -0.000341179    -0.000256927         0.374593       -0.902142
                        0.623913       -0.640111     -0.000323426    -0.000231105         0.370455        0.161174       0.00068365    -0.000305155
                    -0.000558828     0.000107797         0.374588       -0.902149      0.000592435     -0.00027397         0.161692        0.102194
281746                   0.20037        0.364267      0.000312731     0.000513728         0.623205       -0.640807     -0.000661764      0.00018404
                     0.000208692     0.000528475         0.190672       0.0409405     -0.000341795    -0.000257104         0.374322        -0.90225
                        0.623401       -0.640383     -0.000324071    -0.000230826         0.370908        0.160836      0.000684431    -0.000306347
                    -0.000559307     0.000108025         0.374317       -0.902258      0.000592502    -0.000274901         0.161777        0.102096
281748                  0.200562        0.364496      0.000313212     0.000513821         0.622693       -0.641076     -0.000662809     0.000184218
                     0.000208687     0.000528972         0.190688       0.0409582     -0.000342411    -0.000257278          0.37405       -0.902358
                        0.622888       -0.640655     -0.000324709    -0.000230489         0.371361        0.160496      0.000685202    -0.000307645
                      -0.0005598      0.00010827         0.374045       -0.902366      0.000592567    -0.000275839         0.161863        0.101999
281750                  0.200756        0.364726      0.000313696     0.000513904          0.62218       -0.641346     -0.000663897     0.000184412
                     0.000208699     0.000529476         0.190705       0.0409759     -0.000343029    -0.000257447         0.373779       -0.902467
                        0.622374       -0.640927     -0.000325335    -0.000230092         0.371815        0.160156      0.000685961    -0.000309054
                    -0.000560305     0.000108522         0.373774       -0.902474      0.000592629    -0.000276784         0.161948        0.101901
281752                  0.200951        0.364957      0.000314186     0.000513975         0.621666       -0.641616     -0.000665034     0.000184621
                     0.000208722     0.000529995         0.190722       0.0409936     -0.000343647    -0.000257613         0.373508       -0.902575
                         0.62186       -0.641198     -0.000325949    -0.000229633         0.372269        0.159815      0.000686705    -0.000310589
                    -0.000560824     0.000108775         0.373502       -0.902583      0.000592687    -0.000277738         0.162034        0.101804
281754                  0.201147        0.365189      0.000314683     0.000514033         0.621151       -0.641885     -0.000666231     0.000184847
                     0.000208753     0.000530534         0.190738       0.0410112     -0.000344265    -0.000257775         0.373236       -0.902683
                        0.621345       -0.641469     -0.000326543    -0.000229107         0.372723        0.159472      0.000687423     -0.00031228
                    -0.000561355     0.000109017         0.373231        -0.90269       0.00059274    -0.000278699         0.162119        0.101706
281756                  0.201343        0.365421      0.000315188     0.000514075         0.620636       -0.642154     -0.000667506     0.000185095
                     0.000208786     0.000531104         0.190755       0.0410287     -0.000344881    -0.000257933         0.372965       -0.902791
                         0.62083        -0.64174     -0.000327111    -0.000228512         0.373177        0.159128      0.000688094    -0.000314176
                    -0.000561897     0.000109236         0.372959       -0.902798      0.000592788    -0.000279668         0.162204        0.101608
281758                  0.201539        0.365654      0.000315704     0.000514097         0.620119       -0.642423     -0.000668886     0.000185375
                     0.000208813     0.000531718         0.190771        0.041046     -0.000345496    -0.000258086         0.372694       -0.902899
                        0.620316        -0.64201      -0.00032764    -0.000227843         0.373632        0.158784      0.000688665    -0.000316364
                    -0.000562446     0.000109414         0.372688       -0.902905      0.000592829    -0.000280648          0.16229         0.10151
281760                  0.201736        0.365888      0.000316235     0.000514095         0.619602       -0.642692     -0.000670418     0.000185711
                     0.000208823       0.0005324         0.190788       0.0410634     -0.000346108    -0.000258235         0.372422       -0.903008
                        0.619802       -0.642277     -0.000328115    -0.000227095         0.374086        0.158438      0.000689013     -0.00031898
                    -0.000562997     0.000109522         0.372417       -0.903012      0.000592863    -0.000281639         0.162375        0.101412
281762                  0.201934        0.366122      0.000316785     0.000514064         0.619084        -0.64296      -0.00067218     0.000186155
                     0.000208794     0.000533187         0.190804       0.0410809     -0.000346715    -0.000258378         0.372151       -0.903116
                        0.619285       -0.642539      -0.00032851    -0.000226266         0.374541        0.158092      0.000688816    -0.000322228
