! TOUCHSTONE file generated by CST MICROWAVE STUDIO
! Date and time: Tue Oct 14 17:39:22 2025
! Project name: Teste_Macro_Metasurface_Nanopilar.cst
! Parameters = {H=600; L_x=190; L_y=160; Lambda=1064; Max_L=200; Min_L=70; PathPara=1; Phi=0; Step_L=10; Theta=0; p=520; phaseX=180; phaseY=0}
! Header version: 2018
! Port assignment regex: !\s*Touchstone port\s*([0-9]+)\s*=\s*(CST MWS port|CST DS port)\s*([0-9]+|Zmin|Zmax)\s*\(\"(.*)\"\)(\s*mode\s*([0-9]+))?.*
! Touchstone port assignment:
! Touchstone port 1 = CST MWS port Zmax ("") mode 1
! Touchstone port 2 = CST MWS port Zmax ("") mode 2
! Touchstone port 3 = CST MWS port Zmin ("") mode 1
! Touchstone port 4 = CST MWS port Zmin ("") mode 2
! S-Parameters are not renormalized. Each port impedance will be approximated by the real part at minimum frequency. The values are described via the [Reference] keyword.
! Default impedance is overridden by [Reference]
[Version] 2.0
# GHz S RI R 376.73
[Number of Ports] 4
[Reference]
376.73 376.73 259.814 259.814 
[Number of Frequencies] 51
[Network Data]
281700                  0.103527      -0.0161891       0.00011239    -0.000499239         0.402434       -0.897513      0.000829026     0.000458888
                     0.000214163    -0.000501412         0.236567       0.0906271      0.000932548     4.25693e-05         0.202552       -0.942274
                         0.40271       -0.897245      0.000844099      3.3307e-05        0.0520011        0.100421     -7.13325e-05     0.000618008
                     0.000774628     0.000540555         0.202917        -0.94243     -0.000139459     0.000732904         0.250982       0.0128879
281702                  0.103389      -0.0162654      0.000112503    -0.000499328          0.40204       -0.897684      0.000829499     0.000458788
                     0.000214508    -0.000501665         0.236583       0.0906269      0.000933102     4.21206e-05         0.202279       -0.942329
                        0.402317       -0.897416      0.000844447      3.3073e-05        0.0519289        0.100355     -7.03375e-05     0.000618249
                     0.000775001     0.000540897         0.202645       -0.942485     -0.000139034     0.000733794         0.251004       0.0127501
281704                  0.103252      -0.0163419      0.000112616    -0.000499416         0.401646       -0.897856      0.000829973     0.000458689
                     0.000214854     -0.00050192         0.236598       0.0906266      0.000933655     4.16713e-05         0.202007       -0.942383
                        0.401924       -0.897587      0.000844794     3.28374e-05        0.0518564         0.10029     -6.93434e-05     0.000618491
                     0.000775376     0.000541242         0.202372        -0.94254     -0.000138604      0.00073468         0.251025       0.0126122
281706                  0.103114      -0.0164185      0.000112731    -0.000499505         0.401251       -0.898027      0.000830447     0.000458589
                     0.000215199    -0.000502175         0.236613       0.0906263      0.000934208     4.12211e-05         0.201734       -0.942438
                         0.40153       -0.897758      0.000845142     3.26001e-05        0.0517835        0.100224     -6.83502e-05     0.000618732
                     0.000775752     0.000541589           0.2021       -0.942594     -0.000138171      0.00073556         0.251047       0.0124743
281708                  0.102976      -0.0164952      0.000112848    -0.000499593         0.400856       -0.898198      0.000830921     0.000458488
                     0.000215545     -0.00050243         0.236628        0.090626      0.000934761     4.07702e-05         0.201462       -0.942492
                        0.401136       -0.897929       0.00084549     3.23611e-05        0.0517102        0.100159     -6.73579e-05     0.000618973
                     0.000776129     0.000541939         0.201828       -0.942649     -0.000137734     0.000736434         0.251068       0.0123364
281710                  0.102837       -0.016572      0.000112965    -0.000499682          0.40046       -0.898369      0.000831395     0.000458388
                     0.000215891    -0.000502687         0.236644       0.0906257      0.000935313     4.03185e-05         0.201189       -0.942546
                        0.400741       -0.898099      0.000845839     3.21205e-05        0.0516366        0.100094     -6.63666e-05     0.000619214
                     0.000776507     0.000542291         0.201555       -0.942704     -0.000137293     0.000737304         0.251089       0.0121984
281712                  0.102698      -0.0166489      0.000113084    -0.000499771         0.400064        -0.89854      0.000831869     0.000458287
                     0.000216237    -0.000502945         0.236659       0.0906255      0.000935864     3.98661e-05         0.200917         -0.9426
                        0.400346        -0.89827      0.000846187     3.18782e-05        0.0515625        0.100029     -6.53763e-05     0.000619455
                     0.000776887     0.000542646         0.201283       -0.942758     -0.000136849     0.000738169          0.25111       0.0120605
281714                  0.102559       -0.016726      0.000113205     -0.00049986         0.399668       -0.898711      0.000832344     0.000458185
                     0.000216584    -0.000503203         0.236674       0.0906252      0.000936416      3.9413e-05         0.200644       -0.942654
                        0.399951       -0.898441      0.000846537     3.16343e-05        0.0514881       0.0999637     -6.43871e-05     0.000619696
                     0.000777267     0.000543003          0.20101       -0.942813     -0.000136401     0.000739028         0.251131       0.0119225
281716                  0.102419      -0.0168031      0.000113327    -0.000499949         0.399271       -0.898881      0.000832818     0.000458084
                     0.000216931    -0.000503462          0.23669       0.0906249      0.000936967      3.8959e-05         0.200371       -0.942708
                        0.399555       -0.898611      0.000846886     3.13887e-05        0.0514133       0.0998987     -6.33988e-05     0.000619936
                     0.000777649     0.000543362         0.200738       -0.942867     -0.000135949     0.000739882         0.251152       0.0117845
281718                  0.102279      -0.0168804       0.00011345    -0.000500038         0.398874       -0.899052      0.000833293     0.000457982
                     0.000217277    -0.000503721         0.236705       0.0906246      0.000937517     3.85043e-05         0.200099       -0.942762
                        0.399158       -0.898782      0.000847236     3.11415e-05        0.0513381       0.0998338     -6.24117e-05     0.000620176
                     0.000778032     0.000543724         0.200466       -0.942921     -0.000135493     0.000740732         0.251173       0.0116465
281720                  0.102139      -0.0169578      0.000113574    -0.000500128         0.398476       -0.899223      0.000833768      0.00045788
                     0.000217625    -0.000503982          0.23672       0.0906243      0.000938067     3.80489e-05         0.199826       -0.942816
                        0.398762       -0.898952      0.000847585     3.08927e-05        0.0512625        0.099769     -6.14256e-05     0.000620416
                     0.000778417     0.000544089         0.200193       -0.942976     -0.000135034     0.000741576         0.251193       0.0115085
281722                  0.101998      -0.0170353        0.0001137    -0.000500217         0.398078       -0.899393      0.000834244     0.000457777
                     0.000217972    -0.000504243         0.236735        0.090624      0.000938617     3.75927e-05         0.199553        -0.94287
                        0.398364       -0.899122      0.000847936     3.06422e-05        0.0511865       0.0997042     -6.04406e-05     0.000620656
                     0.000778802     0.000544455         0.199921        -0.94303     -0.000134571     0.000742416         0.251214       0.0113705
281724                  0.101857      -0.0171129      0.000113827    -0.000500307          0.39768       -0.899564      0.000834719     0.000457675
                      0.00021832    -0.000504505         0.236751       0.0906237      0.000939167     3.71357e-05         0.199281       -0.942923
                        0.397967       -0.899292      0.000848286     3.03901e-05        0.0511101       0.0996396     -5.94568e-05     0.000620896
                     0.000779189     0.000544824         0.199648       -0.943084     -0.000134104     0.000743251         0.251235       0.0112324
281726                  0.101715      -0.0171906      0.000113956    -0.000500397         0.397281       -0.899734      0.000835195     0.000457572
                     0.000218668    -0.000504768         0.236766       0.0906233      0.000939716      3.6678e-05         0.199008       -0.942977
                        0.397569       -0.899463      0.000848637     3.01365e-05        0.0510334        0.099575     -5.84742e-05     0.000621136
                     0.000779577     0.000545196         0.199376       -0.943138     -0.000133634     0.000744081         0.251255       0.0110943
281728                  0.101573      -0.0172685      0.000114085    -0.000500487         0.396882       -0.899904       0.00083567     0.000457469
                     0.000219016    -0.000505031         0.236781        0.090623      0.000940265     3.62195e-05         0.198735        -0.94303
                        0.397171       -0.899633      0.000848988     2.98812e-05        0.0509562       0.0995105     -5.74928e-05     0.000621376
                     0.000779967      0.00054557         0.199103       -0.943192     -0.000133161     0.000744906         0.251276       0.0109562
281730                  0.101431      -0.0173465      0.000114217    -0.000500578         0.396482       -0.900074      0.000836146     0.000457365
                     0.000219364    -0.000505296         0.236796       0.0906227      0.000940814     3.57602e-05         0.198463       -0.943084
                        0.396772       -0.899803      0.000849339     2.96242e-05        0.0508787       0.0994461     -5.65125e-05     0.000621615
                     0.000780357     0.000545946          0.19883       -0.943245     -0.000132684     0.000745726         0.251296       0.0108181
281732                  0.101288      -0.0174245      0.000114349    -0.000500669         0.396082       -0.900245      0.000836623     0.000457261
                     0.000219713    -0.000505561         0.236812       0.0906224      0.000941362     3.53001e-05          0.19819       -0.943137
                        0.396373       -0.899972      0.000849691     2.93657e-05        0.0508008       0.0993818     -5.55336e-05     0.000621855
                     0.000780749     0.000546325         0.198558       -0.943299     -0.000132203     0.000746542         0.251316         0.01068
281734                  0.101145      -0.0175027      0.000114483     -0.00050076         0.395681       -0.900415      0.000837099     0.000457157
                     0.000220061    -0.000505827         0.236827       0.0906221      0.000941911     3.48393e-05         0.197917        -0.94319
                        0.395973       -0.900142      0.000850042     2.91056e-05        0.0507225       0.0993176     -5.45559e-05     0.000622095
                     0.000781142     0.000546706         0.198285       -0.943353     -0.000131719     0.000747353         0.251336       0.0105419
281736                  0.101002       -0.017581      0.000114618    -0.000500851          0.39528       -0.900585      0.000837575     0.000457053
                      0.00022041    -0.000506093         0.236842       0.0906217      0.000942458     3.43778e-05         0.197645       -0.943244
                        0.395573       -0.900312      0.000850395     2.88439e-05        0.0506437       0.0992534     -5.35795e-05     0.000622334
                     0.000781537     0.000547089         0.198013       -0.943406     -0.000131231      0.00074816         0.251356       0.0104037
281738                  0.100858      -0.0176595      0.000114754    -0.000500942         0.394879       -0.900754      0.000838052     0.000456948
                      0.00022076    -0.000506361         0.236857       0.0906214      0.000943006     3.39154e-05         0.197372       -0.943297
                        0.395172       -0.900482      0.000850747     2.85807e-05        0.0505646       0.0991893     -5.26044e-05     0.000622574
                     0.000781933     0.000547475          0.19774        -0.94346      -0.00013074     0.000748962         0.251376       0.0102656
281740                  0.100713       -0.017738      0.000114892    -0.000501034         0.394477       -0.900924      0.000838529     0.000456843
                     0.000221109    -0.000506629         0.236873       0.0906211      0.000943554     3.34523e-05         0.197099        -0.94335
                        0.394771       -0.900651      0.000851099     2.83158e-05        0.0504851       0.0991253     -5.16306e-05     0.000622813
                      0.00078233     0.000547864         0.197467       -0.943513     -0.000130246      0.00074976         0.251396       0.0101274
281742                  0.100569      -0.0178166      0.000115031    -0.000501126         0.394075       -0.901094      0.000839006     0.000456738
                     0.000221459    -0.000506898         0.236888       0.0906207      0.000944101     3.29884e-05         0.196826       -0.943403
                         0.39437       -0.900821      0.000851452     2.80494e-05        0.0504052       0.0990614     -5.06583e-05     0.000623053
                     0.000782729     0.000548254         0.197195       -0.943567     -0.000129748     0.000750553         0.251416      0.00998919
281744                  0.100424      -0.0178954      0.000115171    -0.000501219         0.393672       -0.901264      0.000839483     0.000456633
                     0.000221809    -0.000507168         0.236903       0.0906204      0.000944648     3.25237e-05         0.196554       -0.943455
                        0.393968        -0.90099      0.000851805     2.77814e-05        0.0503249       0.0989976     -4.96873e-05     0.000623293
                     0.000783129     0.000548647         0.196922        -0.94362     -0.000129247     0.000751342         0.251436      0.00985098
281746                  0.100278      -0.0179743      0.000115312    -0.000501312         0.393269       -0.901433       0.00083996     0.000456527
                      0.00022216    -0.000507439         0.236918         0.09062      0.000945195     3.20582e-05         0.196281       -0.943508
                        0.393566       -0.901159      0.000852159     2.75118e-05        0.0502442       0.0989339     -4.87178e-05     0.000623533
                      0.00078353     0.000549043          0.19665       -0.943673     -0.000128743     0.000752126         0.251456      0.00971275
281748                  0.100133      -0.0180533      0.000115455    -0.000501405         0.392866       -0.901603      0.000840438     0.000456421
                      0.00022251     -0.00050771         0.236934       0.0906197      0.000945742     3.15919e-05         0.196008       -0.943561
                        0.393164       -0.901329      0.000852512     2.72407e-05         0.050163       0.0988702     -4.77496e-05     0.000623772
                     0.000783933     0.000549441         0.196377       -0.943726     -0.000128235     0.000752906         0.251476       0.0095745
281750                 0.0999865      -0.0181324      0.000115599    -0.000501498         0.392462       -0.901772      0.000840916     0.000456315
                     0.000222861    -0.000507982         0.236949       0.0906193      0.000946288     3.11249e-05         0.195735       -0.943614
                        0.392761       -0.901498      0.000852866     2.69681e-05        0.0500815       0.0988067      -4.6783e-05     0.000624012
                     0.000784337     0.000549841         0.196104       -0.943779     -0.000127724     0.000753682         0.251495      0.00943624
281752                 0.0998399      -0.0182117      0.000115744    -0.000501592         0.392057       -0.901941      0.000841393     0.000456209
                     0.000223212    -0.000508255         0.236964        0.090619      0.000946835     3.06571e-05         0.195462       -0.943666
                        0.392357       -0.901667       0.00085322     2.66938e-05        0.0499996       0.0987432     -4.58178e-05     0.000624252
                     0.000784742     0.000550244         0.195831       -0.943832      -0.00012721     0.000754454         0.251515      0.00929796
281754                 0.0996929       -0.018291      0.000115891    -0.000501686         0.391653        -0.90211      0.000841871     0.000456102
                     0.000223563    -0.000508529         0.236979       0.0906186      0.000947381     3.01885e-05         0.195189       -0.943719
                        0.391953       -0.901836      0.000853574      2.6418e-05        0.0499172       0.0986799     -4.48542e-05     0.000624493
                     0.000785149     0.000550649         0.195559       -0.943885     -0.000126692     0.000755221         0.251534      0.00915966
281756                 0.0995455      -0.0183705      0.000116039     -0.00050178         0.391247        -0.90228       0.00084235     0.000455996
                     0.000223915    -0.000508804         0.236995       0.0906183      0.000947928      2.9719e-05         0.194917       -0.943771
                        0.391549       -0.902005      0.000853929     2.61407e-05        0.0498345       0.0986166     -4.38921e-05     0.000624733
                     0.000785557     0.000551056         0.195286       -0.943938     -0.000126172     0.000755984         0.251553      0.00902135
281758                 0.0993978      -0.0184501      0.000116188    -0.000501875         0.390842       -0.902449      0.000842828     0.000455889
                     0.000224267    -0.000509079          0.23701       0.0906179      0.000948474     2.92488e-05         0.194644       -0.943823
                        0.391144       -0.902173      0.000854284     2.58619e-05        0.0497514       0.0985534     -4.29316e-05     0.000624974
                     0.000785966     0.000551466         0.195013       -0.943991     -0.000125648     0.000756744         0.251573      0.00888302
281760                 0.0992496      -0.0185298      0.000116338     -0.00050197         0.390436       -0.902618      0.000843306     0.000455781
                     0.000224619    -0.000509355         0.237025       0.0906175       0.00094902     2.87778e-05         0.194371       -0.943876
                        0.390739       -0.902342      0.000854638     2.55815e-05        0.0496678       0.0984903     -4.19727e-05     0.000625214
                     0.000786377     0.000551878          0.19474       -0.944043      -0.00012512     0.000757499         0.251592      0.00874468
281762                  0.099101      -0.0186096       0.00011649    -0.000502066         0.390029       -0.902786      0.000843785     0.000455674
                     0.000224972    -0.000509632          0.23704       0.0906172      0.000949566      2.8306e-05         0.194098       -0.943928
                        0.390333       -0.902511      0.000854994     2.52995e-05        0.0495838       0.0984273     -4.10153e-05     0.000625455
