! TOUCHSTONE file generated by CST MICROWAVE STUDIO
! Date and time: Tue Oct 14 17:39:18 2025
! Project name: Teste_Macro_Metasurface_Nanopilar.cst
! Parameters = {H=600; L_x=190; L_y=80; Lambda=1064; Max_L=200; Min_L=70; PathPara=1; Phi=0; Step_L=10; Theta=0; p=520; phaseX=180; phaseY=0}
! Header version: 2018
! Port assignment regex: !\s*Touchstone port\s*([0-9]+)\s*=\s*(CST MWS port|CST DS port)\s*([0-9]+|Zmin|Zmax)\s*\(\"(.*)\"\)(\s*mode\s*([0-9]+))?.*
! Touchstone port assignment:
! Touchstone port 1 = CST MWS port Zmax ("") mode 1
! Touchstone port 2 = CST MWS port Zmax ("") mode 2
! Touchstone port 3 = CST MWS port Zmin ("") mode 1
! Touchstone port 4 = CST MWS port Zmin ("") mode 2
! S-Parameters are not renormalized. Each port impedance will be approximated by the real part at minimum frequency. The values are described via the [Reference] keyword.
! Default impedance is overridden by [Reference]
[Version] 2.0
# GHz S RI R 376.73
[Number of Ports] 4
[Reference]
376.73 376.73 259.814 259.814 
[Number of Frequencies] 51
[Network Data]
281700                -0.0379493       -0.020885     -0.000585271    -0.000720384        -0.518278       -0.852451       0.00100744     0.000183206
                    -0.000477467    -0.000702815         0.143515        0.341669      0.000867482     6.08458e-05         0.781259        -0.48998
                       -0.517903       -0.852451      0.000939838     0.000107987       0.00105341       0.0439002     -0.000779534     0.000685073
                      0.00109935     0.000152524          0.78148        -0.48944     -0.000797739     0.000798683         0.247122        0.273253
281702                -0.0379578      -0.0208719     -0.000585367    -0.000720243        -0.518504       -0.852314       0.00100768     0.000182809
                    -0.000477721    -0.000702791         0.143577         0.34172      0.000867612     6.05286e-05          0.78105       -0.490258
                       -0.518129       -0.852314      0.000939859     0.000107585       0.00106104       0.0439013     -0.000779395     0.000685561
                      0.00109952     0.000152121         0.781272       -0.489718     -0.000797486     0.000799201         0.247348        0.273143
281704                -0.0379664      -0.0208589     -0.000585462    -0.000720102         -0.51873       -0.852176       0.00100791      0.00018241
                    -0.000477976    -0.000702767         0.143639        0.341771      0.000867742     6.02114e-05          0.78084       -0.490537
                       -0.518355       -0.852176      0.000939881     0.000107183       0.00106866       0.0439024     -0.000779256     0.000686049
                      0.00109969     0.000151717         0.781063       -0.489997     -0.000797233      0.00079972         0.247574        0.273033
281706                 -0.037975      -0.0208458     -0.000585558    -0.000719962        -0.518956       -0.852038       0.00100815     0.000182012
                    -0.000478231    -0.000702743           0.1437        0.341822      0.000867872     5.98942e-05         0.780631       -0.490816
                        -0.51858       -0.852039      0.000939902     0.000106781       0.00107629       0.0439035     -0.000779116     0.000686537
                      0.00109986     0.000151314         0.780855       -0.490275      -0.00079698     0.000800239         0.247801        0.272922
281708                -0.0379836      -0.0208328     -0.000585653    -0.000719821        -0.519182       -0.851901       0.00100839     0.000181613
                    -0.000478485    -0.000702719         0.143762        0.341872      0.000868002     5.95769e-05         0.780422       -0.491094
                       -0.518806       -0.851901      0.000939922     0.000106379       0.00108392       0.0439046     -0.000778976     0.000687025
                      0.00110003      0.00015091         0.780646       -0.490553     -0.000796726     0.000800758         0.248027        0.272812
281710                -0.0379922      -0.0208197     -0.000585748     -0.00071968        -0.519408       -0.851763       0.00100863     0.000181214
                     -0.00047874    -0.000702695         0.143824        0.341923      0.000868132     5.92595e-05         0.780212       -0.491373
                       -0.519031       -0.851763      0.000939942     0.000105977       0.00109156       0.0439057     -0.000778835     0.000687514
                       0.0011002     0.000150507         0.780438       -0.490831     -0.000796473     0.000801277         0.248253        0.272701
281712                -0.0380008      -0.0208066     -0.000585844    -0.000719539        -0.519634       -0.851625       0.00100887     0.000180815
                    -0.000478994     -0.00070267         0.143886        0.341974      0.000868262      5.8942e-05         0.780003       -0.491651
                       -0.519256       -0.851626      0.000939962     0.000105575       0.00109919       0.0439068     -0.000778693     0.000688002
                      0.00110037     0.000150103         0.780229        -0.49111     -0.000796218     0.000801796         0.248479        0.272591
281714                -0.0380093      -0.0207936     -0.000585939    -0.000719399         -0.51986       -0.851487        0.0010091     0.000180415
                    -0.000479249    -0.000702646         0.143947        0.342025      0.000868391     5.86243e-05         0.779793        -0.49193
                       -0.519482       -0.851488      0.000939981     0.000105173       0.00110682       0.0439079     -0.000778551     0.000688491
                      0.00110054     0.000149699          0.78002       -0.491388     -0.000795964     0.000802315         0.248705         0.27248
281716                -0.0380179      -0.0207805     -0.000586034    -0.000719258        -0.520086       -0.851349       0.00100934     0.000180015
                    -0.000479504    -0.000702621         0.144009        0.342076      0.000868521     5.83066e-05         0.779583       -0.492208
                       -0.519707        -0.85135          0.00094     0.000104772       0.00111445        0.043909     -0.000778409      0.00068898
                      0.00110071     0.000149296         0.779811       -0.491666     -0.000795709     0.000802833         0.248931        0.272368
281718                -0.0380265      -0.0207674     -0.000586129    -0.000719117        -0.520311        -0.85121       0.00100958     0.000179615
                    -0.000479758    -0.000702597         0.144071        0.342127      0.000868651     5.79887e-05         0.779373       -0.492486
                       -0.519932       -0.851212      0.000940018     0.000104371       0.00112209       0.0439101     -0.000778265     0.000689469
                      0.00110088     0.000148892         0.779602       -0.491943     -0.000795454     0.000803352         0.249157        0.272257
281720                 -0.038035      -0.0207543     -0.000586224    -0.000718976        -0.520537       -0.851072       0.00100981     0.000179215
                    -0.000480013    -0.000702572         0.144133        0.342178       0.00086878     5.76708e-05         0.779163       -0.492764
                       -0.520158       -0.851074      0.000940036      0.00010397       0.00112973       0.0439112     -0.000778121     0.000689959
                      0.00110104     0.000148489         0.779393       -0.492221     -0.000795198      0.00080387         0.249383        0.272146
281722                -0.0380436      -0.0207413     -0.000586319    -0.000718835        -0.520763       -0.850934       0.00101005     0.000178814
                    -0.000480267    -0.000702547         0.144195        0.342229      0.000868909     5.73527e-05         0.778953       -0.493042
                       -0.520383       -0.850936      0.000940055      0.00010357       0.00113736       0.0439123     -0.000777977     0.000690449
                      0.00110121     0.000148087         0.779183       -0.492499     -0.000794942     0.000804388         0.249609        0.272034
281724                -0.0380522      -0.0207282     -0.000586414    -0.000718695        -0.520988       -0.850796       0.00101028     0.000178414
                    -0.000480521    -0.000702522         0.144257         0.34228      0.000869038     5.70345e-05         0.778743        -0.49332
                       -0.520608       -0.850798      0.000940074      0.00010317         0.001145       0.0439134     -0.000777832     0.000690939
                      0.00110138     0.000147685         0.778974       -0.492777     -0.000794686     0.000804906         0.249834        0.271922
281726                -0.0380608      -0.0207151     -0.000586509    -0.000718554        -0.521214       -0.850657       0.00101052     0.000178013
                    -0.000480775    -0.000702496         0.144319        0.342331      0.000869168     5.67162e-05         0.778532       -0.493598
                       -0.520833        -0.85066      0.000940092      0.00010277       0.00115264       0.0439145     -0.000777687     0.000691429
                      0.00110154     0.000147282         0.778764       -0.493054     -0.000794429     0.000805424          0.25006         0.27181
281728                -0.0380693       -0.020702     -0.000586603    -0.000718413        -0.521439       -0.850519       0.00101075     0.000177611
                    -0.000481028     -0.00070247         0.144381        0.342382      0.000869296     5.63978e-05         0.778322       -0.493876
                       -0.521058       -0.850522      0.000940111      0.00010237       0.00116028       0.0439157     -0.000777541      0.00069192
                      0.00110169     0.000146873         0.778555       -0.493332     -0.000794172     0.000805942         0.250286        0.271698
281730                -0.0380779       -0.020689     -0.000586698    -0.000718272        -0.521665        -0.85038       0.00101099      0.00017721
                    -0.000481281    -0.000702443         0.144443        0.342433      0.000869425     5.60792e-05         0.778111       -0.494154
                       -0.521283       -0.850383       0.00094013      0.00010197       0.00116793       0.0439168     -0.000777394     0.000692411
                      0.00110186     0.000146459         0.778345       -0.493609     -0.000793914     0.000806459         0.250512        0.271586
281732                -0.0380864      -0.0206759     -0.000586793    -0.000718131         -0.52189       -0.850242       0.00101122     0.000176808
                    -0.000481534    -0.000702413         0.144505        0.342484      0.000869554     5.57606e-05           0.7779       -0.494431
                       -0.521508       -0.850245      0.000940149      0.00010157       0.00117557       0.0439179     -0.000777247     0.000692902
                      0.00110202     0.000146045         0.778135       -0.493886     -0.000793656     0.000806977         0.250738        0.271474
281734                 -0.038095      -0.0206628     -0.000586887     -0.00071799        -0.522116       -0.850103       0.00101146     0.000176406
                    -0.000481788    -0.000702383         0.144567        0.342535      0.000869683     5.54418e-05         0.777689       -0.494709
                       -0.521733       -0.850106      0.000940168      0.00010117       0.00118321        0.043919       -0.0007771     0.000693394
                      0.00110219     0.000145634         0.777925       -0.494163     -0.000793398     0.000807494         0.250964        0.271361
281736                -0.0381036      -0.0206497     -0.000586982    -0.000717849        -0.522341       -0.849965       0.00101169     0.000176004
                    -0.000482046    -0.000702352         0.144629        0.342586      0.000869811     5.51229e-05         0.777478       -0.494986
                       -0.521958       -0.849968      0.000940187      0.00010077       0.00119086       0.0439202     -0.000776953     0.000693886
                      0.00110236     0.000145225         0.777715       -0.494441     -0.000793139     0.000808011         0.251189        0.271248
281738                -0.0381121      -0.0206366     -0.000587076    -0.000717708        -0.522567       -0.849826       0.00101192     0.000175602
                    -0.000482305    -0.000702322         0.144691        0.342637      0.000869939     5.48039e-05         0.777267       -0.495264
                       -0.522183       -0.849829      0.000940205     0.000100369       0.00119851       0.0439213     -0.000776805     0.000694378
                      0.00110253     0.000144817         0.777504       -0.494718      -0.00079288     0.000808528         0.251415        0.271135
281740                -0.0381207      -0.0206235     -0.000587171    -0.000717568        -0.522792       -0.849687       0.00101216       0.0001752
                    -0.000482564    -0.000702295         0.144753        0.342688      0.000870068     5.44848e-05         0.777056       -0.495541
                       -0.522408       -0.849691      0.000940224     9.99692e-05       0.00120615       0.0439224     -0.000776656     0.000694871
                       0.0011027     0.000144409         0.777294       -0.494995      -0.00079262     0.000809044         0.251641        0.271022
281742                -0.0381292      -0.0206104     -0.000587265    -0.000717427        -0.523017       -0.849548       0.00101239     0.000174797
                    -0.000482822    -0.000702268         0.144815        0.342739      0.000870196     5.41655e-05         0.776844       -0.495818
                       -0.522633       -0.849552      0.000940243      9.9569e-05        0.0012138       0.0439236     -0.000776508     0.000695364
                      0.00110287     0.000144001         0.777083       -0.495271      -0.00079236     0.000809561         0.251867        0.270909
281744                -0.0381378      -0.0205974     -0.000587359    -0.000717286        -0.523242       -0.849409       0.00101262     0.000174394
                     -0.00048308    -0.000702242         0.144877         0.34279      0.000870324     5.38462e-05         0.776633       -0.496095
                       -0.522858       -0.849414      0.000940261     9.91687e-05       0.00122145       0.0439247     -0.000776359     0.000695857
                      0.00110303     0.000143594         0.776873       -0.495548     -0.000792099     0.000810077         0.252092        0.270795
281746                -0.0381463      -0.0205843     -0.000587453    -0.000717145        -0.523468        -0.84927       0.00101285     0.000173991
                    -0.000483337    -0.000702216          0.14494        0.342841      0.000870452     5.35267e-05         0.776421       -0.496372
                       -0.523083       -0.849275       0.00094028     9.87684e-05        0.0012291       0.0439258      -0.00077621     0.000696351
                       0.0011032     0.000143186         0.776662       -0.495825     -0.000791838     0.000810593         0.252318        0.270682
281748                -0.0381549      -0.0205712     -0.000587547    -0.000717005        -0.523693       -0.849131       0.00101308     0.000173588
                    -0.000483594    -0.000702189         0.145002        0.342892      0.000870579     5.32072e-05         0.776209       -0.496649
                       -0.523308       -0.849136      0.000940298     9.83681e-05       0.00123676        0.043927     -0.000776061     0.000696845
                      0.00110336     0.000142777         0.776451       -0.496102     -0.000791577     0.000811109         0.252544        0.270568
281750                -0.0381634      -0.0205581      -0.00058764    -0.000716865        -0.523918       -0.848992       0.00101332     0.000173185
                    -0.000483851    -0.000702162         0.145064        0.342943      0.000870707     5.28875e-05         0.775997       -0.496926
                       -0.523532       -0.848997      0.000940316     9.79679e-05       0.00124441       0.0439281     -0.000775912     0.000697339
                      0.00110353     0.000142369          0.77624       -0.496378     -0.000791315     0.000811625         0.252769        0.270454
281752                 -0.038172       -0.020545     -0.000587731    -0.000716725        -0.524143       -0.848853       0.00101355     0.000172782
                    -0.000484107    -0.000702135         0.145126        0.342994      0.000870834     5.25677e-05         0.775785       -0.497203
                       -0.523757       -0.848858      0.000940334     9.75677e-05       0.00125206       0.0439293     -0.000775763     0.000697833
                      0.00110369      0.00014196         0.776029       -0.496655     -0.000791053      0.00081214         0.252995         0.27034
281754                -0.0381805      -0.0205319     -0.000587819     -0.00071658        -0.524368       -0.848714       0.00101378     0.000172378
                    -0.000484364    -0.000702108         0.145189        0.343045      0.000870962     5.22478e-05         0.775573        -0.49748
                       -0.523982       -0.848719      0.000940352     9.71676e-05       0.00125972       0.0439304     -0.000775613     0.000698328
                      0.00110385     0.000141551         0.775818       -0.496931     -0.000790791     0.000812656          0.25322        0.270225
281756                -0.0381891      -0.0205188     -0.000587916    -0.000716431        -0.524593       -0.848574       0.00101401     0.000171975
                     -0.00048462     -0.00070208         0.145251        0.343096      0.000871089     5.19278e-05         0.775361       -0.497756
                       -0.524206        -0.84858       0.00094037     9.67675e-05       0.00126738       0.0439316     -0.000775465     0.000698822
                      0.00110402     0.000141142         0.775606       -0.497207     -0.000790528     0.000813171         0.253446        0.270111
281758                -0.0381976      -0.0205057     -0.000588014    -0.000716289        -0.524818       -0.848435       0.00101424     0.000171571
                    -0.000484877    -0.000702052         0.145314        0.343147      0.000871216     5.16077e-05         0.775149       -0.498033
                       -0.524431       -0.848441      0.000940388     9.63676e-05       0.00127503       0.0439327     -0.000775316     0.000699317
                      0.00110418     0.000140733         0.775395       -0.497483     -0.000790265     0.000813686         0.253671        0.269996
281760                -0.0382062      -0.0204926      -0.00058811    -0.000716149        -0.525043       -0.848296       0.00101447     0.000171168
                    -0.000485133    -0.000702024         0.145376        0.343198      0.000871343     5.12875e-05         0.774936       -0.498309
                       -0.524656       -0.848302      0.000940405     9.59677e-05       0.00128269       0.0439339     -0.000775169     0.000699812
                      0.00110434     0.000140323         0.775183        -0.49776     -0.000790001     0.000814201         0.253897        0.269881
281762                -0.0382147      -0.0204795     -0.000588205    -0.000716008        -0.525268       -0.848156        0.0010147     0.000170767
                     -0.00048539    -0.000701995         0.145438        0.343249       0.00087147     5.09671e-05         0.774724       -0.498586
                        -0.52488       -0.848162      0.000940423     9.55679e-05       0.00129035        0.043935     -0.000775026     0.000700305
